! Created with skrf 1.8.0 (http://scikit-rf.org).
# GHz S RI R 50.0 
!freq ReS11 ImS11
0.001 -0.9998975337668937 0.00040804199604395765
0.0029999 -1.0005765561906406 0.001029930319215
0.0049998 -1.0036433546574435 0.00179299254900301
0.0069997 -1.017865272851862 0.003357928750254646
0.0089996 -1.0265305654325598 -0.005018969493045505
0.0109995 -1.031823148111853 -0.012024600919429113
0.0129994 -1.0352267328708225 -0.01976574192402071
0.0149993 -1.0381612462508905 -0.02747665639541222
0.0169992 -1.0404284628131633 -0.035124024351296024
0.0189991 -1.0422897186822249 -0.04212279635869086
0.020999 -1.0432329454649503 -0.0501432379112566
0.0229989 -1.0438940161429622 -0.058251861113875335
0.0249988 -1.0445041696242827 -0.06511544837549403
0.0269987 -1.0447027639078263 -0.07296949082033735
0.0289986 -1.044401562208964 -0.07959327381547289
0.0309985 -1.0448472398944604 -0.08609378068929585
0.0329984 -1.0444535304179028 -0.09342677716075563
0.0349983 -1.0440932764855102 -0.10111525220619366
0.0369982 -1.0438555960322897 -0.1075835452395992
0.0389981 -1.0433766755517473 -0.11454699450826117
0.040998 -1.0432669226192741 -0.12028191501083314
0.0429979 -1.0416541032800821 -0.1258679086451737
0.0449978 -1.0413882785246482 -0.13356571097611938
0.0469977 -1.0411109339027085 -0.13813222135254768
0.0489976 -1.0391914917065332 -0.14486324193761918
0.0509975 -1.0390706774118184 -0.15216406701923735
0.0529974 -1.0384213973381247 -0.15851883186497082
0.0549973 -1.038003734664344 -0.16420555446089524
0.0569972 -1.0364831160135768 -0.16989769159891704
0.0589971 -1.0365795313385873 -0.17557988269702868
0.060997 -1.0354916580639772 -0.1821304754239731
0.0629969 -1.034082794242554 -0.18770408695363527
0.0649968 -1.0344403189049682 -0.19355525976724564
0.0669967 -1.032172578524399 -0.20024884295997045
0.0689966 -1.0320398209049388 -0.20572310669021573
0.0709965 -1.0303778132879011 -0.20992735292660675
0.0729964 -1.0287010401393684 -0.21738739793381823
0.0749963 -1.0295176731748832 -0.22484828951312388
0.0769962 -1.0282138682644617 -0.229061861111335
0.0789961 -1.026060215337715 -0.23596382060234503
0.080996 -1.025825912576392 -0.24200725795094302
0.0829959 -1.023966882550179 -0.24804726425677945
0.0849958 -1.0220077502370069 -0.2530288266241642
0.0869957 -1.020395984807776 -0.2602058615182765
0.0889956 -1.020422803484598 -0.2658462109548017
0.0909955 -1.0176914016029834 -0.2727034926940919
0.0929954 -1.0172289954069682 -0.2787078392462234
0.0949953 -1.014550913964312 -0.28396886445759006
0.0969952 -1.012808246465508 -0.29129936463570455
0.0989951 -1.012299027154549 -0.29645465931568643
0.100995 -1.0100996844774832 -0.30377235335213415
0.1029949 -1.0081635291626143 -0.3104269137094624
0.1049948 -1.006214754699107 -0.3160603217211278
0.1069947 -1.0045951015385974 -0.32246612507846567
0.1089946 -1.0025494167001916 -0.32812229800824794
0.1109945 -0.999638281949982 -0.33391001740254733
0.1129944 -0.9976902030994071 -0.3403499165404429
0.1149943 -0.9959346012937964 -0.34645760097586586
0.1169942 -0.9937025114378311 -0.3525591292588507
0.1189941 -0.9907110337017178 -0.35814201754100367
0.120994 -0.9902097152560984 -0.3638785510882951
0.1229939 -0.987569330036165 -0.3697128992055917
0.1249938 -0.9849792439346301 -0.37508384412530177
0.1269937 -0.984130202813753 -0.3805813730160059
0.1289936 -0.9805230251468506 -0.3866960540429407
0.1309935 -0.979023420750969 -0.39275628056400147
0.1329934 -0.9756438097515444 -0.3968508179837309
0.1349933 -0.9745046401827593 -0.40325957567967163
0.1369932 -0.9726950723912458 -0.4093183669735692
0.1389931 -0.9698687943546231 -0.4138868168380107
0.140993 -0.968192800006996 -0.4201721396642234
0.1429929 -0.9663182854239264 -0.4260800666796207
0.1449928 -0.9634227114025186 -0.42976852477135047
0.1469927 -0.9606755776211837 -0.43543489264901075
0.1489926 -0.9577603243639822 -0.44257111762402845
0.1509925 -0.9567326646847708 -0.44747069764344355
0.1529924 -0.9544741861704034 -0.45293141931301617
0.1549923 -0.9500072722874218 -0.45895779443071266
0.1569922 -0.9487616286859868 -0.46354642651142824
0.1589921 -0.9452067869783926 -0.47048978468326574
0.160992 -0.943803212726314 -0.47516844294019583
0.1629919 -0.9404436622220842 -0.48165007643161795
0.1649918 -0.9376772209617444 -0.4871519126180841
0.1669917 -0.935612201917296 -0.49215047163761444
0.1689916 -0.932151599049959 -0.49767513518606926
0.1709915 -0.9288814885498927 -0.5034786583833638
0.1729914 -0.9269368586930197 -0.5091948901692634
0.1749913 -0.9229491497533961 -0.5135280451889552
0.1769912 -0.9205826345613767 -0.5203818350462632
0.1789911 -0.917059891963499 -0.5248981807241357
0.180991 -0.9139032461363192 -0.5301666823750399
0.1829909 -0.9112105431666844 -0.5363988137424276
0.1849908 -0.9075605538157034 -0.5415940369974062
0.1869907 -0.9054209281213332 -0.5476076292612633
0.1889906 -0.9015545091234647 -0.5524862835608537
0.1909905 -0.8985812433584132 -0.5571614510652724
0.1929904 -0.8951132938351268 -0.5624166041318478
0.1949903 -0.8924909609249274 -0.5687459895772973
0.1969902 -0.8885475567977721 -0.5744315618404208
0.1989901 -0.8851662508911278 -0.5788098151237034
0.20099 -0.8811128992041702 -0.5840126845656156
0.2029899 -0.8788777580765597 -0.5890140303374491
0.2049898 -0.8753211144695054 -0.594952474654666
0.2069897 -0.8726381944536153 -0.5990328958363973
0.2089896 -0.8686952523232583 -0.6055004272491574
0.2109895 -0.8646955597211308 -0.6100155618005231
0.2129894 -0.8611723309152489 -0.6147497276472961
0.2149893 -0.8576351760804597 -0.6200305925194901
0.2169892 -0.8550960845169503 -0.6249956509660526
0.2189891 -0.8503078738641594 -0.6300250590448186
0.220989 -0.8463434176032909 -0.6349805790903205
0.2229889 -0.8422245619530748 -0.6385745816039082
0.2249888 -0.8391691658593325 -0.6447295917351152
0.2269887 -0.8364974249846535 -0.6497767985973899
0.2289886 -0.8321917101655492 -0.6545724789585304
0.2309885 -0.8277260071102913 -0.659459180494659
0.2329884 -0.8247928518955402 -0.6642772873152927
0.2349883 -0.8207602916814998 -0.669254916617505
0.2369882 -0.8168109196642819 -0.6730785429110797
0.2389881 -0.8127273993803862 -0.6787896902714291
0.240988 -0.8098176608554292 -0.6835195751521045
0.2429879 -0.80524994610274 -0.6872502935529119
0.2449878 -0.8014919294541782 -0.6923077524955016
0.2469877 -0.7969878498546551 -0.6970328784469534
0.2489876 -0.7940149322319422 -0.7034014058655867
0.2509875 -0.7898398147263738 -0.7071000772244963
0.2529874 -0.7851212995445267 -0.710858507961218
0.2549873 -0.7805685910258194 -0.7159858918135966
0.2569872 -0.7773168805153868 -0.721536053429334
0.2589871 -0.7723045313955139 -0.7253588042854029
0.260987 -0.7684936261498243 -0.7299345994761742
0.2629869 -0.7647121663728754 -0.7348121122576348
0.2649868 -0.7590784184773687 -0.7397030499637514
0.2669867 -0.7560880963550148 -0.7440588724231507
0.2689866 -0.7515657248965567 -0.7488743224459795
0.2709865 -0.7470109348881815 -0.753071801805637
0.2729864 -0.7421270741485465 -0.7575554245306688
0.2749863 -0.7385454764707148 -0.7625769891542059
0.2769862 -0.7331904043437134 -0.7672600026960475
0.2789861 -0.7279696435830297 -0.7703443797310546
0.280986 -0.7244710905116096 -0.7747843109742087
0.2829859 -0.7194950771431694 -0.7807058028573888
0.2849858 -0.7155086322604859 -0.7842078518784696
0.2869857 -0.7109427263372142 -0.788267475575528
0.2889856 -0.7064000707430039 -0.7930648870253897
0.2909855 -0.7004311248012882 -0.7967394588052049
0.2929854 -0.6961743915318392 -0.8004238568520933
0.2949853 -0.6918551659741687 -0.8060003151285209
0.2969852 -0.6865649932804311 -0.8095371149357217
0.2989851 -0.6820399664359043 -0.8127090842412066
0.300985 -0.6766777568681318 -0.817130784043911
0.3029849 -0.6717454534360384 -0.8205469190516219
0.3049848 -0.6674432015524465 -0.8246308451024578
0.3069847 -0.6629709158561826 -0.8295704419918948
0.3089846 -0.6578198465333762 -0.8326125364173695
0.3109845 -0.653531603013124 -0.8361927647161714
0.3129844 -0.6481343496426362 -0.8403474882992468
0.3149843 -0.6430859729764877 -0.8442773379646888
0.3169842 -0.6384750332251602 -0.8478152937054741
0.3189841 -0.6341722347158602 -0.8517006871390717
0.320984 -0.6294754015135096 -0.8562642609294496
0.3229839 -0.6237556356856022 -0.8597658294491799
0.3249838 -0.6179917267038082 -0.8632999654251395
0.3269837 -0.6125519115932353 -0.8671501889250041
0.3289836 -0.608187312013071 -0.8705459769061474
0.3309835 -0.6027766379046553 -0.8749785486509791
0.3329834 -0.598693388237503 -0.8790101523514954
0.3349833 -0.5928782083207685 -0.8830392749460934
0.3369832 -0.5881231779608078 -0.8856034164818437
0.3389831 -0.5829860838311282 -0.8890860160466362
0.340983 -0.5782484926092135 -0.8916784767796283
0.3429829 -0.5727466598349993 -0.8962567162846227
0.3449828 -0.5676347765199556 -0.9001495905261112
0.3469827 -0.5626500627088034 -0.9025920696678633
0.3489826 -0.5578726711353325 -0.9061206652204995
0.3509825 -0.5528499191949986 -0.9094306605046579
0.3529824 -0.5467309124238898 -0.9132626021729457
0.3549823 -0.5414020877774373 -0.9174627373647593
0.3569822 -0.5360315466930062 -0.920514095041589
0.3589821 -0.5296515157929568 -0.9234123058500701
0.360982 -0.524026296401436 -0.9265472442007783
0.3629819 -0.5182605399660631 -0.9302960418379163
0.3649818 -0.512500716196698 -0.9336159779676152
0.3669817 -0.5064370989631897 -0.9358121194202801
0.3689816 -0.5016565100398187 -0.9389864294780238
0.3709815 -0.4958913521344289 -0.9425175739872024
0.3729814 -0.4891528755869493 -0.9461925119015474
0.3749813 -0.48386058657643183 -0.9486987309891608
0.3769812 -0.47887301025199003 -0.9516644000133135
0.3789811 -0.4735569492323167 -0.9558780845296228
0.380981 -0.46776296578785864 -0.9584063565040724
0.3829809 -0.46199258667102294 -0.960621774028796
0.3849808 -0.4556811960904418 -0.9623623280840239
0.3869807 -0.45053594406351394 -0.9657541534693294
0.3889806 -0.4438107447158063 -0.9683886404535816
0.3909805 -0.43783740158869716 -0.9711148489232806
0.3929804 -0.43212435066407473 -0.9737933731464908
0.3949803 -0.42587603643734306 -0.9761130728418915
0.3969802 -0.42126332554566404 -0.9785390522887123
0.3989801 -0.4147805583803616 -0.9820961376605979
0.40098 -0.4088092125744516 -0.9840965390834769
0.4029799 -0.40360288072479344 -0.9862441388562871
0.4049798 -0.39714575535985575 -0.9883647638221525
0.4069797 -0.3921304830649567 -0.9920815350168446
0.4089796 -0.38587855624835476 -0.9938007338652103
0.4109795 -0.37988873835681647 -0.9966118969778561
0.4129794 -0.3743367402115918 -0.9975445522569301
0.4149793 -0.3684026608713807 -1.000418533917334
0.4169792 -0.3625467078738059 -1.004082614036431
0.4189791 -0.35590427910613487 -1.0063145771584772
0.420979 -0.3499940087515357 -1.0082415865073882
0.4229789 -0.3436818675238402 -1.0102182267172783
0.4249788 -0.33713816922602513 -1.0120927334090457
0.4269787 -0.3312943011812387 -1.0147418983642758
0.4289786 -0.3249647978557164 -1.0165060942162087
0.4309785 -0.31873629273313975 -1.0183402224822395
0.4329784 -0.3124225835654454 -1.0204890099897304
0.4349783 -0.3059124619642483 -1.0238168574373223
0.4369782 -0.30056887100348695 -1.024467861306001
0.4389781 -0.2934193100004846 -1.026245500478727
0.440978 -0.2880502510593915 -1.0285743050961222
0.4429779 -0.2820074682410972 -1.030836260577928
0.4449778 -0.2758809944778786 -1.0321896038156322
0.4469777 -0.2696353302621717 -1.0346015807967555
0.4489776 -0.2635596999497009 -1.036404385979155
0.4509775 -0.2571655969462867 -1.0369307866818172
0.4529774 -0.2502879263694855 -1.0386718426100654
0.4549773 -0.24364737238229253 -1.0404358681737889
0.4569772 -0.23688766423914978 -1.0423670841244912
0.4589771 -0.2314226997899324 -1.044600657563573
0.460977 -0.2239128893120459 -1.0451059742447297
0.4629769 -0.21829355134258308 -1.0460035200993583
0.4649768 -0.2117754409878933 -1.0485809738549325
0.4669767 -0.20560988039664885 -1.0500514341153238
0.4689766 -0.1990586126566261 -1.0511090273908834
0.4709765 -0.1937139206052742 -1.0517880338421115
0.4729764 -0.18637179044713628 -1.0535583418308203
0.4749763 -0.18019934672851623 -1.0537393083963447
0.4769762 -0.17460584882830638 -1.0554969976990087
0.4789761 -0.16730094348117158 -1.055802313173688
0.480976 -0.16123049424819536 -1.057275898730984
0.4829759 -0.154523827027379 -1.0588080603869963
0.4849758 -0.14850765397655408 -1.0595920225381783
0.4869757 -0.1418800793953303 -1.0607691233023198
0.4889756 -0.13494233613753343 -1.062337948062423
0.4909755 -0.12839576897670296 -1.0632679545034114
0.4929754 -0.12111289501725023 -1.0635338464318167
0.4949753 -0.11467942108824214 -1.0649355645628904
0.4969752 -0.10855644323464772 -1.065795896844749
0.4989751 -0.1016168578268847 -1.066904190839579
0.500975 -0.09452585680609134 -1.0671807318095474
0.5029749 -0.08851045126449321 -1.0682162417150844
0.5049748 -0.08161675578733797 -1.0683445234180098
0.5069747 -0.07581181092571711 -1.069842853703458
0.5089746 -0.06919988963495204 -1.0704767982512746
0.5109745 -0.062352164794005786 -1.07110681593672
0.5129744 -0.05535610797165605 -1.0706749103360071
0.5149743 -0.048798083537804224 -1.0713484340083141
0.5169742 -0.041940279431927706 -1.0721863299808885
0.5189741 -0.03514466901549862 -1.0727654314176358
0.520974 -0.02909209838290864 -1.0727591697321845
0.5229739 -0.021972525851402698 -1.0730507397355582
0.5249738 -0.015273327797401204 -1.073310714771992
0.5269737 -0.008564863888250354 -1.0732015409767008
0.5289736 -0.002096338534542469 -1.0735770685298494
0.5309735 0.004380914720366932 -1.0740475587161333
0.5329734 0.011452628879834864 -1.0744214140182446
0.5349733 0.01839145038760319 -1.0736563696006336
0.5369732 0.024970241282142383 -1.0735631760444526
0.5389731 0.031327759392896365 -1.0728500485052073
0.540973 0.03867324092953402 -1.0741159660009543
0.5429729 0.04434585133054683 -1.0744071762440819
0.5449728 0.05041052263203112 -1.0739675740294696
0.5469727 0.057501513648275854 -1.0734331557998091
0.5489726 0.06427398156888982 -1.073087246520804
0.5509725 0.07100978282809034 -1.0730818250534513
0.5529724 0.0778296383524405 -1.0723545514289319
0.5549723 0.08472559743230047 -1.0718947728758548
0.5569722 0.09154000104979737 -1.0713929380878962
0.5589721 0.09816957986409533 -1.070443338601322
0.560972 0.10515814518341612 -1.0703109239110926
0.5629719 0.11161375233010135 -1.0690133853857875
0.5649718 0.11867266935826465 -1.068978190436417
0.5669717 0.12555345039480384 -1.0679626294890323
0.5689716 0.13206293027134863 -1.0675645021355589
0.5709715 0.13909498289194117 -1.0672966698411879
0.5729714 0.1453644446582197 -1.066209904899343
0.5749713 0.15156801204527767 -1.0655508912161562
0.5769712 0.15907971046860586 -1.0650786381840525
0.5789711 0.1652157712220892 -1.0645043801743777
0.580971 0.1721999993473817 -1.063020371398659
0.5829709 0.17890881879411968 -1.0620801079206272
0.5849708 0.18550865115108378 -1.0606255844023018
0.5869707 0.1921163337469957 -1.0595073014701084
0.5889706 0.19888280771695221 -1.0585817757553038
0.5909705 0.20598675973481234 -1.0569946996113566
0.5929704 0.21299036481294453 -1.0558507505317123
0.5949703 0.21966390144026182 -1.0548717575080557
0.5969702 0.22608763024258732 -1.0533758874590926
0.5989701 0.23265879907222853 -1.0526009959913754
0.60097 0.2404780113680509 -1.0506059228578848
0.6029699 0.2465792194486851 -1.0493196502313393
0.6049698 0.25317095230091025 -1.048592670983961
0.6069697 0.2595923876147277 -1.0468627881116472
0.6089696 0.2660467379824475 -1.0451408999839862
0.6109695 0.27277691856609976 -1.0441985216023735
0.6129694 0.2792587925019817 -1.0421590685723823
0.6149693 0.286201129583195 -1.0405456001234719
0.6169692 0.2926989187934815 -1.0386134942871543
0.6189691 0.29893307601727426 -1.0371737707645938
0.620969 0.3057475797341993 -1.03471314554544
0.6229689 0.3123793783453633 -1.03351442390367
0.6249688 0.31931347550194294 -1.0313102008093975
0.6269687 0.3259247989178934 -1.028963657197117
0.6289686 0.33285171869410224 -1.0272034189558503
0.6309685 0.34000254080774917 -1.0258970101128362
0.6329684 0.3460174567282118 -1.0235279941900401
0.6349683 0.35306669993846546 -1.0212889385856578
0.6369682 0.35947884301940364 -1.0200665188803195
0.6389681 0.3662119228440106 -1.0178231613889583
0.640968 0.3729147684239306 -1.015447433742307
0.6429679 0.37919754518356064 -1.0132896692785507
0.6449678 0.38593399318699884 -1.010722096322712
0.6469677 0.39252738112045205 -1.0082873454184946
0.6489676 0.39873037162300495 -1.0054607361841932
0.6509675 0.40517306299637856 -1.0029108352731873
0.6529674 0.411775018249529 -0.9999974927220324
0.6549673 0.4180470921720596 -0.9975247303630219
0.6569672 0.424867218461345 -0.9947268082040558
0.6589671 0.4312593063401782 -0.9920366639298481
0.660967 0.4372306836257631 -0.9891724331615689
0.6629669 0.4440195698945364 -0.9866966082658631
0.6649668 0.4502299334451742 -0.9837078669606857
0.6669667 0.45683825914392107 -0.9809508286747978
0.6689666 0.4629861755025499 -0.9783829183225181
0.6709665 0.4698610118390014 -0.9759145662425999
0.6729664 0.47601802382440017 -0.9726882284811516
0.6749663 0.4824868358936969 -0.969673552043821
0.6769662 0.4888292348641562 -0.9677253414178163
0.6789661 0.4946444678464992 -0.9648364172705765
0.680966 0.501378656894494 -0.9612294140410423
0.6829659 0.5075263763110708 -0.9575864529111098
0.6849658 0.513792843149676 -0.9554638138805646
0.6869657 0.5199812755708968 -0.9508235305084134
0.6889656 0.5260439377511068 -0.9478752509548335
0.6909655 0.5324013753176684 -0.9442939265717349
0.6929654 0.537971177346484 -0.9409110302901755
0.6949653 0.5445785944232513 -0.9373955213890709
0.6969652 0.5505903289635303 -0.9339570649321001
0.6989651 0.5566729004688751 -0.930778975456807
0.700965 0.562684249069789 -0.9263699853284644
0.7029649 0.5689990621719283 -0.9230099258704342
0.7049648 0.5753331710365546 -0.9198505847342746
0.7069647 0.5813371612314663 -0.9161812551202527
0.7089646 0.5879272052512468 -0.9128911997538903
0.7109645 0.5932358340728542 -0.9092069789375467
0.7129644 0.5998081183808531 -0.9055422871031328
0.7149643 0.605813184708205 -0.9020870258451326
0.7169642 0.6114836644016887 -0.8978366985842641
0.7189641 0.6174463668556891 -0.8933367924354796
0.720964 0.6231723149597594 -0.8901312091296743
0.7229639 0.6291521637319092 -0.8858833016550031
0.7249638 0.6355126754683674 -0.8814912247362132
0.7269637 0.6407199583468624 -0.8769386371783345
0.7289636 0.6465914532426591 -0.8733393874043597
0.7309635 0.6522874777550687 -0.8683967505269662
0.7329634 0.6584563717201525 -0.8642380194990344
0.7349633 0.6645493840295631 -0.8599034120330145
0.7369632 0.6701074237617464 -0.8562045223478546
0.7389631 0.6755585574733203 -0.8519169511322165
0.740963 0.6819185656166321 -0.8486710224439262
0.7429629 0.687791802507737 -0.844552913035259
0.7449628 0.6931400662180707 -0.8399124395069829
0.7469627 0.6982416398037459 -0.8351712626535106
0.7489626 0.7048519644495884 -0.8310295953664156
0.7509625 0.7100695303622018 -0.8256572864106174
0.7529624 0.7150612084190028 -0.8212876062039017
0.7549623 0.7204639458138683 -0.8163481095540659
0.7569622 0.7261960574307386 -0.811218695958043
0.7589621 0.730972922783272 -0.806576352724263
0.760962 0.7361584951142575 -0.8013097753391831
0.7629619 0.7414108604997341 -0.796373536262997
0.7649618 0.7466767705390259 -0.7918640718859827
0.7669617 0.7522543464899778 -0.7860364560733967
0.7689616 0.7572220879156528 -0.781261876366952
0.7709615 0.7628569734554709 -0.7767390381972751
0.7729614 0.7673649650813237 -0.7718158565237547
0.7749613 0.7738434056254997 -0.76748138173215
0.7769612 0.7786589518918084 -0.7628557821837029
0.7789611 0.7842272290146188 -0.7569223377444235
0.780961 0.7890292551737883 -0.7521069946111574
0.7829609 0.793802003668933 -0.747353269288787
0.7849608 0.7994128326280439 -0.7419180402087386
0.7869607 0.8039514683098546 -0.7366709280009621
0.7889606 0.8088952666577506 -0.7313817285347047
0.7909605 0.8132873307355044 -0.72599279462422
0.7929604 0.8182807530227538 -0.7202141587250245
0.7949603 0.8233588663336388 -0.7146636972482249
0.7969602 0.8276788176228778 -0.7093194194081032
0.7989601 0.8327094231454037 -0.703897783262814
