! Created with skrf 1.8.0 (http://scikit-rf.org).
# GHz S RI R 50.0 
!freq ReS11 ImS11
0.001 -0.9967709989767424 0.006363800717201803
0.0029999 0.6160951899197694 1.0370153984630976
0.0049998 0.9983696591125167 0.3263756249519871
0.0069997 0.9608992627186319 0.06572099859476555
0.0089996 0.9869191228443179 0.06331447206528568
0.0109995 0.9898130826268823 0.06390139760616792
0.0129994 0.9918048169828177 0.06808505865198403
0.0149993 0.9909547871015574 0.0726175446746995
0.0169992 0.9917505954216478 0.0773411662555366
0.0189991 0.9902473033059858 0.08122315348635872
0.020999 0.99221909792901 0.08715600058746775
0.0229989 0.9919544850376141 0.09275576194078343
0.0249988 0.9917141178611728 0.09876939327329919
0.0269987 0.991071901249795 0.10418971088645232
0.0289986 0.9907024004151681 0.11147170682410301
0.0309985 0.989291615122771 0.11884410642068463
0.0329984 0.9904806483714033 0.12440470556764338
0.0349983 0.9895888658083976 0.12991261134182372
0.0369982 0.9878978230312206 0.1371727888652901
0.0389981 0.9875587570897688 0.1429819248325923
0.040998 0.985966601721055 0.14967943727630217
0.0429979 0.9862667792296944 0.15780405547594795
0.0449978 0.985145307456519 0.1629227194750776
0.0469977 0.9825891758518347 0.17130877071021391
0.0489976 0.9834687863182985 0.17876277342152866
0.0509975 0.9821584912148749 0.1843590640248652
0.0529974 0.9799717254676991 0.19081055574518854
0.0549973 0.9786442193054049 0.19918084773313594
0.0569972 0.9780620369380657 0.2057959960995246
0.0589971 0.9756485335486704 0.2128197033116562
0.060997 0.9734081478130099 0.2194862854539075
0.0629969 0.9731202905024381 0.2266342654441616
0.0649968 0.9703836677590446 0.233842402781833
0.0669967 0.9692768257541258 0.23981906020632884
0.0689966 0.9671038327885718 0.24669828919476255
0.0709965 0.9652571271766771 0.25560125871743095
0.0729964 0.9645424718658958 0.26137840653247674
0.0749963 0.9612717792928201 0.2662434734604081
0.0769962 0.9587553198965058 0.2746795587011216
0.0789961 0.9588582879136549 0.28090039557187985
0.080996 0.9552995659515985 0.2876692185914903
0.0829959 0.9539741213846366 0.29492866942787765
0.0849958 0.9522584411563983 0.3023129509465169
0.0869957 0.9504808982940071 0.3077548135003934
0.0889956 0.9473728066699628 0.31410322389746304
0.0909955 0.9459007502413127 0.3207615474795458
0.0929954 0.9434043042282936 0.3268536235999651
0.0949953 0.941549904156893 0.33494700757568124
0.0969952 0.9397842115146047 0.3402429479730853
0.0989951 0.9363758655739186 0.34673573141672015
0.100995 0.9344249094980276 0.3528926268146134
0.1029949 0.9319139379665767 0.35877486273223175
0.1049948 0.929283919519137 0.3660399080728243
0.1069947 0.9267486695048305 0.3717621757949991
0.1089946 0.9248656530702072 0.3783689892789675
0.1109945 0.9232366179902023 0.3856714931011205
0.1129944 0.9202665206997659 0.3913626670218854
0.1149943 0.9178923720638164 0.39767573662262196
0.1169942 0.9152999042716674 0.40436421668892353
0.1189941 0.9127123879141157 0.4110598645918973
0.120994 0.9089055891243742 0.41680656061390897
0.1229939 0.9063510077051237 0.4235952544554649
0.1249938 0.90389466956718 0.4303757259476272
0.1269937 0.8999155732018028 0.43660002268157183
0.1289936 0.8979187881359117 0.44298475936756543
0.1309935 0.8939474487176452 0.44857140631188835
0.1329934 0.891951556998658 0.45661594988226206
0.1349933 0.8879296489351193 0.4620797065188354
0.1369932 0.8845618395445392 0.4676715226537339
0.1389931 0.8813573616182294 0.47502894598983225
0.140993 0.8778378884118385 0.48042415694467183
0.1429929 0.8745715893223274 0.4866841896814871
0.1449928 0.870620285870182 0.4943459809853101
0.1469927 0.8680583079722709 0.5006446057181272
0.1489926 0.8646809035360365 0.5053821426275178
0.1509925 0.8603975628571474 0.5122931743498061
0.1529924 0.8564498697632007 0.5183183846262494
0.1549923 0.8540178871825523 0.5238162002705888
0.1569922 0.8494328940671414 0.5306745137158219
0.1589921 0.8464734766287486 0.5355055206018018
0.160992 0.8410821498665367 0.5421245307387669
0.1629919 0.8382798633931254 0.5472244927353149
0.1649918 0.8349275813518324 0.5531984631771029
0.1669917 0.8304116278459996 0.5596631100511489
0.1689916 0.8269932833509921 0.564867966824237
0.1709915 0.8234682194594867 0.5703447219349157
0.1729914 0.8190315150501165 0.5759479441507784
0.1749913 0.8153271175807797 0.5828611624744412
0.1769912 0.8111928198668673 0.5872021561879073
0.1789911 0.807389577700294 0.5929945285492348
0.180991 0.8041785468013197 0.599337065187935
0.1829909 0.7993266749746583 0.6038742685179693
0.1849908 0.7954159069177055 0.6101711400365926
0.1869907 0.7909322628953978 0.6147969531102929
0.1889906 0.7871779425372865 0.6208223574943592
0.1909905 0.7824460407207235 0.6272032754922214
0.1929904 0.7780912946035418 0.6323081004836185
0.1949903 0.7736089666743481 0.6371374407896091
0.1969902 0.7699983103209136 0.6420626667224064
0.1989901 0.7652789572099257 0.6482253078154554
0.20099 0.7613774451521631 0.6536666935457828
0.2029899 0.7558478181221033 0.6589277409097555
0.2049898 0.75172451918147 0.6634455635136102
0.2069897 0.746379369961503 0.6698413222270836
0.2089896 0.7425884611180775 0.6740621519126957
0.2109895 0.7382319556437749 0.6788079087070917
0.2129894 0.7331257753702164 0.684977160776277
0.2149893 0.7286971478664759 0.6897997619486115
0.2169892 0.7227211812807273 0.6946157394405619
0.2189891 0.7186817028940993 0.6997730499798287
0.220989 0.7145364562136464 0.7049848584155394
0.2229889 0.7100424026081418 0.7112380926055232
0.2249888 0.7046824173706837 0.7155543938078436
0.2269887 0.6994627360687821 0.7204910533215229
0.2289886 0.6947525827965679 0.7255249055196092
0.2309885 0.6901563672584776 0.7299833960904789
0.2329884 0.6843327325176796 0.7346952758350515
0.2349883 0.6798727758689842 0.7396439113923516
0.2369882 0.6743932750175583 0.7453561171705845
0.2389881 0.6695419956789418 0.7493111814787998
0.240988 0.6633644828319545 0.7536870874706457
0.2429879 0.6592197270193223 0.7598482666321503
0.2449878 0.6537249869439565 0.7635441725880936
0.2469877 0.6490977874950744 0.7683515840813123
0.2489876 0.6428366163336494 0.7711618331905175
0.2509875 0.6376142063342769 0.776701094531953
0.2529874 0.6322687298543171 0.7818387372965518
0.2549873 0.6276188136856307 0.7859017657115286
0.2569872 0.6216140383511103 0.7891523820696237
0.2589871 0.6165618463509411 0.7939489902728888
0.260987 0.6108589874267477 0.7987151972970862
0.2629869 0.6048552633601901 0.8023755301364467
0.2649868 0.6008041119138087 0.8070238578113836
0.2669867 0.5943445405042053 0.8108531834769643
0.2689866 0.588928180757666 0.8145884187668793
0.2709865 0.5834647211470277 0.8189260320454546
0.2729864 0.5785145534429998 0.8232036496403359
0.2749863 0.5721170796798407 0.82661225433323
0.2769862 0.5671875266222791 0.8306991234635002
0.2789861 0.5621413690676597 0.8356018573477811
0.280986 0.5560119783829965 0.8390925303676889
0.2829859 0.551149674824519 0.8423569801164715
0.2849858 0.5446211268750949 0.8460208307489018
0.2869857 0.5383158113102516 0.8501799364550481
0.2889856 0.5327505709921013 0.8536887853176786
0.2909855 0.5274439425641293 0.8579966267712688
0.2929854 0.5214475417674761 0.8616703050987997
0.2949853 0.515269167945448 0.8647309112977584
0.2969852 0.5099036179950842 0.8682267751400341
0.2989851 0.5041269595831894 0.8725879545343375
0.300985 0.4986574063003938 0.8758874669240269
0.3029849 0.4926753047758362 0.8802918179076339
0.3049848 0.4867749102220109 0.8831864434395731
0.3069847 0.48049648062613615 0.8854953221803605
0.3089846 0.4748165333734602 0.8899809887843453
0.3109845 0.46815988371158224 0.8931873875612338
0.3129844 0.46226993135660294 0.8966513920640632
0.3149843 0.45617628042212477 0.9000960747065533
0.3169842 0.44975761700456557 0.9035825866617527
0.3189841 0.4432686944887125 0.9063265853794273
0.320984 0.4369511406737603 0.90934977884804
0.3229839 0.43110604717398415 0.9125746556639853
0.3249838 0.4253033310701735 0.9157994588376811
0.3269837 0.4194561827328737 0.9187918104008675
0.3289836 0.4122441981909073 0.9215893967043217
0.3309835 0.4068312432811007 0.9239330237596403
0.3329834 0.4000473425635452 0.92604421820802
0.3349833 0.39419573165836125 0.9285708512085901
0.3369832 0.38752137124590214 0.9311190513991418
0.3389831 0.38131125658599657 0.9341004940508089
0.340983 0.37455029405995927 0.9367865311141031
0.3429829 0.3686150561839921 0.9389428374566453
0.3449828 0.36258418519239277 0.9410009641902546
0.3469827 0.35573620517413057 0.9444304603421925
0.3489826 0.348893031710804 0.9472110866499815
0.3509825 0.3426142353138162 0.9492295007053024
0.3529824 0.3364024574806669 0.9513477426982839
0.3549823 0.33065506258347976 0.9536588718342921
0.3569822 0.32300684428837145 0.9561829683110499
0.3589821 0.31792122185496013 0.9587176748114367
0.360982 0.3110957097036397 0.9607997716799005
0.3629819 0.3048492101743858 0.962735597720346
0.3649818 0.2988061935335247 0.9651858856352953
0.3669817 0.2930423379321647 0.9678819752998898
0.3689816 0.2858005045854073 0.969524357104983
0.3709815 0.27987696438851084 0.9710356427772704
0.3729814 0.274275238464039 0.973080868128963
0.3749813 0.26715656206910554 0.9751448789079729
0.3769812 0.2601030042899096 0.9765314754353814
0.3789811 0.25337648960724757 0.9774090259392395
0.380981 0.24706466652197434 0.9793858848035029
0.3829809 0.24052113625043992 0.981820014363503
0.3849808 0.23406493690622265 0.9841545643585783
0.3869807 0.22721013191864065 0.9856345520756045
0.3889806 0.22143958820970627 0.9871878664954312
0.3909805 0.21463219353853213 0.9892658622971355
0.3929804 0.2081112505713636 0.9906423951882718
0.3949803 0.201609014662458 0.9921483935880472
0.3969802 0.19402372454054745 0.9934553051768009
0.3989801 0.18822429181244055 0.9945639917494802
0.40098 0.18132365522962893 0.9959898583652703
0.4029799 0.17461228198186846 0.9974324896966257
0.4049798 0.16842518295715975 0.9988553515666495
0.4069797 0.16123235687359588 0.9992763684840774
0.4089796 0.1548732902308196 1.00127252131849
0.4109795 0.1479095877089777 1.0016804395191379
0.4129794 0.14097620021898064 1.0039160128603704
0.4149793 0.13414493419346318 1.0044600417415888
0.4169792 0.12801267844586423 1.0048019781898003
0.4189791 0.12147733197483618 1.0057997606529316
0.420979 0.11447249468790881 1.006664818508507
0.4229789 0.10780112655799064 1.00716984603655
0.4249788 0.10177771210218736 1.0082470259376963
0.4269787 0.09497613859946301 1.0085594994604223
0.4289786 0.08827951196903644 1.0093094083968615
0.4309785 0.08163710935253063 1.0102282501347823
0.4329784 0.07495761646928904 1.0107202765035248
0.4349783 0.06926627799348808 1.010694460171317
0.4369782 0.06196126202521965 1.0121135286199552
0.4389781 0.055766963081406426 1.0126647729428198
0.440978 0.04863695929095169 1.0129022020403509
0.4429779 0.04223729452760733 1.0128208263245337
0.4449778 0.03513053439493445 1.0129331398495747
0.4469777 0.028491773502237222 1.0134706283440273
0.4489776 0.02168279951800682 1.0138005170027875
0.4509775 0.01509274758884728 1.0148260387917778
0.4529774 0.008698716428492015 1.015098805525552
0.4549773 0.002238479537482109 1.0150256551957797
0.4569772 -0.004416895380527627 1.0151520287772315
0.4589771 -0.011637412998029152 1.014375791488712
0.460977 -0.01753246002171544 1.0152595646301383
0.4629769 -0.02479615232131828 1.015457293098001
0.4649768 -0.03094055482980833 1.0141147047895234
0.4669767 -0.038026523120676156 1.0146038228450864
0.4689766 -0.04428098246335156 1.0145132748002268
0.4709765 -0.051590866204459726 1.0141898794206234
0.4729764 -0.05733613444829169 1.0138215031940605
0.4749763 -0.06444662574272116 1.0139482187755278
0.4769762 -0.07134148158446237 1.013404631016811
0.4789761 -0.0776321200984263 1.013555901688509
0.480976 -0.08456146005670492 1.0129234091714783
0.4829759 -0.09119343616211713 1.012165947328795
0.4849758 -0.0978616163190121 1.0115010199054781
0.4869757 -0.10446062181186895 1.0110778487875616
0.4889756 -0.11098952960090397 1.010428794810141
0.4909755 -0.11754709158305962 1.0099306520385043
0.4929754 -0.123903706676851 1.009211862071459
0.4949753 -0.13052161010089092 1.0079681793814697
0.4969752 -0.13714232339338506 1.0079551798898139
0.4989751 -0.14350020883315898 1.0064212359568694
0.500975 -0.14907496798794018 1.0060857959811418
0.5029749 -0.15600049598043556 1.005161046483712
0.5049748 -0.1625970494144537 1.003859262315652
0.5069747 -0.16906573092240595 1.0026496072167626
0.5089746 -0.17553189004400402 1.0012517811720538
0.5109745 -0.18181897972022532 1.0004588805502914
0.5129744 -0.1882741728768739 0.9996506719528481
0.5149743 -0.19474186629874612 0.998576145672509
0.5169742 -0.20080829640131018 0.997472857824511
0.5189741 -0.20752387489136181 0.9958879319697462
0.520974 -0.2139905653011003 0.9946513718778507
0.5229739 -0.22040152230954246 0.9932520015411885
0.5249738 -0.226639495702812 0.9918257267450074
0.5269737 -0.23318715187004802 0.9904997776188
0.5289736 -0.2398233544267691 0.9887100810877655
0.5309735 -0.24583300401439612 0.9871396893835345
0.5329734 -0.2522120326801204 0.9856252782358782
0.5349733 -0.25846373349299995 0.9848277903642523
0.5369732 -0.26475010949901023 0.9830363992648102
0.5389731 -0.27149338373208765 0.9815753282164121
0.540973 -0.2774079826908724 0.9797522631165204
0.5429729 -0.2842560962887954 0.9780427257734101
0.5449728 -0.2906383538407019 0.9761667094683807
0.5469727 -0.29701246082922605 0.9746158698974199
0.5489726 -0.30285633716594385 0.9726842478571703
0.5509725 -0.30924194899791235 0.9710321939600113
0.5529724 -0.3157383867769667 0.9688249833878586
0.5549723 -0.3215973196860265 0.9668338815985914
0.5569722 -0.32760758920841415 0.9649263106737445
0.5589721 -0.33415198900109344 0.9632302229409544
0.560972 -0.3404375618604082 0.9609549988638408
0.5629719 -0.34674074904996743 0.9588585806979727
0.5649718 -0.3521799992276247 0.9564950270704567
0.5669717 -0.3587463663955165 0.9547023839662167
0.5689716 -0.36478937559405283 0.9524153805833433
0.5709715 -0.37047131421842805 0.9501091166374672
0.5729714 -0.3765447146848891 0.9478309028187696
0.5749713 -0.3828521723445072 0.9456970637691607
0.5769712 -0.388697629625751 0.9427058422977102
0.5789711 -0.39447842279556367 0.9400409186954588
0.580971 -0.4005102508342757 0.9376929847315508
0.5829709 -0.40672420734939996 0.9354135107400485
0.5849708 -0.4125220759705189 0.9329532596143882
0.5869707 -0.4183878863157514 0.9304394770625748
0.5889706 -0.4244486903986876 0.9277724102390363
0.5909705 -0.43005908429909195 0.9252144231301518
0.5929704 -0.4358491363513316 0.922781167338885
0.5949703 -0.4418285274732231 0.9202370883356623
0.5969702 -0.44770296177130403 0.9171812491265807
0.5989701 -0.45357949585991264 0.9138321042056775
0.60097 -0.4588553957656629 0.9119630393565124
0.6029699 -0.465132282128135 0.9092111660576316
0.6049698 -0.4708443437350699 0.9060794786417522
0.6069697 -0.47631429292016875 0.9032354631224981
0.6089696 -0.48228982388683306 0.9003562932533921
0.6109695 -0.4878048486661984 0.8972910613307303
0.6129694 -0.4935482245848284 0.8942501137838527
0.6149693 -0.4991949660268489 0.8907965478973782
0.6169692 -0.5050028731352023 0.887777094838189
0.6189691 -0.5105796174255214 0.884684767949015
0.620969 -0.5162900138663139 0.8821212461257794
0.6229689 -0.5218251335220996 0.8785384535193418
0.6249688 -0.5271221044518397 0.8754606017693187
0.6269687 -0.5329514090668723 0.8722820180361944
0.6289686 -0.5384478902341735 0.8690263399598561
0.6309685 -0.5438666626626854 0.8656208254081562
0.6329684 -0.5493805996990463 0.8623176599361078
0.6349683 -0.5546631650157606 0.8591062617271678
0.6369682 -0.5598235996057835 0.8557801359094637
0.6389681 -0.5653276439829384 0.8519615401104539
0.640968 -0.5704442631478698 0.8485518816833886
0.6429679 -0.5759714714977754 0.8448438338455992
0.6449678 -0.5808180998759706 0.8416320173900281
0.6469677 -0.5864321655332927 0.837795454226787
0.6489676 -0.5917108345155657 0.8341603311952156
0.6509675 -0.5968180662558749 0.8304645414290832
0.6529674 -0.6020140117582803 0.8269785666631448
0.6549673 -0.6070636195828643 0.8232089204849065
0.6569672 -0.6119659768611511 0.819766891467291
0.6589671 -0.6175331209906636 0.815981052009416
0.660967 -0.6226510385077539 0.8122426233543955
0.6629669 -0.6276287323219012 0.8085773959542807
0.6649668 -0.632583153446931 0.8045411686257198
0.6669667 -0.6375378838115269 0.8006644687507583
0.6689666 -0.642610903007599 0.796688699778281
0.6709665 -0.6474189570830573 0.7927600289511137
0.6729664 -0.6526088679003395 0.7890550531211633
0.6749663 -0.6574500049956253 0.7852941539126668
0.6769662 -0.6624656499175628 0.7809267623084177
0.6789661 -0.6671434011558495 0.7767972301566185
0.680966 -0.6720374312191422 0.7726668883233685
0.6829659 -0.6769924936709798 0.7687662155390991
0.6849658 -0.681746871040618 0.7646169110628986
0.6869657 -0.6864288246210759 0.7605365870414785
0.6889656 -0.6912247455958711 0.756174508787958
0.6909655 -0.6958143905728569 0.7521862567590152
0.6929654 -0.7010305148637289 0.7477332666116697
0.6949653 -0.7054009934457819 0.7436222344324545
0.6969652 -0.7101711898490816 0.739327111137143
0.6989651 -0.7145581254488911 0.7352290673551537
0.700965 -0.719435012676038 0.730733405871525
0.7029649 -0.7237767245924702 0.7264917979430582
0.7049648 -0.7283462637025218 0.7219174658457785
0.7069647 -0.7326792849903666 0.7178045754186182
0.7089646 -0.7372645060500216 0.7132034000991411
0.7109645 -0.7417372525325007 0.7086184247046162
0.7129644 -0.7461490366992239 0.7041280823191176
0.7149643 -0.7503097139115131 0.6994373918929905
0.7169642 -0.7547249748019224 0.6948550963298148
0.7189641 -0.7590679630444668 0.690469486445299
0.720964 -0.7632949654366493 0.685787954462328
0.7229639 -0.7676596198445951 0.6810492876621901
0.7249638 -0.7717206780683752 0.6763324926690114
0.7269637 -0.7760368414500252 0.6718757741659841
0.7289636 -0.779952405895032 0.6672899413198528
0.7309635 -0.7840236171506945 0.6624545417360233
0.7329634 -0.788226722813461 0.6574630110456711
0.7349633 -0.7923147640707568 0.6531119290418582
0.7369632 -0.796194962533646 0.6481444215620755
0.7389631 -0.8002228331531235 0.6432053799250761
0.740963 -0.8039256876723601 0.6386818389819473
0.7429629 -0.8079360789440727 0.6336364266063672
0.7449628 -0.8119527158812111 0.6289841727948111
0.7469627 -0.8160069802780267 0.6240042394517888
0.7489626 -0.8198312078202529 0.6189139686194292
0.7509625 -0.8236283493973334 0.6144783761761758
0.7529624 -0.8275774158267493 0.609091467843882
0.7549623 -0.8311618535888545 0.6041661051784428
0.7569622 -0.8350673196167185 0.5995763486404496
0.7589621 -0.8388617537676122 0.5941770045937275
0.760962 -0.8426882331954859 0.5893306972348586
0.7629619 -0.8462315607852828 0.5843674055669349
0.7649618 -0.8496566572679656 0.5790905839083873
0.7669617 -0.8535943732739588 0.5740542521197717
0.7689616 -0.8572273444138143 0.5688855044326188
0.7709615 -0.8606291188440022 0.5638432184175731
0.7729614 -0.8637941150303436 0.5584584758476479
0.7749613 -0.8676405845345598 0.5534448154605903
0.7769612 -0.8711172910089328 0.5482838111616883
0.7789611 -0.8743182097114955 0.5431226626435072
0.780961 -0.8777018215883415 0.5376368682877313
0.7829609 -0.8811407319507759 0.5326372756878791
0.7849608 -0.884268331359442 0.5272450724429057
0.7869607 -0.8874639118289382 0.5219958815384593
0.7889606 -0.8909556553817681 0.5164362017890013
0.7909605 -0.8941471473980876 0.5111563709045869
0.7929604 -0.8970775528104431 0.5059374448362951
0.7949603 -0.9001626712140042 0.5002991354114807
0.7969602 -0.9033120454235255 0.4950837906057331
0.7989601 -0.9064645111044666 0.4894877343492767
0.80096 -0.9094276500608387 0.48412283817657215
0.8029599 -0.9123202866936687 0.47874895055144473
0.8049598 -0.9151890107446322 0.47306372928581225
0.8069597 -0.9178877669901383 0.4674976316588964
0.8089596 -0.9209699769106642 0.46207901733186846
0.8109595 -0.9242159648028068 0.45666435721827225
0.8129594 -0.9268916876473698 0.450950282958391
0.8149593 -0.9296490335073783 0.4454542321234412
0.8169592 -0.9324207921281945 0.4398851247702033
0.8189591 -0.935037868303498 0.4345046550888905
