! Created with skrf 1.8.0 (http://scikit-rf.org).
# GHz S RI R 50.0 
!freq ReS11 ImS11
0.001 -0.9999056231845392 0.0008058072765131172
0.0029999 -0.10589900660829443 0.12834470238971152
0.0049998 0.8640593524943161 0.41846865550715706
0.0069997 1.004058264459964 0.087415627477112
0.0089996 1.02688246811705 0.053427955242535546
0.0109995 1.0251514925032528 0.05525222936228072
0.0129994 1.025620796182341 0.06148929524686615
0.0149993 1.0272929678308866 0.06549114919553163
0.0169992 1.0284625034385064 0.07115722538973968
0.0189991 1.0278361576701376 0.0758481159771629
0.020999 1.0297587737589147 0.08306921710246401
0.0229989 1.0298451429452407 0.08904894969041621
0.0249988 1.0298639657668929 0.09573808983040577
0.0269987 1.0294603471063168 0.10186131582995661
0.0289986 1.0293708058991902 0.10992707541468703
0.0309985 1.0285643793740755 0.11754317024384342
0.0329984 1.0286411471014845 0.12355974321489331
0.0349983 1.0284219237794017 0.12993864813875333
0.0369982 1.0270923869903816 0.13710226706141412
0.0389981 1.025991623731481 0.14318328433756186
0.040998 1.0238241573198998 0.15072808366303042
0.0429979 1.0245083752147837 0.1590978055740987
0.0449978 1.0228839016021016 0.16496584473440876
0.0469977 1.0205929340363282 0.1731567941087706
0.0489976 1.0211486385419852 0.1822394470525285
0.0509975 1.019164257375001 0.1878106347512084
0.0529974 1.0178067385755654 0.19503177708988112
0.0549973 1.015864206101039 0.202465332712444
0.0569972 1.0152932031563406 0.210467659543054
0.0589971 1.0122180783075296 0.21814994460394838
0.060997 1.0102879071824715 0.22458345191242252
0.0629969 1.0097935966474405 0.2328062342030741
0.0649968 1.0064449074722666 0.2405810097618828
0.0669967 1.0052158671917213 0.24711897253344334
0.0689966 1.00322221269919 0.2539139318428713
0.0709965 1.0010122144551241 0.2633172059282164
0.0729964 1.000826995986915 0.26894206395208764
0.0749963 0.9977612842918258 0.27479634447241275
0.0769962 0.9956493908243934 0.28333577017775846
0.0789961 0.9950448401028869 0.2903529109295644
0.080996 0.991163692686927 0.29795357752795404
0.0829959 0.9897291842207065 0.30449633364683065
0.0849958 0.987774218472967 0.3118941536529465
0.0869957 0.9858270713466234 0.3179165141759548
0.0889956 0.9828097245883277 0.3244867512017262
0.0909955 0.9812491825045562 0.3313893490929547
0.0929954 0.9784983296391435 0.33784689707698967
0.0949953 0.9767118252730832 0.3459995958244805
0.0969952 0.9752235938548106 0.3521696665450824
0.0989951 0.9719907952885796 0.3586951170448378
0.100995 0.9696046875844684 0.36502348757500547
0.1029949 0.9668979886571527 0.3710641811201428
0.1049948 0.9643074988044025 0.37863569780717726
0.1069947 0.9619354743005786 0.3846831331055002
0.1089946 0.9602210846465284 0.39159774634598526
0.1109945 0.9576608613398964 0.3990760650803876
0.1129944 0.954555561648624 0.4047397000693322
0.1149943 0.9518268216154561 0.4108202925833553
0.1169942 0.9493657797181685 0.4178005259553689
0.1189941 0.9464300724971815 0.42472248070501667
0.120994 0.9428409315515359 0.4310990057745764
0.1229939 0.9400222410173441 0.4374760547357461
0.1249938 0.937344083481937 0.4442576535549507
0.1269937 0.9333691082471399 0.4507751647142916
0.1289936 0.9311346622472005 0.45773467350502794
0.1309935 0.9265349102411619 0.46356543566658903
0.1329934 0.9251545189792824 0.47139165719443143
0.1349933 0.9204525766721332 0.4775042314270689
0.1369932 0.9174229092679224 0.48320792682970076
0.1389931 0.9141838560182073 0.4915642858938374
0.140993 0.9102911776080289 0.49640801795903555
0.1429929 0.9069373073894199 0.5031420517051566
0.1449928 0.9029001150900358 0.5091620889299358
0.1469927 0.8999644740828348 0.5168687452747498
0.1489926 0.8956353502139744 0.5225106794104571
0.1509925 0.8909690085544824 0.5286642618232119
0.1529924 0.8877657285986987 0.5349602674765583
0.1549923 0.8844603770766625 0.5422104453067601
0.1569922 0.8803546043648114 0.5489280205344683
0.1589921 0.8761925091602654 0.5536093811811504
0.160992 0.8712270869014422 0.559888590038236
0.1629919 0.8686786842179082 0.5648611964754484
0.1649918 0.8646673481071008 0.5717497526467611
0.1669917 0.860263454431694 0.5783268785519352
0.1689916 0.8565760477321958 0.5836175060544446
0.1709915 0.853439369952366 0.5903719856631167
0.1729914 0.8483572955638282 0.5952911603177867
0.1749913 0.8449821781142112 0.60220879850731
0.1769912 0.8400595183054766 0.6069899675467326
0.1789911 0.8364307195471304 0.612857118421307
0.180991 0.8327865268563599 0.6192143358547835
0.1829909 0.8277473814254146 0.6238042732917956
0.1849908 0.8237261150855529 0.629697605740919
0.1869907 0.8189847178390193 0.6353520550924728
0.1889906 0.8147497470710413 0.6408218400179378
0.1909905 0.8102880860868302 0.6471850286515632
0.1929904 0.8053375723624384 0.652013269319773
0.1949903 0.8004740354901616 0.6570564820884087
0.1969902 0.7961149849411218 0.6624744988085665
0.1989901 0.7930215678712358 0.6680588344970328
0.20099 0.7880413561299929 0.6741648522646787
0.2029899 0.7828296629373858 0.6794370296547515
0.2049898 0.7786309956191652 0.6834321751182153
0.2069897 0.7736371616691924 0.6901121183498331
0.2089896 0.7691702858300157 0.693786013605543
0.2109895 0.7641612750088589 0.6993189922856189
0.2129894 0.7591004461579092 0.7054715501562664
0.2149893 0.7543774248790411 0.7106419753174572
0.2169892 0.748516498254588 0.7149390812778189
0.2189891 0.7434569027101559 0.7205375425184793
0.220989 0.7393854348995887 0.7257233248790078
0.2229889 0.7346286918932537 0.7320285403662141
0.2249888 0.7297785365108863 0.7359152871669188
0.2269887 0.7238734955949238 0.7415294331052391
0.2289886 0.7192497206384022 0.7466511042333676
0.2309885 0.7145953460539528 0.7510428042405722
0.2329884 0.7082460430657949 0.7563396448733286
0.2349883 0.7039320669360272 0.761283759128575
0.2369882 0.697768118295242 0.7669923693678316
0.2389881 0.6931610248406987 0.7706880976564959
0.240988 0.6864944054960935 0.775391239566371
0.2429879 0.6821239865341704 0.7810953593131915
0.2449878 0.6765362471913141 0.7855253552408936
0.2469877 0.671721043482425 0.7906436324411787
0.2489876 0.6651126481113474 0.7934474549175285
0.2509875 0.6596860842850235 0.7991198356187437
0.2529874 0.6541985221782132 0.8039197076461799
0.2549873 0.6492464159392656 0.8083178467832414
0.2569872 0.6430271794718558 0.8115335820505496
0.2589871 0.6378299958415262 0.816463302691128
0.260987 0.6320563905837326 0.8209868025248317
0.2629869 0.6259972873431373 0.825069164556321
0.2649868 0.6211460226856617 0.8295101509403782
0.2669867 0.6154522336406896 0.8331706715849893
0.2689866 0.6089716403855623 0.837214281046024
0.2709865 0.6035980426978249 0.8413534651429571
0.2729864 0.5987452069390615 0.845355253736788
0.2749863 0.5923974603341154 0.849164170431814
0.2769862 0.586586160618549 0.8527011513306764
0.2789861 0.5819398874816611 0.8576655162588934
0.280986 0.575463150210435 0.8616304701373739
0.2829859 0.5698847183572118 0.8643151054564269
0.2849858 0.5632820059189383 0.8688463314062831
0.2869857 0.5572772946612556 0.8725780316549722
0.2889856 0.5507875976797842 0.8755793345693895
0.2909855 0.5457676405176178 0.8800657415896899
0.2929854 0.5395376262948421 0.8840578141887115
0.2949853 0.5331621072720134 0.8872802425068232
0.2969852 0.5275428056043517 0.8905668977826482
0.2989851 0.5216879937405018 0.8949439650721234
0.300985 0.5153707856644448 0.8980990481675019
0.3029849 0.5101904101053981 0.9023170478648104
0.3049848 0.5038309042800384 0.9049136920517296
0.3069847 0.4970344130521385 0.9074817932741446
0.3089846 0.4911437095067127 0.9116730464515639
0.3109845 0.48510480657256017 0.9145135247631464
0.3129844 0.4787028098965433 0.9180274829114055
0.3149843 0.47238797103375696 0.92171820857264
0.3169842 0.4659114607661309 0.9251768322977697
0.3189841 0.4590694582265834 0.9283169543792555
0.320984 0.452126082327629 0.9309420914619749
0.3229839 0.4469278489819217 0.9337048216241948
0.3249838 0.44069661651027836 0.9372089096190607
0.3269837 0.43408339854996414 0.9399310608035462
0.3289836 0.42727392617101717 0.9426747691539694
0.3309835 0.4222619802206904 0.9451526751144541
0.3329834 0.4147496881137468 0.9472149924304394
0.3349833 0.40892628006740744 0.9495780960991813
0.3369832 0.402716129057446 0.9522902530245536
0.3389831 0.3963081873318193 0.954644396091314
0.340983 0.38904447290948974 0.9577786655772589
0.3429829 0.38291642471738413 0.95963521419939
0.3449828 0.3765445922702683 0.9618124484678837
0.3469827 0.3695360064782873 0.9654425334401053
0.3489826 0.36288657184973466 0.9680473640445606
0.3509825 0.3558573193141641 0.970251079762355
0.3529824 0.349812268065418 0.97209995396036
0.3549823 0.34377139713851945 0.9744007938745861
0.3569822 0.3362377434708274 0.9771587758496366
0.3589821 0.331184407170499 0.9793162764340989
0.360982 0.3246161418167728 0.9814375271842002
0.3629819 0.31761196779523204 0.9832026277972004
0.3649818 0.31157557111054035 0.9858849012079818
0.3669817 0.30497795991368065 0.9885819640527133
0.3689816 0.2979900892597314 0.9900160064254295
0.3709815 0.2920026478521585 0.9916547686252122
0.3729814 0.2866045225244481 0.9929682672597967
0.3749813 0.27953546833212556 0.9953038012893085
0.3769812 0.2724564632523724 0.9970754977558479
0.3789811 0.26460083844382076 0.9978306679072106
0.380981 0.2589979976236512 0.9991743396838186
0.3829809 0.25208564964878716 1.0017411673469063
0.3849808 0.24660109695614998 1.004094008374949
0.3869807 0.2385710202174714 1.0051977581568765
0.3889806 0.23290446136043363 1.0067352846099638
0.3909805 0.22606384501863552 1.0085953545024546
0.3929804 0.21898767873773964 1.009980926787522
0.3949803 0.21248624631527407 1.0117543695117073
0.3969802 0.20612039713936361 1.0125846621390973
0.3989801 0.19960430832103487 1.0136488189310047
0.40098 0.1920551303186589 1.0149989949023377
0.4029799 0.18539235406847185 1.0164952910631375
0.4049798 0.17919669863933907 1.01787284775265
0.4069797 0.17179961382868947 1.018297805204911
0.4089796 0.16521058585524429 1.0202605068853465
0.4109795 0.1585237218940005 1.0203092895331582
0.4129794 0.15147080681325692 1.0228700239605761
0.4149793 0.14444563162200696 1.0233235133696874
0.4169792 0.1382181063015691 1.0235580244336238
0.4189791 0.13162492277309726 1.0247143579423477
0.420979 0.12455552489146726 1.0254309238576091
0.4229789 0.11757631626118933 1.0262596710013774
0.4249788 0.11165051690805042 1.0265788739806458
0.4269787 0.10445476496854952 1.0270056803908165
0.4289786 0.09791568460014888 1.0277464636089
0.4309785 0.09105830310255551 1.0286404468011416
0.4329784 0.08450413120371283 1.0288508652169968
0.4349783 0.07804889509337884 1.0290780979647047
0.4369782 0.07106504054679284 1.030090584648547
0.4389781 0.06519290343852538 1.0307860694385464
0.440978 0.057662517333344876 1.030607283123928
0.4429779 0.05128045456757827 1.0306790979070637
0.4449778 0.04386104012637678 1.0304570112266818
0.4469777 0.0372747176604451 1.0309608195258635
0.4489776 0.030499592535609972 1.0311326568797228
0.4509775 0.02427417783224599 1.032171381094628
0.4529774 0.016967395125767053 1.0322173031584407
0.4549773 0.010885413694954986 1.0318173883522077
0.4569772 0.004174669252601848 1.0320478011302048
0.4589771 -0.002870093418332789 1.0312133099445138
0.460977 -0.009265014417557574 1.0320772117653487
0.4629769 -0.016302938066147153 1.0318192943654103
0.4649768 -0.02292635747221481 1.03097322661034
0.4669767 -0.029547960959266 1.0309730086758682
0.4689766 -0.03619524142071537 1.030837564889229
0.4709765 -0.04302726893771561 1.0304838230813107
0.4729764 -0.04922895644710405 1.0298888608280563
0.4749763 -0.05636220591159367 1.0298256562642751
0.4769762 -0.06277123598091283 1.0295121952585211
0.4789761 -0.06979704891706397 1.0294806083681232
0.480976 -0.07655252223560834 1.0289796129727624
0.4829759 -0.08315876407485832 1.0281023691322402
0.4849758 -0.0900180123703932 1.0272449355425075
0.4869757 -0.09679546897894717 1.0270256396940678
0.4889756 -0.10312135876610218 1.026214523954715
0.4909755 -0.10970008667770276 1.0254743677517795
0.4929754 -0.11629830819528197 1.0249300568320265
0.4949753 -0.12289106974441764 1.0236506187158776
0.4969752 -0.12952600452636523 1.023518621075544
0.4989751 -0.13538295716668297 1.0223203816684143
0.500975 -0.1416378298905339 1.0217954801774607
0.5029749 -0.14873654499718747 1.0206407345862034
0.5049748 -0.15522339224834247 1.019439786726412
0.5069747 -0.16166623916654577 1.0180126629133224
0.5089746 -0.16828876359291423 1.0165342901461598
0.5109745 -0.174407367237181 1.0158426279145591
0.5129744 -0.18106337832984412 1.0147702831249932
0.5149743 -0.18742213710893252 1.0138176530041016
0.5169742 -0.19341798616547337 1.012310803503075
0.5189741 -0.2004044037202481 1.010839757648504
0.520974 -0.20657357408671717 1.0094410757357124
0.5229739 -0.21317434115097134 1.0079297504015647
0.5249738 -0.21932733812244473 1.0063200963225245
0.5269737 -0.225962268090557 1.0048370165744842
0.5289736 -0.23249434394926055 1.0029454007234766
0.5309735 -0.2388948259395637 1.0011793613420594
0.5329734 -0.24521723765831782 1.0000332370452953
0.5349733 -0.2515407295602215 0.9987835415022811
0.5369732 -0.25789680392376174 0.9966239266881227
0.5389731 -0.26467894251908836 0.9952597484954442
0.540973 -0.2708687883929185 0.9933167637552208
0.5429729 -0.27736586754066195 0.9916282904956222
0.5449728 -0.2840821160934601 0.9896720186793367
0.5469727 -0.2902959826355732 0.9881806047593988
0.5489726 -0.29629433937909855 0.9860080174195194
0.5509725 -0.30271526253818204 0.9843616494818724
0.5529724 -0.3093048340528438 0.982319398172381
0.5549723 -0.3151194664931674 0.9801490090336478
0.5569722 -0.3212697135098084 0.9781519616942089
0.5589721 -0.3277516499397612 0.9761887457650893
0.560972 -0.33421995364210255 0.9742059841414461
0.5629719 -0.34055685561542093 0.9719800464819937
0.5649718 -0.3461473998752978 0.9695281469254101
0.5669717 -0.3526042198572257 0.9675967408948538
0.5689716 -0.3586169505641896 0.9653208745759061
0.5709715 -0.36452815604591554 0.9629947656896842
0.5729714 -0.37044597014898195 0.9607944176095654
0.5749713 -0.3768887387986182 0.9584784054043269
0.5769712 -0.3826416065113883 0.9555466644315495
0.5789711 -0.3883793815783386 0.9529090785590998
0.580971 -0.3945795874760877 0.9502789168346863
0.5829709 -0.4007820730635555 0.9480019335547165
0.5849708 -0.40687510753994804 0.9452462392989684
0.5869707 -0.41266619398287263 0.9430204774447877
0.5889706 -0.41850920268807457 0.9402285965349253
0.5909705 -0.42446524075714853 0.9374411914719458
0.5929704 -0.43045502762450205 0.9348381378955144
0.5949703 -0.43596582524903005 0.9324770019935518
0.5969702 -0.4419102523697455 0.9289894480886141
0.5989701 -0.44770779284863305 0.9261302154092312
0.60097 -0.45347767548390444 0.9234654683491614
0.6029699 -0.45943214738684424 0.9208610635995872
0.6049698 -0.4653590314426979 0.9178725526602045
0.6069697 -0.47057460674370366 0.915163852919824
0.6089696 -0.4768407776979845 0.9121375877691139
0.6109695 -0.48244242735949416 0.9089715727220712
0.6129694 -0.48835745415815757 0.9058382318114759
0.6149693 -0.49384224831935475 0.9023670313444982
0.6169692 -0.49960006309796967 0.8994383311059265
0.6189691 -0.5051418161082718 0.8964652700324252
0.620969 -0.511019469426998 0.8936186805721028
0.6229689 -0.5166273774013226 0.889968280120152
0.6249688 -0.5217997456576984 0.8868025334773
0.6269687 -0.5276884925958025 0.8835197623495531
0.6289686 -0.5330350881400563 0.8801672548171142
0.6309685 -0.5386944098860973 0.8768035778533572
0.6329684 -0.5440712686500533 0.8734141493138587
0.6349683 -0.5492684627688784 0.8703081067314744
0.6369682 -0.5545096558159128 0.8667481606854545
0.6389681 -0.5603771665078968 0.8628242414421567
0.640968 -0.565465522478072 0.8594852080949363
0.6429679 -0.570805836878752 0.8556516309327
0.6449678 -0.5758303372859728 0.8523058856420663
0.6469677 -0.5813643907802079 0.8485139769715625
0.6489676 -0.5868571336495289 0.8447342609920123
0.6509675 -0.5917835324645351 0.8412288013126585
0.6529674 -0.5972949549025924 0.8375425149704573
0.6549673 -0.6021233242766398 0.8338746158196555
0.6569672 -0.6075179461847824 0.8299144308955942
0.6589671 -0.6126840825723116 0.826411112231179
0.660967 -0.6178679481046441 0.8225889126775016
0.6629669 -0.6228328524949667 0.8188075714140436
0.6649668 -0.6279568574045147 0.8143124698377892
0.6669667 -0.6327396560598634 0.8108894932013327
0.6689666 -0.6378995606372336 0.8068569228626555
0.6709665 -0.6428411890750696 0.8027714212263093
0.6729664 -0.6479687425251608 0.7990435758091684
0.6749663 -0.6529121693069466 0.795137594949077
0.6769662 -0.657894255804428 0.7910448171211495
0.6789661 -0.6626216858099097 0.7867735861111161
0.680966 -0.6674912898015222 0.7826385297600461
0.6829659 -0.6724188421393686 0.7786799247723885
0.6849658 -0.6770965162935308 0.7746171301286785
0.6869657 -0.6819700509752967 0.7703068815585221
0.6889656 -0.686794913580364 0.765874860787616
0.6909655 -0.691453196213961 0.761800796461431
0.6929654 -0.6964936819593215 0.7573478152535814
0.6949653 -0.7008227663353492 0.7533347044990731
0.6969652 -0.7057901210434765 0.7488383629057717
0.6989651 -0.7101573947023831 0.7447668406299802
0.700965 -0.7150682302607346 0.7400997629586383
0.7029649 -0.7195470210817818 0.7358651599250708
0.7049648 -0.7242495952780315 0.7311941037550124
0.7069647 -0.7285175851898054 0.7270416771296241
0.7089646 -0.7330584279842461 0.7223311871346499
0.7109645 -0.7375160897081119 0.7178767678018791
0.7129644 -0.7420791305658903 0.713215058190677
0.7149643 -0.7462093639501821 0.7084775493141191
0.7169642 -0.750686014629999 0.7038550004674928
0.7189641 -0.7551544010631392 0.6993667814153425
0.720964 -0.7593466881490735 0.6946953490455617
0.7229639 -0.7637257998228761 0.6899129083905253
0.7249638 -0.7676951637710714 0.6851958473201754
0.7269637 -0.7720810432396539 0.6806846635037997
0.7289636 -0.7760512981956924 0.6761248435120863
0.7309635 -0.780110300470913 0.6711051467360017
0.7329634 -0.7843113531594502 0.6662165471475587
0.7349633 -0.7884731320086422 0.6618730404476384
0.7369632 -0.792342157691086 0.6567720741787493
0.7389631 -0.796304207606139 0.6518557596626341
0.740963 -0.800185458507031 0.6471405572871367
0.7429629 -0.804138035154788 0.6420794551359625
0.7449628 -0.8081482713613161 0.637491807346203
0.7469627 -0.8122356811427027 0.6325334863555453
0.7489626 -0.8161263074686105 0.6273013475011444
0.7509625 -0.819995021723954 0.6227024010822055
0.7529624 -0.82388236172648 0.6174832128584286
0.7549623 -0.8275432973233816 0.6123698607977139
0.7569622 -0.8314343098353771 0.6077593671214417
0.7589621 -0.8352440296764198 0.6022927165149481
0.760962 -0.8391280558254842 0.5973453851878499
0.7629619 -0.8426794506200425 0.5922928989339817
0.7649618 -0.8461416764350206 0.5871213607724521
0.7669617 -0.8501888750626333 0.581940152710999
0.7689616 -0.8538373896621848 0.576703664398947
0.7709615 -0.857302506218918 0.5716436768832246
0.7729614 -0.860483617851078 0.5661622341276178
0.7749613 -0.8643459530848203 0.5612214547941201
0.7769612 -0.8680269400198832 0.5559032667455114
0.7789611 -0.8711364845288992 0.5506836497243707
0.780961 -0.8745538866500847 0.5452568027312382
0.7829609 -0.8779836832813493 0.5401606210996837
0.7849608 -0.8812152485735822 0.5346588525305163
0.7869607 -0.8844081924862102 0.5294414923002824
0.7889606 -0.8879311213261725 0.5238086043142336
0.7909605 -0.8911081538880973 0.5185023496380826
0.7929604 -0.8940467802325606 0.5131914186606843
0.7949603 -0.8971977710825643 0.5075720399867806
0.7969602 -0.9002814055701076 0.5023179681614424
0.7989601 -0.9035206338666841 0.49676450221420376
0.80096 -0.9064756778694592 0.49127464951460537
0.8029599 -0.9094119502414696 0.48581350815847
0.8049598 -0.9122153798475572 0.4802013114294199
0.8069597 -0.915060105044642 0.47450100122092037
0.8089596 -0.9181265118568345 0.4689430782277658
0.8109595 -0.9213378816565871 0.46351376632436386
0.8129594 -0.9240661515157114 0.45777809005826287
0.8149593 -0.9268399471576731 0.45229642686312777
0.8169592 -0.9296739275715161 0.44652833572788375
0.8189591 -0.9322563072150085 0.441172213909883
