! Created with skrf 1.8.0 (http://scikit-rf.org).
# GHz S RI R 50.0 
!freq ReS11 ImS11
0.001 -0.997132383333093 0.006202625895046236
0.0029999 0.6051179510134733 1.0735459758943136
0.0049998 1.0008497260109128 0.3352375381451858
0.0069997 0.9610900417955076 0.067440464705677
0.0089996 0.9875389517583789 0.0645108564110993
0.0109995 0.9904427704010829 0.06496513864487913
0.0129994 0.9924623711786849 0.0691067264887286
0.0149993 0.9916053313671577 0.0736409979590154
0.0169992 0.9924283352552755 0.07835131143586947
0.0189991 0.9909148833702083 0.08223674215893932
0.020999 0.9929302284357764 0.08817113569367183
0.0229989 0.9926822521627809 0.09378772089154705
0.0249988 0.9924613759511383 0.09982269892896647
0.0269987 0.9918297489650835 0.10526190097920449
0.0289986 0.9914856808567021 0.11257861615598397
0.0309985 0.9900897839466574 0.1199930711999715
0.0329984 0.9913060244227513 0.12556093047325442
0.0349983 0.9904211522501218 0.1310903361705066
0.0369982 0.9887409365722004 0.13839083215896164
0.0389981 0.9884147997473697 0.14421999250558967
0.040998 0.986831125912696 0.15095056229908116
0.0429979 0.9871598593295279 0.15911037774838926
0.0449978 0.9860404905356924 0.16424697453193893
0.0469977 0.9834919421808345 0.17268290189658542
0.0489976 0.9843992822367437 0.1801621461051257
0.0509975 0.9830911856718452 0.18578005809553658
0.0529974 0.9809036332015899 0.192263679047539
0.0549973 0.9795905061185657 0.20067485856219766
0.0569972 0.9790191074161232 0.20731506588799
0.0589971 0.9766053777004956 0.21437387130106048
0.060997 0.9743638182319769 0.22107209093622548
0.0629969 0.9740899267083445 0.228246687699044
0.0649968 0.9713505261826508 0.23549106201632458
0.0669967 0.9702468087922419 0.24148921869914436
0.0689966 0.968073097783974 0.24839956225453597
0.0709965 0.9662350078409738 0.257344893115507
0.0729964 0.965524337291422 0.26314039824051144
0.0749963 0.9622382608034166 0.26802645717845647
0.0769962 0.9597232694567844 0.2765030788621598
0.0789961 0.9598363607540316 0.2827417541047999
0.080996 0.9562668379613569 0.2895430181916831
0.0829959 0.954945564984738 0.2968308015257268
0.0849958 0.9532318476929479 0.3042447895257012
0.0869957 0.9514498183452494 0.30970497466735847
0.0889956 0.9483317459629831 0.31608059787867815
0.0909955 0.9468603722598753 0.3227632044226669
0.0929954 0.9443567450962742 0.3288787072889573
0.0949953 0.9425039826356931 0.33700536316308866
0.0969952 0.9407331656375136 0.3423176596794435
0.0989951 0.9373130660151474 0.34883788107184244
0.100995 0.9353578561820769 0.35501621476086337
0.1029949 0.9328387214950438 0.36091957503582717
0.1049948 0.9302028428740563 0.36821364316391997
0.1069947 0.9276588159758175 0.37395567484653186
0.1089946 0.925772482005127 0.38058564789267685
0.1109945 0.9241428298751808 0.3879144233279842
0.1129944 0.92116120668005 0.39362563344737267
0.1149943 0.9187800390645499 0.39996066522380447
0.1169942 0.9161799512855975 0.4066734214783874
0.1189941 0.9135846840344446 0.4133933448073742
0.120994 0.9097617233532904 0.41916081151357343
0.1229939 0.9071995475797536 0.42597361136485296
0.1249938 0.9047360172029529 0.4327778059583171
0.1269937 0.9007404767538805 0.43902510690598384
0.1289936 0.8987380827774047 0.4454304356521745
0.1309935 0.8947492346560173 0.4510362524492213
0.1329934 0.8927500452125117 0.45910953085914424
0.1349933 0.888710159221069 0.4645912125693799
0.1369932 0.885328075211501 0.47020053521547156
0.1389931 0.882112534604958 0.4775844258483505
0.140993 0.8785776156271928 0.48299590153844857
0.1429929 0.8752982104901248 0.4892761178847332
0.1449928 0.8713320163685854 0.496966039273602
0.1469927 0.8687603223198289 0.503283918869969
0.1489926 0.865367510689954 0.5080336729557502
0.1509925 0.8610663499992579 0.5149685871381297
0.1529924 0.8571015063397693 0.5210127161512941
0.1549923 0.8546595894687532 0.5265249099900223
0.1569922 0.8500551546759354 0.5334064917108334
0.1589921 0.8470824238172733 0.5382487714861535
0.160992 0.841667428011514 0.5448901054718992
0.1629919 0.8388527395149159 0.5500021937103472
0.1649918 0.835486026962972 0.555993054570936
0.1669917 0.8309504566132359 0.5624777641016016
0.1689916 0.8275168095311731 0.56769534772136
0.1709915 0.8239761082990262 0.5731864861395293
0.1729914 0.8195193962387441 0.578804793296079
0.1749913 0.8157996315912591 0.5857388921467338
0.1769912 0.8116459408342341 0.5900883802047179
0.1789911 0.8078257772847559 0.5958959386046483
0.180991 0.8046009449271816 0.6022556644510487
0.1829909 0.7997267111864699 0.6068022768159111
0.1849908 0.7957987981433164 0.613116220970962
0.1869907 0.7912946781636429 0.6177513978834169
0.1889906 0.7875235676805001 0.6237922011924177
0.1909905 0.7827706439763684 0.6301903746027254
0.1929904 0.7783960754433692 0.635306177613731
0.1949903 0.7738934566887367 0.6401450102154717
0.1969902 0.7702665370213443 0.6450802461428671
0.1989901 0.765525863214245 0.6512581106073102
0.20099 0.7616067762014925 0.6567112923217292
0.2029899 0.7560523356590769 0.6619832910674797
0.2049898 0.7519104279216516 0.6665087844246034
0.2069897 0.7465411710088545 0.6729200941752808
0.2089896 0.7427330606049305 0.6771469284598615
0.2109895 0.738357020070866 0.6819004859690039
0.2129894 0.7332276575359425 0.6880840526705481
0.2149893 0.7287794111280336 0.6929146551006578
0.2169892 0.7227766866382541 0.6977382214625774
0.2189891 0.7187189277245927 0.7029051620951496
0.220989 0.7145551586380403 0.7081262030243023
0.2229889 0.710040472887981 0.7143928194562083
0.2249888 0.7046571036514399 0.7187143422071873
0.2269887 0.6994140913094498 0.7236584101030581
0.2289886 0.6946829366666528 0.7287002465409367
0.2309885 0.6900663573280424 0.7331640271395683
0.2329884 0.6842172497426098 0.7378822020295788
0.2349883 0.6797373049963135 0.7428376349512821
0.2369882 0.6742336081952407 0.748559788686816
0.2389881 0.669360959754539 0.7525174344786644
0.240988 0.6631570518377329 0.7568970849250103
0.2429879 0.658993081688295 0.7630699107124223
0.2449878 0.6534750662489611 0.7667667031932894
0.2469877 0.6488275381152105 0.771579977960988
0.2489876 0.6425405627431572 0.7743867307397406
0.2509875 0.6372949322943372 0.7799342125224158
0.2529874 0.6319262846136945 0.7850779222626274
0.2549873 0.6272564928368434 0.7891430653192201
0.2569872 0.621226969734487 0.7923917642717577
0.2589871 0.6161530546712001 0.7971928325794263
0.260987 0.6104256693618713 0.8019628777249368
0.2629869 0.6043974908286924 0.8056224542325565
0.2649868 0.6003284995871051 0.810275069732767
0.2669867 0.5938426336089877 0.8141037082981897
0.2689866 0.5884041676850643 0.817838397951208
0.2709865 0.5829177489698445 0.8221778295416708
0.2729864 0.5779469046865935 0.8264570907810453
0.2749863 0.5715238553085327 0.8298629479779481
0.2769862 0.5665742146604815 0.8339503584270503
0.2789861 0.5615061202765167 0.8388570929332863
0.280986 0.555352484240613 0.8423445816959986
0.2829859 0.5504708780013603 0.84560684974268
0.2849858 0.5439168668402766 0.8492678951271018
0.2869857 0.537586023823977 0.8534260206667386
0.2889856 0.5319989726788096 0.8569324622031003
0.2909855 0.5266706642835259 0.8612406781287876
0.2929854 0.5206508081877869 0.8649117757741118
0.2949853 0.5144487457649976 0.8679670322580466
0.2969852 0.5090626153441833 0.8714601716701497
0.2989851 0.5032626347903502 0.8758209477730823
0.300985 0.497772137823034 0.8791164812235266
0.3029849 0.4917662050291711 0.8835199607448406
0.3049848 0.4858440352674204 0.8864083227064465
0.3069847 0.4795432121589491 0.8887087983850959
0.3089846 0.4738406206231513 0.8931940939718168
0.3109845 0.46715949911981003 0.8963939886500308
0.3129844 0.4612472963681822 0.899853817181711
0.3149843 0.45513087823021414 0.9032932410640705
0.3169842 0.4486883621891936 0.9067742969791373
0.3189841 0.442176747826711 0.9095101330886942
0.320984 0.4358365286529146 0.9125263206303665
0.3229839 0.42997055448448557 0.9157453823616276
0.3249838 0.4241467519025876 0.9189643894095761
0.3269837 0.4182786561797167 0.9219498461388124
0.3289836 0.4110420527103211 0.9247378864124846
0.3309835 0.4056111614110184 0.9270729245307112
0.3329834 0.3988049801017904 0.9291726800132584
0.3349833 0.39293379317816685 0.9316909810107312
0.3369832 0.38623702984567887 0.9342289686560754
0.3389831 0.380005754021477 0.9372026785918082
0.340983 0.37322235014273153 0.9398787832859022
0.3429829 0.3672682185185704 0.9420245833002585
0.3449828 0.3612183287056504 0.9440723901034943
0.3469827 0.35434688930534214 0.9474938266746994
0.3489826 0.3474810416230258 0.950264464188636
0.3509825 0.3411831494554847 0.9522711533091766
0.3529824 0.33495221411079706 0.9543781673824209
0.3549823 0.3291867048316639 0.9566795179058316
0.3569822 0.3215145706887149 0.9591911537184505
0.3589821 0.31641277200811 0.9617176261029782
0.360982 0.3095666051787809 0.963786823459526
0.3629819 0.303301862764168 0.9657104945384017
0.3649818 0.29724008519270556 0.9681504587771756
0.3669817 0.29145790316223225 0.9708370445743799
0.3689816 0.284195692684067 0.9724646827094899
0.3709815 0.2782557565649167 0.9739628910323257
0.3729814 0.27263789310504577 0.9759969284629808
0.3749813 0.26549846990595916 0.9780474456811049
0.3769812 0.2584256888649071 0.9794181317752746
0.3789811 0.2516825106322955 0.9802789444373816
0.380981 0.24535302345893273 0.982243125324458
0.3829809 0.23879005300061873 0.9846656218814608
0.3849808 0.23231537815553163 0.9869875115937371
0.3869807 0.22544250007673672 0.9884519854753793
0.3889806 0.2196568180562868 0.9899920852660747
0.3909805 0.2128309068464639 0.9920566603921765
0.3929804 0.20629328888531767 0.9934179032718125
0.3949803 0.19977465112414777 0.9949087694485301
0.3969802 0.19217028536052255 0.9961982247035055
0.3989801 0.18635691891734138 0.9972921204955579
0.40098 0.17943951553959278 0.9987021970837173
0.4029799 0.17271159218023963 1.0001290265850404
0.4049798 0.16650912408102725 1.0015369789708357
0.4069797 0.1593011610418309 1.0019385763435238
0.4089796 0.1529255013958959 1.003921342383848
0.4109795 0.14594732805642172 1.0043100114668255
0.4129794 0.13899604339624694 1.0065312795337575
0.4149793 0.13215048029510004 1.007056664623934
0.4169792 0.12600627144709597 1.007381112174531
0.4189791 0.11945672172501004 1.0083620638820674
0.420979 0.11243706806932076 1.0092090376835305
0.4229789 0.1057524394134225 1.0096957450542428
0.4249788 0.09971625858150834 1.0107572987091948
0.4269787 0.09290184001179085 1.0110507725392817
0.4289786 0.0861918341736764 1.0117827877844099
0.4309785 0.07953585091199575 1.012684043353799
0.4329784 0.07284385585172382 1.013157624584656
0.4349783 0.06714345751066937 1.013114214485566
0.4369782 0.05982259447568547 1.01451560660388
0.4389781 0.05361718858887261 1.0150494776159331
0.440978 0.046474269220460454 1.0152666017048722
0.4429779 0.04006450470945622 1.0151659972143101
0.4449778 0.032946037310797746 1.015257796649089
0.4469777 0.026295687156469467 1.0157768693688296
0.4489776 0.019475213039662667 1.0160876309121882
0.4509775 0.012872517300779956 1.0170956688452972
0.4529774 0.0064683410796173985 1.017349819522042
0.4549773 -1.4519771505405732e-06 1.0172570314792222
0.4569772 -0.006667111760621382 1.0173641097260113
0.4589771 -0.013896506629399868 1.0165651033288412
0.460977 -0.01980186135987594 1.0174328213350698
0.4629769 -0.02707697786247481 1.0176094861066523
0.4649768 -0.033226535540347366 1.016245692582499
0.4669767 -0.04032371648387893 1.0167148367068943
0.4689766 -0.04658632999120731 1.01660542520251
0.4709765 -0.05390590340534656 1.016259935213275
0.4729764 -0.05965735444729164 1.0158730492442645
0.4749763 -0.06677796495474755 1.0159793605479042
0.4769762 -0.07368055197599895 1.0154142920006681
0.4789761 -0.07997950863991907 1.0155468035860797
0.480976 -0.08691605337702915 1.0148926068069617
0.4829759 -0.0935545601328932 1.014114006151166
0.4849758 -0.10022923438412087 1.0134280486504588
0.4869757 -0.10683513233227605 1.0129845286561068
0.4889756 -0.11337006634312737 1.012314717676068
0.4909755 -0.11993403575097776 1.011795920594267
0.4929754 -0.12629604387207416 1.011057082647381
0.4949753 -0.1329184821068354 1.0097914526382392
0.4969752 -0.1395465088376814 1.0097586108675414
0.4989751 -0.1459074596313204 1.008203106384284
0.500975 -0.15148658765979595 1.0078500906774168
0.5029749 -0.1584175375955134 1.006903331204547
0.5049748 -0.16501769394336352 1.0055795742513687
0.5069747 -0.17148978591000727 1.0043487274164213
0.5089746 -0.17795875720403082 1.0029295297121297
0.5109745 -0.18425007258375714 1.0021165105888803
0.5129744 -0.19070940916567175 1.0012876317429051
0.5149743 -0.19718047802624897 1.0001922759552169
0.5169742 -0.20324970497153302 0.9990688676205657
0.5189741 -0.2099673372861171 0.9974618753827446
0.520974 -0.21643647534405208 0.9962040963371069
0.5229739 -0.22284969756694964 0.9947834264936407
0.5249738 -0.2290893824656253 0.9933365172328966
0.5269737 -0.23563905909652696 0.9919892534219971
0.5289736 -0.24227627982550293 0.9901772977088004
0.5309735 -0.24828650937134855 0.9885863347299835
0.5329734 -0.25466674751831064 0.9870510773525136
0.5349733 -0.2609215535375257 0.9862338101436061
0.5369732 -0.2672077350483453 0.9844216208862391
0.5389731 -0.27395241525258646 0.9829384882595587
0.540973 -0.2798662340550103 0.9810951021810418
0.5429729 -0.2867151714092401 0.9793632624423574
0.5449728 -0.29309702914241775 0.9774661133302293
0.5469727 -0.2994712891759037 0.9758944761017424
0.5489726 -0.3053136999384507 0.9739430635874
0.5509725 -0.31169895445672186 0.9722699228988498
0.5529724 -0.3181939453942054 0.9700410365010942
0.5549723 -0.3240509768235511 0.9680302086122782
0.5569722 -0.33005954942342874 0.9661025451868194
0.5589721 -0.3366032430957491 0.9643851703376467
0.560972 -0.342886359839869 0.962088949515735
0.5629719 -0.34918758338312256 0.9599716525727165
0.5649718 -0.3546228674514978 0.9575891772397622
0.5669717 -0.36118782558872725 0.9557754348112604
0.5689716 -0.3672277366740737 0.9534681822950217
0.5709715 -0.37290588722000484 0.9511427295631264
0.5729714 -0.3789759230081997 0.9488442883165155
0.5749713 -0.3852805475286476 0.9466898863810285
0.5769712 -0.39112027428885776 0.9436785384141919
0.5789711 -0.3968961074536338 0.9409941585808534
0.580971 -0.40292401624605545 0.9386262871672103
0.5829709 -0.40913428998932255 0.9363267292347562
0.5849708 -0.4149273938377721 0.9338471599605952
0.5869707 -0.42078842440233755 0.9313138536591931
0.5889706 -0.42684395782314205 0.9286268301797875
0.5909705 -0.4324490318206514 0.9260500846747963
0.5929704 -0.4382341734957597 0.9235980684659256
0.5949703 -0.44420838787604855 0.9210345293970288
0.5969702 -0.4500761659952538 0.9179592892014858
0.5989701 -0.45594485731351897 0.9145902975608516
0.60097 -0.46121664463096246 0.912704631843114
0.6029699 -0.46748781249233734 0.9099325330961462
0.6049698 -0.47319238583003176 0.9067820921844738
0.6069697 -0.4786554449209868 0.9039199080797772
0.6089696 -0.48462427572346123 0.9010214302484919
0.6109695 -0.490131692071921 0.8979383703137265
0.6129694 -0.4958676354557683 0.894878925921694
0.6149693 -0.5015055847658386 0.8914069453444049
0.6169692 -0.5073057165240838 0.8883689644696804
0.6189691 -0.5128747424423495 0.8852586462607486
0.620969 -0.5185785562748472 0.8826773774001309
0.6229689 -0.5241042462329706 0.8790767237840007
0.6249688 -0.529392998710959 0.8759818705546746
0.6269687 -0.535213801258985 0.8727850470953259
0.6289686 -0.5407016548675638 0.8695120746830244
0.6309685 -0.5461109524749209 0.86608947116341
0.6329684 -0.5516157665100264 0.8627690854701974
0.6349683 -0.5568895528394616 0.8595410723222086
0.6369682 -0.5620404550873321 0.8561987408943807
0.6389681 -0.5675338584377698 0.8523631236895588
0.640968 -0.5726406419012398 0.848937451518683
0.6429679 -0.5781574347053278 0.8452123742636866
0.6449678 -0.5829945446287462 0.8419858379818944
0.6469677 -0.5885974744735597 0.8381322291335623
0.6489676 -0.5938656923074687 0.8344808116758177
0.6509675 -0.598962129240373 0.8307695419491886
0.6529674 -0.6041476591053716 0.827268054485699
0.6549673 -0.6091861063426494 0.8234831531759911
0.6569672 -0.6140780378435065 0.8200263796222487
0.6589671 -0.6196337773014072 0.8162242987622317
0.660967 -0.6247404765744933 0.8124707744730967
0.6629669 -0.6297070550130355 0.8087908601826489
0.6649668 -0.6346492143276701 0.8047401529286304
0.6669667 -0.6395919767815712 0.8008488898699955
0.6689666 -0.6446528512355809 0.7968585116198016
0.6709665 -0.6494489247837746 0.7929160194297612
0.6729664 -0.6546273545310177 0.7891960611691328
0.6749663 -0.6594566938900115 0.7854213199222309
0.6769662 -0.6644588061448227 0.7810398660544885
0.6789661 -0.6691239326049004 0.7768971717777566
0.680966 -0.6740050077403175 0.7727533627062148
0.6829659 -0.6789477685791614 0.7688389328701758
0.6849658 -0.6836891186878641 0.7646765036411958
0.6869657 -0.6883582298260593 0.7605834561326004
0.6889656 -0.6931405052910198 0.7562084851483036
0.6909655 -0.6977174738288863 0.7522077879729054
0.6929654 -0.7029196701875375 0.7477408319434018
0.6949653 -0.7072769385582339 0.7436182845170649
0.6969652 -0.7120334686168853 0.739310676331179
0.6989651 -0.7164072982100077 0.7352011108764274
0.700965 -0.7212700149447595 0.7306928062959902
0.7029649 -0.7255980744663256 0.7264401912457702
0.7049648 -0.7301531365222882 0.7218542299699721
0.7069647 -0.7344727858532824 0.7177303506201398
0.7089646 -0.7390434491458339 0.7131177879597242
0.7109645 -0.7435015634421395 0.7085217950823153
0.7129644 -0.7478990003805258 0.7040206413873353
0.7149643 -0.7520448687428742 0.6993200154585475
0.7169642 -0.7564454632953809 0.6947270337391603
0.7189641 -0.7607742664226724 0.6903312024201411
0.720964 -0.7649863076546359 0.6856398242465616
0.7229639 -0.7693358447366359 0.6808910479615168
0.7249638 -0.7733819297525536 0.6761649536870489
0.7269637 -0.7776837086828206 0.671698380470832
0.7289636 -0.7815844447940141 0.6671038945409822
0.7309635 -0.7856404116374003 0.6622595058427272
0.7329634 -0.7898276902816521 0.6572589246839518
0.7349633 -0.7939014836766786 0.6528988494880977
0.7369632 -0.797765876781912 0.6479232641999203
0.7389631 -0.8017781431043819 0.6429758289005639
0.740963 -0.8054665068395472 0.6384447287434254
0.7429629 -0.8094609337934106 0.6333912587778101
0.7449628 -0.8134624841198353 0.628730925706393
0.7469627 -0.8175009589331065 0.62374293821505
0.7489626 -0.8213091711744845 0.6186453873628059
0.7509625 -0.825091940051836 0.614202389160319
0.7529624 -0.8290241556632524 0.6088081742161123
0.7549623 -0.832593038045041 0.6038764569424145
0.7569622 -0.8364836461022519 0.5992793177539066
0.7589621 -0.8402613486605 0.5938734206930206
0.760962 -0.8440723690787124 0.5890203624213777
0.7629619 -0.8476001005869959 0.5840510892491343
0.7649618 -0.8510088980369725 0.5787688915469267
0.7669617 -0.8549305829746702 0.5737258411805237
0.7689616 -0.8585474087372211 0.5685513334594593
0.7709615 -0.8619334727122174 0.5635038597288188
0.7729614 -0.8650820852493123 0.5581148001329947
0.7749613 -0.8689126728030082 0.5530950738819371
0.7769612 -0.8723733787036726 0.5479291669283614
0.7789611 -0.8755584454355645 0.5427637686720628
0.780961 -0.8789253314791537 0.5372736179519815
0.7829609 -0.8823486667978363 0.5322693136104605
0.7849608 -0.8854599773284002 0.5268734961769838
0.7869607 -0.8886395724627292 0.5216205440271097
0.7889606 -0.8921143981926701 0.5160567034339018
0.7909605 -0.8952898498452642 0.5107732638571195
0.7929604 -0.8982045243189406 0.5055515016100757
0.7949603 -0.9012728830718745 0.499910369031089
0.7969602 -0.9044064609030252 0.4946917722369104
0.7989601 -0.9075422004953697 0.489092886240663
0.80096 -0.9104893358528854 0.4837255279326205
0.8029599 -0.9133660488909945 0.47834938586842424
0.8049598 -0.9162181496828384 0.472662351376505
0.8069597 -0.9189007135182671 0.4670948301779169
0.8089596 -0.9219668137636153 0.46167390509402106
0.8109595 -0.9251965914806191 0.4562566354518224
0.8129594 -0.927855892586722 0.45054158862976074
0.8149593 -0.9305972888893638 0.4450443327000686
0.8169592 -0.9333529431527335 0.43947410085010163
0.8189591 -0.9359545001209529 0.4340927601496702
