! Created with skrf 1.8.0 (http://scikit-rf.org).
# GHz S RI R 50.0 
!freq ReS11 ImS11
0.001 -0.9998600646696232 0.0007004032206947078
0.0029999 -0.9999949320119921 0.0029432627896367886
0.0049998 -1.003729323017268 0.0030596060912561063
0.0069997 -1.0085434901789458 -0.005269470694023365
0.0089996 -1.0252710195175925 -0.0225101857343235
0.0109995 -1.023263182269519 -0.03151161319478757
0.0129994 -1.0223817608460635 -0.0378867473823183
0.0149993 -1.022114454197503 -0.044745897490923225
0.0169992 -1.0213960364639574 -0.05150993358926835
0.0189991 -1.0212836007868917 -0.05911459528469422
0.020999 -1.020278787840589 -0.06464018865127111
0.0229989 -1.0193905407149826 -0.07116622199612649
0.0249988 -1.019011352322744 -0.07702895993641534
0.0269987 -1.018178647660766 -0.08392908423646202
0.0289986 -1.017646050188619 -0.08946449595372512
0.0309985 -1.0173467349467622 -0.09582085783530406
0.0329984 -1.0167275773197009 -0.10226355348560702
0.0349983 -1.0157317596369155 -0.10922166272428574
0.0369982 -1.0154645365018677 -0.11516220889578523
0.0389981 -1.0147080713232448 -0.12170670887012106
0.040998 -1.0151336092466172 -0.12660153791414408
0.0429979 -1.0134372282527864 -0.13250811697956566
0.0449978 -1.0128168938740154 -0.13857994519444614
0.0469977 -1.012344327678935 -0.14372795391560256
0.0489976 -1.0112207064609358 -0.14994402763065748
0.0509975 -1.0111213973721476 -0.15706007384366028
0.0529974 -1.0094727779828037 -0.16379789608900952
0.0549973 -1.0095892293250501 -0.16992090456900574
0.0569972 -1.0087995797689067 -0.17493301516841847
0.0589971 -1.0088678191785474 -0.18001188903157064
0.060997 -1.0075723084158092 -0.18713109919020735
0.0629969 -1.0061382090361328 -0.1916760583279497
0.0649968 -1.007300767057615 -0.19761244852981363
0.0669967 -1.0042373532271642 -0.2040406088076991
0.0689966 -1.0039299176015783 -0.20994892519560682
0.0709965 -1.0036152774775682 -0.21376765748431173
0.0729964 -1.0004762764306323 -0.22103231104971577
0.0749963 -1.0003739646915462 -0.22808732897397688
0.0769962 -0.9992639628748712 -0.23250517969178158
0.0789961 -0.9975320106848691 -0.23887424113250322
0.080996 -0.9971378416941942 -0.24385532546395167
0.0829959 -0.9955490576467926 -0.25127639914304484
0.0849958 -0.9941637126840086 -0.25580808488160645
0.0869957 -0.9918188508714585 -0.2629725380023103
0.0889956 -0.9918555360938628 -0.26827068836598633
0.0909955 -0.9887524291427244 -0.2751425205569253
0.0929954 -0.9885052345893436 -0.2811662970616441
0.0949953 -0.9859630787648986 -0.2857679216049347
0.0969952 -0.9843697325699463 -0.29284738969967394
0.0989951 -0.9838501624329875 -0.2976654174440945
0.100995 -0.9805826786125704 -0.30467134910870114
0.1029949 -0.978462421653243 -0.31185110117395665
0.1049948 -0.9765337045484355 -0.3170444510198565
0.1069947 -0.9747692757315441 -0.3226406085589597
0.1089946 -0.9726978319168306 -0.32840607493385343
0.1109945 -0.9705186007061578 -0.3341560565997473
0.1129944 -0.9688430305091446 -0.34012379155029127
0.1149943 -0.9672805514690967 -0.34576153119776154
0.1169942 -0.9649138139591261 -0.3522630563774701
0.1189941 -0.9622422680748831 -0.35745927404758293
0.120994 -0.9607937175575073 -0.36334988532911333
0.1229939 -0.9585873191905931 -0.3693209110317004
0.1249938 -0.9559522482645791 -0.3752187459413352
0.1269937 -0.9554078796287533 -0.38012211967220555
0.1289936 -0.9521516940511255 -0.38493202102880775
0.1309935 -0.9507353250065639 -0.3919126990865067
0.1329934 -0.946912563358258 -0.396540521228975
0.1349933 -0.9464876163620751 -0.4025853382265848
0.1369932 -0.9442145011252803 -0.40864623029518754
0.1389931 -0.9412406980367154 -0.4127121931036055
0.140993 -0.9406714355964564 -0.4189962853080429
0.1429929 -0.9366455057326546 -0.42450263111767517
0.1449928 -0.9349748817700018 -0.43040720220890855
0.1469927 -0.9326982730441132 -0.4355823686428745
0.1489926 -0.9305342643300396 -0.4406326122335701
0.1509925 -0.9284443532846074 -0.4466795755853105
0.1529924 -0.9262654110125246 -0.4527052101232884
0.1549923 -0.9226177473580949 -0.4569715911707251
0.1569922 -0.9210619749312082 -0.4621866562801993
0.1589921 -0.9176824662830829 -0.4689892696419283
0.160992 -0.9163264578540385 -0.47398283791501816
0.1629919 -0.9128915663836504 -0.4801223129070442
0.1649918 -0.9099847751722954 -0.4850115835874669
0.1669917 -0.9077699443645323 -0.49050934754143116
0.1689916 -0.904109462414075 -0.4961008021339611
0.1709915 -0.900482380891448 -0.5001051569587985
0.1729914 -0.898983760227248 -0.5069923332146593
0.1749913 -0.8949138607414009 -0.5111061412055298
0.1769912 -0.8926374927465163 -0.517595538896372
0.1789911 -0.8885119148925336 -0.5225258301430926
0.180991 -0.8855996456819812 -0.5278898654728718
0.1829909 -0.8827355399893118 -0.5334474418932355
0.1849908 -0.8793863085373216 -0.5387091028414092
0.1869907 -0.8768373294156914 -0.544826396176575
0.1889906 -0.8731319951205684 -0.5494562856052269
0.1909905 -0.8701248183492502 -0.5542734773220462
0.1929904 -0.8664919164169923 -0.5589653101475722
0.1949903 -0.8642878451317252 -0.5652583362706806
0.1969902 -0.859885427599089 -0.5703363023590509
0.1989901 -0.8565135240024454 -0.5751563502932505
0.20099 -0.8524038788598858 -0.5802103256473927
0.2029899 -0.8499040895902705 -0.5855493365382517
0.2049898 -0.8473287734695514 -0.5906905624310104
0.2069897 -0.8431261717407428 -0.5956792259422028
0.2089896 -0.8405247300774182 -0.6007861741668084
0.2109895 -0.8368962238954324 -0.6053769466541338
0.2129894 -0.8332872500465085 -0.6099151984112182
0.2149893 -0.8293486269264657 -0.6154377527652769
0.2169892 -0.8273902682839012 -0.6202169158382821
0.2189891 -0.8230361853949165 -0.624838605508239
0.220989 -0.8195969957364247 -0.6297642459697776
0.2229889 -0.8153392764062937 -0.6341855966819449
0.2249888 -0.8119534640568696 -0.6400900176432822
0.2269887 -0.8101014639242059 -0.6449269763973057
0.2289886 -0.8050908881517361 -0.6503053438166613
0.2309885 -0.8010162484482755 -0.6539604859418439
0.2329884 -0.7984672054699996 -0.6588082558976067
0.2349883 -0.7940607107676626 -0.6643021364811914
0.2369882 -0.7906254819590226 -0.6684758464002075
0.2389881 -0.78667669977074 -0.6734736698889676
0.240988 -0.7830577879897683 -0.6789451999297444
0.2429879 -0.7787681162635777 -0.6832537302357575
0.2449878 -0.775014487750133 -0.6875842418690622
0.2469877 -0.7703355832488488 -0.6920036995479578
0.2489876 -0.7672971509867006 -0.6978001863128207
0.2509875 -0.7626205055895149 -0.7012386912389131
0.2529874 -0.7583727957536943 -0.7057603306177475
0.2549873 -0.7540099135463192 -0.7106023128565232
0.2569872 -0.7500384725552808 -0.7149640169255644
0.2589871 -0.7450101404896959 -0.7198061138872696
0.260987 -0.741427118081666 -0.724930630212312
0.2629869 -0.7375259826819455 -0.7289366489275805
0.2649868 -0.7335486553293903 -0.7326663772331994
0.2669867 -0.7287445214989411 -0.737436309014061
0.2689866 -0.7245491280773338 -0.7419186595573801
0.2709865 -0.7206970008204112 -0.7461448308375422
0.2729864 -0.7155008668394596 -0.7502015589253708
0.2749863 -0.7113937720952562 -0.7547162974952615
0.2769862 -0.706824552291646 -0.7596872613224435
0.2789861 -0.701581034075288 -0.7625169970820278
0.280986 -0.6981985932262833 -0.7667017305200184
0.2829859 -0.6941883439817688 -0.7719887533682608
0.2849858 -0.6901486229407716 -0.7753178548207275
0.2869857 -0.6852513183819218 -0.7794556478154187
0.2889856 -0.680990469891482 -0.7844998245808154
0.2909855 -0.6764708560407563 -0.7876225515540998
0.2929854 -0.6711434579007031 -0.7917063885106553
0.2949853 -0.6674044487895961 -0.7961224016068041
0.2969852 -0.66312237990444 -0.8006202118056218
0.2989851 -0.657696077248961 -0.8040000415657993
0.300985 -0.6541281821840514 -0.8076751918084402
0.3029849 -0.6484442694644853 -0.812174995141903
0.3049848 -0.644468640506089 -0.8162606257242212
0.3069847 -0.6401212190928092 -0.8210680682126147
0.3089846 -0.6347755529258865 -0.8246545246694171
0.3109845 -0.6299381588631786 -0.8286645447425028
0.3129844 -0.6257186314279991 -0.8326203769008923
0.3149843 -0.6206659791153528 -0.8361356281250656
0.3169842 -0.6161859269362641 -0.8401254887337453
0.3189841 -0.6125184503533884 -0.8446526116635341
0.320984 -0.6068050821306714 -0.8481345364397481
0.3229839 -0.601898376788306 -0.8520484729179442
0.3249838 -0.5950065900913905 -0.8554379223961024
0.3269837 -0.5917728177632566 -0.8593531098269439
0.3289836 -0.5860355694420922 -0.863347077542718
0.3309835 -0.5806136016772481 -0.8679106161137553
0.3329834 -0.5762345310643422 -0.8723217611432531
0.3349833 -0.5708730038927787 -0.8756235894884714
0.3369832 -0.5655326937418853 -0.8781954919208901
0.3389831 -0.5609188193641781 -0.8814089804936408
0.340983 -0.5556285170240017 -0.8841014096502869
0.3429829 -0.5504195168656449 -0.8876310508068265
0.3449828 -0.544789518902133 -0.8914249347666005
0.3469827 -0.5396497918477872 -0.8936981087881135
0.3489826 -0.534935841372995 -0.8975788093751361
0.3509825 -0.5292379635986908 -0.9000761127244655
0.3529824 -0.5237656831087543 -0.9036218292957708
0.3549823 -0.5190506050371589 -0.906678378649974
0.3569822 -0.5132732916044213 -0.9094138612272884
0.3589821 -0.506993970879553 -0.9126314671046478
0.360982 -0.5016950823693883 -0.9156283792010459
0.3629819 -0.4967760596660038 -0.9192927922146404
0.3649818 -0.49131506635258015 -0.9218182473279023
0.3669817 -0.486446604580414 -0.9252111910240619
0.3689816 -0.4804039642054364 -0.9280000478170368
0.3709815 -0.47572207344715944 -0.9306788044823402
0.3729814 -0.4688779347056064 -0.9349168724737488
0.3749813 -0.46432579484133474 -0.9365995532079944
0.3769812 -0.4595126796529957 -0.9398183214902569
0.3789811 -0.45487230953071744 -0.9428212013629156
0.380981 -0.4489069484568606 -0.9465205333099586
0.3829809 -0.4434326746709347 -0.9491279959762801
0.3849808 -0.4362688004520369 -0.9510248556647243
0.3869807 -0.4325909722207717 -0.9545689218994433
0.3889806 -0.4259036820570735 -0.9569193118467472
0.3909805 -0.42009594046504495 -0.9592799243064793
0.3929804 -0.4141882205510235 -0.9625606161413885
0.3949803 -0.4087049993524364 -0.9643949322713763
0.3969802 -0.40271226553741646 -0.9672260490556588
0.3989801 -0.39769470268405227 -0.9708022009556118
0.40098 -0.3917716651487936 -0.9731932032638573
0.4029799 -0.38650752319228554 -0.9752389359054874
0.4049798 -0.38024158466681257 -0.9774902551149078
0.4069797 -0.3747673843890039 -0.9811683008414612
0.4089796 -0.3696117413176795 -0.982684142996695
0.4109795 -0.3630741942930942 -0.9852278759008775
0.4129794 -0.3574395970552602 -0.9868318220324975
0.4149793 -0.3516379660725775 -0.9897448888522211
0.4169792 -0.34562221120097436 -0.9928298137993627
0.4189791 -0.33928191702491317 -0.9950414310793495
0.420979 -0.3335110060412832 -0.9973106446800756
0.4229789 -0.3281212696067029 -0.9989690551350787
0.4249788 -0.3212544735385133 -1.0005531897630329
0.4269787 -0.3151648387664668 -1.0022651916660292
0.4289786 -0.30894247360476756 -1.0048807990553068
0.4309785 -0.3033795157193217 -1.0063327765690813
0.4329784 -0.29679399317823285 -1.0090168199072629
0.4349783 -0.2912325434203793 -1.011090860909548
0.4369782 -0.28528795320653594 -1.0126641957759317
0.4389781 -0.27835583890110643 -1.0139277868900043
0.440978 -0.2735227551036953 -1.0161353212461397
0.4429779 -0.2679598056128628 -1.0178976178436
0.4449778 -0.26146617921806226 -1.0197056222192344
0.4469777 -0.2562379112429619 -1.022648768036319
0.4489776 -0.2494791725683717 -1.023526530447408
0.4509775 -0.24352544157004663 -1.0247488189220146
0.4529774 -0.23703329613508575 -1.026284275902129
0.4549773 -0.23064756738016862 -1.028341586186638
0.4569772 -0.22453553210146193 -1.0301440941379152
0.4589771 -0.21789836761775028 -1.0317323963805143
0.460977 -0.21176702623869426 -1.032424894392526
0.4629769 -0.20580761090336977 -1.0343130021566658
0.4649768 -0.2003784179903097 -1.0359089061532147
0.4669767 -0.19340701286597128 -1.0380172851400435
0.4689766 -0.18786273063971778 -1.039032823888927
0.4709765 -0.18193519113035367 -1.040228582188451
0.4729764 -0.17484249333025667 -1.041661813401699
0.4749763 -0.1687423219017699 -1.042435728145008
0.4769762 -0.16317342237006108 -1.043623087960182
0.4789761 -0.15629341979086353 -1.044194546438566
0.480976 -0.15026454947966747 -1.0453453700211923
0.4829759 -0.1443974766975629 -1.0469910446143573
0.4849758 -0.13799627958552585 -1.0480076698524836
0.4869757 -0.13213078133418826 -1.0489171544432223
0.4889756 -0.12486311949291723 -1.0505597331789738
0.4909755 -0.11823441845469554 -1.0515774362656338
0.4929754 -0.1115216415879024 -1.0518170824796798
0.4949753 -0.10521043190336296 -1.0531247806329556
0.4969752 -0.09930261227514325 -1.0543851658320431
0.4989751 -0.09190920223463875 -1.0546560747439777
0.500975 -0.08579200383444417 -1.0557814162571777
0.5029749 -0.07978145018225703 -1.0565921856564926
0.5049748 -0.07326141786839019 -1.0568202643319884
0.5069747 -0.06696108495652543 -1.0580467036506154
0.5089746 -0.06005825573504466 -1.0586357104306825
0.5109745 -0.054599283780370184 -1.059132237333729
0.5129744 -0.04787012783617488 -1.0592079264204866
0.5149743 -0.041312100083700225 -1.0595883639899912
0.5169742 -0.03470541410249615 -1.0610162606629778
0.5189741 -0.027950669780267445 -1.0612026761487359
0.520974 -0.021296980457302134 -1.061443220940735
0.5229739 -0.015216375720368908 -1.0617104300427478
0.5249738 -0.008267430403420387 -1.0617054470312792
0.5269737 -0.0019326905587573953 -1.0621719950470045
0.5289736 0.0047275341736836285 -1.0619828168525423
0.5309735 0.010620222692771103 -1.063047975022752
0.5329734 0.01765749968880917 -1.0627760740184833
0.5349733 0.023574397769415903 -1.0630846694248564
0.5369732 0.030452736154456678 -1.06297950840098
0.5389731 0.03689598246783006 -1.0621508942306468
0.540973 0.04267898875203187 -1.063837392696582
0.5429729 0.049296706830570663 -1.0639019549373288
0.5449728 0.05528466779711501 -1.0635369651244195
0.5469727 0.0621704994430583 -1.0634721982344346
0.5489726 0.0684536715903383 -1.0629065307622896
0.5509725 0.07510463953453633 -1.0630300917828153
0.5529724 0.08187200064389033 -1.0623109717540333
0.5549723 0.08829436962143464 -1.0616976288765656
0.5569722 0.09485218889397846 -1.061792255812832
0.5589721 0.10131565015855024 -1.0612211551597686
0.560972 0.10804540511596349 -1.060928204214945
0.5629719 0.11411655456008904 -1.0599438676410204
0.5649718 0.12067706812019754 -1.0593021959030602
0.5669717 0.1276810784896153 -1.058775308254077
0.5689716 0.13384044897967368 -1.0583332691472043
0.5709715 0.14083590504057664 -1.0581482665392827
0.5729714 0.1472659824235898 -1.0572210956750352
0.5749713 0.15332189988513967 -1.0567615364056933
0.5769712 0.1603834469592735 -1.0562226680933113
0.5789711 0.16625643561692044 -1.0555901035731294
0.580971 0.17272084982911073 -1.0546493359221367
0.5829709 0.18022556980427576 -1.0533542926160777
0.5849708 0.18568056603802258 -1.0526651349309006
0.5869707 0.19308767807387545 -1.051651796539004
0.5889706 0.19960393061098602 -1.050768594879968
0.5909705 0.20624821114869024 -1.049474654860273
0.5929704 0.21255547926832652 -1.0484714242190132
0.5949703 0.21919252886763615 -1.0474968248554195
0.5969702 0.22557482871976273 -1.0468997855539093
0.5989701 0.2325914934714212 -1.045273544992967
0.60097 0.23938455754148075 -1.0437660693080892
0.6029699 0.24584837426913442 -1.042971198556172
0.6049698 0.2523429694838645 -1.0416473249176397
0.6069697 0.2595630405339061 -1.040245808141155
0.6089696 0.2649600032473505 -1.0385392175364454
0.6109695 0.2717468695360699 -1.0372154308064023
0.6129694 0.2777363708511028 -1.0362184939485217
0.6149693 0.28487154133380344 -1.0340003363090404
0.6169692 0.29099953858702515 -1.0321151757730629
0.6189691 0.29758674201882096 -1.030948557784052
0.620969 0.30329534504398326 -1.0288967005448795
0.6229689 0.31078539448446996 -1.0276544933146798
0.6249688 0.31684547972392396 -1.025463261764083
0.6269687 0.323426256285414 -1.0235247358761845
0.6289686 0.3300311843174563 -1.0220189074448016
0.6309685 0.33687880111993196 -1.0208164979278964
0.6329684 0.3430792880129374 -1.0180987639166168
0.6349683 0.34985406566831845 -1.0167820497198703
0.6369682 0.35604598426407835 -1.0152509992243464
0.6389681 0.36178192806306997 -1.0129077473615258
0.640968 0.36940663717399796 -1.0106687322699677
0.6429679 0.37488639993321843 -1.0092589830627727
0.6449678 0.38133194172982376 -1.0069867209159815
0.6469677 0.38778131894327533 -1.0044566811404212
0.6489676 0.3937842186919498 -1.0021795610993323
0.6509675 0.4005614426852061 -0.9993768009396995
0.6529674 0.4069211758882437 -0.9967295264741763
0.6549673 0.4131770298833884 -0.9946240920363976
0.6569672 0.41960820968920515 -0.9917723283131638
0.6589671 0.42623359729022103 -0.9892121223509325
0.660967 0.43160147915652586 -0.9871884654125398
0.6629669 0.43873802676776447 -0.9843257726458874
0.6649668 0.4447269540231977 -0.9813332539617896
0.6669667 0.45192933762281573 -0.9790628864472113
0.6689666 0.4582830798012023 -0.9764696914737354
0.6709665 0.4643204970073315 -0.974320445623585
0.6729664 0.47013584972446654 -0.9718088174375509
0.6749663 0.4769243028115543 -0.9694961601718551
0.6769662 0.483436356340035 -0.9667385469856397
0.6789661 0.4893585858917798 -0.9641192306611619
0.680966 0.4963029018729037 -0.9603723836110081
0.6829659 0.5021454332568931 -0.9573295265819336
0.6849658 0.5083287979448782 -0.9551374624929241
0.6869657 0.514321466990378 -0.9509502098102567
0.6889656 0.5203018290837844 -0.9478122584336193
0.6909655 0.5264755310444656 -0.9447188140017205
0.6929654 0.5323067914054568 -0.9413662946309046
0.6949653 0.538795711448605 -0.9379405817228146
0.6969652 0.5447660838582163 -0.9347259257786436
0.6989651 0.5508226219202559 -0.9314355931849095
0.700965 0.55654687768659 -0.9276670360373402
0.7029649 0.5627508338988781 -0.9242995280381949
0.7049648 0.5688187424727428 -0.9210857361490781
0.7069647 0.5749828455053799 -0.9177438542706979
0.7089646 0.5812716176684308 -0.9143974044856014
0.7109645 0.5871900327627244 -0.9106269503781265
0.7129644 0.5931180630376016 -0.9076639115426746
0.7149643 0.5990364325317812 -0.904112982934808
0.7169642 0.6045816298804345 -0.8999339301001682
0.7189641 0.6105245003988912 -0.8960240728283018
0.720964 0.6163730382043229 -0.8927286280940946
0.7229639 0.6224914270109129 -0.8886459183721904
0.7249638 0.628044348458018 -0.885137250796362
0.7269637 0.6340695499727842 -0.8810847920093731
0.7289636 0.6394009587307117 -0.8770326960314202
0.7309635 0.6451155955543932 -0.8722901024190686
0.7329634 0.65136215623202 -0.8685421329326454
0.7349633 0.657202253917768 -0.8645478438478403
0.7369632 0.662916642133675 -0.8605407131095905
0.7389631 0.6683500952064716 -0.8567406602947748
0.740963 0.674485760550476 -0.8536232894175365
0.7429629 0.6806601008232045 -0.8495046889364994
0.7449628 0.6860334533777885 -0.8453559336371261
0.7469627 0.691099013444515 -0.8407737073818887
0.7489626 0.6979005017340826 -0.8365606447575259
0.7509625 0.7026728571387393 -0.8320841541702778
0.7529624 0.7082555007792309 -0.8273997335960479
0.7549623 0.7139930274138445 -0.8227077636131748
0.7569622 0.7197487813746967 -0.8174336268922265
0.7589621 0.7245846310516593 -0.8131941930241777
0.760962 0.7296707779979014 -0.808247606624114
0.7629619 0.7353868077304485 -0.8031351774622622
0.7649618 0.740710844190188 -0.7991310936382404
0.7669617 0.746024934991567 -0.7933633138402868
0.7689616 0.7510281596141883 -0.788443403315886
0.7709615 0.7566798811795012 -0.7841828922125305
0.7729614 0.761460705405881 -0.7796248446980645
0.7749613 0.767454395856484 -0.7751040857466747
0.7769612 0.7723123412575721 -0.7706116649164922
0.7789611 0.7779711523619278 -0.765221716508298
0.780961 0.7830867289126752 -0.7604972642037666
0.7829609 0.7879403806862926 -0.7558877467082754
0.7849608 0.7936350204679716 -0.7501050308819136
0.7869607 0.7981618803771441 -0.7452756343353986
0.7889606 0.8029515259005913 -0.7399066182745182
0.7909605 0.8076146218171625 -0.7350711043396269
0.7929604 0.8122892755604002 -0.7292938226257447
0.7949603 0.8175835946796979 -0.7238778073672897
0.7969602 0.8219498858839076 -0.7189299733284674
0.7989601 0.8271261648581382 -0.7133011939961524
