! Created with skrf 1.8.0 (http://scikit-rf.org).
# GHz S RI R 50.0 
!freq ReS11 ImS11
0.001 -1.0000531637831218 0.0005027341537873489
0.0029999 -1.0004166829647188 -0.000527238464825254
0.0049998 -0.995322600565876 -0.0037905406733575453
0.0069997 -1.012248886035856 -0.0013745416638017982
0.0089996 -1.0171188061829128 -0.01995263894037512
0.0109995 -1.022307983263953 -0.02908070449900632
0.0129994 -1.0244987147220834 -0.03669394447196793
0.0149993 -1.0236143456031952 -0.043960160457213196
0.0169992 -1.0253286863938647 -0.051028825411294734
0.0189991 -1.0267509201041123 -0.0583262698441207
0.020999 -1.0271532398979648 -0.06420319861025747
0.0229989 -1.0269938378123618 -0.07050522733560001
0.0249988 -1.0272786089691825 -0.07594463787567712
0.0269987 -1.0271437068498597 -0.08243236146980168
0.0289986 -1.0268303758722483 -0.0875183130172239
0.0309985 -1.0275031450291539 -0.0931591232571875
0.0329984 -1.0265276077629992 -0.09945391663099945
0.0349983 -1.0257761875008906 -0.10645318601654358
0.0369982 -1.0251873467210972 -0.11209740172061058
0.0389981 -1.024865784031508 -0.11789944271961195
0.040998 -1.024037054707085 -0.12310335844742584
0.0429979 -1.0235570825406122 -0.1284963629639356
0.0449978 -1.0222130806747718 -0.1348751528796669
0.0469977 -1.021552787101263 -0.13915369264645883
0.0489976 -1.0206220534410058 -0.1452335191320153
0.0509975 -1.0200740439148166 -0.15268571805327802
0.0529974 -1.019669338959497 -0.15781815183097125
0.0549973 -1.0188979467427104 -0.16537844845629565
0.0569972 -1.0172801586956541 -0.16948758268737998
0.0589971 -1.017213860164033 -0.17506034626305272
0.060997 -1.016117271397049 -0.18171542233868115
0.0629969 -1.0147345452967884 -0.1865089289498307
0.0649968 -1.0153526809665627 -0.1927668926141021
0.0669967 -1.0120973628484775 -0.19959256832067057
0.0689966 -1.0123644158916343 -0.20428240450693386
0.0709965 -1.0111948473241492 -0.207909332508309
0.0729964 -1.0090802322851566 -0.2152964922466159
0.0749963 -1.009589210459701 -0.2221514691048805
0.0769962 -1.007938184051496 -0.2267719633882085
0.0789961 -1.0057117867206142 -0.23277104823083575
0.080996 -1.0055893597557481 -0.23795095139833722
0.0829959 -1.0044454392862798 -0.24460036096033444
0.0849958 -1.002694152394901 -0.2487976597695618
0.0869957 -1.0010986671803797 -0.25600748782698174
0.0889956 -1.001320743862878 -0.26099626558702943
0.0909955 -0.9985028553138704 -0.26762849613588674
0.0929954 -0.9982400748036058 -0.2729196696745824
0.0949953 -0.9960685765663962 -0.2776474800978543
0.0969952 -0.9943133789608963 -0.28414720385430015
0.0989951 -0.9953243065222331 -0.2904478758699196
0.100995 -0.9918669940173189 -0.29576739764601756
0.1029949 -0.9902974446553776 -0.3021405612214194
0.1049948 -0.9880659301995777 -0.30767159984818654
0.1069947 -0.9864693932918347 -0.3131283061181286
0.1089946 -0.9849476900128206 -0.3185264676625631
0.1109945 -0.9826762683387424 -0.32396934382788295
0.1129944 -0.9809046717633543 -0.32991224758136645
0.1149943 -0.9792289868075104 -0.33558980622050005
0.1169942 -0.9771327502624209 -0.34136002628717993
0.1189941 -0.9745839187047178 -0.3466295736747189
0.120994 -0.973586516342853 -0.3525035977985759
0.1229939 -0.9716872759015183 -0.3580810328240752
0.1249938 -0.9691218135891667 -0.3631097676055817
0.1269937 -0.9683997894362055 -0.3689509676811011
0.1289936 -0.9642665210749393 -0.37440138295513775
0.1309935 -0.9637278504094687 -0.37972166121373596
0.1329934 -0.9603678559360941 -0.3845295351318049
0.1349933 -0.959296562124016 -0.39057253180756224
0.1369932 -0.9570249970384835 -0.39649881006199955
0.1389931 -0.9543445504793482 -0.4004263889332902
0.140993 -0.9514218340031382 -0.4070929503398252
0.1429929 -0.9496790457794879 -0.41274906864220823
0.1449928 -0.9483949357376105 -0.4166885116510763
0.1469927 -0.945384806165593 -0.42325026150829465
0.1489926 -0.9430674880212436 -0.4288640826578884
0.1509925 -0.9413929408998886 -0.4334367679911063
0.1529924 -0.9392435314029193 -0.43988577737601076
0.1549923 -0.9355616824326477 -0.44568058863279375
0.1569922 -0.9344056294837578 -0.4494918827337936
0.1589921 -0.9314270950468443 -0.45583723033453616
0.160992 -0.9296732869990937 -0.4605759005768496
0.1629919 -0.9266648430757837 -0.46731224902574653
0.1649918 -0.9236348021212173 -0.472130175449606
0.1669917 -0.9214301825193923 -0.47704286311848626
0.1689916 -0.9185294244749461 -0.4822947505902178
0.1709915 -0.9158786966242732 -0.48843622957741867
0.1729914 -0.9139109477069614 -0.49365531252907824
0.1749913 -0.9100997271308481 -0.4981734066988662
0.1769912 -0.9081532795876386 -0.5045123269777547
0.1789911 -0.90425889172809 -0.5087192210612923
0.180991 -0.9015983713593078 -0.514264286877982
0.1829909 -0.8988868319909719 -0.5192432853450282
0.1849908 -0.8957649458524899 -0.524830685676329
0.1869907 -0.8939004603383444 -0.5306920133153449
0.1889906 -0.8900601754760185 -0.5348725904711155
0.1909905 -0.8874148357143486 -0.539681410543161
0.1929904 -0.8836954434433117 -0.544773912286447
0.1949903 -0.8816235254547448 -0.5504688989499779
0.1969902 -0.8786676247119116 -0.5563883346899968
0.1989901 -0.8748950785161145 -0.5603456201308833
0.20099 -0.8717183766173382 -0.5646478869657151
0.2029899 -0.8679890695854833 -0.5713713879775667
0.2049898 -0.8653730552290604 -0.5759229612045501
0.2069897 -0.8623591601490656 -0.5804431279166402
0.2089896 -0.8593162737171789 -0.586088192005077
0.2109895 -0.856042158452983 -0.5902250693524227
0.2129894 -0.8523186574766333 -0.5949144915138929
0.2149893 -0.8485054202052139 -0.6005589686450958
0.2169892 -0.8459548791386342 -0.6048149520694225
0.2189891 -0.8417125697631727 -0.6105598287974774
0.220989 -0.8385414998781543 -0.6151002867158372
0.2229889 -0.8345349751098102 -0.6183813618164833
0.2249888 -0.830817021930285 -0.6243495943213061
0.2269887 -0.8288948921867276 -0.6297952423863752
0.2289886 -0.8246363909277151 -0.6346071732044958
0.2309885 -0.8204266175644016 -0.6395226429412763
0.2329884 -0.8174621902621645 -0.6445208630650838
0.2349883 -0.8137155703588784 -0.6491666245672415
0.2369882 -0.810149610175079 -0.6530757732269528
0.2389881 -0.8063068741867299 -0.6584975303226204
0.240988 -0.8034246541522004 -0.6635233894398151
0.2429879 -0.7990277808761217 -0.6673381284517081
0.2449878 -0.7953485968947993 -0.6723478275563581
0.2469877 -0.7911225492229281 -0.6770212738575716
0.2489876 -0.7879070105430119 -0.6828409691327905
0.2509875 -0.7835469508996061 -0.6866685022117507
0.2529874 -0.779829643098841 -0.6908942599854098
0.2549873 -0.7757172939907699 -0.6953528801426782
0.2569872 -0.7721229490740398 -0.7003602152087144
0.2589871 -0.7669713813324098 -0.7047823551130774
0.260987 -0.763536644550242 -0.7096958864164361
0.2629869 -0.7595602780135822 -0.714771841026046
0.2649868 -0.7551168254389887 -0.7184377582072133
0.2669867 -0.7520832730096981 -0.7228041357063738
0.2689866 -0.7478148308746635 -0.7274294964374337
0.2709865 -0.7436574844760865 -0.731654692818914
0.2729864 -0.7388710763153393 -0.7360137467056113
0.2749863 -0.7352875805035729 -0.7412408545745065
0.2769862 -0.7307519551042518 -0.7452333436923277
0.2789861 -0.725629480502947 -0.7485499666324937
0.280986 -0.7218932230981236 -0.7531718554095699
0.2829859 -0.7179972385029837 -0.7586923200143225
0.2849858 -0.7139871455148561 -0.761613228059736
0.2869857 -0.7092370623616857 -0.7666248601663939
0.2889856 -0.7047102257520325 -0.7713029759278949
0.2909855 -0.6999193955124637 -0.7746701199253878
0.2929854 -0.6952781436789413 -0.7785422390632112
0.2949853 -0.6911191041986607 -0.7833840989155539
0.2969852 -0.6866270191082798 -0.7881030280622595
0.2989851 -0.6815823701916283 -0.7912739608239903
0.300985 -0.6768967412407931 -0.7955433985917119
0.3029849 -0.6721657901733334 -0.7986580200344422
0.3049848 -0.6680474993707266 -0.8029942456814797
0.3069847 -0.6635768188209984 -0.8076821066632507
0.3089846 -0.6581756519091618 -0.8109477473982305
0.3109845 -0.6541073449930019 -0.8153655827007279
0.3129844 -0.6493193327776177 -0.8195518343415785
0.3149843 -0.6446528136671549 -0.8231784079162004
0.3169842 -0.6397706369523689 -0.8268143534327709
0.3189841 -0.6359010460129758 -0.8305250862221976
0.320984 -0.6310846146391863 -0.8345903195566292
0.3229839 -0.6263358120954268 -0.8382869703310553
0.3249838 -0.6202560482396883 -0.842460717006991
0.3269837 -0.6152723490561334 -0.8460494133737178
0.3289836 -0.6103635898752204 -0.8495636080982533
0.3309835 -0.605277373392135 -0.8535788938678023
0.3329834 -0.600908085056847 -0.8579107996234521
0.3349833 -0.5956089090422129 -0.861783475891195
0.3369832 -0.5907200724074549 -0.8639842954178918
0.3389831 -0.5857957077280174 -0.867812039730087
0.340983 -0.5803260037912135 -0.8710309387727954
0.3429829 -0.5753989197121246 -0.8744200122001999
0.3449828 -0.5708571071691751 -0.878635755683929
0.3469827 -0.5656934276843204 -0.8806720254119185
0.3489826 -0.5606360605358838 -0.8848272490456816
0.3509825 -0.5556581078219787 -0.8878958119879945
0.3529824 -0.5504274173235143 -0.8915865338869347
0.3549823 -0.5455984757065666 -0.8956015637311937
0.3569822 -0.539951500898614 -0.8988644153057633
0.3589821 -0.5335675708355474 -0.9018840701631092
0.360982 -0.5282381477716017 -0.905103689028508
0.3629819 -0.5232759944667196 -0.9086423254800557
0.3649818 -0.5178262669796372 -0.912022887985135
0.3669817 -0.5122016832423709 -0.9148366756246553
0.3689816 -0.5071229046917772 -0.9180549666479086
0.3709815 -0.5020950108136029 -0.921417958288199
0.3729814 -0.49521039201914485 -0.9249357075657277
0.3749813 -0.4902659661220382 -0.9271238750092604
0.3769812 -0.48561732570324545 -0.9300739531301816
0.3789811 -0.48104187826898814 -0.9339646527498502
0.380981 -0.4748541882587617 -0.9371615421085153
0.3829809 -0.46935314168977554 -0.9399467602866646
0.3849808 -0.46220259625267934 -0.941783602323031
0.3869807 -0.4581504226294165 -0.94523419400831
0.3889806 -0.4517870560824673 -0.9476570688234445
0.3909805 -0.44589408947561016 -0.9508301042269602
0.3929804 -0.4400253743515146 -0.9530747529539086
0.3949803 -0.43460792843022183 -0.9556947141276004
0.3969802 -0.4294642817122013 -0.9581492572422347
0.3989801 -0.42371926596380344 -0.9616911140634867
0.40098 -0.4175096321509799 -0.9639858861711099
0.4029799 -0.41229401228011814 -0.9662050521890819
0.4049798 -0.4060094434700031 -0.9688766126598062
0.4069797 -0.4009614268685674 -0.9724559701453783
0.4089796 -0.3953053552300457 -0.9743989782692426
0.4109795 -0.38889057687323236 -0.9767631277540135
0.4129794 -0.3836893761862065 -0.9784454362625895
0.4149793 -0.3776956523175044 -0.981418183412723
0.4169792 -0.37189521251782826 -0.9849203381849678
0.4189791 -0.3655056635322729 -0.9869566944811534
0.420979 -0.35967714124791983 -0.9894180701386847
0.4229789 -0.35372927963293466 -0.9917269466338221
0.4249788 -0.3478478230074939 -0.9931176263881009
0.4269787 -0.34168888327692876 -0.9957394549439303
0.4289786 -0.3357601004608951 -0.9980611783930375
0.4309785 -0.32966837032247603 -0.9999356696103837
0.4329784 -0.3235675259092704 -1.0022252728666277
0.4349783 -0.3175048104413957 -1.004429952592178
0.4369782 -0.3117797642052432 -1.0062558494795493
0.4389781 -0.3051443687186863 -1.008020025856353
0.440978 -0.2993805986657109 -1.010179823415221
0.4429779 -0.2937778114185062 -1.0123297538030254
0.4449778 -0.28759581910920573 -1.0142938720322414
0.4469777 -0.2821850315708692 -1.0165453278769425
0.4489776 -0.27534937721253566 -1.0182583528305302
0.4509775 -0.2685803877362196 -1.0193845560773382
0.4529774 -0.263118418063154 -1.0207560942570815
0.4549773 -0.2562246612876658 -1.0228885828996754
0.4569772 -0.2495533431099154 -1.0252846733653411
0.4589771 -0.24419968328510502 -1.0268460510611035
0.460977 -0.23696658965100714 -1.0278572885438213
0.4629769 -0.2311888171926053 -1.028814660422582
0.4649768 -0.22493981735582394 -1.0317090294555706
0.4669767 -0.21927794890128555 -1.0329580869422796
0.4689766 -0.2130527996423151 -1.0338578954743927
0.4709765 -0.2069736457202984 -1.0350466589304035
0.4729764 -0.20033749146664076 -1.0364583513464884
0.4749763 -0.19388808935986904 -1.037448440324054
0.4769762 -0.18812853208361457 -1.0386139884835643
0.4789761 -0.18150025505371375 -1.0396385255256506
0.480976 -0.17539567308023404 -1.0407819421036868
0.4829759 -0.16908987018036056 -1.0425265853692327
0.4849758 -0.1627171284731821 -1.043236137958002
0.4869757 -0.15644760718196987 -1.044567717283227
0.4889756 -0.14967581202088484 -1.0463590329014678
0.4909755 -0.14300023637660314 -1.0472171380760154
0.4929754 -0.13643584794860988 -1.047737908671391
0.4949753 -0.12987765101158627 -1.0493344729100904
0.4969752 -0.12366976459322229 -1.0504763038314757
0.4989751 -0.11667023090136372 -1.0517313914334263
0.500975 -0.11004160267443852 -1.0523113605175622
0.5029749 -0.10418447280969928 -1.053299452747829
0.5049748 -0.09764228336487134 -1.0536366307412952
0.5069747 -0.09193892138081453 -1.0550761872690422
0.5089746 -0.08489389180175391 -1.0556086459159102
0.5109745 -0.0790368992413739 -1.056620269307965
0.5129744 -0.07190806885010761 -1.05651235811629
0.5149743 -0.06552932394386832 -1.0574678333814134
0.5169742 -0.05898559574903049 -1.0582624522347293
0.5189741 -0.052692356347696895 -1.0588811192429655
0.520974 -0.04636713666785064 -1.058868397202348
0.5229739 -0.03931844634499262 -1.0588805351186805
0.5249738 -0.0325624389879992 -1.0586268216166352
0.5269737 -0.026075217504391422 -1.0592591569506415
0.5289736 -0.019503078395326882 -1.0588209729640767
0.5309735 -0.012986846499869413 -1.0593337526580955
0.5329734 -0.006339746593514176 -1.0596917785290791
0.5349733 0.0007836455462147396 -1.0593920353596917
0.5369732 0.007073948386981124 -1.0595533766666083
0.5389731 0.013431039613929052 -1.0591935370995718
0.540973 0.020444342379644653 -1.0605108551024298
0.5429729 0.02660277473456657 -1.060788212516263
0.5449728 0.03248204428815271 -1.0605669698081943
0.5469727 0.039472916018085155 -1.0603230348973174
0.5489726 0.046275796748247305 -1.0600785170146299
0.5509725 0.05310572140614908 -1.0600462976905816
0.5529724 0.05954809371945824 -1.0598276345465003
0.5549723 0.06617517385507682 -1.0591999052272951
0.5569722 0.07306908816631416 -1.0590639036740883
0.5589721 0.07939511529310711 -1.058365615316184
0.560972 0.086179041228196 -1.0584625664086618
0.5629719 0.09321203709992557 -1.057688942926424
0.5649718 0.09971419361484588 -1.0571517401792208
0.5669717 0.10641506413867244 -1.0566382281180164
0.5689716 0.11270523842964042 -1.056330288702872
0.5709715 0.11956326410195588 -1.0561208257820578
0.5729714 0.12668057314812442 -1.055282270090704
0.5749713 0.13230221761070096 -1.0548749156646067
0.5769712 0.13951336983956078 -1.0544373000010683
0.5789711 0.1454123575892478 -1.0543223747004034
0.580971 0.1527174835112889 -1.0530948690304331
0.5829709 0.1592760761540109 -1.0521596197391512
0.5849708 0.16603919158444422 -1.0506423170979895
0.5869707 0.17283917054971343 -1.0496348885216036
0.5889706 0.17928257524967467 -1.049084420576348
0.5909705 0.18621801970539126 -1.0474279474338646
0.5929704 0.19294230515666164 -1.0465889659610388
0.5949703 0.19972930582304455 -1.0456899381914173
0.5969702 0.2056695000071406 -1.045021160982722
0.5989701 0.21306032349517606 -1.0433320214456638
0.60097 0.21946122726648631 -1.0420647123817204
0.6029699 0.22566115296844175 -1.0408113039517164
0.6049698 0.23265253471330327 -1.039805482208228
0.6069697 0.239512537280324 -1.0382672266369066
0.6089696 0.24569681305982385 -1.0363659370953318
0.6109695 0.25202202867670676 -1.0357331692795582
0.6129694 0.2585591968335524 -1.0337989348518544
0.6149693 0.2650104973175718 -1.0322986811286816
0.6169692 0.27161892060078396 -1.0305151843756089
0.6189691 0.278020658703698 -1.0291378200597066
0.620969 0.2841214912436104 -1.0270645098331652
0.6229689 0.2911400850899011 -1.025602456892006
0.6249688 0.2980878896836636 -1.023691612199353
0.6269687 0.30422767687862634 -1.0216294005206727
0.6289686 0.3112153375303348 -1.0200900790049758
0.6309685 0.31779163065106575 -1.018901511722271
0.6329684 0.32402522884650903 -1.0164390938161887
0.6349683 0.33129876059009844 -1.0151185869703059
0.6369682 0.33785378705504066 -1.0138516737558974
0.6389681 0.3439804624093175 -1.0114142941412907
0.640968 0.351067509750757 -1.0090742762549512
0.6429679 0.3562245204595841 -1.00750240008014
0.6449678 0.3633422915018295 -1.0053415248980366
0.6469677 0.36948143493524377 -1.0030023007223101
0.6489676 0.37590028763800976 -1.000407676118357
0.6509675 0.3828862377767617 -0.9978070553042819
0.6529674 0.38841212381170903 -0.995128605648289
0.6549673 0.39507783509190525 -0.9929218881463111
0.6569672 0.4012893408647621 -0.9901428481931249
0.6589671 0.4081369577233671 -0.9876346893116581
0.660967 0.41346824609829597 -0.9852048743011443
0.6629669 0.4206686179304241 -0.982737601423916
0.6649668 0.4267774610903687 -0.9799931426321593
0.6669667 0.4336757275470382 -0.9775536235892855
0.6689666 0.43983819969285765 -0.9747747235972419
0.6709665 0.4465488979065354 -0.9724514246985236
0.6729664 0.4527443449678647 -0.9701043866660062
0.6749663 0.45915467120502396 -0.9667056021977548
0.6769662 0.46529286180160534 -0.9648840570622547
0.6789661 0.47106410318157316 -0.9624177948762445
0.680966 0.47773918661820286 -0.9587063516728529
0.6829659 0.48397365639142415 -0.9551954876458022
0.6849658 0.4901472433895687 -0.9532634446786957
0.6869657 0.4962754078070041 -0.9490791763949167
0.6889656 0.5020625636352384 -0.9461803920848042
0.6909655 0.5081754707222896 -0.9428049473769378
0.6929654 0.5141852313121208 -0.9394145979027736
0.6949653 0.520218591687622 -0.9363894752150641
0.6969652 0.5265804339008722 -0.9327641438716817
0.6989651 0.5324522414604758 -0.9298454750867815
0.700965 0.5387376861395985 -0.9256758934329288
0.7029649 0.5444949144272586 -0.9223594084109955
0.7049648 0.5504972381485901 -0.919566856746012
0.7069647 0.5565197108848867 -0.9160864461658152
0.7089646 0.5633407585366332 -0.9134303613804924
0.7109645 0.568502036452408 -0.9094738005468296
0.7129644 0.5745699877039165 -0.9060918092270507
0.7149643 0.5808599366514102 -0.9029443647028986
0.7169642 0.5863669873518472 -0.8988472515085937
0.7189641 0.5924427762174045 -0.8944927877130954
0.720964 0.5979228120742024 -0.8910159849047788
0.7229639 0.6039443685768686 -0.8869063663907358
0.7249638 0.6098962675365953 -0.8832547885626703
0.7269637 0.6158294373208294 -0.8795140805866201
0.7289636 0.6210215763454032 -0.8755519177096249
0.7309635 0.6271042435170008 -0.8706569641228209
0.7329634 0.6329195456037172 -0.8669982670944218
0.7349633 0.6387783263706783 -0.8628854554606837
0.7369632 0.6440291506313413 -0.8590590045496447
0.7389631 0.6497169192911693 -0.8552829680991164
0.740963 0.655889659712654 -0.8520319644351521
0.7429629 0.6617748609940507 -0.8482895163917645
0.7449628 0.6671140839733948 -0.8436741271611009
0.7469627 0.6722223746719836 -0.8391427751539475
0.7489626 0.678354073044775 -0.8356504493440824
0.7509625 0.6838380535838365 -0.8302675854452433
0.7529624 0.6890904606833497 -0.826174608667305
0.7549623 0.6943594514395046 -0.8213277500262263
0.7569622 0.6998641451297262 -0.8165672333725507
0.7589621 0.7049531141346619 -0.8121041629993881
0.760962 0.7100665563129824 -0.8072389885119021
0.7629619 0.7153491428165004 -0.8022454409757961
0.7649618 0.7207173390926244 -0.7978097695178256
0.7669617 0.7259769196589465 -0.7922762731432852
0.7689616 0.7309835931300295 -0.7876442728078007
0.7709615 0.7366149499855892 -0.7834609194670886
0.7729614 0.741319936892465 -0.7789136601928173
0.7749613 0.7474639442387757 -0.7745268001080741
0.7769612 0.7522032444818203 -0.7704502083726583
0.7789611 0.7578030906950521 -0.7650559512944944
0.780961 0.7627966822824651 -0.7604101564405492
0.7829609 0.7676118659959907 -0.7556315978044863
0.7849608 0.7726351719828152 -0.7508047470038925
0.7869607 0.7779321433575347 -0.7453783623836678
0.7889606 0.7827736841482663 -0.7397879949144663
0.7909605 0.7873189144991689 -0.7352697764177232
0.7929604 0.792198272725054 -0.7296468483364591
0.7949603 0.7972525458800117 -0.7244736461679709
0.7969602 0.8013901626728117 -0.719304534084801
0.7989601 0.8064553663834684 -0.7142067573743993
