! Created with skrf 1.8.0 (http://scikit-rf.org).
# GHz S RI R 50.0 
!freq ReS11 ImS11
0.001 -0.9998002212296875 0.0008582648987676966
0.0029999 -1.0201237564751724 -0.03104705932416313
0.0049998 -0.863366998178878 -0.06540205291623222
0.0069997 -0.5864835711129783 0.06716886040579793
0.0089996 -0.1845830814626535 0.05356387215125826
0.0109995 -0.1458685023614482 0.10300966527149091
0.0129994 -0.12181311982812877 0.10671569018781114
0.0149993 -0.10597198437600376 0.10041170748500089
0.0169992 -0.07777488468524305 0.10833630869016812
0.0189991 -0.05408678841742053 0.10308255751516986
0.020999 -0.05150983207970486 0.10033369750942409
0.0229989 -0.04330229252504812 0.09884016813474822
0.0249988 -0.038589415787945745 0.09625244084534959
0.0269987 -0.0302842337504112 0.09251736588005487
0.0289986 -0.02871334300767054 0.08898744953489866
0.0309985 -0.02414996850307629 0.08584964215463814
0.0329984 -0.020266368748086523 0.0823425181721353
0.0349983 -0.015008978713453077 0.08048778758774291
0.0369982 -0.014894387460480527 0.07791705825549756
0.0389981 -0.01174556784397562 0.07662450627161066
0.040998 -0.014099595674338331 0.06916143304021231
0.0429979 -0.014202338251717163 0.07241884856861712
0.0449978 -0.012978587027891514 0.07024558441386353
0.0469977 -0.01440661662940163 0.06608960087522968
0.0489976 -0.013894769256820538 0.06749366503117923
0.0509975 -0.011673857168852558 0.06433163641144989
0.0529974 -0.00986306573499502 0.06322966302716468
0.0549973 -0.01221739777956115 0.06026752366124805
0.0569972 -0.012429808248895644 0.05845159572438095
0.0589971 -0.015359498970453085 0.05480673627395032
0.060997 -0.013237465720971234 0.052191625140982495
0.0629969 -0.014817168751422954 0.0531190448414356
0.0649968 -0.016558777712368793 0.04794824710014213
0.0669967 -0.014705452868900808 0.04838135285405094
0.0689966 -0.013844199323695601 0.04659471027313768
0.0709965 -0.018025968475499338 0.04398874174332493
0.0729964 -0.015459779219117415 0.04616630677071694
0.0749963 -0.012823891426289251 0.042718208141853405
0.0769962 -0.014496175896797407 0.04111987224453195
0.0789961 -0.012877961648079734 0.04175233879532875
0.080996 -0.01499833102772241 0.03973113093541907
0.0829959 -0.012396904192112363 0.03905964410561001
0.0849958 -0.012531496686546422 0.03868312205131629
0.0869957 -0.010290016065106974 0.03873787896380713
0.0889956 -0.010609718714955784 0.03685609650250234
0.0909955 -0.00846601659485505 0.038493659980890264
0.0929954 -0.00810767199450806 0.03647659285997931
0.0949953 -0.009505979957304083 0.03818153673151048
0.0969952 -0.007251017616322174 0.038175440144882916
0.0989951 -0.008965778806999652 0.03677242016116218
0.100995 -0.00565883434113908 0.03692510628114943
0.1029949 -0.0037071854751534435 0.03714047937888651
0.1049948 -0.004165312877312541 0.03754204604159261
0.1069947 -0.004173473272247187 0.03821422271738399
0.1089946 -0.0041222156740101865 0.038869438760529396
0.1109945 -0.004404633389037572 0.039824174283584576
0.1129944 -0.004370847448007153 0.03960200635119908
0.1149943 -0.004942479739458856 0.0398897378147307
0.1169942 -0.004481033285868202 0.04036941605773458
0.1189941 -0.00538467927203988 0.04142386099446143
0.120994 -0.005955185527995986 0.04079782586079943
0.1229939 -0.006238658391925236 0.040818717926398
0.1249938 -0.006356627161446246 0.041204513015151406
0.1269937 -0.007961659363398517 0.039737220385025446
0.1289936 -0.009087943385182424 0.04066980399050015
0.1309935 -0.008538164570698737 0.039114396169533
0.1329934 -0.009129109120355042 0.04101401458951222
0.1349933 -0.010249361979997727 0.039023646146731886
0.1369932 -0.009753046217580389 0.03866859401879728
0.1389931 -0.011368082420255577 0.03931844111619225
0.140993 -0.011629570630301494 0.03722197968484478
0.1429929 -0.011367338178612199 0.03878427353855568
0.1449928 -0.011205492864174257 0.03691939544014951
0.1469927 -0.011863307077562665 0.03681604895641913
0.1489926 -0.012879401791270173 0.036373261191397985
0.1509925 -0.012197175697707579 0.03613749916061015
0.1529924 -0.012230250221799521 0.035250605733341996
0.1549923 -0.012765438288970546 0.0357427052639643
0.1569922 -0.013142203228066677 0.035437232849653305
0.1589921 -0.011984338541568492 0.0351096809445229
0.160992 -0.01292078201807657 0.03435519277943643
0.1629919 -0.011997611938823677 0.03459551236427519
0.1649918 -0.012331147194554583 0.03502128107001455
0.1669917 -0.012203110621567516 0.03468432707782796
0.1689916 -0.011645646689916307 0.034940416995602
0.1709915 -0.012450823496366146 0.03630947176676409
0.1729914 -0.011993298531879424 0.03500738620132719
0.1749913 -0.012256301704397073 0.036255806001875224
0.1769912 -0.011713597880679076 0.03554664663875596
0.1789911 -0.011479706152582167 0.036565752835863274
0.180991 -0.011599207393562258 0.03676796528822366
0.1829909 -0.011692478447658245 0.036805048603385335
0.1849908 -0.011810656911781644 0.03707875072084638
0.1869907 -0.011544370467413308 0.03668337613798013
0.1889906 -0.01215440897580158 0.03733720840713694
0.1909905 -0.012600619674910638 0.037475732764902264
0.1929904 -0.013150996157996742 0.037962090542853655
0.1949903 -0.013075495902984968 0.03713951511913941
0.1969902 -0.013032686569171503 0.03799092150399385
0.1989901 -0.013474943625902104 0.038020474094518156
0.20099 -0.013457821372374805 0.03850909307797992
0.2029899 -0.013901535727286841 0.03816605756697978
0.2049898 -0.014396137362834642 0.03787348048115556
0.2069897 -0.014520835429510196 0.038283302780014405
0.2089896 -0.01503342809119457 0.0379364973767554
0.2109895 -0.015334830547046105 0.03799460041301108
0.2129894 -0.015944364144971183 0.03815054699760105
0.2149893 -0.015762851170714316 0.03812528449158507
0.2169892 -0.01685804659460463 0.03734358650746986
0.2189891 -0.01711733054048684 0.037660814643614045
0.220989 -0.0170950055105033 0.037639437119207565
0.2229889 -0.017321084939593747 0.0383036570466401
0.2249888 -0.01737655897171786 0.03780526673959941
0.2269887 -0.018144794560360004 0.03708776285542487
0.2289886 -0.017883333041546854 0.03735265746955043
0.2309885 -0.018501456381973418 0.03771033719942921
0.2329884 -0.019238712688903453 0.03739324333709032
0.2349883 -0.018782436437082335 0.037258793565844474
0.2369882 -0.019539862010757622 0.03733271249018365
0.2389881 -0.01957579088933456 0.03726414881461414
0.240988 -0.019605973224675593 0.036794307934569115
0.2429879 -0.019549259522706596 0.03708878544986032
0.2449878 -0.020043439824268358 0.037146683829830426
0.2469877 -0.02002751701031608 0.037510513518537965
0.2489876 -0.020159119313573816 0.0366149956799628
0.2509875 -0.02035154792900008 0.03722671077952199
0.2529874 -0.020418709317796505 0.037246152691495366
0.2549873 -0.02021877454850085 0.03724271825211421
0.2569872 -0.020317545908631794 0.037188340182769564
0.2589871 -0.020066894468611405 0.03727526910420109
0.260987 -0.019953105194358355 0.03707079459531616
0.2629869 -0.020386005973576996 0.03708575969005949
0.2649868 -0.020846044945100502 0.03770310672313964
0.2669867 -0.020266449914503187 0.03783787075637345
0.2689866 -0.020537854437747548 0.0378007160036088
0.2709865 -0.020644298098204648 0.03778877813085044
0.2729864 -0.020548013767923982 0.038608535806563815
0.2749863 -0.020570622952671383 0.03873859590216594
0.2769862 -0.02030303710728712 0.03884412311680994
0.2789861 -0.020499036954379223 0.040069580382023885
0.280986 -0.02114901034287346 0.04026345945019137
0.2829859 -0.021189002901322165 0.04012997791372796
0.2849858 -0.022042481893567445 0.04069042464198418
0.2869857 -0.022347222749371537 0.041272349072297224
0.2889856 -0.02265435066336351 0.04125796937351649
0.2909855 -0.02340607117014439 0.04187396801955271
0.2929854 -0.023481428843089798 0.04236769908825803
0.2949853 -0.024339314435707738 0.042545959605412915
0.2969852 -0.02494241103740587 0.04231180407218485
0.2989851 -0.025288951187954305 0.04306688935368718
0.300985 -0.026613580635817702 0.0433127035542808
0.3029849 -0.026790158831599024 0.04367570821611734
0.3049848 -0.027852235707468045 0.04343295756543633
0.3069847 -0.02863649147924128 0.042888838369318526
0.3089846 -0.029254004246254513 0.04337545890093011
0.3109845 -0.02988432262254692 0.0431432599092308
0.3129844 -0.030961225086432682 0.042938303027994326
0.3149843 -0.03174775845387766 0.042961735950831685
0.3169842 -0.03263886439250585 0.04249153320193745
0.3189841 -0.03373089119380111 0.04178990101338893
0.320984 -0.03424554895914721 0.041857278455388724
0.3229839 -0.03479251039521763 0.041397887083873264
0.3249838 -0.034757292100541196 0.041978443446517966
0.3269837 -0.035980617923555606 0.04109157534041748
0.3289836 -0.03617387961425302 0.04080338398947907
0.3309835 -0.03603360459573167 0.04009530705554192
0.3329834 -0.036165937426521695 0.03920541812541697
0.3349833 -0.03611629125411238 0.03882062209973508
0.3369832 -0.03599189224936386 0.038636329836132806
0.3389831 -0.03610380586211606 0.03809420680607974
0.340983 -0.035996366833784633 0.03789874452206798
0.3429829 -0.03544334424164464 0.03762018851143579
0.3449828 -0.0349712415661963 0.037222551233519266
0.3469827 -0.034915739434755115 0.037571336052993884
0.3489826 -0.034769462729437164 0.03727775842898238
0.3509825 -0.034716116578481185 0.037553655012867115
0.3529824 -0.03434925309528611 0.037515978251907806
0.3549823 -0.03426568177795378 0.037696268431798054
0.3569822 -0.03420902743197936 0.03844992939645151
0.3589821 -0.033683510483666995 0.03882305896186504
0.360982 -0.033667966470424825 0.03916968565464624
0.3629819 -0.03381746569455709 0.039368184873632334
0.3649818 -0.03411947849565639 0.04015591177122108
0.3669817 -0.03465629242227903 0.04034892872707438
0.3689816 -0.03477347945508098 0.04090189166413129
0.3709815 -0.03545918757921432 0.0410923654582253
0.3729814 -0.03504531374004642 0.04126929731882145
0.3749813 -0.03621122871557323 0.04221420318178247
0.3769812 -0.037105836062135696 0.04226871715793252
0.3789811 -0.03796089954045638 0.042309985242779874
0.380981 -0.03843518411021602 0.04220821469954107
0.3829809 -0.03923076806294408 0.042519474654269224
0.3849808 -0.039325601568130183 0.04317149656757639
0.3869807 -0.040819623323056886 0.04260990748310789
0.3889806 -0.0412812029005095 0.042678487632491324
0.3909805 -0.04200236380884553 0.04289058109297627
0.3929804 -0.04241199554568243 0.04221159900535473
0.3949803 -0.04328518040585075 0.04230052650678463
0.3969802 -0.04373015085892032 0.04180677707519886
0.3989801 -0.044404781470681026 0.04112782946145268
0.40098 -0.044804772534975716 0.0407261646857284
0.4029799 -0.04527084400714923 0.040339125816139874
0.4049798 -0.04548003419966422 0.03999671886554439
0.4069797 -0.04556606028796898 0.03924698430750886
0.4089796 -0.0461453821434225 0.03916391642764159
0.4109795 -0.04620386658633521 0.038831481158136096
0.4129794 -0.04610597751578961 0.038801213987131586
0.4149793 -0.04616762274947983 0.03801121260071931
0.4169792 -0.045808690031424217 0.03764281217811652
0.4189791 -0.04580953569255867 0.03756463545960389
0.420979 -0.04585807271168735 0.03747045967166341
0.4229789 -0.04600462695113556 0.037601338537296414
0.4249788 -0.0457055099670309 0.03779609280742427
0.4269787 -0.04568417883618121 0.03814910711108022
0.4289786 -0.04554862285047228 0.03832768656240638
0.4309785 -0.045818347458450634 0.03858920153693984
0.4329784 -0.04580095491652774 0.038637395999081815
0.4349783 -0.0463272138005893 0.03864382283330613
0.4369782 -0.046609301192435414 0.039336882600087525
0.4389781 -0.04672907616696855 0.03997534147507721
0.440978 -0.04762506130860072 0.03998704827581281
0.4429779 -0.04823673489282719 0.04022754321776033
0.4449778 -0.04886951014491964 0.04059792128221523
0.4469777 -0.04966705087748261 0.040381718722743744
0.4489776 -0.05005594424028921 0.040856525418180335
0.4509775 -0.05087196558506313 0.0411721973589065
0.4529774 -0.051603495064992705 0.04116601855525923
0.4549773 -0.05223823235748374 0.040876038240338065
0.4569772 -0.05299217885498642 0.040683755184808636
0.4589771 -0.05375269660891706 0.04046120165312095
0.460977 -0.05446835988374788 0.04014958465703928
0.4629769 -0.055164450548052656 0.03975004452477586
0.4649768 -0.05605238850245754 0.03906880240679712
0.4669767 -0.05617209072042363 0.03860132042270072
0.4689766 -0.05692510235414274 0.03802905439695646
0.4709765 -0.0574784686330256 0.03750289843210617
0.4729764 -0.05735356519840975 0.03680153193159394
0.4749763 -0.05768277753117163 0.036475665163789625
0.4769762 -0.05804557288679177 0.03603331171837984
0.4789761 -0.05793119744769748 0.03542177307697772
0.480976 -0.058083646068358114 0.035022854251991004
0.4829759 -0.05844543604598504 0.03458753252524154
0.4849758 -0.0582324224250169 0.03417405093052424
0.4869757 -0.05820775124080658 0.03392764237412556
0.4889756 -0.05780009303960898 0.03352777897296408
0.4909755 -0.05731638008474494 0.03334673296343058
0.4929754 -0.05727562443450104 0.03358600085050767
0.4949753 -0.05723636604300121 0.03353854005155833
0.4969752 -0.05708987991379258 0.033666684338027615
0.4989751 -0.05695772233068943 0.03399285867606932
0.500975 -0.05700385298594363 0.03410796927437445
0.5029749 -0.057194228753358264 0.034402490976951264
0.5049748 -0.057580516620294814 0.03476392148023867
0.5069747 -0.05776371623301789 0.03497744405587025
0.5089746 -0.057982736801621755 0.03515229810810021
0.5109745 -0.058395562260891834 0.0353802594063094
0.5129744 -0.05876467779588891 0.0357321206389637
0.5149743 -0.05905392827800903 0.036256752290005315
0.5169742 -0.05976458850383144 0.03620162293522088
0.5189741 -0.06040043427316631 0.03645734775741562
0.520974 -0.0611553716961765 0.03623799317058489
0.5229739 -0.06184254378006139 0.03611239283164216
0.5249738 -0.062414289641342324 0.03633465129911704
0.5269737 -0.06329420377603663 0.03610559927971373
0.5289736 -0.06409393546881303 0.03621008020688562
0.5309735 -0.06509407506974789 0.03552365624800918
0.5329734 -0.06554120408025063 0.035484837341867526
0.5349733 -0.0665965208197348 0.0351164027725931
0.5369732 -0.06716143882469312 0.034659830746312084
0.5389731 -0.06773433870890068 0.03431850917298488
0.540973 -0.06870204009478867 0.03347880871194091
0.5429729 -0.06894562180771309 0.03285869641401479
0.5449728 -0.06950858849683156 0.03224102655930269
0.5469727 -0.06972317268315895 0.031707748432733884
0.5489726 -0.0700060262078247 0.031229770359047428
0.5509725 -0.07015125374698883 0.03065018424786371
0.5529724 -0.0703940780294304 0.030157299951858396
0.5549723 -0.07042890032954993 0.029795727680571364
0.5569722 -0.07041153755496309 0.02921841315333378
0.5589721 -0.0702269591022143 0.028916875342856297
0.560972 -0.07005162561796362 0.028774192623410345
0.5629719 -0.07017169390762487 0.028450766569377586
0.5649718 -0.06977129084409989 0.028287142089192936
0.5669717 -0.06962201683187218 0.02836112872654664
0.5689716 -0.06974946336840374 0.028533738758716662
0.5709715 -0.06976781686143153 0.028441002585442004
0.5729714 -0.06996839054364136 0.02855693671756237
0.5749713 -0.07008376546873667 0.028595669394248492
0.5769712 -0.07039455488852775 0.028540805355962463
0.5789711 -0.07061323036990985 0.028778314326948412
0.580971 -0.07108291407264085 0.02903227045735754
0.5829709 -0.07101061990013122 0.029464412082496207
0.5849708 -0.0720235121130175 0.029663747856890535
0.5869707 -0.0721957250677402 0.029740222647155097
0.5889706 -0.07293040067245633 0.029566725835516314
0.5909705 -0.07374330598827317 0.029500749677111127
0.5929704 -0.0744555933414489 0.02928859545554618
0.5949703 -0.07503641069201397 0.029282391574430484
0.5969702 -0.07588781916194434 0.028861301533443393
0.5989701 -0.07658088466577426 0.028771095934771538
0.60097 -0.07700956785280506 0.02841882335505727
0.6029699 -0.07763114621964307 0.027952930412876765
0.6049698 -0.0782375215206138 0.027540381489403652
0.6069697 -0.07861547287263984 0.026938692091316625
0.6089696 -0.07926294265090456 0.026463986283511414
0.6109695 -0.0795681038739564 0.025609432790184013
0.6129694 -0.08017145283546523 0.024797714290224867
0.6149693 -0.08021875872577958 0.024246086761961994
0.6169692 -0.08058404642361039 0.023862239505432873
0.6189691 -0.08047040379921552 0.0229988434158271
0.620969 -0.08077982625812816 0.02267875817215803
0.6229689 -0.08047916963764865 0.021823790717929895
0.6249688 -0.0804964069107785 0.021601950408044125
0.6269687 -0.0803624359234197 0.021103259873413084
0.6289686 -0.08028720866849887 0.020900875652936843
0.6309685 -0.07968857146057284 0.02064367904882118
0.6329684 -0.0797502421062056 0.02080794299600486
0.6349683 -0.07958269845306996 0.02055388264209895
0.6369682 -0.07969331829086734 0.0204141185772141
0.6389681 -0.07988448214729493 0.020464675296465895
0.640968 -0.07933690562330521 0.02043310480096538
0.6429679 -0.07983061890244292 0.02079849487047023
0.6449678 -0.07992490160869822 0.020971311652429644
0.6469677 -0.08019464677851386 0.021379425177657067
0.6489676 -0.08067164451517064 0.021664102921503114
0.6509675 -0.08111514032007465 0.022188197292297655
0.6529674 -0.08164411743713605 0.02230227669821491
0.6549673 -0.08214655652196423 0.02250596307053376
0.6569672 -0.08270179215858849 0.02287023994578912
0.6589671 -0.08332712709457879 0.02288203432000848
0.660967 -0.08457827928396161 0.022781437152137356
0.6629669 -0.08508959706250067 0.02264834306649117
0.6649668 -0.08609032490095729 0.022457784379492668
0.6669667 -0.08686031830619512 0.02195360637851556
0.6689666 -0.08743166794832768 0.021446597058333298
0.6709665 -0.08829741349735727 0.020674062457356958
0.6729664 -0.0893013370356144 0.02013965729763731
0.6749663 -0.08996334376817372 0.019399365055520767
0.6769662 -0.09040750946597144 0.018568458556686977
0.6789661 -0.09125290367255719 0.017528136954092874
0.680966 -0.09154441307858162 0.01668799161083274
0.6829659 -0.09185414503463546 0.015744802027790033
0.6849658 -0.09200414128933677 0.014900128140250015
0.6869657 -0.0919143107427663 0.013940028892921879
0.6889656 -0.09210239812122022 0.013069347214497228
0.6909655 -0.09178828458832534 0.01250328225447021
0.6929654 -0.09178971777521894 0.011755233455456406
0.6949653 -0.09144428650834062 0.011343385397372872
0.6969652 -0.09108033694180508 0.010590227964953992
0.6989651 -0.09080911712482896 0.010098189532732643
0.700965 -0.09076058393297093 0.009682496123152931
0.7029649 -0.09035352253242947 0.009560848526771557
0.7049648 -0.08997368616841496 0.009265590142349487
0.7069647 -0.08966282823506479 0.009207109297965366
0.7089646 -0.08920910374846447 0.00928508868763581
0.7109645 -0.08917439086087298 0.009271880689190076
0.7129644 -0.08955410784078449 0.009502038931698712
0.7149643 -0.08961879376646076 0.0095908063461163
0.7169642 -0.08990611421986576 0.010039189530559305
0.7189641 -0.09031645330150515 0.010316169479912516
0.720964 -0.09057444828091583 0.010341281412495056
0.7229639 -0.09088860509312338 0.010264857306015462
0.7249638 -0.09138365045814349 0.010619027548780028
0.7269637 -0.09185332350407863 0.010804004378963575
0.7289636 -0.09276722100201606 0.011053122204280244
0.7309635 -0.09334987148931205 0.01089735356867344
0.7329634 -0.09406169771864886 0.010927601786088762
0.7349633 -0.09496719051331534 0.010615703399528234
0.7369632 -0.0956225967660178 0.010361151229949364
0.7389631 -0.09671061992208156 0.009713238971536347
0.740963 -0.09738150009714223 0.008865552716827159
0.7429629 -0.09789238438417365 0.007964320295407678
0.7449628 -0.09849243688468698 0.0070475112229924225
0.7469627 -0.09919362392015617 0.006202893825291718
0.7489626 -0.09942683948916396 0.0052633151552080315
0.7509625 -0.10011537101665303 0.004498316035611502
0.7529624 -0.10050558821875079 0.003503857276749789
0.7549623 -0.10048749609890054 0.0025495261459414775
0.7569622 -0.10041436039567309 0.0016613348124545485
0.7589621 -0.10037989126576186 0.0006975061359364362
0.760962 -0.1002253604027182 -0.00010104751189079358
0.7629619 -0.09979532021734551 -0.0008114594417481386
0.7649618 -0.09956184238749166 -0.0017301918892948381
0.7669617 -0.09915515870081668 -0.0022738097902453985
0.7689616 -0.09882919213539836 -0.002760927050725167
0.7709615 -0.09865049742243855 -0.003503810371834837
