! Created with skrf 1.8.0 (http://scikit-rf.org).
# GHz S RI R 50.0 
!freq ReS11 ImS11
0.001 -0.998141162045319 0.00206297016360385
0.0029999 -0.9686681778135965 0.005115269121648849
0.0049998 -0.8580469646545631 -0.021684090875271997
0.0069997 -0.5116203367847214 -0.2384919210116605
0.0089996 -0.32190069274519656 -0.15927813533385904
0.0109995 -0.2421379303989117 -0.13252203759342557
0.0129994 -0.18786538522220592 -0.11111975363550741
0.0149993 -0.1564930132931188 -0.10427637161619924
0.0169992 -0.11819184720283729 -0.08681654047134212
0.0189991 -0.098835666062217 -0.08329061802984089
0.020999 -0.08075508879885658 -0.07245204475753159
0.0229989 -0.06632443662519333 -0.062462346361246826
0.0249988 -0.058564185585080517 -0.055931170379189835
0.0269987 -0.048399666311150974 -0.05094837790399289
0.0289986 -0.04477148891145371 -0.04486758269503074
0.0309985 -0.041004608902416174 -0.04235096795763143
0.0329984 -0.03583087493116871 -0.03792730265253239
0.0349983 -0.029525292656654517 -0.0336794069048702
0.0369982 -0.029123731376036976 -0.03041187111978707
0.0389981 -0.026032943927850438 -0.026709480059090827
0.040998 -0.026546348422116135 -0.027329050494376866
0.0429979 -0.029378339263588245 -0.020815009751021525
0.0449978 -0.023839376364866684 -0.01901665387963278
0.0469977 -0.027979479664974227 -0.02043536868954954
0.0489976 -0.027094418680039298 -0.013399815288213471
0.0509975 -0.02467882284656926 -0.012913582533746882
0.0529974 -0.024671671640205672 -0.013543138117888343
0.0549973 -0.02832150071170095 -0.012757115983829913
0.0569972 -0.027383099630611495 -0.010399179630908292
0.0589971 -0.029060938556238182 -0.01199288958839934
0.060997 -0.028697538097694552 -0.012518800353805258
0.0629969 -0.028279345920617628 -0.010068820924607615
0.0649968 -0.030062195308851423 -0.011688125214707547
0.0669967 -0.028444289197182396 -0.010851373571434654
0.0689966 -0.028620017057106595 -0.01140748715721034
0.0709965 -0.03211326563113565 -0.010261995237419268
0.0729964 -0.029874755376806082 -0.009125713579252612
0.0749963 -0.026530867820850165 -0.012668217634350533
0.0769962 -0.028775962119434992 -0.012729242596656089
0.0789961 -0.02657100081278122 -0.009879804062445565
0.080996 -0.027042844632774576 -0.011318815204425299
0.0829959 -0.026901231010429565 -0.009910670604299602
0.0849958 -0.026391827373244976 -0.008547341604601487
0.0869957 -0.024421468605781392 -0.008387731569774688
0.0889956 -0.02425565322486473 -0.00936114146243066
0.0909955 -0.02255594778859752 -0.007071053167288949
0.0929954 -0.022123641392012096 -0.007825512899453149
0.0949953 -0.022810829801441623 -0.005256051901788762
0.0969952 -0.020386986505827986 -0.004150443133730611
0.0989951 -0.021661071739125817 -0.0050032599904865456
0.100995 -0.01854914545785748 -0.005419906067779817
0.1029949 -0.01741352405327524 -0.004288948803792533
0.1049948 -0.017417556319479846 -0.003256722686042889
0.1069947 -0.01664320108893341 -0.0022714699458968664
0.1089946 -0.01681668774041117 -0.001024403327398077
0.1109945 -0.016998942823246026 0.001538748070789095
0.1129944 -0.01646895955788583 0.0022373121410985686
0.1149943 -0.01657379635166566 0.0032355240693980017
0.1169942 -0.016795346411180027 0.004311824494978571
0.1189941 -0.017261469762938252 0.006205515478005786
0.120994 -0.018415259807676682 0.005122043451208758
0.1229939 -0.01874198583454245 0.006119196435912721
0.1249938 -0.019417115086537255 0.007192516571541752
0.1269937 -0.020462161168180008 0.006314551416649425
0.1289936 -0.020356615481376395 0.0076813887612600055
0.1309935 -0.020623889468891366 0.007018178758355818
0.1329934 -0.022148151705839784 0.009048759601111428
0.1349933 -0.022529079510196705 0.008189748442752385
0.1369932 -0.022291053002896632 0.007759994840491433
0.1389931 -0.023561028370133814 0.008410178011847767
0.140993 -0.02350238681492716 0.007753174483738011
0.1429929 -0.023798749670902525 0.007811712699710585
0.1449928 -0.025341467315588145 0.00802746847880682
0.1469927 -0.025140560109018283 0.00867636808104191
0.1489926 -0.024154073124729766 0.008350979669291946
0.1509925 -0.025017869067103037 0.008020298282853453
0.1529924 -0.025413857901817844 0.007714110574617176
0.1549923 -0.02421550471742037 0.008525798616604002
0.1569922 -0.02531668629915368 0.008505021482874044
0.1589921 -0.024028987498021327 0.008623826732900464
0.160992 -0.025220621435315817 0.008235298491812083
0.1629919 -0.024170806938244183 0.008658402206401877
0.1649918 -0.024077809019273776 0.008995492797512586
0.1669917 -0.02439741717486048 0.009086916616939333
0.1689916 -0.023987490582541356 0.009414102814703304
0.1709915 -0.02369416658191514 0.010018474757247941
0.1729914 -0.023879440052275533 0.009887213193899009
0.1749913 -0.02419104775803328 0.011269701924770295
0.1769912 -0.023494794601262234 0.010820460430687129
0.1789911 -0.023676887853580384 0.011659585927549405
0.180991 -0.023806796305859537 0.012328979751065738
0.1829909 -0.023595118404366643 0.012307578762542157
0.1849908 -0.0236728862336266 0.013051447835718948
0.1869907 -0.02362900022653083 0.012585095520543085
0.1889906 -0.023973483761241726 0.013541457763265664
0.1909905 -0.024656724393939535 0.013992933027390507
0.1929904 -0.024921995043684204 0.014426494158582038
0.1949903 -0.024640531426257863 0.014017456124059482
0.1969902 -0.024519876693301617 0.014519169682889847
0.1989901 -0.025229368074725148 0.015047509303807346
0.20099 -0.025235169035923426 0.01563719007963057
0.2029899 -0.025963294343715772 0.015388954686233044
0.2049898 -0.025748893120894532 0.015377112643117365
0.2069897 -0.02692419321255499 0.01567336110971129
0.2089896 -0.026218699861906877 0.015704609027857717
0.2109895 -0.026402693498001097 0.01616454749517098
0.2129894 -0.027023231647767217 0.01643669042667504
0.2149893 -0.027137236806552133 0.016496925729191276
0.2169892 -0.027894767233540587 0.016084082073279042
0.2189891 -0.02782289847568767 0.01659594358602713
0.220989 -0.02757661149427515 0.016991572527326002
0.2229889 -0.028391715396732017 0.018119702153823407
0.2249888 -0.028448713521657183 0.01747299608059439
0.2269887 -0.028765545906585387 0.017245779608344926
0.2289886 -0.02900382094795978 0.017612803676991168
0.2309885 -0.02896687467043044 0.017690253889170678
0.2329884 -0.02949958572284523 0.017640889592061233
0.2349883 -0.029486425649229656 0.017738138034757843
0.2369882 -0.030272782383199227 0.018360181929219267
0.2389881 -0.029942931899322914 0.018213358297201575
0.240988 -0.03056134139350993 0.01781601022084988
0.2429879 -0.030689439708728845 0.018644894525392343
0.2449878 -0.03087187040275601 0.018473684830479987
0.2469877 -0.030840941744815588 0.01878093011033679
0.2489876 -0.030726048747916828 0.017829829542906638
0.2509875 -0.031023869399279688 0.018160223890327613
0.2529874 -0.03129988417300879 0.018877098983406358
0.2549873 -0.030864340166077718 0.018939900159737746
0.2569872 -0.030830522532800872 0.018176058566765053
0.2589871 -0.03092107098188123 0.01884515643554343
0.260987 -0.03097971218676204 0.019007134261164536
0.2629869 -0.031121896373130915 0.01878931225387031
0.2649868 -0.030418346736156607 0.01964810113219663
0.2669867 -0.030822521571592962 0.019415615373669835
0.2689866 -0.030756287424407884 0.01953162071959453
0.2709865 -0.030682075629402256 0.01993540773020533
0.2729864 -0.030485965027121104 0.020544025659817475
0.2749863 -0.03061564430895792 0.020362328916031597
0.2769862 -0.030084816745323442 0.021016126320604823
0.2789861 -0.030289398261735177 0.022224580579853208
0.280986 -0.030766671783882173 0.022451972839048512
0.2829859 -0.030194505807186887 0.02249327498436817
0.2849858 -0.031041804507679745 0.02303503053624403
0.2869857 -0.031561934620157855 0.023644679819528974
0.2889856 -0.03163215940876284 0.02391056072022023
0.2909855 -0.03177622520947204 0.024926842021940884
0.2929854 -0.03249826015726105 0.02532610856050965
0.2949853 -0.03275129079749546 0.02534564458258526
0.2969852 -0.03320029403045847 0.025864654526666128
0.2989851 -0.0340020056387066 0.02654524265875107
0.300985 -0.034422020513789856 0.027085194267658628
0.3029849 -0.03522818384697188 0.027741563117590747
0.3049848 -0.03608100613180246 0.027648996760613255
0.3069847 -0.03676852934253025 0.027116076186925873
0.3089846 -0.0376901075772437 0.02788228088701262
0.3109845 -0.03865332499837662 0.02779026438167629
0.3129844 -0.039190811348676455 0.02786517865305982
0.3149843 -0.039873699280785116 0.027806203753232457
0.3169842 -0.04078957636677294 0.027644390072239337
0.3189841 -0.04175222839350433 0.02736427408660757
0.320984 -0.042399023615032325 0.026858639619528765
0.3229839 -0.042717921393809505 0.026808574935726172
0.3249838 -0.04308593779095643 0.02714475730098388
0.3269837 -0.04345936377094177 0.026896552037555446
0.3289836 -0.04437219512169327 0.026503800607245484
0.3309835 -0.04430629003354425 0.02589800941022355
0.3329834 -0.044694216394456046 0.025220958290843157
0.3349833 -0.04436544741929159 0.024701622699202654
0.3369832 -0.04438696215284987 0.024467330522560213
0.3389831 -0.044294663862191684 0.024061871566949403
0.340983 -0.04446508236720072 0.02383865000627273
0.3429829 -0.04358037920647839 0.023187453217772006
0.3449828 -0.04322966828396764 0.022686311448379015
0.3469827 -0.04317896298309702 0.02306756071939589
0.3489826 -0.04309437772925996 0.02307085322375954
0.3509825 -0.04301875416468306 0.022843377596573025
0.3529824 -0.042421486643371226 0.022938538357342286
0.3549823 -0.041782156817221 0.0228518067987825
0.3569822 -0.04191296084968138 0.02347221655308755
0.3589821 -0.041364443939894156 0.024057229183129577
0.360982 -0.041277040136429057 0.02446467847474893
0.3629819 -0.040960567895614135 0.024917653635938695
0.3649818 -0.041063746029548334 0.025440796657539087
0.3669817 -0.04121395713818658 0.026310448539400195
0.3689816 -0.04176569243215899 0.0265947661507685
0.3709815 -0.04187976263974026 0.026697457800853835
0.3729814 -0.04169508013672441 0.027205550096096202
0.3749813 -0.04246066653298476 0.027953896064018935
0.3769812 -0.04329325355680206 0.02821329385915186
0.3789811 -0.0436443005099847 0.027928916908579886
0.380981 -0.044436223411432954 0.02834101194542591
0.3829809 -0.04505047214022024 0.0288048246852917
0.3849808 -0.045624544634765576 0.02944504568806005
0.3869807 -0.046507840268518105 0.029330668333725378
0.3889806 -0.04678033910207553 0.029254836328409927
0.3909805 -0.047461944784538704 0.029393066655907917
0.3929804 -0.048065923879590855 0.029099445811634546
0.3949803 -0.048628881628514545 0.029028844276288372
0.3969802 -0.0496097401264359 0.028613853804983325
0.3989801 -0.04965372797231514 0.028167476581137954
0.40098 -0.05013519361129381 0.027931181323178105
0.4029799 -0.0505976550825383 0.02759224442346851
0.4049798 -0.05075173554366283 0.027292737786057168
0.4069797 -0.05104463876727683 0.026587804356474624
0.4089796 -0.05113896600376297 0.02655732501677997
0.4109795 -0.05128995693378921 0.026096235073320234
0.4129794 -0.05142924259715975 0.026332238398330057
0.4149793 -0.05142234059134669 0.025622704556900168
0.4169792 -0.05105415365883509 0.025059889162416756
0.4189791 -0.05088305774560237 0.025082527410317773
0.420979 -0.05092343713605278 0.025169303649007716
0.4229789 -0.05086524382351938 0.025326390182204415
0.4249788 -0.05044824913008355 0.02543797323430216
0.4269787 -0.05043568319911103 0.025411081187249954
0.4289786 -0.050341410161071826 0.025875097251112356
0.4309785 -0.05034128768491408 0.026184145445924033
0.4329784 -0.05046258137389524 0.026458264640908356
0.4349783 -0.05051627826582512 0.026186676552369774
0.4369782 -0.05103326284548336 0.02709628875499133
0.4389781 -0.05106730739776025 0.027575255624777716
0.440978 -0.05170195926153784 0.02773752407261549
0.4429779 -0.05207887442209726 0.027777681676385023
0.4449778 -0.0528240336991504 0.028276188427039037
0.4469777 -0.05332987720769716 0.02840989709679729
0.4489776 -0.05387378455283291 0.028620574644196643
0.4509775 -0.05452939552934083 0.029126946144854324
0.4529774 -0.05507035776654862 0.029209301340332047
0.4549773 -0.05567572076758124 0.029082332736408992
0.4569772 -0.05619753104582728 0.02893202023334382
0.4589771 -0.05735978350235272 0.028367106668236563
0.460977 -0.057494100884622056 0.02825292726398078
0.4629769 -0.05831134541232421 0.02824914433487628
0.4649768 -0.058835263709884705 0.02720211736859547
0.4669767 -0.059227271167369686 0.027119376646845467
0.4689766 -0.05952136030900633 0.026599550846315132
0.4709765 -0.06041973335122693 0.02632236151089196
0.4729764 -0.06011150894367031 0.025517994048915076
0.4749763 -0.06047877523242795 0.025505512097382072
0.4769762 -0.06082817059170464 0.024784479352166457
0.4789761 -0.060553320071236816 0.02444473435069203
0.480976 -0.060640246879368566 0.023860291284496515
0.4829759 -0.0606194023597104 0.023501789013840323
0.4849758 -0.06059475255864877 0.02322048175495481
0.4869757 -0.06033253878062741 0.022868975493217397
0.4889756 -0.05993329112370342 0.022550301766226404
0.4909755 -0.05952145270914168 0.02242187134532532
0.4929754 -0.05926546760571283 0.02262165438318093
0.4949753 -0.059115347388575885 0.022611602732579894
0.4969752 -0.05888041715668135 0.022882031569466072
0.4989751 -0.05888997023038749 0.022877807551143596
0.500975 -0.05861599497392293 0.023279021619930288
0.5029749 -0.058681226385297325 0.02359234738818848
0.5049748 -0.0589739179835599 0.023992733025349457
0.5069747 -0.05927509057595458 0.024197461663000887
0.5089746 -0.05953492708748636 0.024349710457543694
0.5109745 -0.05948600104251969 0.02453110266032824
0.5129744 -0.05973534869770788 0.025077808728264293
0.5149743 -0.06007922811182574 0.025535346950968152
0.5169742 -0.06055720243070153 0.025769196957821785
0.5189741 -0.061262446887426804 0.025884485369493004
0.520974 -0.06205169723250597 0.025725389929078305
0.5229739 -0.062484848097649 0.025623536050904432
0.5249738 -0.06303993488307486 0.025761210630481254
0.5269737 -0.06382198716403455 0.025795898880828776
0.5289736 -0.06472143729713087 0.025674267903118813
0.5309735 -0.06535205358142565 0.025348977044098418
0.5329734 -0.0659681894612604 0.02496918559165937
0.5349733 -0.06645875835062529 0.024999002143812028
0.5369732 -0.06714722314098215 0.024627648265550636
0.5389731 -0.06773598168105946 0.024304765255864322
0.540973 -0.06805415007735474 0.023459228043614028
0.5429729 -0.06876186344731752 0.022911450888707923
0.5449728 -0.06917061059418159 0.022388346777305747
0.5469727 -0.06933234669689814 0.022071133929960143
0.5489726 -0.06938864027185256 0.021419550135388304
0.5509725 -0.06945159960630606 0.020931050516798142
0.5529724 -0.06970506846585642 0.02052515841784549
0.5549723 -0.06954721535407977 0.019945371304294225
0.5569722 -0.06938887976995167 0.019608231555888644
0.5589721 -0.06913700105634185 0.019541169431010714
0.560972 -0.06889124760756318 0.019262915302319918
0.5629719 -0.06886719783717721 0.019180349052404802
0.5649718 -0.06827181407352156 0.018733358779018303
0.5669717 -0.06807773473949899 0.01897739002455009
0.5689716 -0.0681590573645814 0.01911828588521127
0.5709715 -0.06804098880188894 0.01904248335350877
0.5729714 -0.06829143220720668 0.019244340315896433
0.5749713 -0.06829172816693532 0.019283540180159268
0.5769712 -0.06846870786350022 0.019244114967517708
0.5789711 -0.06863211785651316 0.01942064824951917
0.580971 -0.06875879686904865 0.01994888229686584
0.5829709 -0.06906166947287382 0.02035697254488185
0.5849708 -0.06944370080074774 0.020635694887243063
0.5869707 -0.06992746650432882 0.02078182146536559
0.5889706 -0.07056008484800935 0.0207038626698263
0.5909705 -0.07108834561593784 0.02059973165388867
0.5929704 -0.07150921973123907 0.020507317727787473
0.5949703 -0.07210147565523434 0.020496700947119594
0.5969702 -0.07268709804112466 0.020445862353473142
0.5989701 -0.07366787547071046 0.020036884187418207
0.60097 -0.07367114124516147 0.0197459682802381
0.6029699 -0.07433089358247595 0.01953235542114187
0.6049698 -0.07502883320978174 0.018949789336110752
0.6069697 -0.07554307923574562 0.018425623011873
0.6089696 -0.07588997097315633 0.018004858450654665
0.6109695 -0.07617387715808072 0.017008006999951072
0.6129694 -0.07646812027883369 0.016482869091564427
0.6149693 -0.07663113758794714 0.015829231231638426
0.6169692 -0.0767803901161712 0.015358619835458283
0.6189691 -0.0767952357238548 0.01473794519894905
0.620969 -0.07655225513991512 0.014363365404831952
0.6229689 -0.07657894066211363 0.013657179589265354
0.6249688 -0.0762992488521297 0.013288732942875896
0.6269687 -0.07604738665516061 0.012986860451333255
0.6289686 -0.07576153214246205 0.012823620109804385
0.6309685 -0.07517084951284288 0.012572644826034887
0.6329684 -0.07524438115376228 0.012684153752144298
0.6349683 -0.07497148346368747 0.012471450980248128
0.6369682 -0.07479665476441229 0.012275804716413853
0.6389681 -0.07465277250617866 0.01224287135096359
0.640968 -0.07437800613826674 0.012517057139140694
0.6429679 -0.07446423983420533 0.01293683613461799
0.6449678 -0.07438370620945586 0.0130599801981876
0.6469677 -0.07472390760345413 0.013484077443840035
0.6489676 -0.07492225248909713 0.013881226167263588
0.6509675 -0.0756140277200074 0.014366858895992252
0.6529674 -0.0759819904436875 0.0145859024094078
0.6549673 -0.07632052541626445 0.01489524037638909
0.6569672 -0.07670517980135648 0.015202888710040923
0.6589671 -0.07734641623503799 0.015267789345129124
0.660967 -0.07815672848144128 0.015275997369945605
0.6629669 -0.0789441642992733 0.015245007617189811
0.6649668 -0.07968443224263828 0.015057222573976344
0.6669667 -0.08056933451370227 0.014659559484999994
0.6689666 -0.08109923520997113 0.014097147581890374
0.6709665 -0.08151696850199218 0.013421584669938494
0.6729664 -0.08234428425605408 0.013127588215012063
0.6749663 -0.08281892616145317 0.012553484688087618
0.6769662 -0.08363728983533714 0.011478623069700055
0.6789661 -0.084419471917901 0.01056828852117337
0.680966 -0.08475317225039886 0.009722952019002081
0.6829659 -0.08487560088738658 0.00904464245810917
0.6849658 -0.08499540690521948 0.007948617358245293
0.6869657 -0.08468329595582325 0.007219833797214532
0.6889656 -0.0847526182327819 0.006241812089784006
0.6909655 -0.08430984420648097 0.00583826563495754
0.6929654 -0.08441798335144336 0.00516234898398054
0.6949653 -0.08399047735340628 0.004746570644403165
0.6969652 -0.083581642551628 0.004099407210891588
0.6989651 -0.08328314739396787 0.0035790518339308963
0.700965 -0.08291573367290889 0.0032304519789210055
0.7029649 -0.08233621358894631 0.003198888504123122
0.7049648 -0.08190335606374871 0.0030014698170807846
0.7069647 -0.0816142094262601 0.002858183717657517
0.7089646 -0.08091062995944759 0.002806030842285045
0.7109645 -0.08120962729466617 0.0031293360975679467
0.7129644 -0.08107655492739263 0.0032968859641195718
0.7149643 -0.08104596647028908 0.003302349968744036
0.7169642 -0.08111536025261769 0.0037620617349569986
0.7189641 -0.08149189828103043 0.004256580770167523
0.720964 -0.08182807183326837 0.004341528131386031
0.7229639 -0.08194708190183134 0.004330986512241265
0.7249638 -0.08210581992597801 0.004611160387152386
0.7269637 -0.08267944832844723 0.005141184934955648
0.7289636 -0.08331956783682781 0.005171349902081505
0.7309635 -0.0838006676424415 0.00518271944757033
0.7329634 -0.0844278058415276 0.005186882385734625
0.7349633 -0.08522335400924644 0.004931456824453104
0.7369632 -0.08596661503273022 0.004663564126885764
0.7389631 -0.08682395303816733 0.004018643997269186
0.740963 -0.08728850786201546 0.0032841401090347166
0.7429629 -0.08790987181458307 0.002395369310729166
0.7449628 -0.0883851040340359 0.0015965075138355267
0.7469627 -0.08901676487674502 0.0008526293737324588
0.7489626 -0.08915985033840064 -0.00014253268551256415
0.7509625 -0.0895276432096114 -0.0006757006275519804
0.7529624 -0.09009339177356765 -0.0016336590432461662
0.7549623 -0.09004085413245333 -0.0024454913939760126
0.7569622 -0.08991202926206751 -0.003373899617272677
0.7589621 -0.08977986009038114 -0.004197757645720019
0.760962 -0.08950517825710486 -0.004837614900103093
0.7629619 -0.08916785026536689 -0.005575907358609362
