! Created with skrf 1.8.0 (http://scikit-rf.org).
# GHz S RI R 50.0 
!freq ReS11 ImS11
0.001 -0.9999373133674253 0.0007612930699595899
0.0029999 -0.9959506644289281 -0.012075174714861914
0.0049998 -0.9006501362987751 -0.04348693142547502
0.0069997 -0.5118098332760113 -0.006313536304136433
0.0089996 -0.2747529619008874 0.13545624557551755
0.0109995 -0.2029150041414865 0.1335596072581344
0.0129994 -0.16829214709006457 0.12544701740069453
0.0149993 -0.1339709910837396 0.13749112718350395
0.0169992 -0.10446234576921191 0.13958203017519644
0.0189991 -0.0870799410635418 0.13415161866415026
0.020999 -0.07781469643815246 0.12996973779293935
0.0229989 -0.0638173961516322 0.12768532819673206
0.0249988 -0.05710528526116243 0.12385224823910336
0.0269987 -0.047314386015509996 0.11876042344902567
0.0289986 -0.04501092841604601 0.11503461267693796
0.0309985 -0.040357226240444175 0.1100081020651551
0.0329984 -0.03583074399579191 0.10497246193471003
0.0349983 -0.030143250834943968 0.10284243206504307
0.0369982 -0.02889817156812453 0.09985300442498853
0.0389981 -0.026678137748283218 0.09679149434082009
0.040998 -0.027352518659293494 0.08895754019704347
0.0429979 -0.030356630203632225 0.0907435272864716
0.0449978 -0.02560278849137915 0.08720372065363184
0.0469977 -0.0272453281834349 0.08172210474832917
0.0489976 -0.030714092235651254 0.08368488795017291
0.0509975 -0.027109246507878326 0.07973523875855151
0.0529974 -0.02747328589794444 0.07781312578997655
0.0549973 -0.0280107694808337 0.07333521160623835
0.0569972 -0.029696503759557617 0.0732734531865945
0.0589971 -0.03162958706853633 0.06742324633739115
0.060997 -0.0296580164191807 0.06504630772791171
0.0629969 -0.031222238156963636 0.06504384314546642
0.0649968 -0.03321627175695074 0.06018187972015736
0.0669967 -0.031864989129005844 0.059055432266149635
0.0689966 -0.03111053827391797 0.05685625576116047
0.0709965 -0.03490179854172086 0.05518129219775867
0.0729964 -0.03184980390414511 0.05575910391643371
0.0749963 -0.029208112337798277 0.05171170031780159
0.0769962 -0.030812528406117964 0.05027274757203348
0.0789961 -0.030015987616667412 0.05081879784342083
0.080996 -0.03089901693597956 0.04787675272278283
0.0829959 -0.029281164401717217 0.04735162754700333
0.0849958 -0.02850425675239991 0.04699834375113433
0.0869957 -0.02679787088419834 0.04627907293754782
0.0889956 -0.02665187523538467 0.04411585730987354
0.0909955 -0.025015796932938053 0.045551782668120225
0.0929954 -0.02481520737431074 0.04350649751292046
0.0949953 -0.025209454978139107 0.04482509260080337
0.0969952 -0.023300860746639673 0.0458355622880341
0.0989951 -0.0240938424048332 0.04414407035221729
0.100995 -0.021045609001471267 0.04243717641319897
0.1029949 -0.01975236424303234 0.04260123289568119
0.1049948 -0.01981289697607672 0.042949797149112456
0.1069947 -0.01912365243882663 0.043648156946392194
0.1089946 -0.018999072286111463 0.04403731792754019
0.1109945 -0.01936109241957204 0.044984565864127884
0.1129944 -0.018825162339357007 0.04469585364586103
0.1149943 -0.018997531794255236 0.04477172043869482
0.1169942 -0.01882433565327897 0.045013631753751136
0.1189941 -0.019329992460143566 0.04614492715007234
0.120994 -0.02059378743500521 0.044784970932375844
0.1229939 -0.020439116765875506 0.044919467504219
0.1249938 -0.020702214363451592 0.04539307518077952
0.1269937 -0.022131947176074262 0.04371802385082369
0.1289936 -0.022344850214730747 0.044468541004687605
0.1309935 -0.022637935346431153 0.04309865111393652
0.1329934 -0.023452082633322102 0.04487178405024121
0.1349933 -0.023967668418447986 0.043056364279845334
0.1369932 -0.023705010058172722 0.04244831420179857
0.1389931 -0.025575414688113335 0.04304859976529754
0.140993 -0.02499752854276186 0.041477657331338895
0.1429929 -0.025470619023146936 0.04113765610768828
0.1449928 -0.02535827003539809 0.039989221934170906
0.1469927 -0.02627353555027822 0.0404548071871742
0.1489926 -0.026090232938538356 0.03942809105783556
0.1509925 -0.026600908777909396 0.03808187808523691
0.1529924 -0.02633003671998637 0.03810642721639182
0.1549923 -0.026658341711968132 0.03863738314692686
0.1569922 -0.0271401991751907 0.038592704311971766
0.1589921 -0.026052967798986686 0.03726909943787552
0.160992 -0.026441923281306273 0.036793219239038805
0.1629919 -0.025099161462277496 0.037035580763271354
0.1649918 -0.0257140025754206 0.03701619166744316
0.1669917 -0.02570754427375689 0.0368907449168054
0.1689916 -0.025316979571785005 0.036778806851807296
0.1709915 -0.025316272844019057 0.037991497589054
0.1729914 -0.025327574483304763 0.03668901666439226
0.1749913 -0.025464424408303994 0.03791069121480692
0.1769912 -0.024866713994803048 0.03712889643490126
0.1789911 -0.024999420246972485 0.03776091449749659
0.180991 -0.025037310179282207 0.03785168105144909
0.1829909 -0.02476579721973464 0.03748965965137174
0.1849908 -0.024614544198445706 0.03773297446718712
0.1869907 -0.024891073254157722 0.03750033642454309
0.1889906 -0.02511426300708601 0.03768501072293176
0.1909905 -0.025557290801819878 0.03801041921148047
0.1929904 -0.025926808426286245 0.037747303252310974
0.1949903 -0.025626471029530185 0.03699272219491238
0.1969902 -0.025966895109412334 0.03711499606401837
0.1989901 -0.025363523095236505 0.03802114750465715
0.20099 -0.026113407964131537 0.037994897680137855
0.2029899 -0.026582991419836645 0.03783091155326987
0.2049898 -0.02583688853246929 0.037208429982408614
0.2069897 -0.026948115253788558 0.03769974253463626
0.2089896 -0.026351918128981383 0.03697733128134348
0.2109895 -0.026895674677783477 0.03718419671899598
0.2129894 -0.02738366049164475 0.03727738916184349
0.2149893 -0.02769589847048998 0.03718093122333041
0.2169892 -0.027966349961895218 0.0362976430534537
0.2189891 -0.02845821879161986 0.03638191399546078
0.220989 -0.028041031385318545 0.03672647364567284
0.2229889 -0.028817172445085623 0.03743167594355362
0.2249888 -0.02843406555458678 0.03663721922590578
0.2269887 -0.029171025905693232 0.03619734093452462
0.2289886 -0.029047675878630504 0.03640745850869657
0.2309885 -0.029115142057172104 0.03630019519732027
0.2329884 -0.029856949172920057 0.036226774344766476
0.2349883 -0.029594366743313755 0.03620571882762832
0.2369882 -0.03047694845796192 0.03630448987236884
0.2389881 -0.03003639444001045 0.03604541657304818
0.240988 -0.030614488071204926 0.0354733120660922
0.2429879 -0.030602892155806638 0.035842599792504516
0.2449878 -0.03086154519758618 0.035735265193713624
0.2469877 -0.030917513998018044 0.03597937482000211
0.2489876 -0.03083247651000583 0.03491236067682735
0.2509875 -0.031147990888796932 0.035111265484753976
0.2529874 -0.03127343518793901 0.035403412815399556
0.2549873 -0.030868828970221498 0.03543312517555877
0.2569872 -0.030866001236551532 0.034578591578372585
0.2589871 -0.03071353675768671 0.03504437422431614
0.260987 -0.030711356857084225 0.035034824023562186
0.2629869 -0.030901281892046554 0.034704023375756635
0.2649868 -0.03064263476598942 0.035258050050281875
0.2669867 -0.030495250189742758 0.03509156218809349
0.2689866 -0.03073977921725905 0.03493303423053485
0.2709865 -0.030589929321977377 0.0351182586032181
0.2729864 -0.030102110723848875 0.035430336684674685
0.2749863 -0.030200405870875045 0.03550748640737656
0.2769862 -0.029975263775942014 0.03548909741921685
0.2789861 -0.02990331299172582 0.03672561461001488
0.280986 -0.03048570118749654 0.03690215940765324
0.2829859 -0.030084759244094927 0.03649122736759501
0.2849858 -0.03106270486893717 0.03721654536493134
0.2869857 -0.03129746868198699 0.03749174920750733
0.2889856 -0.031545943140364976 0.037479998087610066
0.2909855 -0.031747540849182604 0.03839452804266362
0.2929854 -0.032260203824424974 0.03869606178778454
0.2949853 -0.03266726569999606 0.038745656413923066
0.2969852 -0.032954321772461444 0.038972188727334045
0.2989851 -0.033703522656512 0.03957992922283476
0.300985 -0.034483930126804514 0.03967736766056787
0.3029849 -0.03477708459049706 0.04018732674355524
0.3049848 -0.03568950758977182 0.039779624016443235
0.3069847 -0.036366452083880375 0.03933665078745675
0.3089846 -0.03728586576025037 0.03972725091128318
0.3109845 -0.03773166151254747 0.03944789353956359
0.3129844 -0.03855399818711842 0.03936699584399035
0.3149843 -0.039217303025819585 0.03932791639407684
0.3169842 -0.0400664951388645 0.03894909945591622
0.3189841 -0.041143487142222386 0.03868587432462714
0.320984 -0.04180393384055124 0.03797127371392884
0.3229839 -0.041810614462361236 0.03766036116327737
0.3249838 -0.04219009122400832 0.038064520319961465
0.3269837 -0.04288061530207659 0.03751936842833426
0.3289836 -0.04330217332100021 0.03704864770223947
0.3309835 -0.04300137863781717 0.03646805514212679
0.3329834 -0.0434562372105535 0.03544190461144631
0.3349833 -0.04316377306416462 0.034833733900090175
0.3369832 -0.04285327620136212 0.034348366321435286
0.3389831 -0.04274894582973676 0.033668044222989135
0.340983 -0.04302034733495394 0.033498120765326156
0.3429829 -0.04224009281438035 0.032806514657760535
0.3449828 -0.04197515935745076 0.03221755573138241
0.3469827 -0.04195480956490262 0.032720568434536156
0.3489826 -0.04172452807885215 0.03246639392009504
0.3509825 -0.04185386100743904 0.03233825378340371
0.3529824 -0.041195173126322523 0.03223361761947915
0.3549823 -0.040622258959466334 0.032189210115178564
0.3569822 -0.04068458221905741 0.03286684458717082
0.3589821 -0.03989807869453141 0.03327623363920654
0.360982 -0.03981342138401227 0.03345450721334053
0.3629819 -0.039699424288223845 0.033721258256849865
0.3649818 -0.039827097367431154 0.034343788903752503
0.3669817 -0.0401389631108323 0.03518850143974718
0.3689816 -0.04059762510272151 0.03520802278540267
0.3709815 -0.04057234274444763 0.03525657857376339
0.3729814 -0.0403713442007815 0.035353632710766886
0.3749813 -0.04096024246588903 0.03602981053062359
0.3769812 -0.041794942951982134 0.03655580917265655
0.3789811 -0.04257920894782695 0.03612496030165053
0.380981 -0.04292427296033978 0.036180588763328594
0.3829809 -0.04354942981593085 0.03668637107849193
0.3849808 -0.043646157144323766 0.03719065802847862
0.3869807 -0.04498134470107441 0.036843698181144954
0.3889806 -0.045163481576406594 0.036643997682980545
0.3909805 -0.045883468685302145 0.0366173346846435
0.3929804 -0.04662346862447144 0.03625989127203921
0.3949803 -0.04708872565773869 0.0362311800706011
0.3969802 -0.0473894833937665 0.03555221623227089
0.3989801 -0.047709489959460165 0.03501516018348565
0.40098 -0.04842717663767981 0.03471113296821912
0.4029799 -0.04878142888374321 0.03425706410335569
0.4049798 -0.048707147930066974 0.033950149225100944
0.4069797 -0.04915084801678428 0.03309341339458478
0.4089796 -0.04931220906249241 0.03308522383997976
0.4109795 -0.04921494909884041 0.032352636364715366
0.4129794 -0.04922986644546799 0.03246668946644879
0.4149793 -0.04930129524964382 0.03187397837302884
0.4169792 -0.048901044652030004 0.031224128109195823
0.4189791 -0.048649650831732276 0.031197682709386103
0.420979 -0.04859891298358766 0.031162235568338133
0.4229789 -0.04857945296214878 0.03124899222701629
0.4249788 -0.04820053552336336 0.03130572967301146
0.4269787 -0.048231796911152675 0.03142240080572943
0.4289786 -0.048026840709704005 0.03151402544077795
0.4309785 -0.04812462033644062 0.031854735323069344
0.4329784 -0.04808548308667817 0.031933244787146424
0.4349783 -0.048454848295559454 0.03181685485573739
0.4369782 -0.04873055487326912 0.03249750732500252
0.4389781 -0.0485715858710792 0.032856352402932706
0.440978 -0.04942328836176199 0.032803839875662974
0.4429779 -0.04971599483444553 0.03297525476893012
0.4449778 -0.05049802185491104 0.0333712951671502
0.4469777 -0.050859567747762915 0.03328481187241984
0.4489776 -0.05141967705641882 0.033407018028618306
0.4509775 -0.051769310481237826 0.033905867819325315
0.4529774 -0.052674857608068205 0.033884506715298295
0.4549773 -0.05313760662085739 0.03353448242856574
0.4569772 -0.05363953722279446 0.033435527887365056
0.4589771 -0.05464493701214115 0.03276830581392148
0.460977 -0.05500788865239604 0.03261254705115311
0.4629769 -0.05562709142352415 0.03231072588433327
0.4649768 -0.0563737238134552 0.03156533457053265
0.4669767 -0.05648920519186557 0.03108011977639535
0.4689766 -0.05692514834396635 0.03053095719999222
0.4709765 -0.05759222772249009 0.029989834481461627
0.4729764 -0.057451791042260385 0.029236197288845037
0.4749763 -0.05776916725772628 0.02891450563773331
0.4769762 -0.05783407059747774 0.02836260292242554
0.4789761 -0.05783132618450593 0.027869174061389543
0.480976 -0.057742347832263424 0.027286974798340476
0.4829759 -0.057689164615283714 0.026828092352231436
0.4849758 -0.05770021478375135 0.026452336077606033
0.4869757 -0.057452516983020674 0.026197070947409022
0.4889756 -0.056866595936619406 0.025706087672353634
0.4909755 -0.05646044748886448 0.025398934334921224
0.4929754 -0.056223906850838334 0.025656953039347653
0.4949753 -0.056002581677557964 0.025595682781799266
0.4969752 -0.05572370020504622 0.0257787924013788
0.4989751 -0.05543724357563731 0.02591004707232583
0.500975 -0.05531011266209648 0.026129153833314975
0.5029749 -0.05549944935437626 0.02638325378047269
0.5049748 -0.05570082015514964 0.02668594828961817
0.5069747 -0.0558643037860907 0.02686793063353216
0.5089746 -0.05609068921264701 0.02707002374485061
0.5109745 -0.056033737111030796 0.027130953026465385
0.5129744 -0.05635423487495764 0.027539012088788756
0.5149743 -0.056460577930767045 0.028033874380737955
0.5169742 -0.05693702500687753 0.02795187655580348
0.5189741 -0.057679260927473594 0.028154889707243634
0.520974 -0.05825668496080681 0.02796059663827989
0.5229739 -0.05882741683522031 0.027670610244410747
0.5249738 -0.05925786962544793 0.027667064124090597
0.5269737 -0.060081797438712614 0.027648426176410563
0.5289736 -0.06098062681115563 0.02750205968803459
0.5309735 -0.061735753915362034 0.027031292429905558
0.5329734 -0.06216968908185315 0.026750661534220226
0.5349733 -0.06278398850922746 0.02657068404332914
0.5369732 -0.06358478338455453 0.02596408377768248
0.5389731 -0.06403803602189716 0.025591477087183203
0.540973 -0.06452698499461565 0.024743463075609134
0.5429729 -0.06497319555830701 0.02412137691475517
0.5449728 -0.0655118139508511 0.023595282842030055
0.5469727 -0.06556142875712631 0.023172465044380613
0.5489726 -0.06572491931203232 0.022355464334901924
0.5509725 -0.06577252898491051 0.02191456642752709
0.5529724 -0.0658948582095297 0.021483625123198093
0.5549723 -0.06579473128716126 0.02078773893141061
0.5569722 -0.06563058777767955 0.020458931806478977
0.5589721 -0.06544935355456727 0.020060512548137337
0.560972 -0.06514009763420278 0.01989960826131758
0.5629719 -0.0649712954581386 0.019740831584586144
0.5649718 -0.06452576189210202 0.019382061934074542
0.5669717 -0.0642369992317067 0.019395226610256517
0.5689716 -0.06427221026020201 0.019409038828086426
0.5709715 -0.06415779934506359 0.019522303263902765
0.5729714 -0.06419525892701496 0.01941653633798963
0.5749713 -0.06429061209638384 0.01966904002122311
0.5769712 -0.06437410781740081 0.01938354558557891
0.5789711 -0.06438253200976404 0.01954294893658172
0.580971 -0.06462336131264391 0.019841748578455266
0.5829709 -0.06489326214284463 0.020308187799376144
0.5849708 -0.06548311432741802 0.020559137224105906
0.5869707 -0.0656349575092143 0.02087946216588107
0.5889706 -0.0661820155376828 0.02043575163825149
0.5909705 -0.06686956838788755 0.02042241142787273
0.5929704 -0.06741492872810546 0.02025529844755334
0.5949703 -0.0677188404375599 0.020094001633973513
0.5969702 -0.0684428885035999 0.019889538996521267
0.5989701 -0.06906401448052626 0.019660545507541715
0.60097 -0.06960651628501856 0.01912950954135539
0.6029699 -0.07005097662124589 0.01885066330449153
0.6049698 -0.07068503155710582 0.018331464429896287
0.6069697 -0.0709655308964026 0.017683175238257853
0.6089696 -0.07136638935427177 0.017349789953509758
0.6109695 -0.07169278287682807 0.016301543609062864
0.6129694 -0.07207618818200143 0.01567502798757831
0.6149693 -0.07218062387797533 0.014888358756158529
0.6169692 -0.07226831688124388 0.014490849534599441
0.6189691 -0.07212317942861568 0.013812790302354785
0.620969 -0.07209079442940625 0.013406015270193705
0.6229689 -0.07208247486720568 0.01263941690899809
0.6249688 -0.07176674380065101 0.012089529797901424
0.6269687 -0.07157194769606381 0.011772811352490361
0.6289686 -0.07123856726184741 0.01145967362628248
0.6309685 -0.07070398615419049 0.011237380943764093
0.6329684 -0.07061256183730855 0.011160970265708472
0.6349683 -0.07019941621463749 0.011088267734599058
0.6369682 -0.07011477725628878 0.010749922604922846
0.6389681 -0.07015650805045646 0.010682872305394931
0.640968 -0.06978469642128177 0.010840926937253668
0.6429679 -0.06980022888521686 0.011121445210927606
0.6449678 -0.0697778251144931 0.011326473705936584
0.6469677 -0.07012234280931051 0.011650898398749991
0.6489676 -0.07032038662951923 0.012031608578555612
0.6509675 -0.07070818072125142 0.012376597625078638
0.6529674 -0.07132671849766972 0.012672334134699821
0.6549673 -0.07148098431140548 0.012957551432936212
0.6569672 -0.07222896093133298 0.013186251317020784
0.6589671 -0.07247361377887789 0.013270505551087674
0.660967 -0.07342108565569155 0.013183923130783107
0.6629669 -0.07407902644997978 0.012966432119830257
0.6649668 -0.0750755361985238 0.012581261258392939
0.6669667 -0.07549668993972056 0.012279707342968859
0.6689666 -0.0759816206543927 0.011737016428393487
0.6709665 -0.07658686496367684 0.010971991757184468
0.6729664 -0.07737246797573294 0.010539295224701525
0.6749663 -0.07794683912892625 0.009919064109976772
0.6769662 -0.07847737590908475 0.008916386825131468
0.6789661 -0.07924163009894031 0.007874385561201066
0.680966 -0.07948298003987497 0.007014653613662623
0.6829659 -0.07955709877008203 0.006126800772486406
0.6849658 -0.07961791803863993 0.0051996673778516855
0.6869657 -0.07947635622227986 0.0043642509447892434
0.6889656 -0.07954257278848727 0.003381465448519777
0.6909655 -0.07914957474049567 0.002884895256408525
0.6929654 -0.07903506732061515 0.002014861365446534
0.6949653 -0.07857455395358387 0.0014499022487459955
0.6969652 -0.07826656712388766 0.0009325551759515466
0.6989651 -0.07785876041225058 0.0003966290007012402
0.700965 -0.0775633164220533 -3.8501147990921414e-05
0.7029649 -0.07706195290113055 -5.260220319916464e-05
0.7049648 -0.07677903056201558 -0.00028902316461531033
0.7069647 -0.07632408623351641 -0.00047042534652396925
0.7089646 -0.07561627212195207 -0.0005682695587108273
0.7109645 -0.07563058474512638 -0.00041805470698991903
0.7129644 -0.07580819962481705 -0.0002384867309016131
0.7149643 -0.07565903952345021 -0.00018433114365541334
0.7169642 -0.07572611034886663 0.00020246310602179546
0.7189641 -0.07614000528158288 0.0006332070713129558
0.720964 -0.07639771176440935 0.0006412502825347242
0.7229639 -0.07650010322166209 0.0006183476940872859
0.7249638 -0.07666205257533282 0.0007551193457775371
0.7269637 -0.07717635559081874 0.0012021838458821238
0.7289636 -0.07776519527073363 0.0012279327605171468
0.7309635 -0.07827127018818784 0.0011620358636648814
0.7329634 -0.07890836071246057 0.0011640655302391813
0.7349633 -0.07963415971746662 0.0007521776915873496
0.7369632 -0.08030013841369828 0.0005975866592813454
0.7389631 -0.08104598784883196 4.311535982267495e-05
0.740963 -0.08181829620265124 -0.0007087039479264194
0.7429629 -0.08217346402391557 -0.0016812627523043779
0.7449628 -0.08261540728718152 -0.0025825421707532763
0.7469627 -0.08303296606863109 -0.0034678016638154084
0.7489626 -0.0833719348098439 -0.004581052447684152
0.7509625 -0.08374744642363322 -0.005151855227015306
0.7529624 -0.0840377208429065 -0.006258664765345517
0.7549623 -0.08412080192559673 -0.007097961632690164
0.7569622 -0.08391627027315118 -0.008178794492122086
0.7589621 -0.08380086507414872 -0.008968306727887083
0.760962 -0.08357684025000912 -0.009734850083415462
0.7629619 -0.08317168748758008 -0.010715850051182762
0.7649618 -0.08250781158356528 -0.011300242601609514
0.7669617 -0.08219981799942987 -0.011940275490404148
0.7689616 -0.08166107906534086 -0.012624817895501274
