! Created with skrf 1.8.0 (http://scikit-rf.org).
# GHz S RI R 50.0 
!freq ReS11 ImS11
0.001 -1.0095662277275512 1.001686226505304e-05
0.0029999 1.1571612485223843 0.005704909361937641
0.0049998 1.0913578973481823 0.06829075826967318
0.0069997 1.0814477983916024 0.009884678016136683
0.0089996 1.0247571253798706 0.026624975153166225
0.0109995 1.013046280691005 0.03139877248798739
0.0129994 1.0077692366128579 0.03546549006013878
0.0149993 1.0034039515452626 0.045995080583382246
0.0169992 0.999682615190544 0.05460619939801015
0.0189991 0.9970419133442426 0.06336202533500851
0.020999 0.9953902661604708 0.07108942499145698
0.0229989 0.9935999315468035 0.07961939678991467
0.0249988 0.9912026672311189 0.08933835667651802
0.0269987 0.9896493599023525 0.09710620878221275
0.0289986 0.9876428028946204 0.10583352271238042
0.0309985 0.9846430362926543 0.11470636196772649
0.0329984 0.9854702179391809 0.12168785990791434
0.0349983 0.984663875918642 0.12796133106533977
0.0369982 0.9817078390772567 0.13650614502207936
0.0389981 0.9816180794466932 0.14250160166547315
0.040998 0.9814843906069596 0.14970974016813138
0.0429979 0.9794791802428857 0.1566126239380372
0.0449978 0.979253186450228 0.16263926414113886
0.0469977 0.9773242559465493 0.17034297530377845
0.0489976 0.9773400692104273 0.17703927465783653
0.0509975 0.9766677621865066 0.1825626073281104
0.0529974 0.9748152806303874 0.190927476575164
0.0549973 0.9746114416680761 0.1940751510252276
0.0569972 0.9744857797649745 0.20174840456041382
0.0589971 0.973148726847836 0.20771700004896085
0.060997 0.9713897472401257 0.21414547273247864
0.0629969 0.9717452280057004 0.2204919038687094
0.0649968 0.9692427268027255 0.22666347338717346
0.0669967 0.969546272734248 0.23219964697046447
0.0689966 0.9670980470864377 0.2389328546790424
0.0709965 0.965454922225883 0.2477238814458887
0.0729964 0.9653426168132269 0.25279722811079725
0.0749963 0.9622674735068653 0.25843723727521084
0.0769962 0.9609442702809434 0.26629622528152186
0.0789961 0.9607899256676713 0.27264792119225073
0.080996 0.9574844340777785 0.2798147088834922
0.0829959 0.9554975308307934 0.2868677311899846
0.0849958 0.9535898223289476 0.2952960117749447
0.0869957 0.9516986847289215 0.3011750065947764
0.0889956 0.9479618343152372 0.30810040745060746
0.0909955 0.9465607033047871 0.31517322216248067
0.0929954 0.9433076290583676 0.3215554172680755
0.0949953 0.9407148564910299 0.33095648376522085
0.0969952 0.9383636063586023 0.3367730915353226
0.0989951 0.9337411512301287 0.3433036761495436
0.100995 0.932381562424842 0.3508575043961623
0.1029949 0.9289874315198893 0.35752123688152854
0.1049948 0.9264745771006655 0.3647866840277331
0.1069947 0.9232156352710377 0.37152470416166467
0.1089946 0.920750989263586 0.3781403830763133
0.1109945 0.9185030127641024 0.38597498620613985
0.1129944 0.9148855201391408 0.39179476519561346
0.1149943 0.912023436048543 0.3983321032418814
0.1169942 0.9100623357528796 0.4050305027338739
0.1189941 0.9063747018286951 0.411793440881102
0.120994 0.9038498129209575 0.4180860292027038
0.1229939 0.9001488132916249 0.4241434932829654
0.1249938 0.8981726863484298 0.43120582071475283
0.1269937 0.8941205257412895 0.43621347777039493
0.1289936 0.8925973210642455 0.4433199820321997
0.1309935 0.8882356275105625 0.4492134642740072
0.1329934 0.8860447134998296 0.45572482702263484
0.1349933 0.8839410709854091 0.46062165314653286
0.1369932 0.8797726922908651 0.4668905723200935
0.1389931 0.8771319795251034 0.47433985180515903
0.140993 0.8743530117632877 0.4796812474347058
0.1429929 0.8724325185520964 0.4858311833857382
0.1449928 0.8685050011067472 0.4909120997701366
0.1469927 0.8660577977928586 0.4985495755957549
0.1489926 0.8626218660301969 0.5028618843428896
0.1509925 0.859378065599394 0.509667661615676
0.1529924 0.8563964721772284 0.5139552734340512
0.1549923 0.8530524400236661 0.5203013916689343
0.1569922 0.8484653666707187 0.5282612972018903
0.1589921 0.8452023796132198 0.532689043789298
0.160992 0.8400202529896477 0.5399801333870717
0.1629919 0.8372221668443229 0.5439183686847885
0.1649918 0.833632657961386 0.5507476856850408
0.1669917 0.8295702163974497 0.5574172489836231
0.1689916 0.8257905704547385 0.5622133030064488
0.1709915 0.8219772027145149 0.5689608512469708
0.1729914 0.8169578892872967 0.5737574316607135
0.1749913 0.8130807656637319 0.5801695929294559
0.1769912 0.8091156623256976 0.5864415849235719
0.1789911 0.8040936729727898 0.5910693437512129
0.180991 0.800955305936148 0.5981221251939282
0.1829909 0.7961048809673086 0.6029865445592021
0.1849908 0.7912017036867597 0.6096321993017131
0.1869907 0.7865219210390525 0.61403007526288
0.1889906 0.7826646078522668 0.6208907637998482
0.1909905 0.7780451871152018 0.6269556079252934
0.1929904 0.7735133385457708 0.6322163475742594
0.1949903 0.7682248163477523 0.6376195818153527
0.1969902 0.7641842599269296 0.6427993103329047
0.1989901 0.7596127185971822 0.6489309061801284
0.20099 0.7563189134373931 0.6548367172244978
0.2029899 0.750327776512091 0.6589090229375936
0.2049898 0.7449973589524465 0.6653413763723218
0.2069897 0.7411918629500657 0.670353465486607
0.2089896 0.7366744861091442 0.6756176904664393
0.2109895 0.7325739620626215 0.6796424807576127
0.2129894 0.7276633035004545 0.6861656730492771
0.2149893 0.7236267369844276 0.690464819294405
0.2169892 0.7179998956426349 0.6959180530321085
0.2189891 0.7140275191700407 0.6997251961118753
0.220989 0.7096956121133399 0.7051949241200087
0.2229889 0.7052091172581618 0.7116380118146889
0.2249888 0.7008027404545023 0.7146167219532938
0.2269887 0.6960476839445391 0.7204556638445367
0.2289886 0.6907557347336332 0.7252678947980031
0.2309885 0.6867282135987065 0.7296614473443308
0.2329884 0.6813294759580732 0.7339871635593098
0.2349883 0.6767017919076966 0.7391194038863695
0.2369882 0.6718636699667525 0.7444665428691353
0.2389881 0.6671033687310748 0.7481364912535141
0.240988 0.6607984588789091 0.7524998300950023
0.2429879 0.6570068750400467 0.7579580655568169
0.2449878 0.6511429579700838 0.7621473461659782
0.2469877 0.646536092126 0.7667375322901769
0.2489876 0.6400937835273984 0.7703214284479927
0.2509875 0.6357892775616769 0.7756602497211609
0.2529874 0.6293843183884436 0.7797770556253545
0.2549873 0.6244624702871604 0.7848020284286499
0.2569872 0.618609838513007 0.7884335110111012
0.2589871 0.6131039511280297 0.7937449722796225
0.260987 0.6074258173181696 0.7975556300590205
0.2629869 0.6016094147056125 0.8018519124249822
0.2649868 0.5955986888812768 0.8065696845160159
0.2669867 0.5893941385700374 0.8107940862585699
0.2689866 0.5839052945324549 0.8148748216792139
0.2709865 0.5784463316468806 0.8191243865347796
0.2729864 0.5735107079753217 0.8227845900554172
0.2749863 0.5671903514393501 0.8270813962800235
0.2769862 0.5607886800031018 0.831670181128069
0.2789861 0.5568583036222027 0.8361110122726924
0.280986 0.5500449901343529 0.8390744526900177
0.2829859 0.5447348090153381 0.8423168693233325
0.2849858 0.5386708994470565 0.8465982952269299
0.2869857 0.5328015422687268 0.8499510642670193
0.2889856 0.5271057842017469 0.8528111253929068
0.2909855 0.521076241371581 0.8568809333188925
0.2929854 0.5164676885471424 0.861309211736876
0.2949853 0.5101732075742392 0.8637450508927502
0.2969852 0.5042818127554296 0.8669147345614867
0.2989851 0.49940014249003717 0.8712781461892423
0.300985 0.49352701757641937 0.874464378960072
0.3029849 0.4878446913429438 0.8794260270961983
0.3049848 0.4818661629105611 0.8817119207878725
0.3069847 0.4758854367114688 0.8843823970532907
0.3089846 0.47087421647012356 0.888230497067472
0.3109845 0.4644466583538541 0.8914100529132897
0.3129844 0.4589138982554457 0.894226620070943
0.3149843 0.45329453514167384 0.8981760400492181
0.3169842 0.4467058899300943 0.90167556582913
0.3189841 0.4407834087185001 0.9044799780054958
0.320984 0.4340419745096703 0.9083792297030606
0.3229839 0.42897837437024233 0.9112828410733104
0.3249838 0.4225495303662177 0.9144630262371967
0.3269837 0.4166062045626062 0.9177651786823603
0.3289836 0.40947712611722603 0.9209838299513111
0.3309835 0.4038225721344092 0.9228857558413089
0.3329834 0.39775514432717 0.9263743661974841
0.3349833 0.3912825479007203 0.929245476559965
0.3369832 0.3851798315924652 0.9322600090174357
0.3389831 0.3798647669889969 0.935022688774623
0.340983 0.37346715731233554 0.937850081667876
0.3429829 0.3673870552364084 0.940159809811102
0.3449828 0.3615588060963207 0.942384999430186
0.3469827 0.3542538113502324 0.9457686050402548
0.3489826 0.3478722344930717 0.9481472684090233
0.3509825 0.34117690972056586 0.9502770665661731
0.3529824 0.3343909742663412 0.9518273197002718
0.3549823 0.32828026390885795 0.9548632276579913
0.3569822 0.32062066762419444 0.956913968308133
0.3589821 0.3143845832374056 0.9591529965670311
0.360982 0.30782824975039424 0.9612851629935436
0.3629819 0.3011486948759894 0.9629108209372593
0.3649818 0.29490380796447424 0.9653585088039622
0.3669817 0.2878904115103833 0.9661746995528218
0.3689816 0.28194191319742984 0.9691439430679083
0.3709815 0.2756312879817051 0.9707855589446657
0.3729814 0.2697394259272753 0.9721034195256568
0.3749813 0.2629388821611368 0.9745876724834317
0.3769812 0.25571646009858784 0.9760652640592858
0.3789811 0.24820579186417618 0.9770366716549561
0.380981 0.24289074859432003 0.9786997627614047
0.3829809 0.2357662361031076 0.9805973462079401
0.3849808 0.2306518183593149 0.9833216636797366
0.3869807 0.22357573468369296 0.9842016986168738
0.3889806 0.2173154069037313 0.985793699538819
0.3909805 0.21102448785665864 0.9876789856923841
0.3929804 0.20451445497987608 0.9893496267682516
0.3949803 0.19795640140717727 0.9906952808039555
0.3969802 0.19094289871636094 0.9909079855868863
0.3989801 0.1851655870195456 0.9932558102189749
0.40098 0.1783898736805555 0.9944049598690491
0.4029799 0.17180104454821776 0.9957995838344904
0.4049798 0.16567162314558526 0.9974316704479327
0.4069797 0.1585090877788559 0.9978548004949208
0.4089796 0.1523036235044124 0.999347246431345
0.4109795 0.14488389803654478 1.0005100781369993
0.4129794 0.13894356716233736 1.0022178830338013
0.4149793 0.1318880447403682 1.0030946744521696
0.4169792 0.1253076475414437 1.003401629925605
0.4189791 0.11844927121713876 1.0044066758014119
0.420979 0.11165671431516148 1.0050597243027357
0.4229789 0.1046405498390856 1.0061364310974505
0.4249788 0.09813508165760748 1.00703690362277
0.4269787 0.09109723736427491 1.0075500797303454
0.4289786 0.08447072949420739 1.0081776245605245
0.4309785 0.07771451498235639 1.0091386469622114
0.4329784 0.07131046423784958 1.0095105126316362
0.4349783 0.06500107871215792 1.0100905367021458
0.4369782 0.05796692307905868 1.0104575254839874
0.4389781 0.051381048838171864 1.0114586672231816
0.440978 0.04505185178425186 1.011634810171566
0.4429779 0.03872366834187561 1.0114355382475897
0.4449778 0.031074146783900622 1.0117191313717417
0.4469777 0.024583456292331392 1.011850375180561
0.4489776 0.01771665846061412 1.0119961559648065
0.4509775 0.011847780537642051 1.0133041823435887
0.4529774 0.004574235098468771 1.013690339686256
0.4549773 -0.001466650370486787 1.01334980645886
0.4569772 -0.007656279653589705 1.0131650161944823
0.4589771 -0.014888991135245395 1.0134674662208878
0.460977 -0.02121379679851297 1.0135937655488545
0.4629769 -0.027899043632612898 1.0137012492426047
0.4649768 -0.034361388418838144 1.0126938621545696
0.4669767 -0.0408821580703123 1.0133386071336352
0.4689766 -0.04779683952535182 1.0130587161910447
0.4709765 -0.054008808194440344 1.012815285076557
0.4729764 -0.06019896234539133 1.0125982211876985
0.4749763 -0.06709561311291615 1.0130910050412045
0.4769762 -0.07364745436694593 1.0126998709268271
0.4789761 -0.0801454010765752 1.0121919027487072
0.480976 -0.08713440514574478 1.0121467093489127
0.4829759 -0.0939016815217646 1.0113300391495759
0.4849758 -0.10051326276056924 1.010692699489932
0.4869757 -0.10730611170234983 1.0103931926038225
0.4889756 -0.11390425813675453 1.0098733786810887
0.4909755 -0.12038603568388798 1.0093956042117438
0.4929754 -0.12729808190537095 1.0081722365577586
0.4949753 -0.13367591292120426 1.0070531507159066
0.4969752 -0.14058821472931135 1.0068764275175144
0.4989751 -0.14692419265213869 1.0051947209631937
0.500975 -0.1527839498822596 1.0045050951012913
0.5029749 -0.15985675716383274 1.00349290327313
0.5049748 -0.16661094680817753 1.001968384796932
0.5069747 -0.17344331986896885 1.0009793286305866
0.5089746 -0.18010081684729462 0.9992899033897934
0.5109745 -0.1867357929512969 0.9982540151575886
0.5129744 -0.1932729126259607 0.9973113245410505
0.5149743 -0.2002625818835987 0.9959781880790014
0.5169742 -0.20642608768526982 0.9950659501142192
0.5189741 -0.21381980424075192 0.9934532070761033
0.520974 -0.21975496135093653 0.9925052858690454
0.5229739 -0.22618363011079987 0.991554103563968
0.5249738 -0.23261656866669705 0.990452341752439
0.5269737 -0.23892855667299495 0.9889467171140378
0.5289736 -0.24540778896557378 0.9879783579773568
0.5309735 -0.2509707429009865 0.9865396443710188
0.5329734 -0.25696326043059026 0.985480895630519
0.5349733 -0.26325369783445046 0.9841933584571377
0.5369732 -0.2693220477784648 0.9824561728388583
0.5389731 -0.2757444163178892 0.9809699888339554
0.540973 -0.28162645021266475 0.9790765841714164
0.5429729 -0.28776136674161773 0.97786080853707
0.5449728 -0.2942829445757533 0.9754824734188838
0.5469727 -0.3004223038809781 0.9739357452185828
0.5489726 -0.30619772319427224 0.972025246470747
0.5509725 -0.3126684561622568 0.9702408869600171
0.5529724 -0.3189716827203779 0.968173862971504
0.5549723 -0.3250807976937956 0.9663524128525999
0.5569722 -0.33108990789434956 0.9640256916241183
0.5589721 -0.33742790945476564 0.9622909201487013
0.560972 -0.3438155118008381 0.9601927434824478
0.5629719 -0.3498370098776335 0.9579097806587428
0.5649718 -0.35581968606261527 0.9557670816272624
0.5669717 -0.36213546482848424 0.9539057627899356
0.5689716 -0.3684059311686174 0.9516740639125717
0.5709715 -0.3740607418967803 0.9494144908741585
0.5729714 -0.3801154476135591 0.9471921893133368
0.5749713 -0.3862673932126343 0.9448088122035749
0.5769712 -0.3922943890803817 0.9417354006225961
0.5789711 -0.3985549664198651 0.9389343705802745
0.580971 -0.4044174038596464 0.9365813958814238
0.5829709 -0.41034827818293085 0.9343568411840025
0.5849708 -0.4162914819277785 0.9319715325644131
0.5869707 -0.4223852285673869 0.9293290170288732
0.5889706 -0.42826893210245265 0.9264433025110932
0.5909705 -0.4336510102222411 0.9240905301211669
0.5929704 -0.4403861853917418 0.9209192172282865
0.5949703 -0.4459021993581981 0.9187787250279331
0.5969702 -0.4515073765936717 0.9150317704113301
0.5989701 -0.45732780593779454 0.912733824836948
0.60097 -0.46316931515650206 0.9102960851977346
0.6029699 -0.4693806539061185 0.9074106091909216
0.6049698 -0.4750180480972753 0.9046748552703087
0.6069697 -0.48014465608147333 0.9018997649122535
0.6089696 -0.48646647223204 0.8989695869179793
0.6109695 -0.4919633856225296 0.8959395336754451
0.6129694 -0.49792284534035713 0.8927931588087684
0.6149693 -0.5035181132093787 0.8892817471049784
0.6169692 -0.5091457302986314 0.8864757965579054
0.6189691 -0.5146199337309885 0.8834678081869722
0.620969 -0.5207524507272513 0.8805344987034193
0.6229689 -0.5258629428008195 0.8771376931297064
0.6249688 -0.5313534417015002 0.8741708551321645
0.6269687 -0.5372615943787964 0.8709724375770324
0.6289686 -0.5424541330713568 0.8676902616039903
0.6309685 -0.5483144485487677 0.8641804071240639
0.6329684 -0.5537644468507372 0.8610263744916338
0.6349683 -0.5590573615696015 0.8578673263304145
0.6369682 -0.5641858255237732 0.854382582287951
0.6389681 -0.5694792194401188 0.8506072478446307
0.640968 -0.5748478488443427 0.8471230872522542
0.6429679 -0.5802871186247578 0.8431983551681917
0.6449678 -0.5854258011340209 0.8398243135554979
0.6469677 -0.5911156212779994 0.8360004298864655
0.6489676 -0.5962658488496919 0.8322275234696653
0.6509675 -0.6011957500788983 0.8286767061233251
0.6529674 -0.606719021125518 0.8250419447897748
0.6549673 -0.6116376407226587 0.8210672569538602
0.6569672 -0.6167135157038536 0.8175040325450854
0.6589671 -0.6220542778635175 0.8137599736884514
0.660967 -0.6275064480550886 0.8095640536658325
0.6629669 -0.6324559884500983 0.8060574435572975
0.6649668 -0.6372564258587489 0.8016441431169453
0.6669667 -0.6424335675245557 0.7977483176135297
0.6689666 -0.647458112557289 0.7938709376846521
0.6709665 -0.6523620253443383 0.7898643629530132
0.6729664 -0.6574449801803383 0.7860074907002295
0.6749663 -0.6623371318450422 0.7820084471560408
0.6769662 -0.6673557662194957 0.7779713323238212
0.6789661 -0.6721181365458256 0.7735324349420182
0.680966 -0.676935120522508 0.7696055857177856
0.6829659 -0.6819739933656828 0.7656951349754698
0.6849658 -0.6865931098501548 0.7615939075916287
0.6869657 -0.6914098079680004 0.7573605183611201
0.6889656 -0.6962472045286645 0.752974114426657
0.6909655 -0.7009169185389277 0.7488430244354833
0.6929654 -0.7059787716000762 0.7445205673608243
0.6949653 -0.7104385619189969 0.7403739500386544
0.6969652 -0.7152049768901978 0.7359775772788941
0.6989651 -0.7196028941427189 0.7318547471861324
0.700965 -0.7245747533505752 0.7272954944303587
0.7029649 -0.7289238714723201 0.7227965332760172
0.7049648 -0.7333719778536725 0.7181895554343842
0.7069647 -0.7378076290125728 0.714354968985717
0.7089646 -0.7425425785953993 0.7095931102577969
0.7109645 -0.7468853112358245 0.7051105257070354
0.7129644 -0.7514542174423652 0.7003828590059112
0.7149643 -0.7555951343041453 0.6956355076931765
0.7169642 -0.7601038737940998 0.690964045869492
0.7189641 -0.7643928008485007 0.6865399457609228
0.720964 -0.7685566293033055 0.6818131397499975
0.7229639 -0.7730094628791616 0.6768852615871104
0.7249638 -0.777158622847972 0.6720528634534021
0.7269637 -0.7813121537554447 0.6674602523194033
0.7289636 -0.7853380789224789 0.662785880750486
0.7309635 -0.7892640431872039 0.6579462242341614
0.7329634 -0.7935702606172119 0.6528311288708181
0.7349633 -0.7977120226912584 0.6482974542897546
0.7369632 -0.8016330128366943 0.6432390450794582
0.7389631 -0.8057074773000534 0.6381457258533282
0.740963 -0.8094357206439162 0.6334049241378152
0.7429629 -0.8134092556025782 0.6283734067592586
0.7449628 -0.8174498831262181 0.6236326579981329
0.7469627 -0.8214906920729972 0.6185358298603291
0.7489626 -0.8253712988338952 0.6134288799455285
0.7509625 -0.8292867610960304 0.6087318318928235
0.7529624 -0.8331339025274858 0.6033979192753284
0.7549623 -0.8367791117530317 0.5984501687101537
0.7569622 -0.8406784777882473 0.5938379307063855
0.7589621 -0.8443789942356286 0.588411594904576
0.760962 -0.8481958063954643 0.5835636468458921
0.7629619 -0.8516660342049154 0.5785608093207767
0.7649618 -0.8551865736998769 0.5731714363496248
0.7669617 -0.8590446051507674 0.5681234701114992
0.7689616 -0.8625605130059285 0.5629067772311063
0.7709615 -0.8659166161767855 0.5577364261766833
0.7729614 -0.868916146204164 0.5523766669738822
0.7749613 -0.8728569015011131 0.5473030028749385
0.7769612 -0.876234142175297 0.5419071212489162
0.7789611 -0.8794064806662242 0.5367568073047191
0.780961 -0.8828134753925199 0.5311549317123359
0.7829609 -0.8860677242086377 0.5261086732969826
0.7849608 -0.8891998491426372 0.520731415771519
0.7869607 -0.8923908836887149 0.5153782940294873
0.7889606 -0.8958472036035017 0.5097420501940959
0.7909605 -0.8989765214974181 0.5044461372414023
0.7929604 -0.9019353027245998 0.4990161687749846
0.7949603 -0.9049896611489043 0.49339602355728973
0.7969602 -0.9080291916625358 0.4880071486854496
0.7989601 -0.9112560949779122 0.48247068246872427
0.80096 -0.9141493953777149 0.47698020618494674
0.8029599 -0.9169833293897497 0.4714823074684834
0.8049598 -0.9197389858291591 0.4657997193819373
0.8069597 -0.9224153730601058 0.4601400268314779
0.8089596 -0.9254144970489144 0.45447149660444564
0.8109595 -0.9286145438046475 0.4490781057325267
0.8129594 -0.9312831534395334 0.44335405404262196
0.8149593 -0.9340243592478417 0.43779660541040605
0.8169592 -0.9367243088612669 0.43215898824024623
0.8189591 -0.9392740642860838 0.42661188310374765
