! Created with skrf 1.8.0 (http://scikit-rf.org).
# GHz S RI R 50.0 
!freq ReS11 ImS11
0.001 -0.999915088082216 0.0006393995955398788
0.0029999 -1.000231694850755 0.0036867138594864207
0.0049998 -1.0041237649772004 0.0033317896245615014
0.0069997 -1.009951555802788 -0.016734571872496523
0.0089996 -1.0515678837411804 -0.02969954630302899
0.0109995 -1.0506490293857087 -0.03874785052503317
0.0129994 -1.0500987719301171 -0.0475357541150098
0.0149993 -1.052082765603452 -0.05005600456417772
0.0169992 -1.0513253327751337 -0.05473868230186997
0.0189991 -1.0489844479122041 -0.05963339351945531
0.020999 -1.0497913920299722 -0.06696410876933688
0.0229989 -1.0491976166029695 -0.07344353735564225
0.0249988 -1.0489282874281822 -0.0782787638008094
0.0269987 -1.0487190044847723 -0.08508346008423358
0.0289986 -1.0481768995069691 -0.09042291272811076
0.0309985 -1.0485682240914542 -0.09626259237281098
0.0329984 -1.0477357581623141 -0.10289811007377855
0.0349983 -1.0472030119663196 -0.11035987890582055
0.0369982 -1.0473046612025243 -0.11601376076389083
0.0389981 -1.046618017967714 -0.12283155380309019
0.040998 -1.0456315401107028 -0.12792062969301543
0.0429979 -1.0455569352307752 -0.13483248506154472
0.0449978 -1.0442401108139332 -0.14142243497471507
0.0469977 -1.0440116004664135 -0.14631329315312988
0.0489976 -1.0426337135609167 -0.15361208590250616
0.0509975 -1.0421205950964572 -0.161062751042625
0.0529974 -1.0402861857829242 -0.16799668012782096
0.0549973 -1.0411178065475217 -0.17514005353818762
0.0569972 -1.0391683514636916 -0.18074544401893905
0.0589971 -1.0387373591377345 -0.18661129500370757
0.060997 -1.037552946469967 -0.19447669590443187
0.0629969 -1.0356173169809315 -0.19968641205662546
0.0649968 -1.0363479091502896 -0.2060326392723066
0.0669967 -1.032870550250508 -0.21340248355932392
0.0689966 -1.032766732189814 -0.21920469102503462
0.0709965 -1.0314396779274237 -0.2229838143440054
0.0729964 -1.0284370967744425 -0.23127781212190462
0.0749963 -1.0295071410915224 -0.23848365256628196
0.0769962 -1.0271914106070907 -0.24381400867491543
0.0789961 -1.0253430433458826 -0.2506854812015425
0.080996 -1.0251208541568955 -0.25613496621643256
0.0829959 -1.0228362467955727 -0.26267699230014585
0.0849958 -1.0207455731876256 -0.2672887396513142
0.0869957 -1.0186850171955024 -0.2743815289936063
0.0889956 -1.01898266188122 -0.2797847000380835
0.0909955 -1.0157768958940596 -0.28657918975095226
0.0929954 -1.015680185503551 -0.2922861223416146
0.0949953 -1.0132857545143386 -0.29706362868180497
0.0969952 -1.0112881748780655 -0.30371872642589226
0.0989951 -1.0111655310298144 -0.3087071860603436
0.100995 -1.0083827923859174 -0.31633209882059404
0.1029949 -1.0064963492702763 -0.32317850980704305
0.1049948 -1.0050253796436566 -0.3288892976086567
0.1069947 -1.0029012369700168 -0.33412027925845517
0.1089946 -1.000874991790432 -0.3402241527450041
0.1109945 -0.9983019433222193 -0.34573068247747496
0.1129944 -0.996867566185667 -0.3520766269142472
0.1149943 -0.9954515446658694 -0.3577338194706478
0.1169942 -0.9928176123453943 -0.3643162712014498
0.1189941 -0.9900021786575873 -0.369731464287045
0.120994 -0.9884743183930601 -0.37541905779601126
0.1229939 -0.9867335416611529 -0.38175120233097026
0.1249938 -0.983783372113477 -0.387185319582956
0.1269937 -0.9828720023428565 -0.39285269013193624
0.1289936 -0.9790666312970292 -0.39848935262039786
0.1309935 -0.9781014558752972 -0.4048825906953537
0.1329934 -0.974532824022033 -0.4103462817465926
0.1349933 -0.9720230095471598 -0.41779100964171806
0.1369932 -0.970349589721457 -0.42315023376050737
0.1389931 -0.9675305734820037 -0.4280380481781851
0.140993 -0.9657808300611015 -0.43484140252543024
0.1429929 -0.9610292334194881 -0.4404556157000563
0.1449928 -0.9602221161045424 -0.4462534832734545
0.1469927 -0.9571745294987767 -0.4511988637370609
0.1489926 -0.953670440349769 -0.4583587071656188
0.1509925 -0.953668600068158 -0.46260260028608
0.1529924 -0.9497326047424599 -0.47028271010417894
0.1549923 -0.9456337709683305 -0.4750338755428489
0.1569922 -0.9436580341614745 -0.47932196056133414
0.1589921 -0.940513118483244 -0.4863786315778534
0.160992 -0.9386122704789452 -0.48991607598439074
0.1629919 -0.9353205856378699 -0.4984026891331977
0.1649918 -0.9323016354845409 -0.502626369903159
0.1669917 -0.930187577593265 -0.5081789246940139
0.1689916 -0.9264994356086427 -0.5143794531472952
0.1709915 -0.9226301969296765 -0.5180101609702275
0.1729914 -0.921017752040277 -0.5251604910428912
0.1749913 -0.9169984604508935 -0.5302101392869888
0.1769912 -0.9144018776186762 -0.5357728252221643
0.1789911 -0.9108661626919078 -0.5408559210768544
0.180991 -0.9076089578105759 -0.5461218634641387
0.1829909 -0.9048786760659562 -0.5518697264602308
0.1849908 -0.9011042989574312 -0.5564560524544161
0.1869907 -0.8991970889217993 -0.5630791909354493
0.1889906 -0.8950857975509807 -0.567691734133051
0.1909905 -0.891871215454609 -0.5723241114364441
0.1929904 -0.8883375877261854 -0.5774048667148064
0.1949903 -0.885434932825014 -0.5833868496126373
0.1969902 -0.8823215202337344 -0.5883551394923306
0.1989901 -0.8782464848376323 -0.5928573428443268
0.20099 -0.8745788949104445 -0.5976151677624518
0.2029899 -0.8711120145085973 -0.6043104991818713
0.2049898 -0.8690882360861829 -0.6079598016889654
0.2069897 -0.8646654660966214 -0.6147592429746228
0.2089896 -0.861439371917442 -0.6188496897115122
0.2109895 -0.8576843198930182 -0.6240242931439149
0.2129894 -0.8536241801865901 -0.628275331592965
0.2149893 -0.8497846677737942 -0.6342846872901554
0.2169892 -0.8469888086432648 -0.6385319059332638
0.2189891 -0.84224023758907 -0.6445905307940817
0.220989 -0.8379485307992818 -0.6489932695050973
0.2229889 -0.8335795037118924 -0.6532065875460414
0.2249888 -0.8306684677882631 -0.6600989271011829
0.2269887 -0.8281472557985282 -0.6644135825614571
0.2289886 -0.8236379121430633 -0.6695037961509344
0.2309885 -0.8189674614844975 -0.6742593013634854
0.2329884 -0.8159798619891574 -0.6789236200029428
0.2349883 -0.8110752390247654 -0.6840239566569044
0.2369882 -0.8075415352441907 -0.6880539012745217
0.2389881 -0.8031918474877572 -0.6940701090261047
0.240988 -0.799393103063114 -0.6987281276155605
0.2429879 -0.7946505529259782 -0.7034602282523084
0.2449878 -0.7907502861691525 -0.7077746064660245
0.2469877 -0.7862758578605884 -0.7122376142865333
0.2489876 -0.7831498077414074 -0.7185267278828061
0.2509875 -0.77812121797888 -0.7221502866933073
0.2529874 -0.7736991246228078 -0.7256989788141819
0.2549873 -0.7698358386501586 -0.730916725593368
0.2569872 -0.7656034116528039 -0.736034689731634
0.2589871 -0.7604151642981903 -0.7394158784091973
0.260987 -0.7568959184927944 -0.7449085573808661
0.2629869 -0.7523793774587848 -0.749108310416043
0.2649868 -0.7489078933226675 -0.7527055689172201
0.2669867 -0.7445656278423425 -0.7566627029081558
0.2689866 -0.7398053520590999 -0.7615246958344001
0.2709865 -0.7357521230705466 -0.7657381088289682
0.2729864 -0.7300470431860384 -0.770670832340066
0.2749863 -0.7269138036074371 -0.7740930738038865
0.2769862 -0.7213174213291826 -0.7792233839643182
0.2789861 -0.7164336837750095 -0.7818491859337287
0.280986 -0.7129355762463607 -0.786745194288057
0.2829859 -0.7082903152664302 -0.7915561749617405
0.2849858 -0.7041729042244063 -0.7959274110726914
0.2869857 -0.6994308857406857 -0.799652834125456
0.2889856 -0.6945660975954019 -0.8041348380372325
0.2909855 -0.6899458215948636 -0.8079172345095211
0.2929854 -0.6841311226153498 -0.8115030122457244
0.2949853 -0.6798161965605231 -0.817290236488451
0.2969852 -0.6756375278007448 -0.8210937646580599
0.2989851 -0.6700868346684926 -0.8241880972075717
0.300985 -0.6660727957471744 -0.8281076003983407
0.3029849 -0.6604537247249783 -0.8317903683329627
0.3049848 -0.6562424849247265 -0.8364415135689572
0.3069847 -0.6513721004547619 -0.8410743371208981
0.3089846 -0.6459823507334298 -0.8450903982609727
0.3109845 -0.6406051817787974 -0.8485217445453603
0.3129844 -0.6362303162662973 -0.8523695289005379
0.3149843 -0.6309125483531666 -0.8561724614118239
0.3169842 -0.6256611111304733 -0.8599298992850701
0.3189841 -0.6215316828841583 -0.8640722218863081
0.320984 -0.616351904461921 -0.8674799283728213
0.3229839 -0.6095494705744146 -0.871136340963895
0.3249838 -0.603893430420981 -0.8746292548755628
0.3269837 -0.5994474994635572 -0.8781997972644136
0.3289836 -0.5944099178152067 -0.881798925708605
0.3309835 -0.5890598938741906 -0.8867063733329397
0.3329834 -0.583601209181054 -0.8905583623665305
0.3349833 -0.5788989847231558 -0.8935658889770294
0.3369832 -0.5733731031325562 -0.8964968053535138
0.3389831 -0.5681276893446209 -0.8995407498516571
0.340983 -0.5629223455194503 -0.9020617123013696
0.3429829 -0.557947900118037 -0.9052236936751057
0.3449828 -0.5526634773267454 -0.9091371594010434
0.3469827 -0.5464515765732869 -0.9115611173933006
0.3489826 -0.5419123599741952 -0.9152414077966872
0.3509825 -0.5365737547486313 -0.9175636071149367
0.3529824 -0.5309668855528047 -0.920945075479825
0.3549823 -0.5257935761761536 -0.9238472057800665
0.3569822 -0.5204472168701424 -0.9271291782398701
0.3589821 -0.5150770843035204 -0.9297954891098431
0.360982 -0.5094224105226434 -0.9327376215952631
0.3629819 -0.5036258514124844 -0.9365922964473096
0.3649818 -0.4986412039073397 -0.9392919819298113
0.3669817 -0.49369902177880887 -0.9431788569875345
0.3689816 -0.4873210902807718 -0.9448689455519772
0.3709815 -0.48228606408166136 -0.9480144862718316
0.3729814 -0.4764311982717302 -0.9514938578846359
0.3749813 -0.4709022554195267 -0.953875721282444
0.3769812 -0.4657848733543846 -0.9570250830181621
0.3789811 -0.4612786779415397 -0.9601819246651402
0.380981 -0.45498145159664394 -0.9630677546379612
0.3829809 -0.4494227515560719 -0.9657795582341623
0.3849808 -0.44242573323214274 -0.9675283010475219
0.3869807 -0.43825537096236833 -0.9712269616111195
0.3889806 -0.43114525051816066 -0.9732890156374954
0.3909805 -0.4257275623054835 -0.9760513779134392
0.3929804 -0.4192384030556884 -0.9786471172270332
0.3949803 -0.41346041266872924 -0.9812687779050036
0.3969802 -0.40836737646598187 -0.9844971463610547
0.3989801 -0.4024898644400655 -0.9866228654390372
0.40098 -0.3963143316068649 -0.9888720027506631
0.4029799 -0.39086210011836864 -0.9908797141471197
0.4049798 -0.38475277918057743 -0.9928751642838141
0.4069797 -0.3791307922339661 -0.9963853455857287
0.4089796 -0.3735877770943997 -0.9982048049053331
0.4109795 -0.367125121299341 -1.0002842914343797
0.4129794 -0.3611299352777258 -1.0016396238667875
0.4149793 -0.35552970257058825 -1.0039075901894867
0.4169792 -0.34948704261209984 -1.0073499940433255
0.4189791 -0.3431164086672945 -1.009450858354184
0.420979 -0.3373120070432567 -1.011582002110846
0.4229789 -0.33173379882594 -1.012855538319831
0.4249788 -0.32541273396295656 -1.0143590017657014
0.4269787 -0.3189233798168036 -1.016248332268693
0.4289786 -0.31310989763174574 -1.0184708084458403
0.4309785 -0.3069505868874216 -1.0197368963886122
0.4329784 -0.3005106945168996 -1.0218115574307771
0.4349783 -0.2950523587999327 -1.0240474179851045
0.4369782 -0.28954531852706494 -1.0254105045501487
0.4389781 -0.28217909451697204 -1.0269850583519338
0.440978 -0.27671992912491866 -1.028821209376596
0.4429779 -0.271320839658026 -1.031053275740196
0.4449778 -0.2654045195189396 -1.0321824748088384
0.4469777 -0.25970028195586414 -1.035081779862213
0.4489776 -0.25297776309040165 -1.0364103975945078
0.4509775 -0.24631458716540422 -1.0369510643769795
0.4529774 -0.24006533412425626 -1.038372325563104
0.4549773 -0.23413086737378663 -1.0401898816973667
0.4569772 -0.22744001155406474 -1.0425382184901633
0.4589771 -0.2211955740366156 -1.0433040880106583
0.460977 -0.21502335780014173 -1.0441134493669972
0.4629769 -0.20871746535788702 -1.0453937451953996
0.4649768 -0.20339329645258192 -1.0475686031886653
0.4669767 -0.19605741557959788 -1.0490595935877665
0.4689766 -0.1904174610165406 -1.0497891857872519
0.4709765 -0.18451013863443003 -1.0507979013638016
0.4729764 -0.17735519952141493 -1.0518616074399603
0.4749763 -0.17108209028667437 -1.052275588981926
0.4769762 -0.16548732754971435 -1.0533969530542784
0.4789761 -0.158360960602824 -1.0540271329023663
0.480976 -0.15227588507688233 -1.0545701538121637
0.4829759 -0.14615339224296592 -1.0562733133869107
0.4849758 -0.13976774696048594 -1.0569157567221752
0.4869757 -0.133728801432631 -1.0575542900745898
0.4889756 -0.12652222058247242 -1.0590466284113669
0.4909755 -0.12018061772430876 -1.0597828402300307
0.4929754 -0.11365105192598497 -1.0601600989264732
0.4949753 -0.10705815499704016 -1.0612379299359713
0.4969752 -0.10137933785462303 -1.0621526090601305
0.4989751 -0.09483494235662113 -1.0627551969270175
0.500975 -0.0876493076292045 -1.0634318126227598
0.5029749 -0.08182635883592682 -1.0642302873849592
0.5049748 -0.07560454770500336 -1.064343772760913
0.5069747 -0.07033873278934469 -1.0656671991653477
0.5089746 -0.06324685883806896 -1.0659735375167645
0.5109745 -0.05740720776327451 -1.0666522146399948
0.5129744 -0.050856473707614105 -1.0662008537726033
0.5149743 -0.04437988031839888 -1.0669237900412383
0.5169742 -0.03838829070649643 -1.0677135137220375
0.5189741 -0.031602143659440404 -1.0679291095394259
0.520974 -0.025246939276136825 -1.067785638657927
0.5229739 -0.018976876222103763 -1.0678104396051005
0.5249738 -0.011859179481311037 -1.0674012146762528
0.5269737 -0.005568660535310799 -1.0675810321254404
0.5289736 0.00018939748555953095 -1.0676120610173068
0.5309735 0.007477982062163865 -1.0679083891510166
0.5329734 0.014416768279456857 -1.0679562843690056
0.5349733 0.020753687010942642 -1.0676801037829597
0.5369732 0.028001104142786754 -1.067223629494735
0.5389731 0.03382934537876735 -1.0666264263426948
0.540973 0.041172337940042575 -1.068072459717678
0.5429729 0.04702417797622388 -1.0679112234801538
0.5449728 0.05296814683760585 -1.0677468334351234
0.5469727 0.06012671977004132 -1.067214783508607
0.5489726 0.06607032550659472 -1.0667602720878715
0.5509725 0.07290604780295823 -1.0669968484483587
0.5529724 0.0798632993820465 -1.0659960133677882
0.5549723 0.08599078390508905 -1.0651274248586668
0.5569722 0.09299503206997585 -1.064944858051783
0.5589721 0.09932986849609042 -1.0642331937574008
0.560972 0.10607787692346365 -1.0638645343827033
0.5629719 0.11261885938854711 -1.0631424920689523
0.5649718 0.11900327445394611 -1.0621686633951137
0.5669717 0.12565224210163622 -1.0611607874273417
0.5689716 0.13213386146037173 -1.0606039939691956
0.5709715 0.13883835747504625 -1.060205099055641
0.5729714 0.14512270106997055 -1.0593158328784151
0.5749713 0.15114633552133266 -1.0583462011146663
0.5769712 0.15792871556752347 -1.058298771232089
0.5789711 0.1639994408737082 -1.0574130308841398
0.580971 0.17108992317217236 -1.0558951709674247
0.5829709 0.17814967853036112 -1.0544962783093166
0.5849708 0.18317568048756672 -1.0534488258630963
0.5869707 0.1903658300266542 -1.0520531545902112
0.5889706 0.19687171372159867 -1.0514237872015293
0.5909705 0.20348440701246512 -1.0497603400005548
0.5929704 0.20964080488813755 -1.0490328846440027
0.5949703 0.2165361383908055 -1.0474898478567825
0.5969702 0.22291048543600472 -1.046952954241658
0.5989701 0.2295642839249828 -1.0450408077344364
0.60097 0.23634877178749153 -1.0434345383828574
0.6029699 0.2425432985004217 -1.0422692375944647
0.6049698 0.24901400031030596 -1.0410264689501993
0.6069697 0.25562450834744105 -1.0394866301283747
0.6089696 0.2614559639221472 -1.0372795667995358
0.6109695 0.2682562870230828 -1.0361687359753982
0.6129694 0.27420714632280646 -1.034389206350146
0.6149693 0.2810856237771359 -1.0328292057384711
0.6169692 0.2875417736142083 -1.030685978802154
0.6189691 0.2936630305214295 -1.0292998140489622
0.620969 0.30002612445429466 -1.0270760395541632
0.6229689 0.307200757890438 -1.0252965979326967
0.6249688 0.3131074891897924 -1.0233000480955836
0.6269687 0.3195517203532986 -1.020910133674352
0.6289686 0.3260801230542102 -1.0196465539726254
0.6309685 0.3328374988885635 -1.0178752533653608
0.6329684 0.33893612422600317 -1.0152794240082865
0.6349683 0.3454205459334168 -1.0132238897027477
0.6369682 0.3516770850303055 -1.0117065339334956
0.6389681 0.3581934812012093 -1.0096240712846742
0.640968 0.36528583552399463 -1.0074020482618924
0.6429679 0.3707101792000971 -1.005539594075074
0.6449678 0.37695392381913445 -1.002880029305071
0.6469677 0.3833625230479078 -1.0004769292233655
0.6489676 0.39005817392970166 -0.9978467129006324
0.6509675 0.3960606989915977 -0.9947916995466118
0.6529674 0.40206639342559053 -0.992108142379189
0.6549673 0.4082101742537104 -0.98992746265271
0.6569672 0.4140202727325553 -0.9871599608086407
0.6589671 0.4208973465293264 -0.9846005236791255
0.660967 0.4270680211558777 -0.9817053507592997
0.6629669 0.43343498628599764 -0.9791272786226944
0.6649668 0.43962214929713406 -0.9762384647505236
0.6669667 0.44615208829386976 -0.9741034578437484
0.6689666 0.45201434382596695 -0.9712884567071304
0.6709665 0.45868414338292846 -0.9689745302228314
0.6729664 0.46448766450124235 -0.9661597318261197
0.6749663 0.4708695307953145 -0.9634532317289741
0.6769662 0.47705594064955514 -0.960972537558272
0.6789661 0.4830243873349002 -0.9581578681767381
0.680966 0.4896132544128767 -0.9542435921595352
0.6829659 0.4952704136907118 -0.9510700102617208
0.6849658 0.5013744690035514 -0.9486111632837478
0.6869657 0.5074786211050345 -0.9442756450491843
0.6889656 0.5133726882485756 -0.9412308411342382
0.6909655 0.5193396663078321 -0.9379188518020382
0.6929654 0.5251177701848132 -0.9343665897721051
0.6949653 0.5310574549871814 -0.9308442703148819
0.6969652 0.5372465866710514 -0.9271916597403725
0.6989651 0.5430902815347807 -0.9241216954407481
0.700965 0.5491061624702208 -0.9196437748797547
0.7029649 0.5550069672994402 -0.9166613496640517
0.7049648 0.5610939449552422 -0.9134233657422919
0.7069647 0.5671415308914975 -0.9096771158725783
0.7089646 0.5734317149105173 -0.9063576557834963
0.7109645 0.5784225016725095 -0.9026031704955467
0.7129644 0.5843592055429417 -0.8989420263846327
0.7149643 0.5905993709413976 -0.8953530259851148
0.7169642 0.5961568475292672 -0.8912380759365702
0.7189641 0.601766355272931 -0.8867121733634825
0.720964 0.6075576524479323 -0.8832381567772603
0.7229639 0.6133361188948493 -0.8791707560102272
0.7249638 0.6191673647006637 -0.875384001645959
0.7269637 0.6247279492330151 -0.8710437070616274
0.7289636 0.6302459745436364 -0.8673619373688116
0.7309635 0.6360636074544562 -0.861707324624698
0.7329634 0.6418678091780182 -0.8579852132648053
0.7349633 0.6472880303993909 -0.8543439586329407
0.7369632 0.6527401955532672 -0.8500040291194468
0.7389631 0.6581181479823294 -0.8460675858005908
0.740963 0.6643196633186798 -0.8425831284420284
0.7429629 0.6700542954739254 -0.8383918426156433
0.7449628 0.6753080753470176 -0.8344009711569134
0.7469627 0.6804006426416597 -0.8294036843813299
0.7489626 0.6867778327044185 -0.8253533385259779
0.7509625 0.6922187728571383 -0.8202592735356491
0.7529624 0.6971707399297731 -0.8160525232020774
0.7549623 0.70258568770229 -0.8111536735771309
0.7569622 0.7081017879260169 -0.8063806589584198
0.7589621 0.7127922971573553 -0.8019089254657944
0.760962 0.7178915973418043 -0.7969042860922423
0.7629619 0.7229930733687895 -0.7916780236368453
0.7649618 0.7285023572949715 -0.7876596693244777
0.7669617 0.733463373968934 -0.7820328062569237
0.7689616 0.7382951218122895 -0.7773553756297628
0.7709615 0.7440454842010624 -0.7728825493029781
0.7729614 0.7486203678956274 -0.768148170498933
0.7749613 0.7544669510148296 -0.763971848146469
0.7769612 0.7594333279324699 -0.7592626475113383
0.7789611 0.7649845260520439 -0.7537863001971592
0.780961 0.769758212087614 -0.7485539683348881
0.7829609 0.7742977157745301 -0.744336686667522
0.7849608 0.7799533708455629 -0.7390852921789222
0.7869607 0.784641561086182 -0.7337125287898415
0.7889606 0.7895041405983874 -0.7281245897174885
0.7909605 0.7939463197814332 -0.7227670437392375
0.7929604 0.798828860838883 -0.7175212100772053
0.7949603 0.803761801129244 -0.7115332053206369
0.7969602 0.8079099268762903 -0.706841099702316
0.7989601 0.8129007965320059 -0.7014593783683596
