! Created with skrf 1.8.0 (http://scikit-rf.org).
# GHz S RI R 50.0 
!freq ReS11 ImS11
0.001 -1.0001459327894702 0.005273311466026567
0.0029999 1.2383605798608044 0.4534150589957084
0.0049998 1.1450846112383974 -0.10301145264894906
0.0069997 0.978042333149373 0.09661051116533925
0.0089996 1.022850127397254 0.05468515218745144
0.0109995 1.0178550819324035 0.05273554448250927
0.0129994 1.0165875443707721 0.056817454935774184
0.0149993 1.0168392203521823 0.06384333154185137
0.0169992 1.0158221033574664 0.06821552135445294
0.0189991 1.0130917609078733 0.0718405919513102
0.020999 1.013917276072463 0.07946057471966114
0.0229989 1.0125498031560138 0.08638191654308709
0.0249988 1.0117125846726673 0.0934474421269134
0.0269987 1.0108086277942276 0.10012373214842635
0.0289986 1.0099362543206936 0.108272963844467
0.0309985 1.0080120401855877 0.11617667825547137
0.0329984 1.0088403098027015 0.12252272457095309
0.0349983 1.0079105606795606 0.128222085301547
0.0369982 1.006434382245869 0.13634243649880945
0.0389981 1.0057269511703728 0.1427245952284587
0.040998 1.004434167446544 0.15007136529780268
0.0429979 1.0039281088414573 0.1577143126343474
0.0449978 1.0031465047109807 0.16413985589676205
0.0469977 1.0013458612170145 0.1727486335733209
0.0489976 1.0011277199455035 0.18030848798893614
0.0509975 1.000033191370854 0.18567054838874059
0.0529974 0.9974438690688983 0.19323505315162404
0.0549973 0.9968084232541088 0.19955132438628062
0.0569972 0.9963000831154482 0.20750149087512215
0.0589971 0.9940610030044014 0.21470340028678905
0.060997 0.9917897469645157 0.22110823338273938
0.0629969 0.9914556573013937 0.22872969974294058
0.0649968 0.9884975246909077 0.23552057567357373
0.0669967 0.9884793300139258 0.24122252422228505
0.0689966 0.9857555383429771 0.24890479586745454
0.0709965 0.9837182790266359 0.2581992566496756
0.0729964 0.983289260021388 0.2639249026899295
0.0749963 0.9799226409958768 0.26948498568384927
0.0769962 0.9780645155433121 0.27754591119147143
0.0789961 0.9780575827784752 0.28435086485318556
0.080996 0.9742445370362213 0.2922492949685624
0.0829959 0.9724492689434748 0.2983798103878083
0.0849958 0.970475826860259 0.30661878824291144
0.0869957 0.968433326611887 0.31196227932558845
0.0889956 0.9650343874289433 0.3188381363967229
0.0909955 0.9636172252926154 0.3255232967875662
0.0929954 0.9608619838377316 0.3322782224629356
0.0949953 0.9584667982047103 0.3406552871144335
0.0969952 0.9565171706698236 0.34692701599036707
0.0989951 0.9516977630092683 0.352019099828668
0.100995 0.9507143057702163 0.3602104338012852
0.1029949 0.9476587068768164 0.3661870763640599
0.1049948 0.9453709079279252 0.3735022903956065
0.1069947 0.9425936644678928 0.38025026787606786
0.1089946 0.9402706871885761 0.3869001306756354
0.1109945 0.9378884427676369 0.39436039143628027
0.1129944 0.934824341958309 0.4003608032013807
0.1149943 0.9320735013259258 0.4064570180801259
0.1169942 0.9298010321689546 0.41362299377045575
0.1189941 0.9266360874142635 0.4205196718763235
0.120994 0.9231885382215056 0.42663528991905675
0.1229939 0.9198203550867278 0.433175595569676
0.1249938 0.91729002804471 0.44017587897295946
0.1269937 0.9134347958166885 0.4457892732618504
0.1289936 0.9121666255356312 0.45293348911728476
0.1309935 0.9067713746548028 0.459066947619452
0.1329934 0.9050992672319892 0.46634876579024626
0.1349933 0.9007150766891636 0.47231193533959676
0.1369932 0.8979941337771563 0.47799858570019027
0.1389931 0.8945834293079885 0.4863043242449522
0.140993 0.8925777668266957 0.4908529687270023
0.1429929 0.8888546184628253 0.49737505827217904
0.1449928 0.8836172759901382 0.5044554867154546
0.1469927 0.8813652907104506 0.5099321247229001
0.1489926 0.877271248466844 0.5161670701486598
0.1509925 0.8736442746058274 0.5229909329570651
0.1529924 0.8697822927108696 0.5281467161565535
0.1549923 0.8666623188769046 0.5336914978900376
0.1569922 0.8616861290526091 0.541370998321591
0.1589921 0.858108607607826 0.5466518781982743
0.160992 0.853065039836226 0.5533371065274001
0.1629919 0.8500257507496796 0.5579001057494678
0.1649918 0.8470386962215332 0.5645890895479803
0.1669917 0.8424661217895526 0.5709939766202989
0.1689916 0.8385677790906158 0.5763082170278414
0.1709915 0.8344297653082137 0.5815754213994332
0.1729914 0.8299263508439372 0.5874853300627835
0.1749913 0.8261186726223689 0.5941211365120761
0.1769912 0.821622262467532 0.5986745996410916
0.1789911 0.8180098436004555 0.6049954810924141
0.180991 0.8143715557759914 0.6109323394382791
0.1829909 0.8093071041160977 0.6164613648863342
0.1849908 0.8050950648690774 0.6221937281544869
0.1869907 0.8002619602090308 0.6268065505948014
0.1889906 0.7962358066689437 0.6337110486219969
0.1909905 0.7915158258699871 0.6397595700866701
0.1929904 0.7874076668463003 0.6449008256478994
0.1949903 0.7822705219486473 0.6503889786768412
0.1969902 0.7775856606729953 0.6547682477154948
0.1989901 0.7732644219965057 0.6613717577135196
0.20099 0.768445904907078 0.667666234649964
0.2029899 0.7647487916728855 0.671262297628791
0.2049898 0.7596860632941197 0.6768709796327543
0.2069897 0.7546653237929986 0.6828038122298563
0.2089896 0.7500068723975367 0.6876398123132327
0.2109895 0.7446734396009552 0.6928992734623751
0.2129894 0.7399392232835513 0.6989883713083387
0.2149893 0.7358797008137441 0.7032998249642158
0.2169892 0.7300729313985909 0.7087342748962695
0.2189891 0.7254580953607116 0.7129854763528825
0.220989 0.7205517790976125 0.718534179764146
0.2229889 0.7159548528072118 0.7249580344414707
0.2249888 0.7114241244736728 0.7291519729054328
0.2269887 0.7054960363060312 0.7337711442297502
0.2289886 0.7007585978252682 0.7388697607173002
0.2309885 0.6959998974908237 0.7435304636035067
0.2329884 0.690538744317112 0.747631367725363
0.2349883 0.6855345840395867 0.7528491902667029
0.2369882 0.6798097834890158 0.758367007756901
0.2389881 0.6749854484910857 0.7622423432104258
0.240988 0.6686807012663584 0.7664845338431691
0.2429879 0.6642948039140943 0.7721511272144627
0.2449878 0.6588811816410024 0.7762568501929875
0.2469877 0.6542763099233213 0.7808869758782335
0.2489876 0.6479838018391071 0.784167730875694
0.2509875 0.6427326453975233 0.7898155225921966
0.2529874 0.6370558394698654 0.7938678025631148
0.2549873 0.6316796261940195 0.798659746210182
0.2569872 0.6260669304150458 0.8025290413123359
0.2589871 0.6210636581414584 0.8070207411467919
0.260987 0.615327943584671 0.8108744340068096
0.2629869 0.6095573519588451 0.8146279648097453
0.2649868 0.6044430022880038 0.8198101218684585
0.2669867 0.5977420679466467 0.8236858356846999
0.2689866 0.5920142603346148 0.8276429073481254
0.2709865 0.5863836104225758 0.8317764760093067
0.2729864 0.5811842028229904 0.8360855830829759
0.2749863 0.5750596231165805 0.8392858685329125
0.2769862 0.5691900422265197 0.8437510366778067
0.2789861 0.5640866973161512 0.848724966402455
0.280986 0.5582531198893177 0.851899630406751
0.2829859 0.5523992229939563 0.8551938188675154
0.2849858 0.5461017976494251 0.8594939535343484
0.2869857 0.5403395066463303 0.8626705685401564
0.2889856 0.5342533957895779 0.865791580051372
0.2909855 0.5283113420646772 0.8703596183598368
0.2929854 0.5226649819197431 0.8740502253546256
0.2949853 0.5165735294540281 0.8771881290695045
0.2969852 0.5104017656396027 0.8798654693833189
0.2989851 0.505402426029389 0.8840772658588498
0.300985 0.4993848561254111 0.887474507839505
0.3029849 0.49297148421172465 0.8922482617535988
0.3049848 0.48695783907225615 0.8947128312143984
0.3069847 0.48068418003486413 0.8972018014896365
0.3089846 0.47544394388305383 0.9013564258059409
0.3109845 0.4689803386518479 0.9039428110728184
0.3129844 0.4628875455676383 0.9072171811093178
0.3149843 0.4562619020441097 0.9106175822782909
0.3169842 0.45022468326506715 0.914070702899095
0.3189841 0.44370539564242845 0.9168195645946279
0.320984 0.4372450286265559 0.9203049184455224
0.3229839 0.4309411259722712 0.9230449840308257
0.3249838 0.42526742105064497 0.9259355525784169
0.3269837 0.4193499316426839 0.928773455564476
0.3289836 0.41256707435744533 0.9316998949691319
0.3309835 0.40691657835703765 0.9341660772526029
0.3329834 0.4003089342360655 0.9361875817902233
0.3349833 0.39438859279231997 0.9386719489812164
0.3369832 0.38757324940325055 0.9413749787622991
0.3389831 0.3814634663437165 0.9441325526307341
0.340983 0.37548735843125924 0.9465076533411547
0.3429829 0.3689926334700223 0.9494798899981071
0.3449828 0.3622511539974862 0.9513071765162163
0.3469827 0.3557011938252482 0.9551669848598373
0.3489826 0.3492371740810192 0.9574578384022762
0.3509825 0.34271091614693266 0.9597814604383794
0.3529824 0.33609015636257333 0.9615091458880218
0.3549823 0.3299721105225009 0.9639450239203297
0.3569822 0.32271440866577544 0.9663939083627875
0.3589821 0.31747441174939584 0.9685908557352514
0.360982 0.31082583089710025 0.9708605475544008
0.3629819 0.30368162761699496 0.9724692990299145
0.3649818 0.2976187123207513 0.9748749580965635
0.3669817 0.2911986545569615 0.9769240618797393
0.3689816 0.2847350093182914 0.9785869146871334
0.3709815 0.2781674110226971 0.9802625899177794
0.3729814 0.272920912489396 0.9820469996956774
0.3749813 0.265480585707144 0.9843889198950888
0.3769812 0.2582363196910575 0.9858774840547053
0.3789811 0.25109273849190195 0.9865855774693951
0.380981 0.24522620105564435 0.9881964489410839
0.3829809 0.23836768227338528 0.9901611246019817
0.3849808 0.23289553331128704 0.9926273857554506
0.3869807 0.22525680646062093 0.9936555719033269
0.3889806 0.21941929029145782 0.9953570639830992
0.3909805 0.2127689817241 0.997071364974857
0.3929804 0.20643892919693052 0.998615052860431
0.3949803 0.19946500337784281 1.0000778842548044
0.3969802 0.19221877779566465 1.00114660350618
0.3989801 0.1861192818091587 1.002242891141986
0.40098 0.17959137959148885 1.0035055722445363
0.4029799 0.17291499939934493 1.0048901883490695
0.4049798 0.16678474522946235 1.0061318639998078
0.4069797 0.1597221736074709 1.0063849000232663
0.4089796 0.15295533684201604 1.0080778667173875
0.4109795 0.1465343480016123 1.0089852512847832
0.4129794 0.13929286527681528 1.010592684825294
0.4149793 0.13276914414456703 1.0110053473162186
0.4169792 0.12633065706279556 1.0115630667255664
0.4189791 0.11988505602978386 1.0126451170852622
0.420979 0.1127397575988057 1.0130411184149186
0.4229789 0.10628128485506241 1.0136739043985157
0.4249788 0.09993856687782358 1.0146665222837363
0.4269787 0.09290033840292766 1.0149045383495952
0.4289786 0.08648476138919237 1.0155646865467023
0.4309785 0.07975917887422357 1.0161644424094056
0.4329784 0.07326161948955717 1.0165479020881176
0.4349783 0.06675145650641778 1.0172175041488527
0.4369782 0.06002948205680753 1.017586710985145
0.4389781 0.05354953785255245 1.0184168903125972
0.440978 0.046948700248191824 1.0187949082735042
0.4429779 0.04010763118464941 1.018662511437691
0.4449778 0.03314116464721677 1.018403548502007
0.4469777 0.026330882707093002 1.0189016271674685
0.4489776 0.019847518412358635 1.0193951279122775
0.4509775 0.013768496292331657 1.0200291649678317
0.4529774 0.006138725009743891 1.0204775009307183
0.4549773 0.00033330447569969446 1.020142976037752
0.4569772 -0.006217956956467992 1.0197806841030672
0.4589771 -0.013562926915916443 1.0197201920803423
0.460977 -0.019368590683368617 1.0200690956402032
0.4629769 -0.026317950000685743 1.0201892556506593
0.4649768 -0.03251694878546017 1.0187775220791357
0.4669767 -0.039854960746505394 1.01935676667939
0.4689766 -0.04615996410380499 1.0191324081771778
0.4709765 -0.05275359374785016 1.018730418574477
0.4729764 -0.05901483482583705 1.0184053951404008
0.4749763 -0.06576596584495725 1.0182291778598953
0.4769762 -0.07229531195243374 1.0182670612416937
0.4789761 -0.07917685556609669 1.0175956472069312
0.480976 -0.08574136608467309 1.017347486660727
0.4829759 -0.09268403722699137 1.0166341231426537
0.4849758 -0.09896518486918868 1.0159345384448988
0.4869757 -0.10582448773168984 1.0154364828912041
0.4889756 -0.11227225452739775 1.0147056512543777
0.4909755 -0.11863435422033272 1.0143608766962164
0.4929754 -0.12529194512865133 1.0133223795869548
0.4949753 -0.13174073427992433 1.0120401905712557
0.4969752 -0.1382680441978285 1.0119425995043898
0.4989751 -0.14454416261154074 1.0104011809602746
0.500975 -0.1502308874249084 1.009811367741505
0.5029749 -0.15704367663906363 1.0089028713282804
0.5049748 -0.1638364366801484 1.0074926626696414
0.5069747 -0.1703890877378258 1.0063702746575647
0.5089746 -0.1767553693235358 1.0048287553543636
0.5109745 -0.18324075902840614 1.0037773730038084
0.5129744 -0.18945831547733216 1.002993165157643
0.5149743 -0.19595574741729788 1.0017143849296122
0.5169742 -0.2021857460915388 1.0006038281545007
0.5189741 -0.2093680229844324 0.998852705020626
0.520974 -0.21564569061343788 0.9976347748690644
0.5229739 -0.22179085337299337 0.996517140914386
0.5249738 -0.22792359574186935 0.99544446257462
0.5269737 -0.2343868835340872 0.9937140831143592
0.5289736 -0.24092029839559298 0.9926393259702937
0.5309735 -0.24692202039519717 0.9908387001298182
0.5329734 -0.2532149412173675 0.9894474738690948
0.5349733 -0.2595149720622579 0.9883520666901703
0.5369732 -0.2657288453624729 0.9863950993609356
0.5389731 -0.27244041364437155 0.9848727109354443
0.540973 -0.2782514282554259 0.9829845646725968
0.5429729 -0.2846553928156455 0.9814301802200756
0.5449728 -0.29111414168956107 0.9793021530829527
0.5469727 -0.2971029597614746 0.9776846226105832
0.5489726 -0.30315294902403533 0.9757164549480875
0.5509725 -0.3092271115285342 0.9741859096760785
0.5529724 -0.31581795273666347 0.971884787419888
0.5549723 -0.32179753543903494 0.9699819777155841
0.5569722 -0.32760167232588566 0.9678315786024155
0.5589721 -0.3341637583120573 0.9659824516322025
0.560972 -0.3403476821058472 0.963798028827433
0.5629719 -0.34658320281528854 0.9614010978162435
0.5649718 -0.3522144244604526 0.9593261857384376
0.5669717 -0.3585941937875867 0.9573584845079399
0.5689716 -0.3644286579888374 0.9551896065540987
0.5709715 -0.37047138163163107 0.9527942584394794
0.5729714 -0.3760456160473022 0.9506358022921486
0.5749713 -0.38232030189253846 0.948194138779035
0.5769712 -0.38842821575086117 0.9453683325981739
0.5789711 -0.39434800046498225 0.942553382060789
0.580971 -0.4001103079842264 0.9402064929853499
0.5829709 -0.4061723128891942 0.9379744431601545
0.5849708 -0.4119418971225763 0.935645701019895
0.5869707 -0.41774814296655316 0.9330991993392773
0.5889706 -0.42366969564826085 0.9303304442598329
0.5909705 -0.4293434627664856 0.9277828855431574
0.5929704 -0.43529230350156267 0.925108094095943
0.5949703 -0.4409536129419528 0.9227032401144765
0.5969702 -0.4468057348868475 0.9191262594934776
0.5989701 -0.45242478777314604 0.9165842702817142
0.60097 -0.45840604239418997 0.9139976511715509
0.6029699 -0.4644240612988727 0.9114121598805587
0.6049698 -0.4699981733719168 0.9086063727087137
0.6069697 -0.4750619741419838 0.9058127792574397
0.6089696 -0.48138526802195997 0.9027609002926062
0.6109695 -0.4868550549568715 0.8997895880021501
0.6129694 -0.49274276492613656 0.8966023872963726
0.6149693 -0.49819335992272984 0.8932425251851582
0.6169692 -0.5038714479027545 0.8903332082280035
0.6189691 -0.5093127795143954 0.8873237405263089
0.620969 -0.5152798856985439 0.8844765404584307
0.6229689 -0.5206356160374868 0.8811624919338061
0.6249688 -0.5257843536153787 0.8780995212204986
0.6269687 -0.5316937255342576 0.8748136247973185
0.6289686 -0.5369925897992232 0.8715539906773224
0.6309685 -0.5425948498983565 0.8680938266548337
0.6329684 -0.5480325390816503 0.8648699539937408
0.6349683 -0.5531915254873921 0.8616131331843546
0.6369682 -0.5582330698306361 0.8582275736131998
0.6389681 -0.5639547960861936 0.854338922751054
0.640968 -0.568831605408151 0.8510386234591697
0.6429679 -0.5745948985274618 0.8471480917816577
0.6449678 -0.5793737249206048 0.8439899652250077
0.6469677 -0.585100122227158 0.8400987934789117
0.6489676 -0.5902475865174401 0.8364455898352328
0.6509675 -0.5949921150073703 0.833042772927531
0.6529674 -0.6007148233653495 0.8292514083837496
0.6549673 -0.6055567259551407 0.825555796274736
0.6569672 -0.610648106603435 0.8219912412664562
0.6589671 -0.6158846761011818 0.8183161709400353
0.660967 -0.6212336495861703 0.8144354109268449
0.6629669 -0.625987582003293 0.8108474648319169
0.6649668 -0.6309005146766408 0.8066981559832233
0.6669667 -0.6358080699478496 0.8029202332981811
0.6689666 -0.6408645023691146 0.7989523839070897
0.6709665 -0.6456693344421267 0.7949156165714742
0.6729664 -0.650574232614665 0.7912292961191737
0.6749663 -0.6556058069959109 0.7875120342498207
0.6769662 -0.6605794526403701 0.7832767601631916
0.6789661 -0.6651853036259565 0.7790387302385327
0.680966 -0.6700556379774238 0.7749915063654524
0.6829659 -0.6750610884628215 0.7711774356153517
0.6849658 -0.679692520274908 0.7670919200683585
0.6869657 -0.6844267056138894 0.7628590403203266
0.6889656 -0.6892451286657757 0.7584858909797312
0.6909655 -0.6939520613988056 0.7543958817903345
0.6929654 -0.6989539606694459 0.7501026933958651
0.6949653 -0.703405561268453 0.7460098990338494
0.6969652 -0.7080608820739014 0.7417733301453651
0.6989651 -0.7124659460105096 0.7376475625086588
0.700965 -0.7172970932101776 0.7331321957031698
0.7029649 -0.7217284502401751 0.7289156401284445
0.7049648 -0.7261889378235289 0.724253006946599
0.7069647 -0.7305950411342799 0.7203706963667456
0.7089646 -0.7351652869393583 0.7154782880291477
0.7109645 -0.7395235155121296 0.7113044558876586
0.7129644 -0.7440985780729766 0.7066592621023957
0.7149643 -0.7482208113874107 0.7019229978549304
0.7169642 -0.752753059086163 0.6973123100942868
0.7189641 -0.7569637202848803 0.6931131347489524
0.720964 -0.7612406654169674 0.6882950131391622
0.7229639 -0.7655741185348696 0.6836316778551741
0.7249638 -0.7697036146438896 0.6788339766188947
0.7269637 -0.7738133225176022 0.6744845765265802
0.7289636 -0.777823397486578 0.6698510208819811
0.7309635 -0.7817722939147587 0.6650841960944485
0.7329634 -0.7860604350177086 0.6601237714923761
0.7349633 -0.7901533244779084 0.6557249285403752
0.7369632 -0.7940749428064882 0.6507077843577523
0.7389631 -0.7980816532065083 0.6457545406249258
0.740963 -0.8018766703049498 0.6411560017677753
0.7429629 -0.8057725726079481 0.6361461350355734
0.7449628 -0.809799908517613 0.6314838069674614
0.7469627 -0.813887630611624 0.6265179974341667
0.7489626 -0.8177281342024116 0.6214946535525618
0.7509625 -0.8215294122380348 0.6169369456007392
0.7529624 -0.8253978908456139 0.611660464602095
0.7549623 -0.8290170624596327 0.6067145657674604
0.7569622 -0.8328975989173653 0.6021762156827294
0.7589621 -0.8366410675785297 0.596755733456386
0.760962 -0.840488556700461 0.5918971350492004
0.7629619 -0.8440151931733461 0.5869933120456913
0.7649618 -0.8475188435556216 0.5816984458723639
0.7669617 -0.851413816256442 0.5767042053924967
0.7689616 -0.8549888413002189 0.571573117750547
0.7709615 -0.8584916502544504 0.5664938398472023
0.7729614 -0.8616084420816271 0.5610773126727949
0.7749613 -0.8654768433073663 0.5561699998018584
0.7769612 -0.869019490511302 0.5509666894929584
0.7789611 -0.8721680982730766 0.5458312371930096
0.780961 -0.8755701195493513 0.5404987794917024
0.7829609 -0.8788012730319053 0.5354897503394636
0.7849608 -0.8820176941343012 0.5300914786615749
0.7869607 -0.8851510037020087 0.5249655197669995
0.7889606 -0.8885912575795434 0.519394883996327
0.7909605 -0.891720926618447 0.5141079063367127
0.7929604 -0.8946856030433528 0.50887177352893
0.7949603 -0.897730163313103 0.5032752504474222
0.7969602 -0.9008058355600512 0.49802607966579676
0.7989601 -0.9040425279859685 0.49245318419865003
0.80096 -0.9069756286898237 0.4870723842496067
0.8029599 -0.9097881288100884 0.4817508985510652
0.8049598 -0.9126487607432376 0.4760908721038255
0.8069597 -0.9153558345862147 0.47041552157244887
0.8089596 -0.9184030698052057 0.4650383947198375
0.8109595 -0.9215877771964612 0.45955833525882317
0.8129594 -0.9242733351301825 0.45384959900501326
0.8149593 -0.927001937677038 0.4483869754433095
0.8169592 -0.9298245892433942 0.4428316653093649
0.8189591 -0.932372634615847 0.43739079088752936
