! Created with skrf 1.8.0 (http://scikit-rf.org).
# GHz S RI R 50.0 
!freq ReS11 ImS11
0.001 -1.001617324680838 -0.002642771386271994
0.0029999 0.5063379090162752 -0.036847280199157555
0.0049998 0.924029928070443 0.2259504305350436
0.0069997 1.0428342575496505 0.044192956584382576
0.0089996 1.0028209881162364 0.030791912766890868
0.0109995 1.0041659494802568 0.036704156248258006
0.0129994 1.0051363777208637 0.042595198327847146
0.0149993 1.001575786010559 0.05087850487581119
0.0169992 1.0015955053018983 0.05856715222425541
0.0189991 1.001680403786159 0.06653520450156052
0.020999 1.0013924897459192 0.07222359093256138
0.0229989 1.0013389276970939 0.07958340559008559
0.0249988 1.000602608749718 0.08733037551291103
0.0269987 0.9997821170201486 0.09376540722369166
0.0289986 0.9988756633546324 0.10152934146741849
0.0309985 0.9971358550559873 0.10941481850855916
0.0329984 0.9978976046188167 0.11551603137106975
0.0349983 0.9963510367597685 0.12054647756935698
0.0369982 0.9941039804696011 0.1289681693107835
0.0389981 0.9942864152388006 0.13508865415711646
0.040998 0.9928731281651931 0.14258003782307443
0.0429979 0.9924361788548893 0.14872926970853237
0.0449978 0.9916254026779991 0.1552870637958917
0.0469977 0.9890969808475613 0.16314537796823553
0.0489976 0.9892943196222049 0.17007796490086188
0.0509975 0.9882318993617752 0.1758622798138103
0.0529974 0.9872717086035002 0.1821695548453851
0.0549973 0.9849440361164404 0.18891415675753248
0.0569972 0.9846753968531267 0.19565255250958252
0.0589971 0.9827243593049654 0.2027810681786654
0.060997 0.9807235748367571 0.20830344324466182
0.0629969 0.9805670735006968 0.21585535329351727
0.0649968 0.9776503211151593 0.22260337734675514
0.0669967 0.9774992262231876 0.22828004998385346
0.0689966 0.9753929479641112 0.2349375839579817
0.0709965 0.9732175165183558 0.2438347128001107
0.0729964 0.9736131140250225 0.24936235667418424
0.0749963 0.9699919844505502 0.2546451717611127
0.0769962 0.9688465234442163 0.26213579241549034
0.0789961 0.9683408230514318 0.26822581055341477
0.080996 0.9647556965342114 0.2755954448019491
0.0829959 0.963902592178052 0.28238677432313436
0.0849958 0.9622624757922587 0.28989350143796677
0.0869957 0.9606826742067063 0.2955941472111654
0.0889956 0.9575053350330034 0.30207715807689695
0.0909955 0.9563897507148134 0.30875878272873275
0.0929954 0.9535234273911438 0.31486101821174023
0.0949953 0.9515624905364441 0.3232266581198049
0.0969952 0.949721165644987 0.3292048272211645
0.0989951 0.9461640398940077 0.33572734193484116
0.100995 0.9446880469630716 0.3418719963792035
0.1029949 0.942148691281218 0.34766466088289255
0.1049948 0.9391635867460388 0.35452713981168954
0.1069947 0.9369632506194115 0.3614904345383379
0.1089946 0.9350723023076546 0.36766640155342284
0.1109945 0.9330163430836165 0.3751390759133976
0.1129944 0.9296980835492069 0.3805571178864634
0.1149943 0.9268279421700862 0.3871592536315897
0.1169942 0.9251566743273819 0.3934082241319054
0.1189941 0.9221287896146324 0.400133682417857
0.120994 0.9191123586472291 0.4065366027671361
0.1229939 0.9157893727228549 0.4124040752351357
0.1249938 0.9135504183121714 0.4192804089103837
0.1269937 0.9097677830939468 0.4253305668335169
0.1289936 0.9078688170204895 0.43204788304590286
0.1309935 0.9033628091539802 0.4372860550172881
0.1329934 0.9017087682635638 0.44416071775295374
0.1349933 0.8991405137337233 0.4490266771359824
0.1369932 0.895264029697382 0.4551906360391664
0.1389931 0.8922987683525991 0.46226605233430035
0.140993 0.8890157962631736 0.46718343946768415
0.1429929 0.8880640103557507 0.47412913532349366
0.1449928 0.882536045656327 0.4793225684096812
0.1469927 0.8799586574324961 0.4866267401164928
0.1489926 0.8772812738216885 0.4917109751887957
0.1509925 0.8719201019226738 0.49861576388559886
0.1529924 0.8697650148993066 0.5031080261025446
0.1549923 0.8668034567404569 0.5098124350627877
0.1569922 0.8629108079467481 0.5168905971704071
0.1589921 0.8593906164453707 0.5217581842916518
0.160992 0.8543280745997271 0.5294360561172561
0.1629919 0.8518097583417755 0.5327033766549025
0.1649918 0.8486114664650839 0.539888506304455
0.1669917 0.8443179635608259 0.5457677732592618
0.1689916 0.8409372289074247 0.5504151675529687
0.1709915 0.837807909463474 0.5583219890641024
0.1729914 0.8332365672147378 0.562341393725145
0.1749913 0.8298775899915284 0.5684122781419296
0.1769912 0.8257962710405216 0.5741119288692388
0.1789911 0.8220823159018584 0.579254657692855
0.180991 0.8188160151011904 0.585703077632886
0.1829909 0.8142885304142699 0.5908247659423461
0.1849908 0.8102506162746371 0.5972522799798438
0.1869907 0.805655811563216 0.6015127364704224
0.1889906 0.8020569843321842 0.6077130894691912
0.1909905 0.7976670532520791 0.6139792111096483
0.1929904 0.7934653409141108 0.6191296226304098
0.1949903 0.7891012752667409 0.6247110960816744
0.1969902 0.7844868278114774 0.6300986408098046
0.1989901 0.780484459477442 0.6362263888773716
0.20099 0.7759569331232476 0.6421278853312332
0.2029899 0.7721844979443662 0.6458389518517715
0.2049898 0.7663349421944221 0.6520969837608884
0.2069897 0.7629681027701434 0.6564136427609216
0.2089896 0.7577962158845435 0.662565813476521
0.2109895 0.7534827160419686 0.6668646703523875
0.2129894 0.7488135155214981 0.673501921001043
0.2149893 0.7448805421175074 0.6776753485057921
0.2169892 0.7390920037672959 0.6832028762169292
0.2189891 0.7349518621445724 0.6873180343834898
0.220989 0.7309582650038715 0.6933571057927504
0.2229889 0.7266926464577875 0.6989460164103577
0.2249888 0.7215357178035461 0.702408181219086
0.2269887 0.7161583513980105 0.7079895088633626
0.2289886 0.711132774439142 0.7132026288992501
0.2309885 0.7067992744481626 0.7177533313322687
0.2329884 0.701114996539391 0.7226435816650216
0.2349883 0.6972416904374908 0.7276690384995224
0.2369882 0.6915016300133657 0.7330687528225543
0.2389881 0.6871715635455443 0.7367521882395737
0.240988 0.6815409513749481 0.7415456940476887
0.2429879 0.6776566317059547 0.7464752457608274
0.2449878 0.6722983740743574 0.7512418026682087
0.2469877 0.6675369769753994 0.7565231655941246
0.2489876 0.6613995658573016 0.7592762243199925
0.2509875 0.6567171642611913 0.7652201477032828
0.2529874 0.651359070752806 0.7701808822179288
0.2549873 0.6460527253948016 0.7741710002384343
0.2569872 0.6409191287011415 0.7778375037040812
0.2589871 0.6359233405392634 0.7833935490828595
0.260987 0.6301767742663267 0.7870129321382339
0.2629869 0.6248653993307514 0.7915156815103527
0.2649868 0.6185232523607763 0.7969921877761997
0.2669867 0.6134103989100814 0.8012792091718111
0.2689866 0.6080378706267853 0.8051381535419229
0.2709865 0.6023285607792012 0.8091910760233356
0.2729864 0.5980501118822308 0.8133460059332315
0.2749863 0.5910348950236954 0.8182012637634695
0.2769862 0.586410687010393 0.8215701979306282
0.2789861 0.5811531182045241 0.8267556956423773
0.280986 0.5748288674163297 0.8303144487236426
0.2829859 0.5692796623452028 0.8344060493577511
0.2849858 0.5632124556682372 0.8373348126727989
0.2869857 0.5575275352434598 0.8417906559681403
0.2889856 0.5513191808503723 0.8455157326203585
0.2909855 0.5452189242623119 0.8494465202121734
0.2929854 0.540300997822279 0.8538219282920212
0.2949853 0.5346695202452073 0.8562678959941208
0.2969852 0.5278161535781136 0.8596888636461631
0.2989851 0.522718024077487 0.8640425593220361
0.300985 0.5162673243206979 0.8677906185671197
0.3029849 0.5109858281309922 0.8715483273213331
0.3049848 0.5047735863971659 0.8742167431465876
0.3069847 0.4986845698780282 0.8767347278219243
0.3089846 0.49342363275701884 0.8802728929162364
0.3109845 0.48731434763754594 0.8838425936895672
0.3129844 0.4808067463104814 0.8874673123128095
0.3149843 0.4745149264943701 0.890952777156675
0.3169842 0.4687658714535872 0.894187227255533
0.3189841 0.4619873541513326 0.8966271758081058
0.320984 0.45538629097371647 0.9007312690573768
0.3229839 0.45031786567628956 0.9041355650861923
0.3249838 0.44449893201760077 0.9074546556006238
0.3269837 0.43737166208027434 0.9107209230026166
0.3289836 0.4306117992433208 0.913913396774813
0.3309835 0.4253756547111233 0.9161872424254563
0.3329834 0.4197014645903115 0.9192535380975441
0.3349833 0.413355287007009 0.9224170805298616
0.3369832 0.407651208445055 0.924808160207863
0.3389831 0.4017315572425785 0.9281340861046432
0.340983 0.3955978173729573 0.9310060750800648
0.3429829 0.38915353991035684 0.9338554384349831
0.3449828 0.3831215212784657 0.9358905523356067
0.3469827 0.37745450473637476 0.9393988697114894
0.3489826 0.370534726194518 0.9420962112481982
0.3509825 0.3643244973859605 0.9447362191063748
0.3529824 0.3577407724825455 0.9473344991575048
0.3549823 0.35136169386686966 0.9504292529676681
0.3569822 0.34398520774979735 0.9530446256412026
0.3589821 0.3375553242709776 0.955440645461666
0.360982 0.33119343757940267 0.9578176924955284
0.3629819 0.3245932440913458 0.9595410981893154
0.3649818 0.3181123376590427 0.9624063529068205
0.3669817 0.31097247723782445 0.9636633756110694
0.3689816 0.3056611427107508 0.9666583376333372
0.3709815 0.2988249328733134 0.9683805154671741
0.3729814 0.29223046029550936 0.9703114184899582
0.3749813 0.28543656918891175 0.9725357396490176
0.3769812 0.2785504400237428 0.9740851715557266
0.3789811 0.27077251316989415 0.9755617230136396
0.380981 0.2649485163169689 0.977200011798799
0.3829809 0.25794374061933123 0.9793150259202259
0.3849808 0.25236350569851784 0.9816134588008132
0.3869807 0.24470658088374725 0.9827408168258834
0.3889806 0.23888304020871867 0.9847792498041136
0.3909805 0.231706742911881 0.9869147841063778
0.3929804 0.22603695143496214 0.9883276185755683
0.3949803 0.2191275260416923 0.9897987936840281
0.3969802 0.21211636866184402 0.9901431009556225
0.3989801 0.20538931204536828 0.9925512465821047
0.40098 0.1985437905924726 0.9937461916218039
0.4029799 0.1921219175093578 0.9953665943482225
0.4049798 0.18537941879198205 0.9970759762441396
0.4069797 0.17891064245847427 0.9975919147224944
0.4089796 0.17212873936510484 0.9993160830583794
0.4109795 0.16511400840376456 1.000513726789858
0.4129794 0.15875869975013343 1.002299681364623
0.4149793 0.15180967449745578 1.0033908398828768
0.4169792 0.1455767202087378 1.0040128461704785
0.4189791 0.1386501668748401 1.0048803076482913
0.420979 0.13196032726154205 1.0059049112891931
0.4229789 0.12434324922811171 1.0069379600434833
0.4249788 0.11814231123604399 1.0079543154700707
0.4269787 0.11133857219987783 1.0089850817130581
0.4289786 0.1046886065991696 1.0095185117599665
0.4309785 0.0977838089223231 1.010685835832636
0.4329784 0.09128194976815104 1.0112745722300847
0.4349783 0.08470437553321541 1.011985485673227
0.4369782 0.07737815575635322 1.0126511281227752
0.4389781 0.07119214369758467 1.0136409389435088
0.440978 0.0644656305732061 1.0140414497537404
0.4429779 0.05732341682990058 1.014031033385507
0.4449778 0.04986905212340435 1.014346407068094
0.4469777 0.04311890634444111 1.0145164818650312
0.4489776 0.036406021046820315 1.01505279399855
0.4509775 0.029850917211744654 1.015906158135176
0.4529774 0.023037881678720555 1.0165575919559278
0.4549773 0.0161563481736548 1.016228144003989
0.4569772 0.00969473161999658 1.0160091639206132
0.4589771 0.0025495430755114942 1.0164073816913775
0.460977 -0.00409439905833818 1.01686480824257
0.4629769 -0.011065949625069148 1.0165875331914405
0.4649768 -0.01825752411335666 1.0156939960353981
0.4669767 -0.024243264492417628 1.0160320559132554
0.4689766 -0.03137588784147725 1.0159758084358956
0.4709765 -0.03793967561158532 1.0156565607638415
0.4729764 -0.04430991046140513 1.015468751646665
0.4749763 -0.05128151677441434 1.0155408363525418
0.4769762 -0.058116142014954165 1.015531107215001
0.4789761 -0.06446918454091398 1.0154303622327017
0.480976 -0.07173940792362325 1.0152053798977212
0.4829759 -0.0787750583210298 1.0144300899693028
0.4849758 -0.08515496886279963 1.0137574780295326
0.4869757 -0.09231448494987429 1.013723988625177
0.4889756 -0.09882222260148182 1.0131897492535449
0.4909755 -0.1053801033517888 1.0127216808730337
0.4929754 -0.11226534815658543 1.0118432105801811
0.4949753 -0.11893703096890307 1.0108693347464703
0.4969752 -0.12585479720615625 1.0107330987745011
0.4989751 -0.13256729353725372 1.0093754261351697
0.500975 -0.1381971404690511 1.0089830701504283
0.5029749 -0.1453309967438826 1.0080822050399705
0.5049748 -0.15222905290673333 1.0067752661251188
0.5069747 -0.15922017240812877 1.005658227821651
0.5089746 -0.1653790775164593 1.0046080120432368
0.5109745 -0.17232222928783747 1.003581141725415
0.5129744 -0.1789860481502696 1.0025605802185353
0.5149743 -0.18563591425046294 1.0017691668783304
0.5169742 -0.19230177261693446 1.0002814874254906
0.5189741 -0.19881709238741824 0.9990685672661961
0.520974 -0.20527326386829758 0.997904673107473
0.5229739 -0.21229731170162663 0.9965509987388635
0.5249738 -0.21858203234594747 0.9953668535799314
0.5269737 -0.22528142766816137 0.9940372763565127
0.5289736 -0.23240222643031608 0.9922535249120339
0.5309735 -0.23789075992530798 0.9908520225932165
0.5329734 -0.24447406071479644 0.9896077339424021
0.5349733 -0.2510508170550181 0.9885909494599937
0.5369732 -0.25715154939129514 0.9871831269012264
0.5389731 -0.26412015441279346 0.9855893971347629
0.540973 -0.270269347089276 0.983462520396973
0.5429729 -0.27680780692764445 0.98207730434201
0.5449728 -0.2833652405927412 0.9799438303946054
0.5469727 -0.2893925377431221 0.9784736252854698
0.5489726 -0.2960466304778194 0.9765433191604368
0.5509725 -0.3022905736811933 0.974629263663629
0.5529724 -0.30869946899559886 0.9726191376029172
0.5549723 -0.3151182786523051 0.9708120907538417
0.5569722 -0.32117833661188117 0.968708507196958
0.5589721 -0.32757558687258176 0.9668876784169631
0.560972 -0.3341995646274587 0.9648470968707545
0.5629719 -0.3404790388528527 0.962553889884831
0.5649718 -0.3464583575003012 0.9603247566516465
0.5669717 -0.3530242410633227 0.9584294305559166
0.5689716 -0.3592274115575831 0.9563341251419768
0.5709715 -0.36515543158561453 0.9540270530660533
0.5729714 -0.37106167794706835 0.9516996991043075
0.5749713 -0.3776746795370756 0.9495340888382411
0.5769712 -0.38379660808182886 0.9464273695219564
0.5789711 -0.38972907952653635 0.9441541853736897
0.580971 -0.3958729838941518 0.9415218355381418
0.5829709 -0.4015764007617443 0.939521311240048
0.5849708 -0.40823049353580004 0.9365711432999638
0.5869707 -0.41393657337431494 0.9343418226491006
0.5889706 -0.419911371677905 0.9314415238690886
0.5909705 -0.42598749970542416 0.9286862557864701
0.5929704 -0.4321836854483523 0.9259359649435234
0.5949703 -0.43812552731210563 0.9236605658844683
0.5969702 -0.44383091492244126 0.9200005417553515
0.5989701 -0.4499334926642341 0.9173304525901113
0.60097 -0.45568755996337423 0.9150498492230723
0.6029699 -0.46192221500837516 0.912113053011419
0.6049698 -0.4676745953466557 0.9094484979767881
0.6069697 -0.4730960165851301 0.9064670641730042
0.6089696 -0.47958728406032575 0.9036252180325837
0.6109695 -0.4849796479796107 0.9006595502562207
0.6129694 -0.4908908318165362 0.8975978207380011
0.6149693 -0.4965846813554797 0.893990780614875
0.6169692 -0.5024280587935094 0.8910040580446464
0.6189691 -0.508094728966373 0.8879502655760302
0.620969 -0.5140614118944351 0.8852261435886506
0.6229689 -0.5195241917924829 0.8818135880487619
0.6249688 -0.5251217170216815 0.8785744328817634
0.6269687 -0.5310377717616848 0.875432436765931
0.6289686 -0.5364231660335387 0.8720413864203145
0.6309685 -0.5422049183192064 0.8687456270564968
0.6329684 -0.5476967442852763 0.86549705915865
0.6349683 -0.5533210159858284 0.8623988071708752
0.6369682 -0.558402883901935 0.8590164881778543
0.6389681 -0.5639590558074176 0.8552408481155152
0.640968 -0.5688093329737729 0.8517289308126237
0.6429679 -0.5745655840617413 0.8477357819559204
0.6449678 -0.5798598571872231 0.8442129263653326
0.6469677 -0.5855282472598414 0.8405689967378455
0.6489676 -0.5906523207633831 0.8368736125586943
0.6509675 -0.5959234337554911 0.8332748729259473
0.6529674 -0.6012736915167349 0.8296872461842367
0.6549673 -0.6064742619059644 0.8257102162774723
0.6569672 -0.6116823291815056 0.8219903972408706
0.6589671 -0.6170404063995094 0.8183272921144004
0.660967 -0.6220405925287968 0.8146033441293037
0.6629669 -0.6271913284158412 0.8109027411279441
0.6649668 -0.632299694954883 0.8064880972216416
0.6669667 -0.6372135457928356 0.8026404321550108
0.6689666 -0.6424468937263802 0.7986873197317642
0.6709665 -0.647321297207161 0.7946317278894425
0.6729664 -0.652511344601717 0.790786354863919
0.6749663 -0.6574968540386027 0.7867732438421701
0.6769662 -0.662545660588196 0.782828634897037
0.6789661 -0.6672495760547035 0.778593408513865
0.680966 -0.6721879696559699 0.7745606315259641
0.6829659 -0.6771899285312939 0.7705612336507842
0.6849658 -0.6820563413609989 0.7663457157797602
0.6869657 -0.6867591290750977 0.7622650917029894
0.6889656 -0.6916743677154111 0.757852658655703
0.6909655 -0.6962855992078589 0.7538187018231931
0.6929654 -0.7013947800603543 0.7493857694118509
0.6949653 -0.70594622842249 0.7453003128617441
0.6969652 -0.7106477859208093 0.7410019376406858
0.6989651 -0.715140335695277 0.7368518193571818
0.700965 -0.7202745711793593 0.7322401318379084
0.7029649 -0.7245023937672644 0.7278767262679121
0.7049648 -0.7290767857327644 0.7231993309048462
0.7069647 -0.7335412860344902 0.7193327155355919
0.7089646 -0.7381467958925536 0.7147430493297136
0.7109645 -0.7426275146973689 0.7101943496440002
0.7129644 -0.7471171227489574 0.7055843061101111
0.7149643 -0.7513270491735813 0.7009083399593573
0.7169642 -0.7557634568447058 0.6962620135385017
0.7189641 -0.7602133647603327 0.6916959193500044
0.720964 -0.764265775026443 0.6872777730660028
0.7229639 -0.7687166625292677 0.6823374248177437
0.7249638 -0.772911334288593 0.6775338860162744
0.7269637 -0.7771214704387073 0.6730548502534115
0.7289636 -0.7812072543037737 0.6684237697701403
0.7309635 -0.7851741680344008 0.6636487140152297
0.7329634 -0.7894806776381889 0.6587229755487142
0.7349633 -0.7936076506935801 0.6542540256686534
0.7369632 -0.797553632397927 0.6492849364015502
0.7389631 -0.8016464671472578 0.6443379428335833
0.740963 -0.8054330464427125 0.6398687776646447
0.7429629 -0.8094245181574223 0.6348449631258773
0.7449628 -0.8133688233703034 0.6302795138475676
0.7469627 -0.8173742735398128 0.6253832465884792
0.7489626 -0.8211454679697221 0.6202892382949021
0.7509625 -0.8249020724183812 0.6158354295150766
0.7529624 -0.8288084034261101 0.6103966681206602
0.7549623 -0.8323805671294661 0.6054482562242222
0.7569622 -0.8362331157136428 0.6008484746139897
0.7589621 -0.8400175609274785 0.5953725580905469
0.760962 -0.8438262752893909 0.5904763665132324
0.7629619 -0.8473449191330233 0.5855520304567737
0.7649618 -0.8508084526163437 0.5802033967838254
0.7669617 -0.8547923062998726 0.5751079156503506
0.7689616 -0.8583565668811644 0.5699847769603872
0.7709615 -0.8617736764584225 0.5648844407656393
0.7729614 -0.864971189441335 0.5594460004367183
0.7749613 -0.8688319586387665 0.554574768631434
0.7769612 -0.8723790350979017 0.5492339893283674
0.7789611 -0.8755965808105021 0.5441677228590022
0.780961 -0.8789689705328777 0.5387543713922569
0.7829609 -0.882275611801502 0.5337476472639673
0.7849608 -0.8852990020801736 0.5285087395556171
0.7869607 -0.8885670068654036 0.523287673697907
0.7889606 -0.8919676095143637 0.5177635326247034
0.7909605 -0.8951495716778367 0.5125111612090871
0.7929604 -0.8980058575800088 0.5072901032368543
0.7949603 -0.9010582718054018 0.5017099221213766
0.7969602 -0.904075525525469 0.4964578851613825
0.7989601 -0.9072961794865199 0.4909812244072765
0.80096 -0.910269458252404 0.4855827419457503
0.8029599 -0.9131045095350256 0.48017638764185877
0.8049598 -0.9158730268212943 0.4746633438564515
0.8069597 -0.9185825877409433 0.4690412802095817
0.8089596 -0.9216446338657391 0.4635382869872466
0.8109595 -0.9248625198806755 0.45831767158559455
0.8129594 -0.9275857126859264 0.4526557222262513
0.8149593 -0.9303208936076198 0.44726043427570156
0.8169592 -0.9330206469882187 0.44179077236275777
0.8189591 -0.9356382384566716 0.43643920925213886
