! Created with skrf 1.8.0 (http://scikit-rf.org).
# GHz S RI R 50.0 
!freq ReS11 ImS11
0.001 -1.0015213069763296 -0.002258559380154679
0.0029999 -0.9696089805812449 0.05561197097062415
0.0049998 -0.8549710802639846 0.23107874516051463
0.0069997 -0.5271413050261513 0.4808978418174733
0.0089996 -0.011628554859779 0.2598665482773023
0.0109995 0.086505332910654 0.09970172782701794
0.0129994 0.1267746724529993 0.018445251369194997
0.0149993 0.0658901460360691 -0.025315461372188236
0.0169992 0.051863202569268435 -0.050918912022237785
0.0189991 0.02788266210293352 -0.05809640626735787
0.020999 0.02096231013186572 -0.06802133028208956
0.0229989 0.007457203744664316 -0.06633865973368573
0.0249988 -0.00847489740337648 -0.06731368786379778
0.0269987 -0.01141272105862624 -0.06601121723301917
0.0289986 -0.01869918401663138 -0.06436802721714546
0.0309985 -0.023987890545300452 -0.06549739674851877
0.0329984 -0.024421065825545072 -0.05898705355423438
0.0349983 -0.020855722506831115 -0.054480197538552856
0.0369982 -0.026325151154645933 -0.05308250020927674
0.0389981 -0.024764452086002253 -0.04869097032818582
0.040998 -0.025803252646218237 -0.042275472183618365
0.0429979 -0.026069923156062526 -0.04314722226484634
0.0449978 -0.023393300907542543 -0.03689148301654087
0.0469977 -0.024955687378352416 -0.036581672093056426
0.0489976 -0.022783254171739094 -0.03177628523404985
0.0509975 -0.01993010091779697 -0.029075131526980883
0.0529974 -0.024788466958779246 -0.027521096645063397
0.0549973 -0.015446637668170022 -0.026661096204290895
0.0569972 -0.017208376451520447 -0.022212354812206125
0.0589971 -0.016259449477866825 -0.02237875173294394
0.060997 -0.015725158411517653 -0.02170345989416007
0.0629969 -0.013855830553107159 -0.01806466167261312
0.0649968 -0.013896029716311169 -0.019736500808421566
0.0669967 -0.010877897715050959 -0.016645918921786018
0.0689966 -0.011544010176182739 -0.017654041882821454
0.0709965 -0.015326054496426081 -0.016163367584454923
0.0729964 -0.011816440867539581 -0.014229881783206125
0.0749963 -0.010112747885165484 -0.017164663265893353
0.0769962 -0.011083418655995403 -0.015773260590612882
0.0789961 -0.009699317822619713 -0.01304081749372291
0.080996 -0.010840408072470997 -0.014092071074192962
0.0829959 -0.011092068402442147 -0.013984313081773067
0.0849958 -0.012896833726081375 -0.012215035114634787
0.0869957 -0.011517690889281857 -0.011855504307895687
0.0889956 -0.01294177622444936 -0.01365308979113835
0.0909955 -0.011933010506829145 -0.010930214169373502
0.0929954 -0.012714533821248392 -0.012487576555322465
0.0949953 -0.015683859665870124 -0.010289631418470528
0.0969952 -0.014372393665556872 -0.009304082015110432
0.0989951 -0.016034716136147258 -0.01196614559843934
0.100995 -0.014585397190416693 -0.010620612833640802
0.1029949 -0.014976060561726012 -0.010084324560789754
0.1049948 -0.01495922842861834 -0.00864887721253162
0.1069947 -0.015841759689050598 -0.0078059969364941955
0.1089946 -0.016264028979571805 -0.007309588498665467
0.1109945 -0.017046917754815948 -0.004783826225075491
0.1129944 -0.017355567227568838 -0.004639980317575948
0.1149943 -0.018209316107611496 -0.003827675398149482
0.1169942 -0.018109329992640175 -0.0024576076639206443
0.1189941 -0.019154149726196203 -0.0012794116202046865
0.120994 -0.01981445503137036 -0.0006177370123098074
0.1229939 -0.02054145629008896 -0.0009427824654411323
0.1249938 -0.021077706092369943 0.0008671520050311989
0.1269937 -0.021192976015508406 -0.0006158970342437899
0.1289936 -0.021316649042462447 0.0017102386561858429
0.1309935 -0.022284042568245222 0.0010220921518470632
0.1329934 -0.022460994115400108 0.002132882528167928
0.1349933 -0.02119173090499508 0.0026601513969100416
0.1369932 -0.022144445871776847 0.002029790595615197
0.1389931 -0.02326520689829529 0.003289648591272617
0.140993 -0.02282863313400321 0.0032276902234089798
0.1429929 -0.02239128953195254 0.00431722920209338
0.1449928 -0.02184226124977706 0.0033581314006684727
0.1469927 -0.02270805134337118 0.004654478858640398
0.1489926 -0.021335935145990605 0.004035633324371895
0.1509925 -0.021996049940372117 0.004568608835420621
0.1529924 -0.020475483333276884 0.00402982419306101
0.1549923 -0.020354757326905407 0.004596598939300083
0.1569922 -0.022338890549482897 0.005252767496736182
0.1589921 -0.020917343044792012 0.004866939118386574
0.160992 -0.022427122259985433 0.005064211302275101
0.1629919 -0.020659847786680195 0.004877342476218415
0.1649918 -0.021095797385739527 0.005560412783058354
0.1669917 -0.021570511617421993 0.006067249242019063
0.1689916 -0.021074118170264236 0.006087205277535833
0.1709915 -0.02146767724587747 0.0071101135369385695
0.1729914 -0.021657627954935983 0.0062227667412732
0.1749913 -0.02175193560107008 0.007252758965218981
0.1769912 -0.022318179323839102 0.007940200977092124
0.1789911 -0.022352368687082732 0.00750786239725177
0.180991 -0.022752902783863715 0.008698797235494445
0.1829909 -0.023062833583029983 0.008784854683220641
0.1849908 -0.02360054581910889 0.009302827091269027
0.1869907 -0.02373559266481772 0.008761285791796105
0.1889906 -0.024535496720398127 0.010071267258042731
0.1909905 -0.024982311357686464 0.010469279980617804
0.1929904 -0.025631552508819537 0.01099363248927561
0.1949903 -0.025885816728712624 0.01050083428291752
0.1969902 -0.02613186656217374 0.010904622234493566
0.1989901 -0.026745480227489384 0.01159569197960026
0.20099 -0.026692440040238172 0.012756052289688099
0.2029899 -0.027131277781177222 0.011721015384351156
0.2049898 -0.028528972338062758 0.012281804500195916
0.2069897 -0.02813628892866957 0.012490629404813321
0.2089896 -0.028394110496442942 0.012803290218117502
0.2109895 -0.02810854602986413 0.013105065170731681
0.2129894 -0.02890764377756487 0.013661867978073535
0.2149893 -0.028650363277398026 0.013639997404674697
0.2169892 -0.029399441430242895 0.013903159036382642
0.2189891 -0.028778413499059394 0.013626439468644558
0.220989 -0.02872112981174829 0.014122977625758388
0.2229889 -0.029473986888638292 0.015455472816800436
0.2249888 -0.0288510950515131 0.01450974652769919
0.2269887 -0.029076578051416925 0.014905037195688014
0.2289886 -0.02952562563377705 0.01496859290190799
0.2309885 -0.02917176108182911 0.015249204424624452
0.2329884 -0.029269346011371607 0.01521677198896089
0.2349883 -0.029387374970633314 0.015460190287933653
0.2369882 -0.02981036685503289 0.016036573780168536
0.2389881 -0.029485046491698107 0.015647143822051537
0.240988 -0.030014181555971953 0.015380968440084
0.2429879 -0.02969387945025731 0.016148082572514405
0.2449878 -0.03025137010358819 0.016009039755696446
0.2469877 -0.03008088848609844 0.016155796396065916
0.2489876 -0.03040975815793156 0.015579718218055935
0.2509875 -0.030086467206881018 0.016164499691397265
0.2529874 -0.030667012997089606 0.016049168324688615
0.2549873 -0.030640889574630875 0.016479155709895145
0.2569872 -0.03067527369464472 0.016083553390498898
0.2589871 -0.031133732919967495 0.016868787170459646
0.260987 -0.03088904200254692 0.01660421388425863
0.2629869 -0.031129467413353467 0.016713236235714878
0.2649868 -0.03156793936356784 0.017225774871663997
0.2669867 -0.03193004525280181 0.01728462676202445
0.2689866 -0.031887879571742 0.017580330062829955
0.2709865 -0.03194093979930156 0.01791389026561857
0.2729864 -0.031467044169716206 0.018349498069448605
0.2749863 -0.03186508658378633 0.018629516584218183
0.2769862 -0.032233342899683375 0.019218100514642844
0.2789861 -0.03164522699491163 0.020561343059464214
0.280986 -0.03247128392750592 0.020347372072603773
0.2829859 -0.03207966713906182 0.020376497803235333
0.2849858 -0.03289079536964743 0.02125121959646539
0.2869857 -0.03307249095537899 0.021502155869813636
0.2889856 -0.033052310128843305 0.021675888926482985
0.2909855 -0.03371018495530894 0.022366061963658083
0.2929854 -0.03364834435966546 0.023472312110713267
0.2949853 -0.03396540031674365 0.023182077515290292
0.2969852 -0.034532544297780195 0.023438500916446968
0.2989851 -0.03483366216404736 0.024440459475203485
0.300985 -0.03558262447919493 0.02471668984837795
0.3029849 -0.03631812946667995 0.02574844770145564
0.3049848 -0.037113942549859925 0.025330467394393787
0.3069847 -0.03765969869868623 0.0250975179141099
0.3089846 -0.03812063769577138 0.025684207389882866
0.3109845 -0.03901394592992715 0.025507153193466917
0.3129844 -0.03924855586823369 0.0253571663169807
0.3149843 -0.03977572525062885 0.025710056537760723
0.3169842 -0.04078267701715589 0.02545691819773383
0.3189841 -0.04160878489694947 0.025241913025704242
0.320984 -0.0424236182280429 0.025169278163160363
0.3229839 -0.042539909303098006 0.02502662124602334
0.3249838 -0.04307637612867209 0.025329424458810385
0.3269837 -0.043691938078880097 0.02517262597840153
0.3289836 -0.044641931192909885 0.025077087529624304
0.3309835 -0.044772118462666294 0.024211019991687843
0.3329834 -0.04490257023198152 0.024421399518675814
0.3349833 -0.04500567394089626 0.02409343787860857
0.3369832 -0.044707957679018875 0.024107514753994454
0.3389831 -0.04409990325257726 0.02386828578825855
0.340983 -0.044030728472424896 0.023701272149348862
0.3429829 -0.04326150097140833 0.023303291593386802
0.3449828 -0.04271417592475599 0.02281704602563245
0.3469827 -0.04290145104509409 0.023266112298945943
0.3489826 -0.04243196901173782 0.023002359781936665
0.3509825 -0.042618934718317424 0.022850283519650363
0.3529824 -0.04225085876638844 0.022674098073853496
0.3549823 -0.04190113455270234 0.022955302457079364
0.3569822 -0.04197934549911918 0.02328408301170376
0.3589821 -0.04190514836972378 0.02374071117427392
0.360982 -0.041758084273800684 0.024074107996705695
0.3629819 -0.04170206715893687 0.024392867616652186
0.3649818 -0.04191327450030999 0.02494908841736488
0.3669817 -0.042432223088587684 0.02485583855992004
0.3689816 -0.04258737912679447 0.025822307553678554
0.3709815 -0.04279315374344622 0.02597192583507512
0.3729814 -0.04286290985720041 0.026161385548762177
0.3749813 -0.043470396032120676 0.02715975518188348
0.3769812 -0.04445316739103806 0.02740333460162348
0.3789811 -0.0451950327945831 0.02722581105211852
0.380981 -0.04544087250067769 0.027541664226032075
0.3829809 -0.04631784033244857 0.02774436153937696
0.3849808 -0.04626976281383677 0.028690779781668507
0.3869807 -0.0472034203547827 0.028198425957431827
0.3889806 -0.04776790243011475 0.02827633900317766
0.3909805 -0.048304105472570746 0.02822617583276346
0.3929804 -0.04887422538350222 0.028060448592022905
0.3949803 -0.049485674028695886 0.0279237771334081
0.3969802 -0.05019436437705167 0.02701891440404878
0.3989801 -0.05018147625787233 0.027161364584222487
0.40098 -0.0506374418704745 0.026818924985390173
0.4029799 -0.05102415033646447 0.026451917859124284
0.4049798 -0.051126804496620354 0.026252889981305684
0.4069797 -0.05139665148242399 0.025543964324808606
0.4089796 -0.05142163853094094 0.02525005572471205
0.4109795 -0.05178233088794968 0.02527724196588311
0.4129794 -0.05145902502706398 0.025094223216119364
0.4149793 -0.051570356575981025 0.02462829589827747
0.4169792 -0.0514429026970313 0.02407464311169746
0.4189791 -0.05144663014838158 0.02422593195532019
0.420979 -0.05132071876046833 0.02424055824835713
0.4229789 -0.05140868859452881 0.024413036356083877
0.4249788 -0.05131362835424389 0.024719275636627326
0.4269787 -0.05131719950011535 0.02491960277617391
0.4289786 -0.051198621594845825 0.025146812293067193
0.4309785 -0.051342326656639625 0.025511036221538726
0.4329784 -0.05134575581818192 0.025792372465103568
0.4349783 -0.05169275268963632 0.025827155309981267
0.4369782 -0.052054301494923856 0.026274988851330984
0.4389781 -0.05226437918760037 0.026973751076708866
0.440978 -0.052601915166158406 0.027062964654461646
0.4429779 -0.052929749924228116 0.027156811774407957
0.4449778 -0.053860125259981295 0.027839478303910314
0.4469777 -0.05439832195310458 0.027743724943074328
0.4489776 -0.0550825209403233 0.02783983773119998
0.4509775 -0.055264598237075566 0.028522418891743274
0.4529774 -0.05616536396851607 0.028655580145218133
0.4549773 -0.056702995375132334 0.028439193955935582
0.4569772 -0.057085680523195625 0.027992641884673073
0.4589771 -0.05802787538887495 0.028121120789480248
0.460977 -0.05857874553230717 0.027537687562418783
0.4629769 -0.05911208028684595 0.027584578683655697
0.4649768 -0.05972579221679486 0.026540451359431557
0.4669767 -0.05987906141597494 0.026617064465623418
0.4689766 -0.06055803476199819 0.026137825529198022
0.4709765 -0.06091588772946746 0.025636188398274567
0.4729764 -0.06076715265856064 0.02514487650917276
0.4749763 -0.06097827353435445 0.025073100108504404
0.4769762 -0.061221198072993796 0.02451058434629122
0.4789761 -0.061172606451622175 0.023745752772548152
0.480976 -0.06113534965121213 0.023574059017289005
0.4829759 -0.0611701591002044 0.023138413155070307
0.4849758 -0.061113657862997335 0.022874050089173373
0.4869757 -0.06089266566113956 0.022596010052740718
0.4889756 -0.060471370146593866 0.02239942190999858
0.4909755 -0.060037089178416964 0.022268256373941347
0.4929754 -0.060163421392397165 0.022324894985158373
0.4949753 -0.059852678513708304 0.022335524194710046
0.4969752 -0.05974565441975451 0.02257848586406918
0.4989751 -0.05979593338216514 0.022582461518976252
0.500975 -0.05968022981186542 0.02279863053988908
0.5029749 -0.05984390116774302 0.023156397832184962
0.5049748 -0.06027319143796519 0.023472144968752835
0.5069747 -0.06069272356216862 0.023979038131541515
0.5089746 -0.061143253780727186 0.024032296642203754
0.5109745 -0.06132508555690679 0.024134123053307203
0.5129744 -0.06170889579098768 0.024652624983848216
0.5149743 -0.06233070928503682 0.025159456204541342
0.5169742 -0.06283624597084839 0.025482414261704
0.5189741 -0.0639273481807836 0.025795108759359437
0.520974 -0.0643586096758218 0.02576685598785684
0.5229739 -0.06468113163357465 0.025901951220429792
0.5249738 -0.06527227195794462 0.026423717356483953
0.5269737 -0.06599344997159157 0.026257627862385457
0.5289736 -0.06665433199855716 0.026617648822842063
0.5309735 -0.06700348594398739 0.02624720751470972
0.5329734 -0.06734575964961552 0.025954848020480696
0.5349733 -0.06791086547671223 0.025812917765660078
0.5369732 -0.06854561315366323 0.025410521818129125
0.5389731 -0.06892068367764848 0.024944018729671658
0.540973 -0.06927241871168927 0.024081656843353217
0.5429729 -0.06943457632540082 0.0236178650782326
0.5449728 -0.0700875357071058 0.022860994667436716
0.5469727 -0.07018319668130453 0.022412802726110858
0.5489726 -0.07017171732991652 0.02175129848200453
0.5509725 -0.0703244854318277 0.021275021949916924
0.5529724 -0.07045035346621298 0.020898800338428326
0.5549723 -0.0703441654520704 0.020418749126156262
0.5569722 -0.07031525813033158 0.019892278641171556
0.5589721 -0.06992766086431797 0.01972055047863181
0.560972 -0.06972740639545799 0.019579200605561512
0.5629719 -0.06945651029868763 0.019150656506207116
0.5649718 -0.06917448905944346 0.019119337126062622
0.5669717 -0.0689265717383244 0.019216240140883363
0.5689716 -0.06902275614117359 0.019468957777676526
0.5709715 -0.06885536137003079 0.019404849255758253
0.5729714 -0.06900874101129731 0.01965157978571947
0.5749713 -0.06909056067421351 0.019551032469465646
0.5769712 -0.06934578220014664 0.019491291707028333
0.5789711 -0.06975101605736103 0.019739250120140186
0.580971 -0.06986126028170335 0.020178259624470566
0.5829709 -0.06994610784249057 0.020641887946949492
0.5849708 -0.07033214441559543 0.02098967487626859
0.5869707 -0.07091544219691553 0.021189858777153285
0.5889706 -0.07156720828689372 0.020977415647238856
0.5909705 -0.0719370830837867 0.02091675142443168
0.5929704 -0.07313215460254058 0.02082176173348277
0.5949703 -0.07334483388039956 0.020781193872706237
0.5969702 -0.07404370112265216 0.020312470202256603
0.5989701 -0.07449506635641616 0.020512362511707308
0.60097 -0.07500215829851102 0.020141061039588803
0.6029699 -0.07573020051790758 0.019929352066130734
0.6049698 -0.07618869467784108 0.019447789264391786
0.6069697 -0.07649219131184593 0.01886962121307975
0.6089696 -0.07694142208156105 0.01847315246449651
0.6109695 -0.07726358739764976 0.017605241923049863
0.6129694 -0.07767580859009016 0.017135396671898687
0.6149693 -0.07789879549417816 0.016473887897347342
0.6169692 -0.07782725857434396 0.015967381244957033
0.6189691 -0.07775828341179118 0.015363872860673807
0.620969 -0.07788835165166305 0.01498944954485247
0.6229689 -0.07749607388539756 0.01413446737442951
0.6249688 -0.07727791309000169 0.013896964609454505
0.6269687 -0.07712938956407717 0.013620372313002057
0.6289686 -0.07667669553053112 0.01323338364387772
0.6309685 -0.07630314595608374 0.013176804033298132
0.6329684 -0.07632325806719298 0.013444469822966588
0.6349683 -0.07596722011922652 0.013193894448557137
0.6369682 -0.0758860508497285 0.013037498996545892
0.6389681 -0.07566239504509206 0.012888632735182221
0.640968 -0.07548650097902182 0.013141562770416542
0.6429679 -0.07563199855945246 0.013503838574676054
0.6449678 -0.07572067926019915 0.013771651385068855
0.6469677 -0.07612618589823916 0.01427631936912628
0.6489676 -0.076281945018738 0.01457662050266529
0.6509675 -0.07672668094518899 0.014998428575680709
0.6529674 -0.0773436479086143 0.015407172118214189
0.6549673 -0.07773150940462883 0.015457255717236346
0.6569672 -0.07819678084345998 0.015875932229555436
0.6589671 -0.07876725049276728 0.01590342539801289
0.660967 -0.07996669420760041 0.01594493496778396
0.6629669 -0.0805920475393769 0.015939218654108044
0.6649668 -0.0814477496403642 0.015440193296991544
0.6669667 -0.08243223700246727 0.015187230091574917
0.6689666 -0.08286224113216023 0.014613387644200254
0.6709665 -0.08333902338691275 0.013969834026475975
0.6729664 -0.08428081751614591 0.013604931938858051
0.6749663 -0.08487778724083142 0.012894248761784109
0.6769662 -0.08536873294173383 0.012074588647116195
0.6789661 -0.08643233306226805 0.011007782600785661
0.680966 -0.08646358830245687 0.010296854677414657
0.6829659 -0.08663483649683318 0.009663538207970182
0.6849658 -0.0866822099581694 0.008557142190168707
0.6869657 -0.0864938460249938 0.007810318500327148
0.6889656 -0.08655682252021155 0.00691192249878534
0.6909655 -0.08625503198823914 0.006425575124430715
0.6929654 -0.0861051101214743 0.005762926883448333
0.6949653 -0.08575297751955405 0.005410844853353358
0.6969652 -0.08535046551286982 0.004745108681761163
0.6989651 -0.08501179804555882 0.00425556817634512
0.700965 -0.08467999250187638 0.0040312423889780555
0.7029649 -0.08430888264909667 0.00384773790103694
0.7049648 -0.08389681069287773 0.003495378432269429
0.7069647 -0.08332262342449048 0.003642372466759882
0.7089646 -0.08272569439119942 0.0037144427347620586
0.7109645 -0.08284967596946859 0.003955747408696635
0.7129644 -0.08298477626477568 0.004212533430958357
0.7149643 -0.08291652594072484 0.004279670013743114
0.7169642 -0.08310270160092097 0.004744722608216911
0.7189641 -0.08335775214084637 0.005078629020984344
0.720964 -0.08367758317950791 0.005237332692306501
0.7229639 -0.08391693557625106 0.0052164728276973375
0.7249638 -0.0843443204009052 0.005578510463714454
0.7269637 -0.08483259202423474 0.005842749384288831
0.7289636 -0.08565173154172902 0.006146349389091792
0.7309635 -0.08596039923320153 0.006032539566032124
0.7329634 -0.0868210389450479 0.006102152598643613
0.7349633 -0.08774312593240025 0.005721687428662303
0.7369632 -0.08856694868668996 0.005656895118398949
0.7389631 -0.08949197975036649 0.005012453295975446
0.740963 -0.09027822878979946 0.004386889721790698
0.7429629 -0.09061310641867187 0.00357298449497908
0.7449628 -0.09129660717613741 0.002773200151542813
0.7469627 -0.09194905921713357 0.001978517145922506
0.7489626 -0.09222031025125145 0.0010246879949170826
0.7509625 -0.09280920779457581 0.0005201382038674471
0.7529624 -0.09316605358595732 -0.0005073798706838363
0.7549623 -0.09311543900049665 -0.0011555843778805995
0.7569622 -0.09295242713752204 -0.0020618579536588813
0.7589621 -0.0927293834210592 -0.002914857563623599
0.760962 -0.09240449606419329 -0.0035912556762661835
0.7629619 -0.09186317326816865 -0.004232277271195753
