! Created with skrf 1.8.0 (http://scikit-rf.org).
# GHz S RI R 50.0 
!freq ReS11 ImS11
0.001 -1.0009523355938157 0.00021468144156872038
0.0029999 -1.0231888484285694 -0.05603335601482312
0.0049998 -0.8604485081845256 -0.06620048099432552
0.0069997 -0.40468413644159174 0.22198777301216965
0.0089996 0.026090370837844233 -0.04463868074546456
0.0109995 0.02712720800493783 -0.02090794567984882
0.0129994 0.03656041710284406 -0.010285541475100524
0.0149993 0.015928274214169192 -0.04087517662520955
0.0169992 0.012762862966360356 -0.03562223831180813
0.0189991 -0.00028723650851485117 -0.02808921953729876
0.020999 0.005740054619526737 -0.02807593710965491
0.0229989 0.004503511313172199 -0.023843858179972695
0.0249988 -0.0021331450123640567 -0.022265215389899905
0.0269987 -1.1131208432223682e-05 -0.02161198987635343
0.0289986 -0.0038586571540594463 -0.019643649726860397
0.0309985 -0.004621649555989281 -0.019927867175464187
0.0329984 -0.004097940409536326 -0.01716436594232048
0.0349983 -0.0003393774074583524 -0.014814471419103538
0.0369982 -0.0032922126044115903 -0.014692465159333083
0.0389981 -0.0017295394364057162 -0.011728735515581117
0.040998 -0.005349436295562154 -0.01156662784203334
0.0429979 -0.0040058487580796505 -0.009523000305560386
0.0449978 -0.0035020238687787897 -0.006460826461217875
0.0469977 -0.0066517863587200994 -0.00858633620749478
0.0489976 -0.0054508445977372475 -0.0037376615654897043
0.0509975 -0.003615631953561457 -0.00283950758483305
0.0529974 -0.00310116564596516 -0.0008707268711134499
0.0549973 -0.0038338681348805055 -0.003597089872152881
0.0569972 -0.0038128137981872116 -0.000950340746404228
0.0589971 -0.005838348174049614 -0.002036009522682209
0.060997 -0.0033686417417285123 -0.0030043193680218392
0.0629969 -0.0045336129408963125 -8.490100536504713e-05
0.0649968 -0.005916655114206185 -0.0028065718849004774
0.0669967 -0.003614414546542416 -0.00044520873888489576
0.0689966 -0.0038144177808692053 -0.0014788716671487033
0.0709965 -0.008331734885874622 -0.001438263931061356
0.0729964 -0.005511974421585216 0.0014557475104769587
0.0749963 -0.003401219375367327 -0.0027876201826272876
0.0769962 -0.0039241930665604215 -0.0017452971890633264
0.0789961 -0.0023871119842608637 -7.093532365907171e-05
0.080996 -0.004336296019795135 -0.0018583371030966443
0.0829959 -0.0037477998112706774 -0.0003507267978949866
0.0849958 -0.004050685409632206 0.0008203918317496087
0.0869957 -0.0027052148617769194 0.0011839069777470055
0.0889956 -0.003294114586661658 -0.00043132702498812486
0.0909955 -0.0019764045345491777 0.0020976783049519846
0.0929954 -0.00244263879131311 0.0005861148643229882
0.0949953 -0.004084739894750605 0.002458698470666107
0.0969952 -0.0028754819096229916 0.003776270026372031
0.0989951 -0.004673557831819646 0.002315447565555589
0.100995 -0.001430454632149474 0.002164513022527308
0.1029949 -0.0003040559582593107 0.002961483060915644
0.1049948 -0.000610953025326475 0.003042197679765653
0.1069947 -0.001323941174278855 0.004786772675128463
0.1089946 -0.0012545216827031095 0.005599638845443082
0.1109945 -0.00207751826811382 0.007580256294078405
0.1129944 -0.001982176826339621 0.007391816137855173
0.1149943 -0.0029080931226216134 0.007951336830548725
0.1169942 -0.0025747383545011455 0.009157888974509325
0.1189941 -0.0035025059764429815 0.010626057907365002
0.120994 -0.004653894973607009 0.010641635551969843
0.1229939 -0.0049175756794639595 0.01029630992641248
0.1249938 -0.005656137397105746 0.011630153241500506
0.1269937 -0.006652077799006733 0.010632306865250811
0.1289936 -0.007051932081949544 0.01204483158055099
0.1309935 -0.00742955314445737 0.010620421504326117
0.1329934 -0.00768831742669745 0.012327920308707191
0.1349933 -0.006850095463114141 0.01220356299323672
0.1369932 -0.007629834716303499 0.01172798124137757
0.1389931 -0.008797815316545842 0.012238869070953427
0.140993 -0.008286058222638695 0.011448609304648388
0.1429929 -0.0081060156590643 0.013624707557044423
0.1449928 -0.008606802210192693 0.011287939596519355
0.1469927 -0.009330346600053501 0.01219790395390878
0.1489926 -0.008270248205496409 0.012277779246246946
0.1509925 -0.010203496095056988 0.011105806682630462
0.1529924 -0.008431059259791087 0.011259469231093208
0.1549923 -0.008641417722953501 0.012051183816737353
0.1569922 -0.00979017157494726 0.012662805410557781
0.1589921 -0.008855724829275236 0.012171594421415714
0.160992 -0.01077383738255717 0.01244939820649499
0.1629919 -0.00849156792655238 0.011927166077184411
0.1649918 -0.009370313606920448 0.012802004371503684
0.1669917 -0.009413411832526457 0.012601101400120296
0.1689916 -0.008700013385042796 0.012631988106364943
0.1709915 -0.009882281198438087 0.014522654300994928
0.1729914 -0.009290213796548069 0.013371921704925453
0.1749913 -0.009183685606902782 0.014306638212564525
0.1769912 -0.00936534381462022 0.014441437631058153
0.1789911 -0.009331026572183088 0.014910208470962909
0.180991 -0.00961121532614988 0.015500925400827982
0.1829909 -0.009737549944583843 0.015592891824190167
0.1849908 -0.010364943244035318 0.01643614804044696
0.1869907 -0.010118348054330633 0.015572070772584063
0.1889906 -0.010686617446583401 0.016611136072081954
0.1909905 -0.011371199612569431 0.01710455141094303
0.1929904 -0.011831888268490695 0.017459807797657892
0.1949903 -0.011812223045120814 0.017352141162167413
0.1969902 -0.012541446062516351 0.017429788906675125
0.1989901 -0.012999539906402385 0.0182792320101678
0.20099 -0.013562374586870079 0.018669605542899363
0.2029899 -0.012884767973932062 0.01843714104838621
0.2049898 -0.014598312127584525 0.0184306870137884
0.2069897 -0.013626922132310655 0.01845695600262421
0.2089896 -0.014811670034024553 0.018884944788980722
0.2109895 -0.014715425603939805 0.018877647069858016
0.2129894 -0.015529473037705464 0.019452642135539815
0.2149893 -0.01513614413417527 0.01936090389193917
0.2169892 -0.01628492865829511 0.019203773211193296
0.2189891 -0.015821972431673298 0.019199039536151784
0.220989 -0.01586693995045735 0.020025044386931017
0.2229889 -0.016324823451499798 0.020785634903578865
0.2249888 -0.016159822363777495 0.019663323159670742
0.2269887 -0.01701774760331129 0.019509069292712386
0.2289886 -0.017217978214926145 0.019891409316321034
0.2309885 -0.017216971969311212 0.02004364807548875
0.2329884 -0.017904015862824474 0.01997301654853271
0.2349883 -0.017603337193087626 0.020387100320385133
0.2369882 -0.0185263823359933 0.020581752511132284
0.2389881 -0.018065240409418627 0.02028360338344526
0.240988 -0.018458256493309164 0.020309346402556463
0.2429879 -0.018162223727424653 0.02062049475963921
0.2449878 -0.018655236794716375 0.020774830850136376
0.2469877 -0.018864598309764606 0.021192176986057146
0.2489876 -0.01884911782033373 0.02015181010435272
0.2509875 -0.018927829657205165 0.02084548221612208
0.2529874 -0.019451942025301212 0.021351026939885474
0.2549873 -0.019318211462455936 0.02100658594853294
0.2569872 -0.019121740597025164 0.020700902635613267
0.2589871 -0.019388019379825185 0.02162003392664975
0.260987 -0.019297086226466025 0.021100681866645224
0.2629869 -0.019396483927027877 0.02140192556139661
0.2649868 -0.020244023277360395 0.021866482959908794
0.2669867 -0.020262072071629902 0.022204254217124266
0.2689866 -0.020188969329878695 0.022326482359338037
0.2709865 -0.020291407589336386 0.02241318956986016
0.2729864 -0.019720179986349423 0.023067350358902
0.2749863 -0.02064959890120667 0.02336664241989994
0.2769862 -0.01994501946415745 0.02371032907078182
0.2789861 -0.02047202092351817 0.024908759188912652
0.280986 -0.020861083577679587 0.025026473251830345
0.2829859 -0.02097459953318671 0.025323131792990627
0.2849858 -0.021463872428949884 0.02542451204587522
0.2869857 -0.021966751954497418 0.02605113679343815
0.2889856 -0.022261575829472878 0.026611159513932798
0.2909855 -0.022953448437669256 0.026985097197914684
0.2929854 -0.023113328692485884 0.027984373960501227
0.2949853 -0.023291032945001997 0.02767591899661085
0.2969852 -0.024270157255136735 0.02777463283457292
0.2989851 -0.024800730876716796 0.028716863295404734
0.300985 -0.025925373042296383 0.02902334844248234
0.3029849 -0.026435426924726915 0.029533341213812576
0.3049848 -0.027287740103845253 0.029205868437253826
0.3069847 -0.027976291810230626 0.02882076012645463
0.3089846 -0.028586097301192655 0.029172988483273918
0.3109845 -0.029289917220992542 0.029425006513597914
0.3129844 -0.03033527524830843 0.02923441281527481
0.3149843 -0.031110446711719385 0.02925227285137878
0.3169842 -0.03176555906075457 0.029048172795594452
0.3189841 -0.032901965307264525 0.02855271677921465
0.320984 -0.03375275487821148 0.028557464590254485
0.3229839 -0.03367052455320566 0.02879898020379046
0.3249838 -0.03408440860777129 0.029123695944331535
0.3269837 -0.035060974994352255 0.028721672007989266
0.3289836 -0.03563376752344641 0.02847021532061307
0.3309835 -0.035429541906818504 0.027642654885729777
0.3329834 -0.035220643925451725 0.02740461720048546
0.3349833 -0.0355035869582092 0.02687978100377067
0.3369832 -0.035084351415197 0.026518821669960932
0.3389831 -0.03508353229024031 0.02616780847932565
0.340983 -0.03502434552941394 0.025967812518797404
0.3429829 -0.03476171066096936 0.02560040144021144
0.3449828 -0.03441708352292973 0.02507940803295034
0.3469827 -0.03387018655287412 0.025618269637831682
0.3489826 -0.03389259894231609 0.025369779556083053
0.3509825 -0.033978127538621686 0.02554472277545342
0.3529824 -0.033682147165798496 0.02565898348995521
0.3549823 -0.03350145042729437 0.02599600038248115
0.3569822 -0.03353959966949816 0.026440619329353675
0.3589821 -0.03363344383334753 0.02691902278969618
0.360982 -0.03346992353847785 0.02730554571555948
0.3629819 -0.03325248916698137 0.02769008151666356
0.3649818 -0.033791561731289735 0.02823618469926363
0.3669817 -0.03430498467543103 0.02830212734475249
0.3689816 -0.0342918665908318 0.02919014955498255
0.3709815 -0.03487345620485666 0.029331558415946746
0.3729814 -0.035192971131777315 0.02971183089166024
0.3749813 -0.03582739303977901 0.03047819767131265
0.3769812 -0.03657167265516131 0.030701373677988898
0.3789811 -0.03754585470641899 0.03070605853624911
0.380981 -0.03806787430274225 0.030878854035021844
0.3829809 -0.038853118477468335 0.031184771838086937
0.3849808 -0.03908756567014729 0.031718885989691595
0.3869807 -0.04038708368610312 0.03129767174406339
0.3889806 -0.04070477543231008 0.03154799400507953
0.3909805 -0.041597277886249756 0.03154808525753785
0.3929804 -0.04182282549308017 0.03125122183871465
0.3949803 -0.04259599112919068 0.03105317294000274
0.3969802 -0.04341056164931313 0.030169969151194603
0.3989801 -0.043881735265706795 0.030256191866730762
0.40098 -0.044313589308369976 0.029934716314897643
0.4029799 -0.044704174396572066 0.029551110908394598
0.4049798 -0.04504688611901821 0.029354493227681213
0.4069797 -0.04511786786091241 0.028643245391322673
0.4089796 -0.04552831450413256 0.02841413508551382
0.4109795 -0.045609584864783934 0.028292283392560912
0.4129794 -0.0455771276145479 0.02821901236583419
0.4149793 -0.04569901216713897 0.02766415685950489
0.4169792 -0.04534732295035932 0.02722108868504173
0.4189791 -0.045409296814445124 0.02720046549317872
0.420979 -0.04532643442101667 0.0271044707485599
0.4229789 -0.04570495173091582 0.02753256599878933
0.4249788 -0.04550712235819355 0.027671106558979683
0.4269787 -0.045365175704073835 0.028049712721222527
0.4289786 -0.04534408995333865 0.02817360253919827
0.4309785 -0.04549529465061136 0.028646946340708277
0.4329784 -0.04555589277736185 0.028883206688857313
0.4349783 -0.04611057574259477 0.02890643935653553
0.4369782 -0.0466822937995698 0.029525598712290754
0.4389781 -0.046588437751915526 0.030184249875438197
0.440978 -0.04717978658726045 0.030279876097801604
0.4429779 -0.04787127891895085 0.030397869039367694
0.4449778 -0.0487673001371276 0.030950692621620854
0.4469777 -0.04940533609108361 0.030802010974201908
0.4489776 -0.049859706128865804 0.031134127037816067
0.4509775 -0.050510266795730896 0.031592543885173865
0.4529774 -0.051226684023191506 0.03183229541064554
0.4549773 -0.05216155266293962 0.03152810335653242
0.4569772 -0.052706123754953815 0.03111102242647946
0.4589771 -0.05364206320247186 0.03116967184732567
0.460977 -0.05433113320940203 0.03080401519905436
0.4629769 -0.05500710008848007 0.030604574842234184
0.4649768 -0.05601331934150971 0.029796256439745622
0.4669767 -0.055953087045385555 0.029533223966505595
0.4689766 -0.056697773057811526 0.029099796802511478
0.4709765 -0.057255920443585684 0.02856170003120734
0.4729764 -0.05724561697840286 0.028114986723457337
0.4749763 -0.05754813160017899 0.02784636815877976
0.4769762 -0.05787782050231241 0.02742547363222424
0.4789761 -0.05764507738216594 0.026796779966697788
0.480976 -0.0578778600151169 0.02657676482972631
0.4829759 -0.05807153724161787 0.026128219574366375
0.4849758 -0.057928617978814684 0.025817998614581842
0.4869757 -0.05791882074566761 0.025700088737883115
0.4889756 -0.05745032232408776 0.02540268279158553
0.4909755 -0.05710784674908756 0.02522581357913404
0.4929754 -0.05718334901160053 0.025403314881210122
0.4949753 -0.05699334949800823 0.0254818186878158
0.4969752 -0.05695081761289701 0.02568418515490825
0.4989751 -0.05720147494124764 0.025844627111880562
0.500975 -0.05684583182345092 0.026126518297079536
0.5029749 -0.05706998015730576 0.026501994697574846
0.5049748 -0.05755551773647055 0.026887306022773252
0.5069747 -0.05807419117483194 0.027138000938647232
0.5089746 -0.05813830910657252 0.027385319230343465
0.5109745 -0.058526566331223835 0.02759431381768989
0.5129744 -0.059018879746611075 0.028049370370124643
0.5149743 -0.059310516188009886 0.028618161238436815
0.5169742 -0.06022811648915738 0.028761232388219524
0.5189741 -0.060841986510859536 0.028985189486890408
0.520974 -0.06152484836871769 0.028839634712718006
0.5229739 -0.062317267175840116 0.028906062709803206
0.5249738 -0.06272992680154778 0.02917877544319334
0.5269737 -0.06368952686510873 0.029205281237952168
0.5289736 -0.06483136400157505 0.02920360681179948
0.5309735 -0.0651514371778541 0.02880729643719361
0.5329734 -0.06580949391910822 0.028613447501103766
0.5349733 -0.06651730052889865 0.02851381031724919
0.5369732 -0.06695825104684865 0.028212975287186918
0.5389731 -0.06771706417059777 0.027851496714123344
0.540973 -0.06819431762391867 0.026973122339411456
0.5429729 -0.06867660615666868 0.02641689885647414
0.5449728 -0.06928258138981024 0.02580346347915079
0.5469727 -0.06930349630848888 0.025288579015667154
0.5489726 -0.06971907100468938 0.02486988563192374
0.5509725 -0.06984633492863523 0.02414922763290264
0.5529724 -0.07002544656703855 0.02383019637101941
0.5549723 -0.07011817833008926 0.02349847178133168
0.5569722 -0.06999589088049464 0.023016631091940114
0.5589721 -0.06981589451205246 0.022699949402881607
0.560972 -0.06961399259846376 0.02262700706423166
0.5629719 -0.06960521145716171 0.02232212732972184
0.5649718 -0.06935178212292988 0.02223642312669984
0.5669717 -0.06927058322923234 0.02239927956094236
0.5689716 -0.06932787859061082 0.022654551091552073
0.5709715 -0.0693776628577013 0.02265584210822135
0.5729714 -0.0695926004710199 0.02267960465066986
0.5749713 -0.06981455003999108 0.022890615006865213
0.5769712 -0.07019829947663377 0.022769457584882975
0.5789711 -0.07032217808362282 0.023178883721340488
0.580971 -0.07047524534977172 0.02366774135362739
0.5829709 -0.07054038795921398 0.024025762602541013
0.5849708 -0.07164653646335113 0.02430584820131271
0.5869707 -0.07184574253521737 0.024507873346066415
0.5889706 -0.07262256994542693 0.024231331506713576
0.5909705 -0.07341593310409518 0.02425972424319579
0.5929704 -0.0742537579639996 0.024167219272036324
0.5949703 -0.07467016278282407 0.024255739248528654
0.5969702 -0.07551291861007144 0.023787706205250534
0.5989701 -0.07625188420796092 0.023780082481059527
0.60097 -0.0767629868054573 0.02358696759971111
0.6029699 -0.07745389253637239 0.023156991978858094
0.6049698 -0.07801591205246794 0.022789381073529073
0.6069697 -0.07860419797542967 0.022163832838428214
0.6089696 -0.07910311099346978 0.02195715119177533
0.6109695 -0.07933924765569186 0.021010636729849846
0.6129694 -0.07978134939213898 0.02045210732911981
0.6149693 -0.08012229829684836 0.019734525282833214
0.6169692 -0.08029653003694168 0.019350060608673055
0.6189691 -0.08037071601477105 0.01868010891351025
0.620969 -0.08037296384647055 0.018399645537422488
0.6229689 -0.08020719893770359 0.017771440901343236
0.6249688 -0.08027637442698614 0.01739132588393137
0.6269687 -0.08009763668224934 0.01715953117930162
0.6289686 -0.07991214410871803 0.0167516995248995
0.6309685 -0.0794824951981176 0.016798300553727222
0.6329684 -0.07953222120710322 0.01694776006691889
0.6349683 -0.07940544554889717 0.016927657476042805
0.6369682 -0.07933238521881052 0.01673744834935891
0.6389681 -0.07922550924970846 0.016680668648254644
0.640968 -0.07885988734406943 0.016788899408843712
0.6429679 -0.0792963114473759 0.017179431842757716
0.6449678 -0.07966086504667336 0.01762382320546595
0.6469677 -0.07985765985464653 0.018006143545407836
0.6489676 -0.07995965907116523 0.018288129020509344
0.6509675 -0.08070985223704154 0.01890320138666557
0.6529674 -0.08135302511111336 0.019201510269373986
0.6549673 -0.08182909394328826 0.019425945107442045
0.6569672 -0.08261448316358287 0.019833081841360903
0.6589671 -0.08305220323734498 0.019853984665172436
0.660967 -0.08385435720505896 0.019857603088692565
0.6629669 -0.08474187346458942 0.019875851224721377
0.6649668 -0.0857635743454436 0.019581120046151267
0.6669667 -0.08668161340023961 0.019117160321041743
0.6689666 -0.08728016467152443 0.018597213338434247
0.6709665 -0.08790005230192936 0.017922415139121933
0.6729664 -0.0888938079468191 0.017566315723542284
0.6749663 -0.08965103322587682 0.016858652635844754
0.6769662 -0.09026995746960989 0.01606560241185746
0.6789661 -0.09118430633288817 0.015151433658837192
0.680966 -0.09133907066468024 0.01435012611708757
0.6829659 -0.09168424492163799 0.013566467548722323
0.6849658 -0.09200618921521606 0.012642590226735587
0.6869657 -0.09172325512408185 0.011832801116979423
0.6889656 -0.09190650313249887 0.010977940485635513
0.6909655 -0.09161229947549167 0.01046378924355014
0.6929654 -0.0916562029940836 0.009777983825989937
0.6949653 -0.0913977326430388 0.009513157498955708
0.6969652 -0.09097987662037976 0.008839983141817925
0.6989651 -0.09087276141577566 0.00841592185540914
0.700965 -0.09063493214480701 0.008265718861241656
0.7029649 -0.09024410747859565 0.008035761223218245
0.7049648 -0.09006558357912056 0.007759013463609899
0.7069647 -0.08966901748513705 0.007893702302892807
0.7089646 -0.08897672299107723 0.00793927631655822
0.7109645 -0.08923331330739209 0.008213124334023617
0.7129644 -0.08951124903004269 0.00851063901513583
0.7149643 -0.08942504687292345 0.008669283782694551
0.7169642 -0.08964901618359955 0.009173947667592216
0.7189641 -0.09017372034022578 0.009616381100500067
0.720964 -0.0903453732909601 0.00971855986957107
0.7229639 -0.0906902549661025 0.009725647374775003
0.7249638 -0.09118404054849218 0.010177593574195724
0.7269637 -0.09170593887024514 0.010562409278540321
0.7289636 -0.092496902788897 0.010732962291073383
0.7309635 -0.09282806949802938 0.0107667745160731
0.7329634 -0.09372591506841335 0.010903659350510114
0.7349633 -0.09487210087089501 0.010450370723624803
0.7369632 -0.09557327125232042 0.010413175772532281
0.7389631 -0.09661957739591573 0.009937557415511337
0.740963 -0.09709070723777434 0.009296942552945046
0.7429629 -0.09779907259405887 0.008503087015831145
0.7449628 -0.09827471301235269 0.007634127117849256
0.7469627 -0.09885689890540562 0.00690828315189039
0.7489626 -0.09917030249518002 0.005919052264180047
0.7509625 -0.09961853292823863 0.005305328442493224
0.7529624 -0.10021023816101587 0.004240132681991051
0.7549623 -0.1002031670174974 0.0034380392330084705
0.7569622 -0.10021631061293697 0.0024283118395397665
0.7589621 -0.10013394661257496 0.0015925420723567688
0.760962 -0.0999701633525644 0.0008830452707711683
0.7629619 -0.09964078988578234 0.00020128634921809385
