! MS46122B
! 2250307/22442219
! 7/24/2025 7:34:27 AM
! C:\USERS\SPARKY\DOCUMENTS\VNA_DATA\JULY24_2025\3K\ECAL_OPEN_C.S1P
! CHANNEL.1
! TR.MEASUREMENT
! RAW.DATA
# GHZ S RI R 50.0
! FREQ.GHZ         S11RE         S11IM         
!; PortSelection: Port_1
   0.001000000     1.0449760   -0.0728013  
   0.002999900     0.9475330   -0.2221169  
   0.004999800     0.8090428   -0.0888303  
   0.006999700     0.5255450   -0.4041850  
   0.008999600     0.9402030   -0.0008123  
   0.010999500     0.9257974   -0.2275001  
   0.012999400     0.8862489   -0.3360903  
   0.014999300     0.8464401   -0.4179962  
   0.016999200     0.8063343   -0.4886495  
   0.018999100     0.7636708   -0.5542116  
   0.020999000     0.7170910   -0.6152074  
   0.022998900     0.6653268   -0.6711058  
   0.024998800     0.5995300   -0.6871523  
   0.026998700     0.5459432   -0.7693467  
   0.028998600     0.4765891   -0.8108324  
   0.030998500     0.4006160   -0.8459579  
   0.032998400     0.3204321   -0.8396419  
   0.034998300     0.2270421   -0.8936105  
   0.036998200     0.1305890   -0.9033725  
   0.038998100     0.0278553   -0.9015879  
   0.040998000    -0.0800035   -0.8858106  
   0.042997900    -0.1914356   -0.8549647  
   0.044997800    -0.2819569   -0.7844669  
   0.046997700    -0.4169089   -0.7362813  
   0.048997600    -0.5241112   -0.6449423  
   0.050997500    -0.6218368   -0.5288439  
   0.052997400    -0.7026824   -0.3872630  
   0.054997300    -0.7588300   -0.2211425  
   0.056997200    -0.7802719   -0.0321604  
   0.058997100    -0.7563906    0.1687619  
   0.060997000    -0.6801608    0.3685860  
   0.062996900    -0.5497960    0.5505444  
   0.064996800    -0.3706702    0.6948125  
   0.066996700    -0.1570650    0.7864566  
   0.068996600     0.0705222    0.8165472  
   0.070996500     0.2925396    0.7869419  
   0.072996400     0.4910915    0.7048897  
   0.074996300     0.6543052    0.5838748  
   0.076996200     0.7774754    0.4380454  
   0.078996100     0.8610346    0.2806286  
   0.080996000     0.9076147    0.1203260  
   0.082995900     0.9228414   -0.0347072  
   0.084995800     0.9105171   -0.1796764  
   0.086995700     0.8777566   -0.3124609  
   0.088995600     0.8275648   -0.4319377  
   0.090995500     0.7643078   -0.5370820  
   0.092995400     0.6912544   -0.6292463  
   0.094995300     0.6089507   -0.7069346  
   0.096995200     0.5208354   -0.7712742  
   0.098995100     0.4275024   -0.8232942  
   0.100995000     0.3310018   -0.8625467  
   0.102994900     0.2321988   -0.8898653  
   0.104994800     0.1321868   -0.9055553  
   0.106994700     0.0308641   -0.9092047  
   0.108994600    -0.0696890   -0.9023723  
   0.110994500    -0.1694420   -0.8839471  
   0.112994400    -0.2671347   -0.8538946  
   0.114994300    -0.3620205   -0.8121659  
   0.116994200    -0.4529471   -0.7586878  
   0.118994100    -0.5379663   -0.6930957  
   0.120994000    -0.6179677   -0.6171144  
   0.122993900    -0.6883645   -0.5281664  
   0.124993800    -0.7484129   -0.4275058  
   0.126993700    -0.7963403   -0.3159908  
   0.128993600    -0.8277716   -0.1946745  
   0.130993500    -0.8430058   -0.0656900  
   0.132993400    -0.8391468    0.0694182  
   0.134993300    -0.8129107    0.2074946  
   0.136993200    -0.7630861    0.3443896  
   0.138993100    -0.6880817    0.4758385  
   0.140993000    -0.5880381    0.5962031  
   0.142992900    -0.4641466    0.6998632  
   0.144992800    -0.3199596    0.7819806  
   0.146992700    -0.1585864    0.8349580  
   0.148992600     0.0125026    0.8558798  
   0.150992500     0.1852498    0.8417107  
   0.152992400     0.3529631    0.7946497  
   0.154992300     0.5070441    0.7158431  
   0.156992200     0.6413906    0.6092644  
   0.158992100     0.7508139    0.4813794  
   0.160992000     0.8318951    0.3379235  
   0.162991900     0.8839345    0.1859659  
   0.164991800     0.9073061    0.0316833  
   0.166991700     0.9031041   -0.1191145  
   0.168991600     0.8745364   -0.2621246  
   0.170991500     0.8243672   -0.3945717  
   0.172991400     0.7562132   -0.5131326  
   0.174991300     0.6735654   -0.6159968  
   0.176991200     0.5790083   -0.7035316  
   0.178991100     0.4756345   -0.7738708  
   0.180991000     0.3672223   -0.8286435  
   0.182990900     0.2537506   -0.8657352  
   0.184990800     0.1384834   -0.8872817  
   0.186990700     0.0231852   -0.8930760  
   0.188990600    -0.0653989   -0.8847604  
   0.190990500    -0.1968367   -0.8597769  
   0.192990400    -0.3063700   -0.8206480  
   0.194990300    -0.4062029   -0.7695311  
   0.196990200    -0.4983211   -0.7059701  
   0.198990100    -0.5817876   -0.6305955  
   0.200990000    -0.6554449   -0.5440995  
   0.202989900    -0.7178320   -0.4470980  
   0.204989800    -0.7674255   -0.3414610  
   0.206989700    -0.8039241   -0.2288551  
   0.208989600    -0.8234916   -0.1100615  
   0.210989500    -0.8259676    0.0133560  
   0.212989400    -0.8104504    0.1388863  
   0.214989300    -0.7757952    0.2636509  
   0.216989200    -0.7212275    0.3838684  
   0.218989100    -0.6474020    0.4968362  
   0.220989000    -0.5540400    0.5992951  
   0.222988900    -0.4422666    0.6873569  
   0.224988800    -0.3149583    0.7570195  
   0.226988700    -0.1750960    0.8053344  
   0.228988600    -0.0273420    0.8286689  
   0.230988500     0.1245200    0.8258693  
   0.232988400     0.2740184    0.7945026  
   0.234988300     0.4176309    0.7384842  
   0.236988200     0.5489998    0.6572238  
   0.238988100     0.6632609    0.5544801  
   0.240988000     0.7564982    0.4341846  
   0.242987900     0.8264486    0.3013257  
   0.244987800     0.8717417    0.1601737  
   0.246987700     0.8924896    0.0157268  
   0.248987600     0.8882772   -0.1275624  
   0.250987500     0.8617938   -0.2657288  
   0.252987400     0.8144150   -0.3945515  
   0.254987300     0.7495092   -0.5109860  
   0.256987200     0.6697006   -0.6136695  
   0.258987100     0.5783932   -0.7026110  
   0.260987000     0.4766757   -0.7746307  
   0.262986900     0.3673362   -0.8309056  
   0.264986800     0.2535168   -0.8703762  
   0.266986700     0.1370957   -0.8933949  
   0.268986600     0.0206834   -0.9005266  
   0.270986500    -0.0932260   -0.8922563  
   0.272986400    -0.2040176   -0.8695084  
   0.274986300    -0.3100470   -0.8329387  
   0.276986200    -0.4100503   -0.7831154  
   0.278986100    -0.5033302   -0.7205656  
   0.280986000    -0.5877515   -0.6461473  
   0.282985900    -0.6624678   -0.5611711  
   0.284985800    -0.7255815   -0.4659855  
   0.286985700    -0.7757788   -0.3627430  
   0.288985600    -0.8119300   -0.2530934  
   0.290985500    -0.8332830   -0.1385083  
   0.292985400    -0.8384923   -0.0199098  
   0.294985300    -0.8265881    0.1007632  
   0.296985200    -0.7964230    0.2217734  
   0.298985100    -0.7470061    0.3403207  
   0.300985000    -0.6774298    0.4524373  
   0.302984900    -0.5890534    0.5538478  
   0.304984800    -0.4819971    0.6411955  
   0.306984700    -0.3589295    0.7095969  
   0.308984600    -0.2233082    0.7557093  
   0.310984500    -0.0798557    0.7755926  
   0.312984400     0.0663555    0.7669368  
   0.314984300     0.2081012    0.7293068  
   0.316984200     0.3377651    0.6636599  
   0.318984100     0.4488045    0.5735734  
   0.320984000     0.5346805    0.4665075  
   0.322983900     0.5928104    0.3507865  
   0.324983800     0.6235074    0.2363890  
   0.326983700     0.6334054    0.1310362  
   0.328983600     0.6298552    0.0378297  
   0.330983500     0.6208460   -0.0437770  
   0.332983400     0.6113073   -0.1187966  
   0.334983300     0.6019589   -0.1935672  
   0.336983200     0.5893474   -0.2727321  
   0.338983100     0.5687542   -0.3582072  
   0.340983000     0.5342648   -0.4476948  
   0.342982900     0.4829799   -0.5370033  
   0.344982800     0.4130261   -0.6211373  
   0.346982700     0.3251396   -0.6946424  
   0.348982600     0.2230162   -0.7517842  
   0.350982500     0.1103231   -0.7917519  
   0.352982400    -0.0083997   -0.8115369  
   0.354982300    -0.1350757   -0.8104434  
   0.356982200    -0.2732630   -0.7825844  
   0.358982100    -0.4035133   -0.7299988  
   0.360982000    -0.5210356   -0.6555576  
   0.362981900    -0.6228107   -0.5619043  
   0.364981800    -0.7071633   -0.4522920  
   0.366981700    -0.7707561   -0.3304296  
   0.368981600    -0.8125310   -0.1998104  
   0.370981500    -0.8316886   -0.0644070  
   0.372981400    -0.8281617    0.0718941  
   0.374981300    -0.8015553    0.2065244  
   0.376981200    -0.8318946    0.0729966  
   0.378981100    -0.8049409    0.2114357  
   0.380981000    -0.7546173    0.3446955  
   0.382980900    -0.6898858    0.4567664  
   0.384980800    -0.6121330    0.5540141  
   0.386980700    -0.5197536    0.6401145  
   0.388980600    -0.4140137    0.7119042  
   0.390980500    -0.2981704    0.7673330  
   0.392980400    -0.1740199    0.8045535  
   0.394980300    -0.0444507    0.8223161  
   0.396980200     0.0873790    0.8195466  
   0.398980100     0.2191545    0.7959943  
   0.400980000     0.3462294    0.7513688  
   0.402979900     0.4661263    0.6861274  
   0.404979800     0.5741092    0.6022926  
   0.406979700     0.6674673    0.5008795  
   0.408979600     0.7434527    0.3855899  
   0.410979500     0.7992401    0.2584426  
   0.412979400     0.8337615    0.1234005  
   0.414979300     0.8439540   -0.0151079  
   0.416979200     0.8322165   -0.1531515  
   0.418979100     0.7982385   -0.2861360  
   0.420979000     0.7431269   -0.4108327  
   0.422978900     0.6691697   -0.5241881  
   0.424978800     0.5783901   -0.6230407  
   0.426978700     0.4741769   -0.7051674  
   0.428978600     0.3598085   -0.7688364  
   0.430978500     0.2388770   -0.8131913  
   0.432978400     0.1146791   -0.8379839  
   0.434978300    -0.0102541   -0.8450911  
   0.436978200    -0.1330091   -0.8318967  
   0.438978100    -0.2513202   -0.8010541  
   0.440978000    -0.3627286   -0.7537927  
   0.442977900    -0.4650381   -0.6912171  
   0.444977800    -0.5562100   -0.6151909  
   0.446977700    -0.6355594   -0.5274363  
   0.448977600    -0.7008773   -0.4299361  
   0.450977500    -0.7516901   -0.3241988  
   0.452977400    -0.7870884   -0.2119014  
   0.454977300    -0.8059933   -0.0949815  
   0.456977200    -0.8080716    0.0240466  
   0.458977100    -0.7926981    0.1430517  
   0.460977000    -0.7601535    0.2587025  
   0.462976900    -0.7104214    0.3686595  
   0.464976800    -0.6443529    0.4713379  
   0.466976700    -0.5631748    0.5633197  
   0.468976600    -0.4682683    0.6431944  
   0.470976500    -0.3608190    0.7081116  
   0.472976400    -0.2436955    0.7559189  
   0.474976300    -0.1192996    0.7850803  
   0.476976200     0.0093198    0.7945345  
   0.478976100     0.1385114    0.7830421  
   0.480976000     0.2646570    0.7510656  
   0.482975900     0.3844454    0.6987262  
   0.484975800     0.4943176    0.6271526  
   0.486975700     0.5914991    0.5385476  
   0.488975600     0.6728142    0.4349712  
   0.490975500     0.7356085    0.3195001  
   0.492975400     0.7782704    0.1956095  
   0.494975300     0.7996958    0.0673704  
   0.496975200     0.8002637   -0.0615265  
   0.498975100     0.7794347   -0.1866101  
   0.500975000     0.7399875   -0.3053947  
   0.502974900     0.6832064   -0.4140669  
   0.504974800     0.6114730   -0.5107698  
   0.506974700     0.5272458   -0.5941857  
   0.508974600     0.4328144   -0.6632065  
   0.510974500     0.3314903   -0.7169204  
   0.512974400     0.2259408   -0.7548876  
   0.514974300     0.1186539   -0.7760006  
   0.516974200     0.0110601   -0.7841529  
   0.518974100    -0.0945297   -0.7783434  
   0.520974000    -0.1979730   -0.7594683  
   0.522973900    -0.2977476   -0.7279918  
   0.524973800    -0.3930171   -0.6838041  
   0.526973700    -0.4833278   -0.6273141  
   0.528973600    -0.5660443   -0.5585904  
   0.530973500    -0.6403491   -0.4774949  
   0.532973400    -0.7034427   -0.3856630  
   0.534973300    -0.7531834   -0.2838202  
   0.536973200    -0.7877752   -0.1737343  
   0.538973100    -0.8053567   -0.0590148  
   0.540973000    -0.8054562    0.0581492  
   0.542972900    -0.7875031    0.1750130  
   0.544972800    -0.7513582    0.2886113  
   0.546972700    -0.6978448    0.3963173  
   0.548972600    -0.6277056    0.4952190  
   0.550972500    -0.5429589    0.5825502  
   0.552972400    -0.4452861    0.6561927  
   0.554972300    -0.3368187    0.7142819  
   0.556972200    -0.2198243    0.7550193  
   0.558972100    -0.0976229    0.7774554  
   0.560972000     0.0268867    0.7807202  
   0.562971900     0.1508558    0.7645168  
   0.564971800     0.2712616    0.7290744  
   0.566971700     0.3847125    0.6755666  
   0.568971600     0.4890685    0.6044239  
   0.570971500     0.5811168    0.5174767  
   0.572971400     0.6586579    0.4164661  
   0.574971300     0.7194628    0.3038827  
   0.576971200     0.7614381    0.1821589  
   0.578971100     0.7834964    0.0545480  
   0.580971000     0.7846621   -0.0747021  
   0.582970900     0.7651837   -0.2022085  
   0.584970800     0.7255970   -0.3239894  
   0.586970700     0.6673873   -0.4371977  
   0.588970600     0.5922495   -0.5393621  
   0.590970500     0.5025328   -0.6275661  
   0.592970400     0.4008803   -0.7002919  
   0.594970300     0.2898983   -0.7558595  
   0.596970200     0.1725167   -0.7927079  
   0.598970100     0.0519196   -0.8115088  
   0.600970000    -0.0693432   -0.8119533  
   0.602969900    -0.1880856   -0.7941410  
   0.604969800    -0.3024545   -0.7588777  
   0.606969700    -0.4095458   -0.7073944  
   0.608969600    -0.5072474   -0.6411380  
   0.610969500    -0.5939274   -0.5617413  
   0.612969400    -0.6673503   -0.4712781  
   0.614969300    -0.7264043   -0.3718783  
   0.616969200    -0.7705252   -0.2659580  
   0.618969100    -0.7990214   -0.1555858  
   0.620969000    -0.8120205   -0.0428806  
   0.622968900    -0.8088387    0.0705323  
   0.624968800    -0.7898985    0.1826633  
   0.626968700    -0.7552919    0.2915531  
   0.628968600    -0.7053838    0.3950953  
   0.630968500    -0.6411920    0.4910035  
   0.632968400    -0.5630336    0.5774883  
   0.634968300    -0.4729791    0.6526214  
   0.636968200    -0.3720091    0.7143036  
   0.638968100    -0.2622778    0.7609557  
   0.640968000    -0.1455250    0.7910877  
   0.642967900    -0.0247505    0.8037434  
   0.644967800     0.0978942    0.7983165  
   0.646967700     0.2193060    0.7741895  
   0.648967600     0.3360987    0.7313609  
   0.650967500     0.4461061    0.6706123  
   0.652967400     0.5456351    0.5936598  
   0.654967300     0.6323078    0.5012519  
   0.656967200     0.7038901    0.3960520  
   0.658967100     0.7582812    0.2804933  
   0.660967000     0.7938786    0.1567345  
   0.662966900     0.8094320    0.0281209  
   0.664966800     0.8039858   -0.1018977  
   0.666966700     0.7776827   -0.2296638  
   0.668966600     0.7314516   -0.3509677  
   0.670966500     0.6663906   -0.4633150  
   0.672966400     0.5859967   -0.5639520  
   0.674966300     0.4904681   -0.6484213  
   0.676966200     0.3839018   -0.7162164  
   0.678966100     0.2692640   -0.7658334  
   0.680966000     0.1498595   -0.7967560  
   0.682965900     0.0284945   -0.8089592  
   0.684965800    -0.0919151   -0.8027182  
   0.686965700    -0.2088466   -0.7784209  
   0.688965600    -0.3197700   -0.7376980  
   0.690965500    -0.4217357   -0.6806148  
   0.692965400    -0.5139083   -0.6112981  
   0.694965300    -0.5943727   -0.5296817  
   0.696965200    -0.6617107   -0.4385211  
   0.698965100    -0.7152810   -0.3386767  
   0.700965000    -0.7538007   -0.2330359  
   0.702964900    -0.7766711   -0.1227621  
   0.704964800    -0.7837759   -0.0106339  
   0.706964700    -0.7749043    0.1018250  
   0.708964600    -0.7495409    0.2119194  
   0.710964500    -0.7090341    0.3182999  
   0.712964400    -0.6526200    0.4176334  
   0.714964300    -0.5815603    0.5079867  
   0.716964200    -0.4979845    0.5870885  
   0.718964100    -0.4029368    0.6533099  
   0.720964000    -0.2986595    0.7045494  
   0.722963900    -0.1878359    0.7395822  
   0.724963800    -0.0719130    0.7573426  
   0.726963700     0.0459975    0.7571263  
   0.728963600     0.1632662    0.7381797  
   0.730963500     0.2761913    0.7002628  
   0.732963400     0.3816735    0.6457843  
   0.734963300     0.4782925    0.5749962  
   0.736963200     0.5741657    0.4758817  
   0.738963100     0.6509523    0.3609813  
   0.740963000     0.7055967    0.2343415  
   0.742962900     0.7361124    0.1012274  
   0.744962800     0.7424888   -0.0344408  
   0.746962700     0.7246360   -0.1676719  
   0.748962600     0.6839221   -0.2945653  
   0.750962500     0.7095819   -0.1803787  
   0.752962400     0.6684032   -0.3049722  
   0.754962300     0.6067457   -0.4199162  
   0.756962200     0.5271549   -0.5222154  
   0.758962100     0.4318345   -0.6083393  
   0.760962000     0.3235945   -0.6773935  
   0.762961900     0.2115767   -0.7249616  
   0.764961800     0.1042901   -0.7524093  
   0.766961700    -0.0056711   -0.7646236  
   0.768961600    -0.1166010   -0.7604857  
   0.770961500    -0.2261154   -0.7402437  
   0.772961400    -0.3314534   -0.7040900  
   0.774961300    -0.4307302   -0.6534773  
   0.776961200    -0.5218914   -0.5881549  
   0.778961100    -0.6025981   -0.5096407  
   0.780961000    -0.6708345   -0.4196963  
   0.782960900    -0.7255140   -0.3200046  
   0.784960800    -0.7645537   -0.2125583  
   0.786960700    -0.7869602   -0.1002305  
   0.788960600    -0.7925525    0.0143639  
   0.790960500    -0.7807201    0.1288066  
   0.792960400    -0.7517179    0.2401269  
   0.794960300    -0.7063703    0.3458589  
   0.796960200    -0.6459474    0.4438671  
   0.798960100    -0.5718376    0.5313060  
   0.800960000    -0.4853138    0.6070207  
   0.802959900    -0.3880985    0.6692100  
   0.804959800    -0.2829792    0.7160869  
   0.806959700    -0.1716605    0.7469019  
   0.808959600    -0.0567634    0.7608668  
   0.810959500     0.0590712    0.7579371  
   0.812959400     0.1739960    0.7370105  
   0.814959300     0.2850136    0.6989734  
   0.816959200     0.3893592    0.6443146  
   0.818959100     0.4849909    0.5736946  
   0.820959000     0.5689001    0.4890064  
   0.822958900     0.6393913    0.3915776  
   0.824958800     0.6939449    0.2842198  
   0.826958700     0.7315884    0.1687948  
   0.828958600     0.7505049    0.0485630  
   0.830958500     0.7499159   -0.0736794  
   0.832958400     0.7302309   -0.1943754  
   0.834958300     0.6915926   -0.3103560  
   0.836958200     0.6348946   -0.4184149  
   0.838958100     0.5619669   -0.5162621  
   0.840958000     0.4745184   -0.6014929  
   0.842957900     0.3749793   -0.6717619  
   0.844957800     0.2658399   -0.7249987  
   0.846957700     0.1503073   -0.7601336  
   0.848957600     0.0310168   -0.7766878  
   0.850957500    -0.0884833   -0.7746761  
   0.852957400    -0.2057859   -0.7541694  
   0.854957300    -0.3176548   -0.7161081  
   0.856957200    -0.4214454   -0.6619857  
   0.858957100    -0.5152203   -0.5932754  
   0.860957000    -0.5968037   -0.5121308  
   0.862956900    -0.6645998   -0.4211068  
   0.864956800    -0.7180364   -0.3223435  
   0.866956700    -0.7563351   -0.2177931  
   0.868956600    -0.7785414   -0.1098902  
   0.870956500    -0.7856162   -0.0003591  
   0.872956400    -0.7769878    0.1090709  
   0.874956300    -0.7528463    0.2155027  
   0.876956200    -0.7142213    0.3183508  
   0.878956100    -0.6615556    0.4145491  
   0.880956000    -0.5955121    0.5025718  
   0.882955900    -0.5174936    0.5808887  
   0.884955800    -0.4282977    0.6475787  
   0.886955700    -0.3303147    0.7013062  
   0.888955600    -0.2247951    0.7402710  
   0.890955500    -0.1142963    0.7640234  
   0.892955400    -0.0006191    0.7714088  
   0.894955300     0.1138617    0.7618996  
