! MS46122B
! 2250307/22442219
! 7/28/2025 2:05:26 PM
! C:\USERS\SPARKY\DOCUMENTS\VNA_DATA\JULY28_2025\3K\ECAL_SHORT_F_REPEAT1.S1P
! CHANNEL.1
! TR.MEASUREMENT
! RAW.DATA
# GHZ S RI R 50.0
! FREQ.GHZ         S11RE         S11IM         
!; PortSelection: Port_1
   0.001000000     1.0464680   -0.0721322  
   0.002999900     0.9649541   -0.1945175  
   0.004999800     0.9053656   -0.2993916  
   0.006999700     0.8390213   -0.3970243  
   0.008999600     0.7621596   -0.4925041  
   0.010999500     0.6719288   -0.5838603  
   0.012999400     0.5629072   -0.6689462  
   0.014999300     0.4301705   -0.7427926  
   0.016999200     0.2664585   -0.7952533  
   0.018999100     0.0666982   -0.8100275  
   0.020999000    -0.1667664   -0.7591015  
   0.022998900    -0.4118766   -0.6040530  
   0.024998800    -0.5812814   -0.3122577  
   0.026998700    -0.6432421    0.0892491  
   0.028998600    -0.4584427    0.4793461  
   0.030998500    -0.1104914    0.7108612  
   0.032998400     0.2352821    0.7231864  
   0.034998300     0.5545371    0.6389541  
   0.036998200     0.7537484    0.4719134  
   0.038998100     0.8725573    0.2893710  
   0.040998000     0.9314957    0.1138433  
   0.042997900     0.9496301   -0.0460915  
   0.044997800     0.9087376   -0.1655781  
   0.046997700     0.9064671   -0.3134481  
   0.048997600     0.8609891   -0.4230131  
   0.050997500     0.8047895   -0.5181203  
   0.052997400     0.7408571   -0.6002621  
   0.054997300     0.6719423   -0.6707500  
   0.056997200     0.5961586   -0.7329808  
   0.058997100     0.5178728   -0.7843509  
   0.060997000     0.4361133   -0.8268966  
   0.062996900     0.3512924   -0.8610376  
   0.064996800     0.2640844   -0.8861562  
   0.066996700     0.1741194   -0.9022589  
   0.068996600     0.0821834   -0.9096279  
   0.070996500    -0.0110307   -0.9081150  
   0.072996400    -0.1054004   -0.8955241  
   0.074996300    -0.2005260   -0.8720399  
   0.076996200    -0.2950816   -0.8370302  
   0.078996100    -0.3877679   -0.7899013  
   0.080996000    -0.4773088   -0.7297462  
   0.082995900    -0.5618929   -0.6557099  
   0.084995800    -0.6388729   -0.5667419  
   0.086995700    -0.7066095   -0.4644308  
   0.088995600    -0.7618988   -0.3476585  
   0.090995500    -0.8005331   -0.2178842  
   0.092995400    -0.8201844   -0.0764173  
   0.094995300    -0.8144665    0.0734782  
   0.096995200    -0.7811871    0.2278426  
   0.098995100    -0.7166857    0.3797006  
   0.100995000    -0.6190746    0.5232563  
   0.102994900    -0.4912285    0.6469799  
   0.104994800    -0.3360992    0.7438891  
   0.106994700    -0.1603386    0.8058912  
   0.108994600     0.0258417    0.8293102  
   0.110994500     0.2123960    0.8119044  
   0.112994400     0.3891414    0.7548923  
   0.114994300     0.5465809    0.6638017  
   0.116994200     0.6777259    0.5453023  
   0.118994100     0.7787423    0.4072637  
   0.120994000     0.8502156    0.2586614  
   0.122993900     0.8892252    0.1052784  
   0.124993800     0.8995432   -0.0455780  
   0.126993700     0.8845276   -0.1899649  
   0.128993600     0.8463398   -0.3229028  
   0.130993500     0.7915304   -0.4437797  
   0.132993400     0.7221378   -0.5510024  
   0.134993300     0.6408256   -0.6431407  
   0.136993200     0.5503266   -0.7206081  
   0.138993100     0.4531839   -0.7831064  
   0.140993000     0.3514313   -0.8311336  
   0.142992900     0.2463682   -0.8649414  
   0.144992800     0.1402442   -0.8858031  
   0.146992700     0.0332646   -0.8924243  
   0.148992600    -0.0726310   -0.8857942  
   0.150992500    -0.1761896   -0.8652808  
   0.152992400    -0.2769577   -0.8335877  
   0.154992300    -0.3728068   -0.7894104  
   0.156992200    -0.4637157   -0.7339182  
   0.158992100    -0.5475397   -0.6669787  
   0.160992000    -0.6236456   -0.5890794  
   0.162991900    -0.6904930   -0.5006065  
   0.164991800    -0.7464728   -0.4023234  
   0.166991700    -0.7899726   -0.2952015  
   0.168991600    -0.8190107   -0.1806831  
   0.170991500    -0.8326231   -0.0595513  
   0.172991400    -0.8290663    0.0649608  
   0.174991300    -0.8065343    0.1911167  
   0.176991200    -0.7640019    0.3165920  
   0.178991100    -0.7006399    0.4373508  
   0.180991000    -0.6176924    0.5500314  
   0.182990900    -0.5140844    0.6496055  
   0.184990800    -0.3918469    0.7324957  
   0.186990700    -0.2541935    0.7948233  
   0.188990600    -0.1298269    0.8286591  
   0.190990500     0.0458654    0.8425453  
   0.192990400     0.2056410    0.8246853  
   0.194990300     0.3571939    0.7791174  
   0.196990200     0.4973819    0.7070786  
   0.198990100     0.6217492    0.6109846  
   0.200990000     0.7260299    0.4948982  
   0.202989900     0.8072736    0.3634969  
   0.204989800     0.8634862    0.2219066  
   0.206989700     0.8945323    0.0765998  
   0.208989600     0.8994293   -0.0685904  
   0.210989500     0.8805372   -0.2098382  
   0.212989400     0.8399304   -0.3430811  
   0.214989300     0.7804821   -0.4650106  
   0.216989200     0.7053343   -0.5732818  
   0.218989100     0.6171319   -0.6662756  
   0.220989000     0.5182289   -0.7442766  
   0.222988900     0.4112281   -0.8059058  
   0.224988800     0.2988738   -0.8510345  
   0.226988700     0.1835481   -0.8797974  
   0.228988600     0.0680416   -0.8921297  
   0.230988500    -0.0471228   -0.8888595  
   0.232988400    -0.1596918   -0.8694695  
   0.234988300    -0.2684881   -0.8367336  
   0.236988200    -0.3717602   -0.7900692  
   0.238988100    -0.4678467   -0.7303024  
   0.240988000    -0.5551342   -0.6582397  
   0.242987900    -0.6322002   -0.5752633  
   0.244987800    -0.6979863   -0.4821080  
   0.246987700    -0.7513464   -0.3794461  
   0.248987600    -0.7909614   -0.2684837  
   0.250987500    -0.8147582   -0.1509050  
   0.252987400    -0.8217625   -0.0298381  
   0.254987300    -0.8110288    0.0930194  
   0.256987200    -0.7817844    0.2150631  
   0.258987100    -0.7345774    0.3346505  
   0.260987000    -0.6667681    0.4477673  
   0.262986900    -0.5794099    0.5509741  
   0.264986800    -0.4742123    0.6411884  
   0.266986700    -0.3524882    0.7136844  
   0.268986600    -0.2184767    0.7651343  
   0.270986500    -0.0755816    0.7931136  
   0.272986400     0.0717621    0.7958018  
   0.274986300     0.2191315    0.7718190  
   0.276986200     0.3603553    0.7214854  
   0.278986100     0.4915330    0.6457551  
   0.280986000     0.6066853    0.5476025  
   0.282985900     0.7016867    0.4304916  
   0.284985800     0.7731872    0.2993846  
   0.286985700     0.8194125    0.1597074  
   0.288985600     0.8401023    0.0172078  
   0.290985500     0.8358408   -0.1235200  
   0.292985400     0.8086036   -0.2587093  
   0.294985300     0.7608088   -0.3845661  
   0.296985200     0.6943691   -0.4983974  
   0.298985100     0.6125295   -0.5984450  
   0.300985000     0.5187029   -0.6826835  
   0.302984900     0.4159317   -0.7497354  
   0.304984800     0.3072784   -0.7996302  
   0.306984700     0.1956456   -0.8322865  
   0.308984600     0.0841634   -0.8490257  
   0.310984500    -0.0257418   -0.8503583  
   0.312984400    -0.1323719   -0.8375045  
   0.314984300    -0.2344064   -0.8116131  
   0.316984200    -0.3309436   -0.7737143  
   0.318984100    -0.4218077   -0.7247083  
   0.320984000    -0.5054328   -0.6656663  
   0.322983900    -0.5815273   -0.5969965  
   0.324983800    -0.6494326   -0.5207026  
   0.326983700    -0.7085823   -0.4363503  
   0.328983600    -0.7584144   -0.3441185  
   0.330983500    -0.7980229   -0.2442179  
   0.332983400    -0.8248473   -0.1372278  
   0.334983300    -0.8360254   -0.0242446  
   0.336983200    -0.8297278    0.0920096  
   0.338983100    -0.8054026    0.2077875  
   0.340983000    -0.7631467    0.3191799  
   0.342982900    -0.7041197    0.4237956  
   0.344982800    -0.6296769    0.5193704  
   0.346982700    -0.5407786    0.6045107  
   0.348982600    -0.4385829    0.6749787  
   0.350982500    -0.3269217    0.7310891  
   0.352982400    -0.2063662    0.7702056  
   0.354982300    -0.0747144    0.7912440  
   0.356982200     0.0737138    0.7891998  
   0.358982100     0.2198400    0.7603434  
   0.360982000     0.3589980    0.7050627  
   0.362981900     0.4868016    0.6251534  
   0.364981800     0.5986742    0.5225522  
   0.366981700     0.6899481    0.4004101  
   0.368981600     0.7573293    0.2621047  
   0.370981500     0.7980317    0.1132378  
   0.372981400     0.8100137   -0.0409953  
   0.374981300     0.7926793   -0.1953292  
   0.376981200     0.8105476   -0.0866562  
   0.378981100     0.7836744   -0.2388520  
   0.380981000     0.7291127   -0.3821538  
   0.382980900     0.6572471   -0.5014451  
   0.384980800     0.5710850   -0.6011837  
   0.386980700     0.4712819   -0.6851432  
   0.388980600     0.3601710   -0.7509509  
   0.390980500     0.2427187   -0.7982533  
   0.392980400     0.1213409   -0.8259144  
   0.394980300    -0.0006634   -0.8350028  
   0.396980200    -0.1209680   -0.8258303  
   0.398980100    -0.2373667   -0.7996538  
   0.400980000    -0.3473125   -0.7570754  
   0.402979900    -0.4493590   -0.6993663  
   0.404979800    -0.5409092   -0.6289665  
   0.406979700    -0.6212654   -0.5468107  
   0.408979600    -0.6886720   -0.4550481  
   0.410979500    -0.7429064   -0.3542259  
   0.412979400    -0.7828323   -0.2461738  
   0.414979300    -0.8057090   -0.1335125  
   0.416979200    -0.8145188   -0.0181762  
   0.418979100    -0.8068516    0.0967888  
   0.420979000    -0.7828228    0.2106301  
   0.422978900    -0.7425299    0.3210364  
   0.424978800    -0.6862129    0.4252751  
   0.426978700    -0.6149868    0.5213825  
   0.428978600    -0.5296093    0.6070973  
   0.430978500    -0.4317725    0.6797381  
   0.432978400    -0.3236480    0.7374625  
   0.434978300    -0.2071901    0.7803294  
   0.436978200    -0.0839544    0.8040853  
   0.438978100     0.0428520    0.8088236  
   0.440978000     0.1703069    0.7939152  
   0.442977900     0.2952020    0.7589365  
   0.444977800     0.4137722    0.7043762  
   0.446977700     0.5231647    0.6314242  
   0.448977600     0.6199678    0.5413073  
   0.450977500     0.7012993    0.4365841  
   0.452977400     0.7652299    0.3192994  
   0.454977300     0.8093795    0.1926282  
   0.456977200     0.8325485    0.0603205  
   0.458977100     0.8337887   -0.0739170  
   0.460977000     0.8130555   -0.2058155  
   0.462976900     0.7723420   -0.3315339  
   0.464976800     0.7121459   -0.4483152  
   0.466976700     0.6353966   -0.5532750  
   0.468976600     0.5437381   -0.6433397  
   0.470976500     0.4402512   -0.7177502  
   0.472976400     0.3282464   -0.7744184  
   0.474976300     0.2103377   -0.8129078  
   0.476976200     0.0893051   -0.8332538  
   0.478976100    -0.0308489   -0.8351768  
   0.480976000    -0.1486268   -0.8199838  
   0.482975900    -0.2611167   -0.7882574  
   0.484975800    -0.3668897   -0.7416812  
   0.486975700    -0.4645907   -0.6808337  
   0.488975600    -0.5523465   -0.6075847  
   0.490975500    -0.6287616   -0.5229493  
   0.492975400    -0.6924260   -0.4285955  
   0.494975300    -0.7425653   -0.3261122  
   0.496975200    -0.7781047   -0.2171272  
   0.498975100    -0.7977860   -0.1044571  
   0.500975000    -0.8009673    0.0105420  
   0.502974900    -0.7877705    0.1258643  
   0.504974800    -0.7574288    0.2388613  
   0.506974700    -0.7103943    0.3476616  
   0.508974600    -0.6457652    0.4497284  
   0.510974500    -0.5655560    0.5411224  
   0.512974400    -0.4712078    0.6191722  
   0.514974300    -0.3648488    0.6801944  
   0.516974200    -0.2503515    0.7241820  
   0.518974100    -0.1306922    0.7486710  
   0.520974000    -0.0091826    0.7531871  
   0.522973900     0.1104416    0.7384939  
   0.524973800     0.2247759    0.7053671  
   0.526973700     0.3310469    0.6555942  
   0.528973600     0.4272678    0.5913935  
   0.530973500     0.5124483    0.5145718  
   0.532973400     0.5847480    0.4275029  
   0.534973300     0.6433640    0.3316889  
   0.536973200     0.6880502    0.2289486  
   0.538973100     0.7178660    0.1212376  
   0.540973000     0.7321175    0.0112545  
   0.542972900     0.7306969   -0.1006271  
   0.544972800     0.7129628   -0.2115265  
   0.546972700     0.6789478   -0.3196121  
   0.548972600     0.6290431   -0.4222012  
   0.550972500     0.5640590   -0.5169758  
   0.552972400     0.4847317   -0.6014093  
   0.554972300     0.3930932   -0.6731250  
   0.556972200     0.2912237   -0.7302565  
   0.558972100     0.1814064   -0.7714821  
   0.560972000     0.0671985   -0.7953166  
   0.562971900    -0.0491093   -0.8014677  
   0.564971800    -0.1650387   -0.7899669  
   0.566971700    -0.2769821   -0.7615448  
   0.568971600    -0.3834647   -0.7170632  
   0.570971500    -0.4817793   -0.6575668  
   0.572971400    -0.5702554   -0.5843175  
   0.574971300    -0.6473759   -0.4985319  
   0.576971200    -0.7112006   -0.4025251  
   0.578971100    -0.7607516   -0.2979808  
   0.580971000    -0.7943768   -0.1876869  
   0.582970900    -0.8116767   -0.0735887  
   0.584970800    -0.8121971    0.0415490  
   0.586970700    -0.7964075    0.1555503  
   0.588970600    -0.7644680    0.2662409  
   0.590970500    -0.7165788    0.3715204  
   0.592970400    -0.6538334    0.4694358  
   0.594970300    -0.5772223    0.5578945  
   0.596970200    -0.4879252    0.6346528  
   0.598970100    -0.3878030    0.6979036  
   0.600970000    -0.2781146    0.7461315  
   0.602969900    -0.1613641    0.7779897  
   0.604969800    -0.0400045    0.7921104  
   0.606969700     0.0832991    0.7873613  
   0.608969600     0.2061266    0.7631013  
   0.610969500     0.3242578    0.7198286  
   0.612969400     0.4354270    0.6579518  
   0.614969300     0.5357434    0.5788541  
   0.616969200     0.6223617    0.4842441  
   0.618969100     0.6927599    0.3770575  
   0.620969000     0.7452942    0.2601007  
   0.622968900     0.7783167    0.1358610  
   0.624968800     0.7907421    0.0073938  
   0.626968700     0.7820963   -0.1216737  
   0.628968600     0.7529303   -0.2474438  
   0.630968500     0.7038839   -0.3668239  
   0.632968400     0.6361988   -0.4760040  
   0.634968300     0.5523119   -0.5721544  
   0.636968200     0.4545898   -0.6535454  
   0.638968100     0.3462936   -0.7171542  
   0.640968000     0.2300986   -0.7628776  
   0.642967900     0.1094765   -0.7894095  
   0.644967800    -0.0124513   -0.7966768  
   0.646967700    -0.1326216   -0.7852780  
   0.648967600    -0.2481376   -0.7559103  
   0.650967500    -0.3564421   -0.7104794  
   0.652967400    -0.4557787   -0.6497374  
   0.654967300    -0.5443414   -0.5761815  
   0.656967200    -0.6204855   -0.4909544  
   0.658967100    -0.6831191   -0.3966568  
   0.660967000    -0.7314817   -0.2944489  
   0.662966900    -0.7646453   -0.1862068  
   0.664966800    -0.7817318   -0.0742829  
   0.666966700    -0.7827191    0.0390614  
   0.668966600    -0.7672915    0.1514680  
   0.670966500    -0.7359396    0.2611061  
   0.672966400    -0.6894674    0.3655439  
   0.674966300    -0.6275939    0.4618963  
   0.676966200    -0.5519834    0.5484313  
   0.678966100    -0.4640715    0.6234403  
   0.680966000    -0.3654692    0.6850304  
   0.682965900    -0.2578797    0.7316050  
   0.684965800    -0.1436801    0.7622106  
   0.686965700    -0.0248773    0.7748578  
   0.688965600     0.0955413    0.7694929  
   0.690965500     0.2145407    0.7442364  
   0.692965400     0.3291849    0.7014983  
   0.694965300     0.4365868    0.6410479  
   0.696965200     0.5335507    0.5637967  
   0.698965100     0.6175752    0.4714724  
   0.700965000     0.6857910    0.3663826  
   0.702964900     0.7368078    0.2511206  
   0.704964800     0.7684641    0.1289660  
   0.706964700     0.7799372    0.0031440  
   0.708964600     0.7710819   -0.1230291  
   0.710964500     0.7425097   -0.2458217  
   0.712964400     0.6942319   -0.3611441  
   0.714964300     0.6283820   -0.4664486  
   0.716964200     0.5475173   -0.5588679  
   0.718964100     0.4548923   -0.6357673  
   0.720964000     0.3530450   -0.6967449  
   0.722963900     0.2445145   -0.7408608  
   0.724963800     0.1327119   -0.7681887  
   0.726963700     0.0191365   -0.7784478  
   0.728963600    -0.0933443   -0.7724991  
   0.730963500    -0.2023795   -0.7495885  
   0.732963400    -0.3062218   -0.7133441  
   0.734963300    -0.4033679   -0.6626649  
   0.736963200    -0.5047486   -0.5877618  
   0.738963100    -0.5922087   -0.4972893  
   0.740963000    -0.6642604   -0.3942133  
   0.742962900    -0.7179918   -0.2806851  
   0.744962800    -0.7525465   -0.1590908  
   0.746962700    -0.7664090   -0.0333803  
   0.748962600    -0.7595463    0.0941009  
   0.750962500    -0.7792940   -0.0231705  
   0.752962400    -0.7699031    0.1054963  
   0.754962300    -0.7387421    0.2312168  
   0.756962200    -0.6865457    0.3505957  
   0.758962100    -0.6141452    0.4598023  
   0.760962000    -0.5235316    0.5551192  
   0.762961900    -0.4229078    0.6305345  
   0.764961800    -0.3219871    0.6837660  
   0.766961700    -0.2141012    0.7206297  
   0.768961600    -0.1009824    0.7409501  
   0.770961500     0.0131787    0.7441859  
   0.772961400     0.1266534    0.7295583  
   0.774961300     0.2363552    0.6983470  
   0.776961200     0.3403756    0.6505620  
   0.778961100     0.4363423    0.5880447  
   0.780961000     0.5220973    0.5108597  
   0.782960900     0.5955665    0.4212329  
   0.784960800     0.6549644    0.3211995  
   0.786960700     0.6986980    0.2126301  
   0.788960600     0.7251723    0.0983247  
   0.790960500     0.7338762   -0.0188766  
   0.792960400     0.7244262   -0.1360384  
   0.794960300     0.6969290   -0.2502798  
   0.796960200     0.6519026   -0.3590981  
   0.798960100     0.5909105   -0.4594672  
   0.800960000     0.5153068   -0.5490007  
   0.802959900     0.4266350   -0.6256858  
   0.804959800     0.3274295   -0.6878586  
   0.806959700     0.2204534   -0.7342094  
   0.808959600     0.1074484   -0.7634957  
   0.810959500    -0.0078887   -0.7749930  
   0.812959400    -0.1238641   -0.7689670  
   0.814959300    -0.2369935   -0.7453617  
   0.816959200    -0.3450383   -0.7054196  
   0.818959100    -0.4453052   -0.6498441  
   0.820959000    -0.5360345   -0.5800586  
   0.822958900    -0.6151328   -0.4980609  
   0.824958800    -0.6807971   -0.4052716  
   0.826958700    -0.7321011   -0.3041140  
   0.828958600    -0.7676265   -0.1967654  
   0.830958500    -0.7872675   -0.0858796  
   0.832958400    -0.7905148    0.0263793  
   0.834958300    -0.7775073    0.1376979  
   0.836958200    -0.7486618    0.2457109  
   0.838958100    -0.7044553    0.3479756  
   0.840958000    -0.6459421    0.4436334  
   0.842957900    -0.5739732    0.5301645  
   0.844957800    -0.4898107    0.6053717  
   0.846957700    -0.3953283    0.6681383  
   0.848957600    -0.2921250    0.7166038  
   0.850957500    -0.1822576    0.7494889  
   0.852957400    -0.0678931    0.7660270  
   0.854957300     0.0484176    0.7653533  
   0.856957200     0.1642307    0.7467529  
   0.858957100     0.2761928    0.7110783  
   0.860957000     0.3818852    0.6583632  
   0.862956900     0.4781418    0.5895134  
   0.864956800     0.5632702    0.5069330  
   0.866956700     0.6347044    0.4119744  
   0.868956600     0.6903235    0.3060485  
   0.870956500     0.7298343    0.1924652  
   0.872956400     0.7508588    0.0731753  
   0.874956300     0.7526288   -0.0486323  
   0.876956200     0.7350856   -0.1700253  
   0.878956100     0.6979721   -0.2872766  
   0.880956000     0.6425455   -0.3970645  
   0.882955900     0.5700060   -0.4968388  
   0.884955800     0.4827253   -0.5830949  
   0.886955700     0.3827137   -0.6538550  
   0.888955600     0.2732678   -0.7075513  
   0.890955500     0.1574206   -0.7424381  
   0.892955400     0.0382414   -0.7586671  
   0.894955300    -0.0808621   -0.7555933  
