! MS46122B
! 2250307/22442219
! 7/22/2025 7:43:53 AM
! C:\USERS\SPARKY\DOCUMENTS\VNA_DATA\JULY22_2025\3K\ECAL_OPEN_A.S1P
! CHANNEL.1
! TR.MEASUREMENT
! RAW.DATA
# GHZ S RI R 50.0
! FREQ.GHZ         S11RE         S11IM         
!; PortSelection: Port_1
   0.001000000     1.0453350   -0.0724677  
   0.002999900     0.9477644   -0.2222483  
   0.004999800     0.8099982   -0.0903512  
   0.006999700     0.5242994   -0.4047199  
   0.008999600     0.9405712   -0.0008287  
   0.010999500     0.9261459   -0.2273371  
   0.012999400     0.8867740   -0.3359427  
   0.014999300     0.8468601   -0.4178834  
   0.016999200     0.8067986   -0.4885891  
   0.018999100     0.7641363   -0.5541686  
   0.020999000     0.7174701   -0.6152360  
   0.022998900     0.6656677   -0.6712261  
   0.024998800     0.5999967   -0.6873251  
   0.026998700     0.5464213   -0.7695153  
   0.028998600     0.4770478   -0.8111203  
   0.030998500     0.4010803   -0.8462589  
   0.032998400     0.3208396   -0.8400123  
   0.034998300     0.2277377   -0.8942100  
   0.036998200     0.1308557   -0.9039389  
   0.038998100     0.0280175   -0.9022319  
   0.040998000    -0.0798318   -0.8864192  
   0.042997900    -0.1914921   -0.8557025  
   0.044997800    -0.2821916   -0.7851923  
   0.046997700    -0.4171473   -0.7369758  
   0.048997600    -0.5245319   -0.6456149  
   0.050997500    -0.6224240   -0.5293842  
   0.052997400    -0.7034283   -0.3876274  
   0.054997300    -0.7596278   -0.2216057  
   0.056997200    -0.7811142   -0.0322499  
   0.058997100    -0.7572252    0.1689171  
   0.060997000    -0.6808981    0.3689235  
   0.062996900    -0.5504188    0.5510517  
   0.064996800    -0.3710824    0.6954239  
   0.066996700    -0.1573263    0.7870889  
   0.068996600     0.0704048    0.8170837  
   0.070996500     0.2925242    0.7874520  
   0.072996400     0.4911427    0.7053084  
   0.074996300     0.6543742    0.5842886  
   0.076996200     0.7776154    0.4384961  
   0.078996100     0.8611839    0.2809063  
   0.080996000     0.9077967    0.1206864  
   0.082995900     0.9230930   -0.0344194  
   0.084995800     0.9107776   -0.1793746  
   0.086995700     0.8780796   -0.3122799  
   0.088995600     0.8279200   -0.4317795  
   0.090995500     0.7646326   -0.5369088  
   0.092995400     0.6915736   -0.6292392  
   0.094995300     0.6094052   -0.7069432  
   0.096995200     0.5210114   -0.7713624  
   0.098995100     0.4279184   -0.8234789  
   0.100995000     0.3313188   -0.8628910  
   0.102994900     0.2324823   -0.8902665  
   0.104994800     0.1323940   -0.9060913  
   0.106994700     0.0310370   -0.9097689  
   0.108994600    -0.0696302   -0.9030417  
   0.110994500    -0.1694069   -0.8846266  
   0.112994400    -0.2671863   -0.8545563  
   0.114994300    -0.3623028   -0.8127933  
   0.116994200    -0.4532623   -0.7593723  
   0.118994100    -0.5385683   -0.6937775  
   0.120994000    -0.6184880   -0.6177896  
   0.122993900    -0.6890950   -0.5285740  
   0.124993800    -0.7493711   -0.4280177  
   0.126993700    -0.7972382   -0.3163774  
   0.128993600    -0.8286438   -0.1950057  
   0.130993500    -0.8439850   -0.0656442  
   0.132993400    -0.8401493    0.0695075  
   0.134993300    -0.8138961    0.2077029  
   0.136993200    -0.7639634    0.3447541  
   0.138993100    -0.6888791    0.4763578  
   0.140993000    -0.5887158    0.5968654  
   0.142992900    -0.4646761    0.7006225  
   0.144992800    -0.3203310    0.7827668  
   0.146992700    -0.1589589    0.8358997  
   0.148992600     0.0125219    0.8566296  
   0.150992500     0.1853641    0.8423855  
   0.152992400     0.3531587    0.7952779  
   0.154992300     0.5072913    0.7162950  
   0.156992200     0.6416562    0.6095931  
   0.158992100     0.7511213    0.4816619  
   0.160992000     0.8321638    0.3381400  
   0.162991900     0.8840919    0.1861390  
   0.164991800     0.9075505    0.0317563  
   0.166991700     0.9035066   -0.1189681  
   0.168991600     0.8747287   -0.2622126  
   0.170991500     0.8246456   -0.3944847  
   0.172991400     0.7564484   -0.5131915  
   0.174991300     0.6738881   -0.6160231  
   0.176991200     0.5794655   -0.7034768  
   0.178991100     0.4759289   -0.7740710  
   0.180991000     0.3673718   -0.8290111  
   0.182990900     0.2539364   -0.8662502  
   0.184990800     0.1388766   -0.8876585  
   0.186990700     0.0231816   -0.8935804  
   0.188990600    -0.0654596   -0.8854598  
   0.190990500    -0.1968717   -0.8604050  
   0.192990400    -0.3064889   -0.8212959  
   0.194990300    -0.4064275   -0.7701996  
   0.196990200    -0.4987231   -0.7065666  
   0.198990100    -0.5822614   -0.6312555  
   0.200990000    -0.6560397   -0.5447047  
   0.202989900    -0.7185173   -0.4476387  
   0.204989800    -0.7682369   -0.3418848  
   0.206989700    -0.8049487   -0.2293701  
   0.208989600    -0.8244743   -0.1103303  
   0.210989500    -0.8269416    0.0132638  
   0.212989400    -0.8114448    0.1388770  
   0.214989300    -0.7767993    0.2638223  
   0.216989200    -0.7222034    0.3841429  
   0.218989100    -0.6483095    0.4972688  
   0.220989000    -0.5548775    0.5998031  
   0.222988900    -0.4431284    0.6878896  
   0.224988800    -0.3153540    0.7578521  
   0.226988700    -0.1755449    0.8061006  
   0.228988600    -0.0276961    0.8293926  
   0.230988500     0.1242351    0.8266523  
   0.232988400     0.2739305    0.7952754  
   0.234988300     0.4176100    0.7391067  
   0.236988200     0.5491127    0.6578046  
   0.238988100     0.6633607    0.5548490  
   0.240988000     0.7567155    0.4345758  
   0.242987900     0.8266556    0.3017067  
   0.244987800     0.8719620    0.1604264  
   0.246987700     0.8927437    0.0159805  
   0.248987600     0.8886234   -0.1274042  
   0.250987500     0.8621513   -0.2656984  
   0.252987400     0.8146693   -0.3942883  
   0.254987300     0.7498398   -0.5109999  
   0.256987200     0.6698430   -0.6137666  
   0.258987100     0.5787221   -0.7027903  
   0.260987000     0.4768479   -0.7749965  
   0.262986900     0.3676202   -0.8312284  
   0.264986800     0.2534783   -0.8708220  
   0.266986700     0.1371917   -0.8938314  
   0.268986600     0.0207831   -0.9010544  
   0.270986500    -0.0932943   -0.8928818  
   0.272986400    -0.2041002   -0.8701803  
   0.274986300    -0.3102163   -0.8336124  
   0.276986200    -0.4103685   -0.7837713  
   0.278986100    -0.5036558   -0.7212409  
   0.280986000    -0.5882648   -0.6467981  
   0.282985900    -0.6630931   -0.5617580  
   0.284985800    -0.7263236   -0.4665163  
   0.286985700    -0.7766272   -0.3631353  
   0.288985600    -0.8128253   -0.2534156  
   0.290985500    -0.8340983   -0.1385953  
   0.292985400    -0.8394703   -0.0200068  
   0.294985300    -0.8276132    0.1006533  
   0.296985200    -0.7974459    0.2217964  
   0.298985100    -0.7479410    0.3403993  
   0.300985000    -0.6783926    0.4527429  
   0.302984900    -0.5899514    0.5542778  
   0.304984800    -0.4827815    0.6418421  
   0.306984700    -0.3595728    0.7103615  
   0.308984600    -0.2238113    0.7565705  
   0.310984500    -0.0802279    0.7765203  
   0.312984400     0.0661485    0.7679606  
   0.314984300     0.2081645    0.7303693  
   0.316984200     0.3381647    0.6647406  
   0.318984100     0.4494984    0.5744960  
   0.320984000     0.5356721    0.4672169  
   0.322983900     0.5940647    0.3510595  
   0.324983800     0.6247592    0.2362104  
   0.326983700     0.6345002    0.1302668  
   0.328983600     0.6305339    0.0365539  
   0.330983500     0.6210133   -0.0453371  
   0.332983400     0.6107790   -0.1200565  
   0.334983300     0.6008930   -0.1945418  
   0.336983200     0.5882516   -0.2731397  
   0.338983100     0.5676976   -0.3581027  
   0.340983000     0.5334302   -0.4472905  
   0.342982900     0.4824647   -0.5364780  
   0.344982800     0.4128595   -0.6205598  
   0.346982700     0.3252409   -0.6941733  
   0.348982600     0.2232289   -0.7515893  
   0.350982500     0.1107228   -0.7916880  
   0.352982400    -0.0080090   -0.8116890  
   0.354982300    -0.1347521   -0.8107480  
   0.356982200    -0.2730370   -0.7830940  
   0.358982100    -0.4035183   -0.7305399  
   0.360982000    -0.5211789   -0.6560912  
   0.362981900    -0.6231830   -0.5625483  
   0.364981800    -0.7075869   -0.4529395  
   0.366981700    -0.7716365   -0.3308506  
   0.368981600    -0.8132408   -0.2003248  
   0.370981500    -0.8325773   -0.0648855  
   0.372981400    -0.8291181    0.0718862  
   0.374981300    -0.8025659    0.2065389  
   0.376981200    -0.8329723    0.0728148  
   0.378981100    -0.8060058    0.2113791  
   0.380981000    -0.7556217    0.3448765  
   0.382980900    -0.6908950    0.4570898  
   0.384980800    -0.6130121    0.5546724  
   0.386980700    -0.5205791    0.6406713  
   0.388980600    -0.4147264    0.7125648  
   0.390980500    -0.2987850    0.7680798  
   0.392980400    -0.1745011    0.8053241  
   0.394980300    -0.0447833    0.8230915  
   0.396980200     0.0874040    0.8204244  
   0.398980100     0.2189940    0.7967336  
   0.400980000     0.3461981    0.7520743  
   0.402979900     0.4661502    0.6867655  
   0.404979800     0.5742671    0.6027591  
   0.406979700     0.6676105    0.5014789  
   0.408979600     0.7436528    0.3861709  
   0.410979500     0.7995337    0.2590442  
   0.412979400     0.8340282    0.1238345  
   0.414979300     0.8442475   -0.0147374  
   0.416979200     0.8325316   -0.1527797  
   0.418979100     0.7986122   -0.2858352  
   0.420979000     0.7435521   -0.4105919  
   0.422978900     0.6696504   -0.5240164  
   0.424978800     0.5789245   -0.6229414  
   0.426978700     0.4747178   -0.7051574  
   0.428978600     0.3603390   -0.7689304  
   0.430978500     0.2395309   -0.8133922  
   0.432978400     0.1152134   -0.8380740  
   0.434978300    -0.0097444   -0.8455632  
   0.436978200    -0.1326951   -0.8324271  
   0.438978100    -0.2509972   -0.8016829  
   0.440978000    -0.3625112   -0.7545372  
   0.442977900    -0.4651110   -0.6919595  
   0.444977800    -0.5564002   -0.6159255  
   0.446977700    -0.6358344   -0.5282225  
   0.448977600    -0.7013623   -0.4305224  
   0.450977500    -0.7524101   -0.3246544  
   0.452977400    -0.7878067   -0.2125083  
   0.454977300    -0.8067462   -0.0953096  
   0.456977200    -0.8089958    0.0238216  
   0.458977100    -0.7936450    0.1427962  
   0.460977000    -0.7610942    0.2587892  
   0.462976900    -0.7113490    0.3688997  
   0.464976800    -0.6452626    0.4716868  
   0.466976700    -0.5641500    0.5638066  
   0.468976600    -0.4689900    0.6438233  
   0.470976500    -0.3614362    0.7088120  
   0.472976400    -0.2443312    0.7567176  
   0.474976300    -0.1196688    0.7858931  
   0.476976200     0.0091520    0.7953227  
   0.478976100     0.1384107    0.7838413  
   0.480976000     0.2646221    0.7518921  
   0.482975900     0.3845733    0.6994861  
   0.484975800     0.4946000    0.6278437  
   0.486975700     0.5917841    0.5391999  
   0.488975600     0.6731487    0.4355736  
   0.490975500     0.7360270    0.3200062  
   0.492975400     0.7787951    0.1960161  
   0.494975300     0.8002437    0.0677608  
   0.496975200     0.8008427   -0.0613510  
   0.498975100     0.7801431   -0.1865490  
   0.500975000     0.7405481   -0.3054894  
   0.502974900     0.6838557   -0.4140810  
   0.504974800     0.6120846   -0.5109527  
   0.506974700     0.5278070   -0.5944467  
   0.508974600     0.4333053   -0.6635811  
   0.510974500     0.3319085   -0.7173843  
   0.512974400     0.2261572   -0.7554417  
   0.514974300     0.1189242   -0.7764618  
   0.516974200     0.0111342   -0.7847528  
   0.518974100    -0.0945913   -0.7789154  
   0.520974000    -0.1981698   -0.7601348  
   0.522973900    -0.2979580   -0.7285277  
   0.524973800    -0.3932597   -0.6843307  
   0.526973700    -0.4836383   -0.6278168  
   0.528973600    -0.5664799   -0.5590101  
   0.530973500    -0.6408263   -0.4782301  
   0.532973400    -0.7039472   -0.3863134  
   0.534973300    -0.7537419   -0.2843670  
   0.536973200    -0.7884617   -0.1741473  
   0.538973100    -0.8061436   -0.0593425  
   0.540973000    -0.8063601    0.0580405  
   0.542972900    -0.7884141    0.1749671  
   0.544972800    -0.7523462    0.2886408  
   0.546972700    -0.6987282    0.3965065  
   0.548972600    -0.6286219    0.4955522  
   0.550972500    -0.5438401    0.5830386  
   0.552972400    -0.4461488    0.6567797  
   0.554972300    -0.3375607    0.7149168  
   0.556972200    -0.2204539    0.7557495  
   0.558972100    -0.0982540    0.7782627  
   0.560972000     0.0264009    0.7815377  
   0.562971900     0.1503814    0.7654226  
   0.564971800     0.2709800    0.7300102  
   0.566971700     0.3845594    0.6764128  
   0.568971600     0.4889355    0.6052796  
   0.570971500     0.5810102    0.5183992  
   0.572971400     0.6587430    0.4172696  
   0.574971300     0.7196108    0.3046832  
   0.576971200     0.7617416    0.1828058  
   0.578971100     0.7838106    0.0553668  
   0.580971000     0.7850038   -0.0739257  
   0.582970900     0.7657254   -0.2013497  
   0.584970800     0.7261623   -0.3234162  
   0.586970700     0.6679440   -0.4367804  
   0.588970600     0.5929111   -0.5389079  
   0.590970500     0.5031786   -0.6273879  
   0.592970400     0.4015552   -0.7002571  
   0.594970300     0.2905628   -0.7559518  
   0.596970200     0.1731351   -0.7928959  
   0.598970100     0.0525227   -0.8118189  
   0.600970000    -0.0688661   -0.8123837  
   0.602969900    -0.1877163   -0.7945468  
   0.604969800    -0.3021592   -0.7594836  
   0.606969700    -0.4095207   -0.7080096  
   0.608969600    -0.5072111   -0.6418623  
   0.610969500    -0.5940449   -0.5625167  
   0.612969400    -0.6676442   -0.4719551  
   0.614969300    -0.7267952   -0.3725883  
   0.616969200    -0.7711291   -0.2665685  
   0.618969100    -0.7997157   -0.1561713  
   0.620969000    -0.8128017   -0.0435370  
   0.622968900    -0.8097068    0.0700979  
   0.624968800    -0.7908981    0.1824079  
   0.626968700    -0.7563565    0.2913575  
   0.628968600    -0.7065260    0.3950293  
   0.630968500    -0.6423680    0.4910519  
   0.632968400    -0.5642704    0.5776355  
   0.634968300    -0.4741723    0.6528194  
   0.636968200    -0.3730700    0.7148331  
   0.638968100    -0.2634195    0.7615758  
   0.640968000    -0.1465426    0.7918499  
   0.642967900    -0.0257387    0.8046424  
   0.644967800     0.0972986    0.7992855  
   0.646967700     0.2185484    0.7752686  
   0.648967600     0.3355649    0.7324789  
   0.650967500     0.4457105    0.6717321  
   0.652967400     0.5453341    0.5947822  
   0.654967300     0.6323044    0.5022745  
   0.656967200     0.7040265    0.3969993  
   0.658967100     0.7585061    0.2813560  
   0.660967000     0.7940958    0.1578315  
   0.662966900     0.8097026    0.0290916  
   0.664966800     0.8043386   -0.1008699  
   0.666966700     0.7782830   -0.2290853  
   0.668966600     0.7320240   -0.3504577  
   0.670966500     0.6670266   -0.4628918  
   0.672966400     0.5866294   -0.5636884  
   0.674966300     0.4910331   -0.6485711  
   0.676966200     0.3844829   -0.7162499  
   0.678966100     0.2697967   -0.7660108  
   0.680966000     0.1503322   -0.7970268  
   0.682965900     0.0288737   -0.8092333  
   0.684965800    -0.0917595   -0.8031186  
   0.686965700    -0.2086882   -0.7788929  
   0.688965600    -0.3197203   -0.7382123  
   0.690965500    -0.4217597   -0.6811903  
   0.692965400    -0.5141174   -0.6118462  
   0.694965300    -0.5947070   -0.5302185  
   0.696965200    -0.6621757   -0.4390156  
   0.698965100    -0.7158053   -0.3391286  
   0.700965000    -0.7543896   -0.2333224  
   0.702964900    -0.7774787   -0.1230315  
   0.704964800    -0.7847082   -0.0108916  
   0.706964700    -0.7757960    0.1017566  
   0.708964600    -0.7505332    0.2118541  
   0.710964500    -0.7100389    0.3183740  
   0.712964400    -0.6536571    0.4177993  
   0.714964300    -0.5825867    0.5082569  
   0.716964200    -0.4990354    0.5874931  
   0.718964100    -0.4039449    0.6538646  
   0.720964000    -0.2997389    0.7051114  
   0.722963900    -0.1887153    0.7403703  
   0.724963800    -0.0726508    0.7582371  
   0.726963700     0.0455564    0.7581584  
   0.728963600     0.1627854    0.7391765  
   0.730963500     0.2756577    0.7013634  
   0.732963400     0.3812851    0.6468306  
   0.734963300     0.4781260    0.5760972  
   0.736963200     0.5742112    0.4769819  
   0.738963100     0.6511484    0.3619460  
   0.740963000     0.7058941    0.2352296  
   0.742962900     0.7364579    0.1019497  
   0.744962800     0.7429074   -0.0338051  
   0.746962700     0.7250863   -0.1671268  
   0.748962600     0.6843827   -0.2941152  
   0.750962500     0.7098812   -0.1799053  
   0.752962400     0.6687101   -0.3045848  
   0.754962300     0.6070603   -0.4195734  
   0.756962200     0.5274611   -0.5219563  
   0.758962100     0.4321685   -0.6080920  
   0.760962000     0.3239412   -0.6772132  
   0.762961900     0.2119541   -0.7248473  
   0.764961800     0.1045812   -0.7523510  
   0.766961700    -0.0053097   -0.7645826  
   0.768961600    -0.1162680   -0.7605804  
   0.770961500    -0.2257918   -0.7405518  
   0.772961400    -0.3312263   -0.7043806  
   0.774961300    -0.4305709   -0.6538298  
   0.776961200    -0.5218216   -0.5886348  
   0.778961100    -0.6026411   -0.5101964  
   0.780961000    -0.6710565   -0.4202753  
   0.782960900    -0.7258636   -0.3206198  
   0.784960800    -0.7650546   -0.2133328  
   0.786960700    -0.7876615   -0.1007797  
   0.788960600    -0.7933613    0.0138991  
   0.790960500    -0.7816507    0.1284265  
   0.792960400    -0.7527956    0.2397894  
   0.794960300    -0.7074981    0.3457040  
   0.796960200    -0.6471636    0.4438799  
   0.798960100    -0.5730047    0.5316395  
   0.800960000    -0.4864636    0.6074349  
   0.802959900    -0.3892241    0.6698191  
   0.804959800    -0.2840133    0.7168154  
   0.806959700    -0.1726725    0.7477241  
   0.808959600    -0.0577615    0.7618629  
   0.810959500     0.0583491    0.7589884  
   0.812959400     0.1732640    0.7380886  
   0.814959300     0.2844208    0.7000079  
   0.816959200     0.3891201    0.6453803  
   0.818959100     0.4848108    0.5748423  
   0.820959000     0.5687856    0.4901439  
   0.822958900     0.6393962    0.3926994  
   0.824958800     0.6941112    0.2852567  
   0.826958700     0.7318082    0.1697943  
   0.828958600     0.7508438    0.0495267  
   0.830958500     0.7503402   -0.0728182  
   0.832958400     0.7307252   -0.1936218  
   0.834958300     0.6922088   -0.3096374  
   0.836958200     0.6355084   -0.4179048  
   0.838958100     0.5626791   -0.5158390  
   0.840958000     0.4752786   -0.6012188  
   0.842957900     0.3756869   -0.6715713  
   0.844957800     0.2667228   -0.7248212  
   0.846957700     0.1510663   -0.7601746  
   0.848957600     0.0318024   -0.7768847  
   0.850957500    -0.0878153   -0.7750211  
   0.852957400    -0.2052662   -0.7546149  
   0.854957300    -0.3172000   -0.7166324  
   0.856957200    -0.4211843   -0.6625900  
   0.858957100    -0.5149271   -0.5941815  
   0.860957000    -0.5967302   -0.5130764  
   0.862956900    -0.6647235   -0.4220232  
   0.864956800    -0.7183365   -0.3232513  
   0.866956700    -0.7568178   -0.2186073  
   0.868956600    -0.7791874   -0.1104636  
   0.870956500    -0.7863333   -0.0008809  
   0.872956400    -0.7778651    0.1086025  
   0.874956300    -0.7538990    0.2151565  
   0.876956200    -0.7153612    0.3180690  
   0.878956100    -0.6627298    0.4144484  
   0.880956000    -0.5964337    0.5027338  
   0.882955900    -0.5185089    0.5812293  
   0.884955800    -0.4293935    0.6479998  
   0.886955700    -0.3313046    0.7019048  
   0.888955600    -0.2257414    0.7410107  
   0.890955500    -0.1150138    0.7648869  
   0.892955400    -0.0012658    0.7724745  
   0.894955300     0.1133322    0.7628838  
