! MS46122B
! 2250307/22442219
! 7/24/2025 7:43:22 AM
! C:\USERS\SPARKY\DOCUMENTS\VNA_DATA\JULY24_2025\3K\ECAL_OPEN_C_REPEAT1.S1P
! CHANNEL.1
! TR.MEASUREMENT
! RAW.DATA
# GHZ S RI R 50.0
! FREQ.GHZ         S11RE         S11IM         
!; PortSelection: Port_1
   0.001000000     1.0452140   -0.0727503  
   0.002999900     0.9475338   -0.2221294  
   0.004999800     0.8093824   -0.0892396  
   0.006999700     0.5253503   -0.4043403  
   0.008999600     0.9401796   -0.0008714  
   0.010999500     0.9257837   -0.2274466  
   0.012999400     0.8861591   -0.3360496  
   0.014999300     0.8463932   -0.4178894  
   0.016999200     0.8062444   -0.4886570  
   0.018999100     0.7636948   -0.5541168  
   0.020999000     0.7170917   -0.6151140  
   0.022998900     0.6653527   -0.6710142  
   0.024998800     0.5995243   -0.6870169  
   0.026998700     0.5460161   -0.7692101  
   0.028998600     0.4767042   -0.8107218  
   0.030998500     0.4007386   -0.8458360  
   0.032998400     0.3205948   -0.8395018  
   0.034998300     0.2275774   -0.8935968  
   0.036998200     0.1307476   -0.9032763  
   0.038998100     0.0280503   -0.9014804  
   0.040998000    -0.0797486   -0.8857372  
   0.042997900    -0.1911854   -0.8549425  
   0.044997800    -0.2817303   -0.7845083  
   0.046997700    -0.4166211   -0.7363541  
   0.048997600    -0.5237743   -0.6450561  
   0.050997500    -0.6215029   -0.5289918  
   0.052997400    -0.7024330   -0.3874868  
   0.054997300    -0.7586988   -0.2213833  
   0.056997200    -0.7801129   -0.0324844  
   0.058997100    -0.7563174    0.1684687  
   0.060997000    -0.6802014    0.3682827  
   0.062996900    -0.5499101    0.5502528  
   0.064996800    -0.3707782    0.6945973  
   0.066996700    -0.1571970    0.7862957  
   0.068996600     0.0703722    0.8164486  
   0.070996500     0.2924071    0.7868358  
   0.072996400     0.4909968    0.7048079  
   0.074996300     0.6541324    0.5838506  
   0.076996200     0.7774042    0.4380565  
   0.078996100     0.8609736    0.2805911  
   0.080996000     0.9075668    0.1203363  
   0.082995900     0.9227976   -0.0347731  
   0.084995800     0.9104751   -0.1796787  
   0.086995700     0.8777362   -0.3124611  
   0.088995600     0.8275374   -0.4318974  
   0.090995500     0.7642647   -0.5369953  
   0.092995400     0.6911556   -0.6292757  
   0.094995300     0.6086731   -0.7069414  
   0.096995200     0.5208572   -0.7711632  
   0.098995100     0.4275258   -0.8232285  
   0.100995000     0.3310416   -0.8624728  
   0.102994900     0.2322659   -0.8897617  
   0.104994800     0.1322458   -0.9055469  
   0.106994700     0.0309735   -0.9091437  
   0.108994600    -0.0695892   -0.9023101  
   0.110994500    -0.1693402   -0.8839137  
   0.112994400    -0.2670408   -0.8539243  
   0.114994300    -0.3619791   -0.8120504  
   0.116994200    -0.4528070   -0.7586623  
   0.118994100    -0.5379040   -0.6931014  
   0.120994000    -0.6178680   -0.6170834  
   0.122993900    -0.6882753   -0.5280489  
   0.124993800    -0.7482796   -0.4276126  
   0.126993700    -0.7962048   -0.3161204  
   0.128993600    -0.8273849   -0.1948950  
   0.130993500    -0.8429602   -0.0657152  
   0.132993400    -0.8391160    0.0692363  
   0.134993300    -0.8128777    0.2073204  
   0.136993200    -0.7632525    0.3442670  
   0.138993100    -0.6880953    0.4756362  
   0.140993000    -0.5880624    0.5960187  
   0.142992900    -0.4641968    0.6997116  
   0.144992800    -0.3200556    0.7818632  
   0.146992700    -0.1586871    0.8348626  
   0.148992600     0.0124232    0.8557948  
   0.150992500     0.1851333    0.8416332  
   0.152992400     0.3528918    0.7946373  
   0.154992300     0.5069849    0.7158141  
   0.156992200     0.6413214    0.6092798  
   0.158992100     0.7507690    0.4813719  
   0.160992000     0.8318065    0.3379430  
   0.162991900     0.8837835    0.1859761  
   0.164991800     0.9072542    0.0316846  
   0.166991700     0.9029912   -0.1190410  
   0.168991600     0.8744462   -0.2622664  
   0.170991500     0.8243532   -0.3945100  
   0.172991400     0.7561320   -0.5131644  
   0.174991300     0.6735448   -0.6159363  
   0.176991200     0.5789886   -0.7034966  
   0.178991100     0.4755703   -0.7738848  
   0.180991000     0.3671262   -0.8286940  
   0.182990900     0.2537345   -0.8658069  
   0.184990800     0.1385105   -0.8872212  
   0.186990700     0.0231207   -0.8930357  
   0.188990600    -0.0653907   -0.8847655  
   0.190990500    -0.1968158   -0.8597587  
   0.192990400    -0.3063124   -0.8206401  
   0.194990300    -0.4061195   -0.7695146  
   0.196990200    -0.4982390   -0.7059617  
   0.198990100    -0.5817065   -0.6306226  
   0.200990000    -0.6553252   -0.5441027  
   0.202989900    -0.7176828   -0.4470892  
   0.204989800    -0.7673692   -0.3415062  
   0.206989700    -0.8038642   -0.2289099  
   0.208989600    -0.8234200   -0.1101274  
   0.210989500    -0.8259129    0.0131724  
   0.212989400    -0.8104008    0.1387576  
   0.214989300    -0.7757711    0.2635340  
   0.216989200    -0.7212377    0.3837484  
   0.218989100    -0.6474649    0.4966467  
   0.220989000    -0.5540714    0.5991798  
   0.222988900    -0.4423198    0.6872610  
   0.224988800    -0.3148274    0.7570702  
   0.226988700    -0.1751515    0.8052570  
   0.228988600    -0.0274038    0.8285888  
   0.230988500     0.1244486    0.8258390  
   0.232988400     0.2739894    0.7945170  
   0.234988300     0.4173419    0.7383895  
   0.236988200     0.5489854    0.6572301  
   0.238988100     0.6631774    0.5544431  
   0.240988000     0.7565087    0.4341342  
   0.242987900     0.8263814    0.3013595  
   0.244987800     0.8717441    0.1602164  
   0.246987700     0.8924437    0.0157525  
   0.248987600     0.8882801   -0.1275665  
   0.250987500     0.8617320   -0.2655472  
   0.252987400     0.8143115   -0.3943829  
   0.254987300     0.7494611   -0.5110035  
   0.256987200     0.6694769   -0.6136956  
   0.258987100     0.5784020   -0.7025942  
   0.260987000     0.4765802   -0.7746467  
   0.262986900     0.3673457   -0.8308648  
   0.264986800     0.2534264   -0.8703872  
   0.266986700     0.1369797   -0.8933126  
   0.268986600     0.0207129   -0.9005061  
   0.270986500    -0.0931976   -0.8922028  
   0.272986400    -0.2039568   -0.8695052  
   0.274986300    -0.3100038   -0.8328837  
   0.276986200    -0.4099668   -0.7830983  
   0.278986100    -0.5031920   -0.7205648  
   0.280986000    -0.5876068   -0.6462371  
   0.282985900    -0.6623778   -0.5611842  
   0.284985800    -0.7255326   -0.4659923  
   0.286985700    -0.7757373   -0.3627276  
   0.288985600    -0.8118569   -0.2531510  
   0.290985500    -0.8332143   -0.1385776  
   0.292985400    -0.8384197   -0.0199855  
   0.294985300    -0.8265676    0.1005233  
   0.296985200    -0.7964098    0.2216683  
   0.298985100    -0.7470213    0.3402244  
   0.300985000    -0.6774538    0.4522519  
   0.302984900    -0.5890357    0.5537833  
   0.304984800    -0.4820219    0.6411259  
   0.306984700    -0.3589239    0.7096161  
   0.308984600    -0.2233366    0.7556667  
   0.310984500    -0.0799248    0.7755677  
   0.312984400     0.0662854    0.7669442  
   0.314984300     0.2080611    0.7293292  
   0.316984200     0.3377509    0.6636943  
   0.318984100     0.4488474    0.5736050  
   0.320984000     0.5348639    0.4664337  
   0.322983900     0.5927880    0.3508178  
   0.324983800     0.6236345    0.2362678  
   0.326983700     0.6335034    0.1308889  
   0.328983600     0.6298830    0.0376214  
   0.330983500     0.6208066   -0.0440357  
   0.332983400     0.6112152   -0.1189398  
   0.334983300     0.6017141   -0.1937353  
   0.336983200     0.5891495   -0.2727923  
   0.338983100     0.5685997   -0.3581762  
   0.340983000     0.5340976   -0.4476486  
   0.342982900     0.4828417   -0.5369239  
   0.344982800     0.4129737   -0.6210151  
   0.346982700     0.3250786   -0.6945121  
   0.348982600     0.2229915   -0.7516886  
   0.350982500     0.1103886   -0.7916354  
   0.352982400    -0.0083874   -0.8114284  
   0.354982300    -0.1350389   -0.8103552  
   0.356982200    -0.2731987   -0.7825086  
   0.358982100    -0.4035051   -0.7298797  
   0.360982000    -0.5209586   -0.6554438  
   0.362981900    -0.6227434   -0.5619202  
   0.364981800    -0.7070265   -0.4522552  
   0.366981700    -0.7708873   -0.3302881  
   0.368981600    -0.8124885   -0.1998807  
   0.370981500    -0.8316278   -0.0643988  
   0.372981400    -0.8281137    0.0718008  
   0.374981300    -0.8015190    0.2064331  
   0.376981200    -0.8318548    0.0729311  
   0.378981100    -0.8049103    0.2112715  
   0.380981000    -0.7545357    0.3445700  
   0.382980900    -0.6898318    0.4567877  
   0.384980800    -0.6121477    0.5539325  
   0.386980700    -0.5197566    0.6400205  
   0.388980600    -0.4140036    0.7118207  
   0.390980500    -0.2981291    0.7672449  
   0.392980400    -0.1740806    0.8044872  
   0.394980300    -0.0444885    0.8222426  
   0.396980200     0.0874063    0.8194953  
   0.398980100     0.2190648    0.7959482  
   0.400980000     0.3461359    0.7513193  
   0.402979900     0.4660729    0.6860842  
   0.404979800     0.5740400    0.6022988  
   0.406979700     0.6674204    0.5008570  
   0.408979600     0.7433847    0.3855800  
   0.410979500     0.7992451    0.2583893  
   0.412979400     0.8337006    0.1234206  
   0.414979300     0.8439282   -0.0152427  
   0.416979200     0.8321801   -0.1531272  
   0.418979100     0.7981933   -0.2861098  
   0.420979000     0.7431062   -0.4108125  
   0.422978900     0.6691459   -0.5241503  
   0.424978800     0.5783606   -0.6229755  
   0.426978700     0.4741635   -0.7051293  
   0.428978600     0.3597675   -0.7688153  
   0.430978500     0.2389165   -0.8131486  
   0.432978400     0.1146889   -0.8379388  
   0.434978300    -0.0101581   -0.8450394  
   0.436978200    -0.1332066   -0.8318141  
   0.438978100    -0.2511982   -0.8009689  
   0.440978000    -0.3624977   -0.7538294  
   0.442977900    -0.4650030   -0.6911905  
   0.444977800    -0.5561586   -0.6151867  
   0.446977700    -0.6354938   -0.5274191  
   0.448977600    -0.7007897   -0.4299267  
   0.450977500    -0.7516986   -0.3240757  
   0.452977400    -0.7869666   -0.2120982  
   0.454977300    -0.8058919   -0.0950145  
   0.456977200    -0.8080143    0.0240039  
   0.458977100    -0.7926331    0.1428239  
   0.460977000    -0.7600857    0.2586265  
   0.462976900    -0.7103882    0.3685824  
   0.464976800    -0.6443761    0.4712734  
   0.466976700    -0.5633478    0.5632139  
   0.468976600    -0.4681447    0.6431539  
   0.470976500    -0.3608311    0.7080371  
   0.472976400    -0.2438013    0.7558653  
   0.474976300    -0.1193265    0.7850295  
   0.476976200     0.0092028    0.7944624  
   0.478976100     0.1384636    0.7829819  
   0.480976000     0.2645545    0.7510514  
   0.482975900     0.3843616    0.6987153  
   0.484975800     0.4942718    0.6271449  
   0.486975700     0.5913959    0.5385242  
   0.488975600     0.6727956    0.4349798  
   0.490975500     0.7355742    0.3194641  
   0.492975400     0.7782923    0.1955430  
   0.494975300     0.7997065    0.0673909  
   0.496975200     0.8002491   -0.0615104  
   0.498975100     0.7794768   -0.1866585  
   0.500975000     0.7399226   -0.3055871  
   0.502974900     0.6832240   -0.4140891  
   0.504974800     0.6114589   -0.5108046  
   0.506974700     0.5272095   -0.5942235  
   0.508974600     0.4327939   -0.6632468  
   0.510974500     0.3314556   -0.7169868  
   0.512974400     0.2259103   -0.7548722  
   0.514974300     0.1186364   -0.7759386  
   0.516974200     0.0109954   -0.7841623  
   0.518974100    -0.0945402   -0.7783394  
   0.520974000    -0.1980292   -0.7594668  
   0.522973900    -0.2978134   -0.7279561  
   0.524973800    -0.3930576   -0.6837736  
   0.526973700    -0.4833120   -0.6272522  
   0.528973600    -0.5659783   -0.5585511  
   0.530973500    -0.6402740   -0.4774590  
   0.532973400    -0.7033776   -0.3856220  
   0.534973300    -0.7531486   -0.2837891  
   0.536973200    -0.7877252   -0.1737545  
   0.538973100    -0.8052769   -0.0590359  
   0.540973000    -0.8054101    0.0581128  
   0.542972900    -0.7874434    0.1749828  
   0.544972800    -0.7512708    0.2885775  
   0.546972700    -0.6978062    0.3962651  
   0.548972600    -0.6276927    0.4951290  
   0.550972500    -0.5429956    0.5824375  
   0.552972400    -0.4453195    0.6561504  
   0.554972300    -0.3368316    0.7141926  
   0.556972200    -0.2198159    0.7549270  
   0.558972100    -0.0976069    0.7773689  
   0.560972000     0.0268307    0.7806548  
   0.562971900     0.1507826    0.7644643  
   0.564971800     0.2711919    0.7290465  
   0.566971700     0.3846284    0.6755396  
   0.568971600     0.4889548    0.6044022  
   0.570971500     0.5810620    0.5174499  
   0.572971400     0.6586010    0.4164596  
   0.574971300     0.7193657    0.3039153  
   0.576971200     0.7613569    0.1821669  
   0.578971100     0.7834028    0.0545299  
   0.580971000     0.7845463   -0.0745711  
   0.582970900     0.7651145   -0.2021657  
   0.584970800     0.7255253   -0.3239743  
   0.586970700     0.6672831   -0.4371329  
   0.588970600     0.5922301   -0.5392519  
   0.590970500     0.5024991   -0.6275613  
   0.592970400     0.4009891   -0.7001033  
   0.594970300     0.2898858   -0.7557724  
   0.596970200     0.1725295   -0.7926382  
   0.598970100     0.0518874   -0.8115479  
   0.600970000    -0.0693271   -0.8118877  
   0.602969900    -0.1881575   -0.7941204  
   0.604969800    -0.3023658   -0.7588060  
   0.606969700    -0.4095386   -0.7073529  
   0.608969600    -0.5071871   -0.6411157  
   0.610969500    -0.5938514   -0.5617519  
   0.612969400    -0.6672827   -0.4712266  
   0.614969300    -0.7263132   -0.3718985  
   0.616969200    -0.7704874   -0.2659689  
   0.618969100    -0.7989843   -0.1556128  
   0.620969000    -0.8119472   -0.0429783  
   0.622968900    -0.8088005    0.0704309  
   0.624968800    -0.7899253    0.1827286  
   0.626968700    -0.7552859    0.2914660  
   0.628968600    -0.7055445    0.3949774  
   0.630968500    -0.6412014    0.4909143  
   0.632968400    -0.5630371    0.5773897  
   0.634968300    -0.4729254    0.6525834  
   0.636968200    -0.3720182    0.7142324  
   0.638968100    -0.2622184    0.7608848  
   0.640968000    -0.1456471    0.7909722  
   0.642967900    -0.0247880    0.8036783  
   0.644967800     0.0980246    0.7982697  
   0.646967700     0.2192911    0.7741411  
   0.648967600     0.3362074    0.7312843  
   0.650967500     0.4460060    0.6705884  
   0.652967400     0.5454649    0.5935288  
   0.654967300     0.6321532    0.5013103  
   0.656967200     0.7038002    0.3960841  
   0.658967100     0.7583120    0.2803754  
   0.660967000     0.7938303    0.1567605  
   0.662966900     0.8093942    0.0281687  
   0.664966800     0.8037773   -0.1017408  
   0.666966700     0.7776657   -0.2297290  
   0.668966600     0.7313896   -0.3510321  
   0.670966500     0.6663798   -0.4632649  
   0.672966400     0.5859787   -0.5639145  
   0.674966300     0.4904482   -0.6483858  
   0.676966200     0.3838739   -0.7161995  
   0.678966100     0.2692929   -0.7657893  
   0.680966000     0.1498980   -0.7966948  
   0.682965900     0.0285332   -0.8088332  
   0.684965800    -0.0919212   -0.8026701  
   0.686965700    -0.2088051   -0.7783712  
   0.688965600    -0.3197447   -0.7377031  
   0.690965500    -0.4216287   -0.6806123  
   0.692965400    -0.5138172   -0.6112985  
   0.694965300    -0.5943246   -0.5296829  
   0.696965200    -0.6616652   -0.4385228  
   0.698965100    -0.7151999   -0.3386304  
   0.700965000    -0.7537363   -0.2330594  
   0.702964900    -0.7766234   -0.1228063  
   0.704964800    -0.7837161   -0.0107569  
   0.706964700    -0.7748579    0.1018652  
   0.708964600    -0.7495114    0.2118519  
   0.710964500    -0.7089809    0.3182982  
   0.712964400    -0.6525899    0.4175722  
   0.714964300    -0.5815321    0.5080016  
   0.716964200    -0.4979267    0.5871128  
   0.718964100    -0.4029464    0.6532596  
   0.720964000    -0.2987912    0.7044410  
   0.722963900    -0.1878564    0.7395224  
   0.724963800    -0.0719435    0.7573019  
   0.726963700     0.0461931    0.7571020  
   0.728963600     0.1634371    0.7381012  
   0.730963500     0.2761704    0.7002166  
   0.732963400     0.3814992    0.6456892  
   0.734963300     0.4782268    0.5749909  
   0.736963200     0.5741137    0.4760859  
   0.738963100     0.6509470    0.3609256  
   0.740963000     0.7055735    0.2343062  
   0.742962900     0.7360777    0.1011702  
   0.744962800     0.7424412   -0.0345371  
   0.746962700     0.7245752   -0.1676819  
   0.748962600     0.6838648   -0.2946114  
   0.750962500     0.7095059   -0.1804221  
   0.752962400     0.6683326   -0.3050085  
   0.754962300     0.6066695   -0.4199283  
   0.756962200     0.5270571   -0.5222214  
   0.758962100     0.4317383   -0.6083480  
   0.760962000     0.3235212   -0.6773462  
   0.762961900     0.2114777   -0.7249321  
   0.764961800     0.1042533   -0.7523221  
   0.766961700    -0.0056497   -0.7645140  
   0.768961600    -0.1166250   -0.7603735  
   0.770961500    -0.2260983   -0.7402270  
   0.772961400    -0.3315002   -0.7040216  
   0.774961300    -0.4306641   -0.6533748  
   0.776961200    -0.5218841   -0.5881773  
   0.778961100    -0.6024380   -0.5096720  
   0.780961000    -0.6708247   -0.4196926  
   0.782960900    -0.7254604   -0.3200094  
   0.784960800    -0.7645034   -0.2126242  
   0.786960700    -0.7869277   -0.1002117  
   0.788960600    -0.7925222    0.0143198  
   0.790960500    -0.7807201    0.1287460  
   0.792960400    -0.7516806    0.2400648  
   0.794960300    -0.7063484    0.3457686  
   0.796960200    -0.6459399    0.4438276  
   0.798960100    -0.5717949    0.5313872  
   0.800960000    -0.4853125    0.6069968  
   0.802959900    -0.3881327    0.6691407  
   0.804959800    -0.2830044    0.7160069  
   0.806959700    -0.1717626    0.7468395  
   0.808959600    -0.0568667    0.7607976  
   0.810959500     0.0590492    0.7578785  
   0.812959400     0.1738628    0.7369643  
   0.814959300     0.2848743    0.6988660  
   0.816959200     0.3892755    0.6443015  
   0.818959100     0.4849432    0.5736731  
   0.820959000     0.5688148    0.4889868  
   0.822958900     0.6393582    0.3915721  
   0.824958800     0.6939220    0.2842028  
   0.826958700     0.7315440    0.1687989  
   0.828958600     0.7504340    0.0486117  
   0.830958500     0.7498816   -0.0736735  
   0.832958400     0.7302122   -0.1942981  
   0.834958300     0.6915562   -0.3103107  
   0.836958200     0.6347990   -0.4184497  
   0.838958100     0.5619624   -0.5162648  
   0.840958000     0.4745641   -0.6012895  
   0.842957900     0.3749199   -0.6717585  
   0.844957800     0.2658508   -0.7249442  
   0.846957700     0.1503662   -0.7601060  
   0.848957600     0.0309665   -0.7765772  
   0.850957500    -0.0885364   -0.7746362  
   0.852957400    -0.2058676   -0.7541421  
   0.854957300    -0.3175792   -0.7161327  
   0.856957200    -0.4215458   -0.6618593  
   0.858957100    -0.5152183   -0.5932504  
   0.860957000    -0.5967988   -0.5120971  
   0.862956900    -0.6645667   -0.4211650  
   0.864956800    -0.7179717   -0.3224243  
   0.866956700    -0.7562509   -0.2177957  
   0.868956600    -0.7784493   -0.1099031  
   0.870956500    -0.7855222   -0.0003783  
   0.872956400    -0.7769322    0.1089703  
   0.874956300    -0.7528403    0.2155107  
   0.876956200    -0.7142355    0.3183078  
   0.878956100    -0.6615387    0.4145512  
   0.880956000    -0.5955272    0.5024891  
   0.882955900    -0.5173784    0.5808403  
   0.884955800    -0.4282649    0.6475160  
   0.886955700    -0.3303020    0.7012159  
   0.888955600    -0.2248522    0.7401814  
   0.890955500    -0.1143914    0.7639638  
   0.892955400    -0.0006997    0.7713145  
   0.894955300     0.1138263    0.7618419  
