! MS46122B
! 2250307/22442219
! 7/24/2025 7:35:36 AM
! C:\USERS\SPARKY\DOCUMENTS\VNA_DATA\JULY24_2025\3K\ECAL_LOAD_C.S1P
! CHANNEL.1
! TR.MEASUREMENT
! RAW.DATA
# GHZ S RI R 50.0
! FREQ.GHZ         S11RE         S11IM         
!; PortSelection: Port_1
   0.001000000     1.0450250   -0.0727288  
   0.002999900     0.9520131   -0.1947919  
   0.004999800     0.8766600   -0.2787990  
   0.006999700     0.7918509   -0.3676976  
   0.008999600     0.7011152   -0.4062157  
   0.010999500     0.6248125   -0.4323323  
   0.012999400     0.5582197   -0.4477567  
   0.014999300     0.5010846   -0.4556132  
   0.016999200     0.4513969   -0.4573279  
   0.018999100     0.4093602   -0.4545043  
   0.020999000     0.3741947   -0.4489979  
   0.022998900     0.3439166   -0.4419358  
   0.024998800     0.3128306   -0.4123876  
   0.026998700     0.2949476   -0.4246200  
   0.028998600     0.2746939   -0.4151208  
   0.030998500     0.2563589   -0.4054823  
   0.032998400     0.2362060   -0.3783347  
   0.034998300     0.2233684   -0.3861917  
   0.036998200     0.2088354   -0.3767984  
   0.038998100     0.1952811   -0.3677250  
   0.040998000     0.1824948   -0.3588560  
   0.042997900     0.1704068   -0.3502772  
   0.044997800     0.1578960   -0.3279362  
   0.046997700     0.1474270   -0.3342320  
   0.048997600     0.1372135   -0.3264773  
   0.050997500     0.1276580   -0.3189239  
   0.052997400     0.1187840   -0.3116158  
   0.054997300     0.1106100   -0.3045176  
   0.056997200     0.1025399   -0.2980646  
   0.058997100     0.0953592   -0.2917987  
   0.060997000     0.0885904   -0.2859045  
   0.062996900     0.0823513   -0.2803013  
   0.064996800     0.0767188   -0.2749455  
   0.066996700     0.0714557   -0.2698762  
   0.068996600     0.0665183   -0.2649740  
   0.070996500     0.0619348   -0.2605177  
   0.072996400     0.0575715   -0.2559791  
   0.074996300     0.0534386   -0.2515898  
   0.076996200     0.0494936   -0.2473080  
   0.078996100     0.0456827   -0.2430915  
   0.080996000     0.0418886   -0.2389823  
   0.082995900     0.0381279   -0.2349511  
   0.084995800     0.0345993   -0.2306968  
   0.086995700     0.0309191   -0.2265604  
   0.088995600     0.0274362   -0.2225057  
   0.090995500     0.0241525   -0.2185046  
   0.092995400     0.0209955   -0.2146284  
   0.094995300     0.0178814   -0.2105732  
   0.096995200     0.0149434   -0.2065021  
   0.098995100     0.0121295   -0.2024081  
   0.100995000     0.0082387   -0.1990760  
   0.102994900     0.0057247   -0.1949377  
   0.104994800     0.0032895   -0.1907740  
   0.106994700     0.0011735   -0.1865019  
   0.108994600    -0.0006597   -0.1824355  
   0.110994500    -0.0022862   -0.1784298  
   0.112994400    -0.0036779   -0.1744837  
   0.114994300    -0.0048360   -0.1706270  
   0.116994200    -0.0057772   -0.1668679  
   0.118994100    -0.0064568   -0.1632389  
   0.120994000    -0.0068188   -0.1598531  
   0.122993900    -0.0072490   -0.1565088  
   0.124993800    -0.0074493   -0.1533297  
   0.126993700    -0.0075238   -0.1503475  
   0.128993600    -0.0074767   -0.1475936  
   0.130993500    -0.0073514   -0.1450620  
   0.132993400    -0.0071868   -0.1427749  
   0.134993300    -0.0070194   -0.1407376  
   0.136993200    -0.0068791   -0.1388656  
   0.138993100    -0.0067969   -0.1372281  
   0.140993000    -0.0067505   -0.1358231  
   0.142992900    -0.0068833   -0.1345731  
   0.144992800    -0.0070904   -0.1335746  
   0.146992700    -0.0074830   -0.1325816  
   0.148992600    -0.0080517   -0.1316497  
   0.150992500    -0.0087151   -0.1306477  
   0.152992400    -0.0096283   -0.1297844  
   0.154992300    -0.0106991   -0.1288432  
   0.156992200    -0.0119637   -0.1278543  
   0.158992100    -0.0133582   -0.1267762  
   0.160992000    -0.0148753   -0.1255214  
   0.162991900    -0.0165118   -0.1241060  
   0.164991800    -0.0182428   -0.1224839  
   0.166991700    -0.0199761   -0.1206395  
   0.168991600    -0.0217003   -0.1185696  
   0.170991500    -0.0234347   -0.1162234  
   0.172991400    -0.0250475   -0.1136408  
   0.174991300    -0.0264784   -0.1108330  
   0.176991200    -0.0277513   -0.1077755  
   0.178991100    -0.0287835   -0.1044998  
   0.180991000    -0.0295325   -0.1010927  
   0.182990900    -0.0299728   -0.0974530  
   0.184990800    -0.0300479   -0.0937082  
   0.186990700    -0.0297136   -0.0899138  
   0.188990600    -0.0271347   -0.0867172  
   0.190990500    -0.0276339   -0.0823562  
   0.192990400    -0.0263029   -0.0785741  
   0.194990300    -0.0243078   -0.0750693  
   0.196990200    -0.0219030   -0.0718220  
   0.198990100    -0.0191069   -0.0688495  
   0.200990000    -0.0159755   -0.0662404  
   0.202989900    -0.0125245   -0.0640037  
   0.204989800    -0.0088038   -0.0622425  
   0.206989700    -0.0049031   -0.0609978  
   0.208989600    -0.0008171   -0.0602541  
   0.210989500     0.0033248   -0.0600913  
   0.212989400     0.0074712   -0.0604639  
   0.214989300     0.0115626   -0.0614276  
   0.216989200     0.0155125   -0.0629768  
   0.218989100     0.0192367   -0.0650445  
   0.220989000     0.0226520   -0.0676468  
   0.222988900     0.0256504   -0.0707124  
   0.224988800     0.0282277   -0.0742198  
   0.226988700     0.0303003   -0.0781125  
   0.228988600     0.0318363   -0.0823040  
   0.230988500     0.0327932   -0.0867067  
   0.232988400     0.0331281   -0.0912023  
   0.234988300     0.0328386   -0.0958261  
   0.236988200     0.0319170   -0.1004455  
   0.238988100     0.0303630   -0.1049525  
   0.240988000     0.0282442   -0.1092626  
   0.242987900     0.0255992   -0.1133250  
   0.244987800     0.0224530   -0.1170609  
   0.246987700     0.0187852   -0.1203896  
   0.248987600     0.0146165   -0.1232572  
   0.250987500     0.0101221   -0.1256298  
   0.252987400     0.0054419   -0.1274926  
   0.254987300     0.0006281   -0.1288128  
   0.256987200    -0.0043050   -0.1295925  
   0.258987100    -0.0092496   -0.1297383  
   0.260987000    -0.0141877   -0.1293211  
   0.262986900    -0.0189712   -0.1281665  
   0.264986800    -0.0235663   -0.1265219  
   0.266986700    -0.0278291   -0.1244111  
   0.268986600    -0.0317174   -0.1219175  
   0.270986500    -0.0351798   -0.1190458  
   0.272986400    -0.0381361   -0.1159829  
   0.274986300    -0.0406880   -0.1127236  
   0.276986200    -0.0427454   -0.1093721  
   0.278986100    -0.0442595   -0.1058578  
   0.280986000    -0.0452515   -0.1023849  
   0.282985900    -0.0457947   -0.0989877  
   0.284985800    -0.0458857   -0.0958217  
   0.286985700    -0.0455156   -0.0929633  
   0.288985600    -0.0447503   -0.0905566  
   0.290985500    -0.0436384   -0.0885527  
   0.292985400    -0.0423213   -0.0870688  
   0.294985300    -0.0409319   -0.0861128  
   0.296985200    -0.0395626   -0.0855630  
   0.298985100    -0.0383810   -0.0855979  
   0.300985000    -0.0374011   -0.0861313  
   0.302984900    -0.0367786   -0.0871818  
   0.304984800    -0.0366189   -0.0887612  
   0.306984700    -0.0370027   -0.0907277  
   0.308984600    -0.0380102   -0.0930466  
   0.310984500    -0.0397821   -0.0955773  
   0.312984400    -0.0424543   -0.0981012  
   0.314984300    -0.0460865   -0.1003149  
   0.316984200    -0.0507585   -0.1020213  
   0.318984100    -0.0565470   -0.1027879  
   0.320984000    -0.0632307   -0.1022081  
   0.322983900    -0.0703669   -0.0999685  
   0.324983800    -0.0774571   -0.0957696  
   0.326983700    -0.0837935   -0.0896451  
   0.328983600    -0.0885589   -0.0818948  
   0.330983500    -0.0910879   -0.0732134  
   0.332983400    -0.0911769   -0.0646551  
   0.334983300    -0.0892370   -0.0571031  
   0.336983200    -0.0859462   -0.0511757  
   0.338983100    -0.0823293   -0.0469081  
   0.340983000    -0.0788882   -0.0441095  
   0.342982900    -0.0761490   -0.0422455  
   0.344982800    -0.0741138   -0.0408212  
   0.346982700    -0.0728756   -0.0393134  
   0.348982600    -0.0719722   -0.0376184  
   0.350982500    -0.0715665   -0.0356481  
   0.352982400    -0.0712877   -0.0332238  
   0.354982300    -0.0711941   -0.0300993  
   0.356982200    -0.0711388   -0.0254627  
   0.358982100    -0.0705718   -0.0207072  
   0.360982000    -0.0693595   -0.0159718  
   0.362981900    -0.0675254   -0.0113322  
   0.364981800    -0.0650455   -0.0068564  
   0.366981700    -0.0619448   -0.0027522  
   0.368981600    -0.0582699    0.0009058  
   0.370981500    -0.0540355    0.0040805  
   0.372981400    -0.0495276    0.0065262  
   0.374981300    -0.0447855    0.0082708  
   0.376981200    -0.0433730   -0.0026695  
   0.378981100    -0.0388573   -0.0008601  
   0.380981000    -0.0342472    0.0001619  
   0.382980900    -0.0297662   -0.0000432  
   0.384980800    -0.0254847   -0.0010239  
   0.386980700    -0.0214583   -0.0026038  
   0.388980600    -0.0177904   -0.0047219  
   0.390980500    -0.0144945   -0.0073819  
   0.392980400    -0.0117175   -0.0105032  
   0.394980300    -0.0093928   -0.0140280  
   0.396980200    -0.0076927   -0.0177848  
   0.398980100    -0.0066137   -0.0216899  
   0.400980000    -0.0061653   -0.0256485  
   0.402979900    -0.0064040   -0.0295419  
   0.404979800    -0.0072224   -0.0332951  
   0.406979700    -0.0086433   -0.0368184  
   0.408979600    -0.0105738   -0.0399661  
   0.410979500    -0.0130881   -0.0426597  
   0.412979400    -0.0160624   -0.0448313  
   0.414979300    -0.0194518   -0.0465118  
   0.416979200    -0.0230779   -0.0474452  
   0.418979100    -0.0268309   -0.0477329  
   0.420979000    -0.0306260   -0.0473432  
   0.422978900    -0.0343636   -0.0462771  
   0.424978800    -0.0379692   -0.0445004  
   0.426978700    -0.0413379   -0.0420918  
   0.428978600    -0.0443083   -0.0391078  
   0.430978500    -0.0467164   -0.0355132  
   0.432978400    -0.0484996   -0.0314895  
   0.434978300    -0.0496431   -0.0271934  
   0.436978200    -0.0501339   -0.0226621  
   0.438978100    -0.0498564   -0.0179576  
   0.440978000    -0.0488319   -0.0132219  
   0.442977900    -0.0470591   -0.0085908  
   0.444977800    -0.0444904   -0.0041394  
   0.446977700    -0.0412208   -0.0000117  
   0.448977600    -0.0372665    0.0036642  
   0.450977500    -0.0326942    0.0067976  
   0.452977400    -0.0275907    0.0093297  
   0.454977300    -0.0220609    0.0111296  
   0.456977200    -0.0162139    0.0121364  
   0.458977100    -0.0101875    0.0122666  
   0.460977000    -0.0040335    0.0114717  
   0.462976900     0.0020762    0.0097591  
   0.464976800     0.0079517    0.0071328  
   0.466976700     0.0134867    0.0035753  
   0.468976600     0.0185402   -0.0007979  
   0.470976500     0.0229600   -0.0059705  
   0.472976400     0.0266898   -0.0118352  
   0.474976300     0.0295637   -0.0182689  
   0.476976200     0.0315436   -0.0251578  
   0.478976100     0.0326235   -0.0324338  
   0.480976000     0.0327516   -0.0398446  
   0.482975900     0.0318619   -0.0471276  
   0.484975800     0.0299293   -0.0543121  
   0.486975700     0.0269279   -0.0612531  
   0.488975600     0.0229162   -0.0678511  
   0.490975500     0.0179669   -0.0739170  
   0.492975400     0.0122745   -0.0791916  
   0.494975300     0.0057669   -0.0836268  
   0.496975200    -0.0014457   -0.0871816  
   0.498975100    -0.0090299   -0.0896487  
   0.500975000    -0.0169406   -0.0910235  
   0.502974900    -0.0250567   -0.0913219  
   0.504974800    -0.0332251   -0.0904110  
   0.506974700    -0.0412847   -0.0883055  
   0.508974600    -0.0492288   -0.0850716  
   0.510974500    -0.0568717   -0.0806924  
   0.512974400    -0.0635607   -0.0753956  
   0.514974300    -0.0693058   -0.0690250  
   0.516974200    -0.0740542   -0.0619825  
   0.518974100    -0.0776616   -0.0543823  
   0.520974000    -0.0800253   -0.0461705  
   0.522973900    -0.0811465   -0.0377390  
   0.524973800    -0.0810409   -0.0295076  
   0.526973700    -0.0797367   -0.0213963  
   0.528973600    -0.0772632   -0.0136939  
   0.530973500    -0.0737003   -0.0065161  
   0.532973400    -0.0691461   -0.0000225  
   0.534973300    -0.0637460    0.0056364  
   0.536973200    -0.0576324    0.0103974  
   0.538973100    -0.0508904    0.0141711  
   0.540973000    -0.0437369    0.0168832  
   0.542972900    -0.0363931    0.0185206  
   0.544972800    -0.0288908    0.0190665  
   0.546972700    -0.0214874    0.0184700  
   0.548972600    -0.0142922    0.0167402  
   0.550972500    -0.0074505    0.0139406  
   0.552972400    -0.0011957    0.0100977  
   0.554972300     0.0044302    0.0052984  
   0.556972200     0.0092624   -0.0003878  
   0.558972100     0.0132657   -0.0067702  
   0.560972000     0.0162988   -0.0136975  
   0.562971900     0.0181061   -0.0210194  
   0.564971800     0.0189367   -0.0287179  
   0.566971700     0.0184694   -0.0363278  
   0.568971600     0.0168222   -0.0438268  
   0.570971500     0.0140030   -0.0510472  
   0.572971400     0.0100300   -0.0578628  
   0.574971300     0.0048149   -0.0641628  
   0.576971200    -0.0013814   -0.0697757  
   0.578971100    -0.0084403   -0.0744880  
   0.580971000    -0.0161827   -0.0782294  
   0.582970900    -0.0244189   -0.0808481  
   0.584970800    -0.0330486   -0.0820899  
   0.586970700    -0.0419014   -0.0820339  
   0.588970600    -0.0509000   -0.0805900  
   0.590970500    -0.0596020   -0.0778826  
   0.592970400    -0.0679790   -0.0739626  
   0.594970300    -0.0758487   -0.0689070  
   0.596970200    -0.0829991   -0.0627273  
   0.598970100    -0.0892890   -0.0555269  
   0.600970000    -0.0946052   -0.0474159  
   0.602969900    -0.0988097   -0.0385778  
   0.604969800    -0.1018329   -0.0291175  
   0.606969700    -0.1035738   -0.0192280  
   0.608969600    -0.1039342   -0.0090715  
   0.610969500    -0.1028853    0.0011354  
   0.612969400    -0.1004371    0.0111339  
   0.614969300    -0.0965770    0.0207575  
   0.616969200    -0.0914995    0.0297600  
   0.618969100    -0.0852649    0.0380557  
   0.620969000    -0.0779990    0.0454375  
   0.622968900    -0.0697359    0.0517969  
   0.624968800    -0.0607178    0.0569978  
   0.626968700    -0.0510499    0.0608655  
   0.628968600    -0.0409585    0.0635152  
   0.630968500    -0.0304871    0.0648574  
   0.632968400    -0.0201154    0.0645486  
   0.634968300    -0.0098487    0.0628796  
   0.636968200     0.0000494    0.0597084  
   0.638968100     0.0095077    0.0551046  
   0.640968000     0.0181856    0.0493351  
   0.642967900     0.0258161    0.0425688  
   0.644967800     0.0323612    0.0347872  
   0.646967700     0.0376809    0.0262317  
   0.648967600     0.0417106    0.0171538  
   0.650967500     0.0443455    0.0077143  
   0.652967400     0.0455263   -0.0018640  
   0.654967300     0.0454602   -0.0115951  
   0.656967200     0.0439777   -0.0209623  
   0.658967100     0.0410189   -0.0300640  
   0.660967000     0.0368413   -0.0385276  
   0.662966900     0.0315023   -0.0462482  
   0.664966800     0.0251731   -0.0531094  
   0.666966700     0.0179487   -0.0589971  
   0.668966600     0.0099205   -0.0636471  
   0.670966500     0.0011629   -0.0670765  
   0.672966400    -0.0074846   -0.0692046  
   0.674966300    -0.0163476   -0.0698774  
   0.676966200    -0.0251313   -0.0691197  
   0.678966100    -0.0336142   -0.0670348  
   0.680966000    -0.0416066   -0.0637280  
   0.682965900    -0.0489238   -0.0592289  
   0.684965800    -0.0554719   -0.0537132  
   0.686965700    -0.0610432   -0.0472580  
   0.688965600    -0.0655494   -0.0401476  
   0.690965500    -0.0689047   -0.0325287  
   0.692965400    -0.0709672   -0.0245026  
   0.694965300    -0.0718154   -0.0163133  
   0.696965200    -0.0713626   -0.0081479  
   0.698965100    -0.0696563   -0.0001761  
   0.700965000    -0.0666813    0.0073585  
   0.702964900    -0.0626080    0.0144411  
   0.704964800    -0.0575186    0.0207687  
   0.706964700    -0.0514257    0.0261508  
   0.708964600    -0.0444177    0.0304978  
   0.710964500    -0.0369960    0.0338250  
   0.712964400    -0.0291459    0.0357540  
   0.714964300    -0.0210448    0.0363959  
   0.716964200    -0.0130755    0.0358170  
   0.718964100    -0.0052763    0.0339928  
   0.720964000     0.0019978    0.0310680  
   0.722963900     0.0087657    0.0269197  
   0.724963800     0.0149524    0.0217646  
   0.726963700     0.0201956    0.0159319  
   0.728963600     0.0243244    0.0093116  
   0.730963500     0.0272962    0.0019372  
   0.732963400     0.0292276   -0.0056629  
   0.734963300     0.0300550   -0.0135497  
   0.736963200     0.0302005   -0.0226924  
   0.738963100     0.0287710   -0.0315537  
   0.740963000     0.0258028   -0.0400628  
   0.742962900     0.0214132   -0.0478811  
   0.744962800     0.0156505   -0.0547090  
   0.746962700     0.0089841   -0.0602981  
   0.748962600     0.0015509   -0.0646890  
   0.750962500    -0.0004803   -0.0628633  
   0.752962400    -0.0080975   -0.0669249  
   0.754962300    -0.0163621   -0.0695422  
   0.756962200    -0.0250126   -0.0706348  
   0.758962100    -0.0338260   -0.0701432  
   0.760962000    -0.0425108   -0.0681217  
   0.762961900    -0.0506269   -0.0648545  
   0.764961800    -0.0579464   -0.0609230  
   0.766961700    -0.0646912   -0.0559597  
   0.768961600    -0.0706483   -0.0501097  
   0.770961500    -0.0757969   -0.0434426  
   0.772961400    -0.0799801   -0.0361107  
   0.774961300    -0.0832086   -0.0282284  
   0.776961200    -0.0853021   -0.0198254  
   0.778961100    -0.0860640   -0.0113903  
   0.780961000    -0.0855976   -0.0029883  
   0.782960900    -0.0838437    0.0052523  
   0.784960800    -0.0807990    0.0131855  
   0.786960700    -0.0765310    0.0205987  
   0.788960600    -0.0712373    0.0273304  
   0.790960500    -0.0649628    0.0333456  
   0.792960400    -0.0579447    0.0381749  
   0.794960300    -0.0502170    0.0419080  
   0.796960200    -0.0422583    0.0444264  
   0.798960100    -0.0339227    0.0456607  
   0.800960000    -0.0255444    0.0456059  
   0.802959900    -0.0173564    0.0442819  
   0.804959800    -0.0096112    0.0417669  
   0.806959700    -0.0025645    0.0380320  
   0.808959600     0.0039764    0.0332203  
   0.810959500     0.0096105    0.0274509  
   0.812959400     0.0143446    0.0208548  
   0.814959300     0.0178898    0.0135466  
   0.816959200     0.0202512    0.0057173  
   0.818959100     0.0215130   -0.0025282  
   0.820959000     0.0213184   -0.0107530  
   0.822958900     0.0198253   -0.0188620  
   0.824958800     0.0170405   -0.0269111  
   0.826958700     0.0130396   -0.0342714  
   0.828958600     0.0078601   -0.0409395  
   0.830958500     0.0016402   -0.0467650  
   0.832958400    -0.0054704   -0.0515832  
   0.834958300    -0.0133564   -0.0552707  
   0.836958200    -0.0217918   -0.0577220  
   0.838958100    -0.0305859   -0.0588786  
   0.840958000    -0.0395478   -0.0587120  
   0.842957900    -0.0484512   -0.0571683  
   0.844957800    -0.0572229   -0.0541249  
   0.846957700    -0.0653869   -0.0498761  
   0.848957600    -0.0728564   -0.0443897  
   0.850957500    -0.0796142   -0.0378317  
   0.852957400    -0.0854053   -0.0300827  
   0.854957300    -0.0898977   -0.0216299  
   0.856957200    -0.0931481   -0.0125981  
   0.858957100    -0.0951198   -0.0031546  
   0.860957000    -0.0956713    0.0065043  
   0.862956900    -0.0949436    0.0160851  
   0.864956800    -0.0930201    0.0253975  
   0.866956700    -0.0898836    0.0342558  
   0.868956600    -0.0854419    0.0424916  
   0.870956500    -0.0799262    0.0500831  
   0.872956400    -0.0733188    0.0569958  
   0.874956300    -0.0658727    0.0627001  
   0.876956200    -0.0575165    0.0673900  
   0.878956100    -0.0485994    0.0707625  
   0.880956000    -0.0392458    0.0728672  
   0.882955900    -0.0297194    0.0736335  
   0.884955800    -0.0202660    0.0729673  
   0.886955700    -0.0107482    0.0710297  
   0.888955600    -0.0019950    0.0677075  
   0.890955500     0.0061450    0.0632642  
   0.892955400     0.0133937    0.0576762  
   0.894955300     0.0196561    0.0511330  
