! MS46122B
! 2250307/22442219
! 7/27/2025 9:23:32 AM
! C:\USERS\SPARKY\DOCUMENTS\VNA_DATA\JULY27_2025\3K\ECAL_LOAD_E_REPEAT1.S1P
! CHANNEL.1
! TR.MEASUREMENT
! RAW.DATA
# GHZ S RI R 50.0
! FREQ.GHZ         S11RE         S11IM         
!; PortSelection: Port_1
   0.001000000     1.0456980   -0.0726883  
   0.002999900     0.9526291   -0.1948307  
   0.004999800     0.8774552   -0.2789657  
   0.006999700     0.7929788   -0.3679505  
   0.008999600     0.7022364   -0.4070076  
   0.010999500     0.6257348   -0.4335002  
   0.012999400     0.5587816   -0.4492404  
   0.014999300     0.5012645   -0.4572081  
   0.016999200     0.4511534   -0.4588720  
   0.018999100     0.4088050   -0.4558784  
   0.020999000     0.3733582   -0.4501315  
   0.022998900     0.3429157   -0.4429144  
   0.024998800     0.3119720   -0.4128935  
   0.026998700     0.2941238   -0.4248496  
   0.028998600     0.2740153   -0.4151166  
   0.030998500     0.2558873   -0.4053043  
   0.032998400     0.2359519   -0.3780772  
   0.034998300     0.2233533   -0.3858390  
   0.036998200     0.2091045   -0.3764884  
   0.038998100     0.1958063   -0.3674839  
   0.040998000     0.1832840   -0.3588206  
   0.042997900     0.1715447   -0.3504352  
   0.044997800     0.1589758   -0.3282994  
   0.046997700     0.1485913   -0.3349113  
   0.048997600     0.1384262   -0.3275058  
   0.050997500     0.1288643   -0.3202671  
   0.052997400     0.1199595   -0.3132791  
   0.054997300     0.1116182   -0.3064645  
   0.056997200     0.1033974   -0.3003383  
   0.058997100     0.0959739   -0.2943240  
   0.060997000     0.0889334   -0.2886460  
   0.062996900     0.0823926   -0.2832299  
   0.064996800     0.0764040   -0.2780167  
   0.066996700     0.0707790   -0.2729761  
   0.068996600     0.0654898   -0.2681196  
   0.070996500     0.0605371   -0.2636260  
   0.072996400     0.0558332   -0.2589958  
   0.074996300     0.0513553   -0.2544726  
   0.076996200     0.0470796   -0.2499767  
   0.078996100     0.0429742   -0.2455388  
   0.080996000     0.0389351   -0.2411654  
   0.082995900     0.0349737   -0.2368228  
   0.084995800     0.0312743   -0.2322058  
   0.086995700     0.0274687   -0.2277400  
   0.088995600     0.0240270   -0.2233352  
   0.090995500     0.0207417   -0.2189432  
   0.092995400     0.0176543   -0.2147629  
   0.094995300     0.0146634   -0.2103751  
   0.096995200     0.0118932   -0.2059739  
   0.098995100     0.0092642   -0.2016335  
   0.100995000     0.0056568   -0.1980537  
   0.102994900     0.0033447   -0.1937237  
   0.104994800     0.0012533   -0.1894312  
   0.106994700    -0.0005086   -0.1851204  
   0.108994600    -0.0020129   -0.1809845  
   0.110994500    -0.0033111   -0.1769922  
   0.112994400    -0.0043825   -0.1731240  
   0.114994300    -0.0052406   -0.1694011  
   0.116994200    -0.0059161   -0.1658118  
   0.118994100    -0.0063763   -0.1624204  
   0.120994000    -0.0065434   -0.1592786  
   0.122993900    -0.0067672   -0.1561939  
   0.124993800    -0.0068757   -0.1532975  
   0.126993700    -0.0069016   -0.1506533  
   0.128993600    -0.0068683   -0.1482239  
   0.130993500    -0.0067906   -0.1460242  
   0.132993400    -0.0067148   -0.1440401  
   0.134993300    -0.0066954   -0.1423013  
   0.136993200    -0.0067262   -0.1407283  
   0.138993100    -0.0068908   -0.1393264  
   0.140993000    -0.0071584   -0.1380451  
   0.142992900    -0.0076020   -0.1369514  
   0.144992800    -0.0081367   -0.1360409  
   0.146992700    -0.0088323   -0.1350985  
   0.148992600    -0.0097411   -0.1341753  
   0.150992500    -0.0107553   -0.1331170  
   0.152992400    -0.0119999   -0.1321260  
   0.154992300    -0.0133908   -0.1310730  
   0.156992200    -0.0149360   -0.1298629  
   0.158992100    -0.0165844   -0.1285194  
   0.160992000    -0.0183362   -0.1270109  
   0.162991900    -0.0201336   -0.1252939  
   0.164991800    -0.0219950   -0.1233459  
   0.166991700    -0.0238028   -0.1211496  
   0.168991600    -0.0255920   -0.1187158  
   0.170991500    -0.0273040   -0.1160241  
   0.172991400    -0.0288043   -0.1131149  
   0.174991300    -0.0301112   -0.1099644  
   0.176991200    -0.0311820   -0.1066005  
   0.178991100    -0.0320397   -0.1030688  
   0.180991000    -0.0325206   -0.0993812  
   0.182990900    -0.0326821   -0.0955527  
   0.184990800    -0.0324378   -0.0916642  
   0.186990700    -0.0317983   -0.0877340  
   0.188990600    -0.0289261   -0.0845384  
   0.190990500    -0.0290163   -0.0801649  
   0.192990400    -0.0273435   -0.0764167  
   0.194990300    -0.0250259   -0.0730079  
   0.196990200    -0.0223039   -0.0699167  
   0.198990100    -0.0192342   -0.0671458  
   0.200990000    -0.0158623   -0.0647498  
   0.202989900    -0.0122109   -0.0628016  
   0.204989800    -0.0083357   -0.0613343  
   0.206989700    -0.0043379   -0.0603974  
   0.208989600    -0.0001924   -0.0599752  
   0.210989500     0.0039629   -0.0601540  
   0.212989400     0.0080662   -0.0608690  
   0.214989300     0.0120638   -0.0621355  
   0.216989200     0.0158755   -0.0639893  
   0.218989100     0.0193955   -0.0663235  
   0.220989000     0.0225683   -0.0691622  
   0.222988900     0.0253179   -0.0724314  
   0.224988800     0.0275813   -0.0760929  
   0.226988700     0.0293151   -0.0800910  
   0.228988600     0.0305276   -0.0843488  
   0.230988500     0.0311613   -0.0887718  
   0.232988400     0.0311553   -0.0932041  
   0.234988300     0.0305522   -0.0977320  
   0.236988200     0.0293169   -0.1021955  
   0.238988100     0.0275020   -0.1065281  
   0.240988000     0.0251243   -0.1105881  
   0.242987900     0.0222748   -0.1144051  
   0.244987800     0.0189472   -0.1178391  
   0.246987700     0.0151487   -0.1208580  
   0.248987600     0.0109239   -0.1234103  
   0.250987500     0.0064152   -0.1254605  
   0.252987400     0.0017576   -0.1269592  
   0.254987300    -0.0029775   -0.1279213  
   0.256987200    -0.0078123   -0.1284585  
   0.258987100    -0.0126148   -0.1283074  
   0.260987000    -0.0173089   -0.1275591  
   0.262986900    -0.0218530   -0.1262202  
   0.264986800    -0.0261576   -0.1244294  
   0.266986700    -0.0301491   -0.1221796  
   0.268986600    -0.0337277   -0.1195629  
   0.270986500    -0.0368469   -0.1166791  
   0.272986400    -0.0394756   -0.1135961  
   0.274986300    -0.0417162   -0.1104008  
   0.276986200    -0.0434750   -0.1071339  
   0.278986100    -0.0446733   -0.1037823  
   0.280986000    -0.0454287   -0.1004735  
   0.282985900    -0.0457198   -0.0973261  
   0.284985800    -0.0456127   -0.0944158  
   0.286985700    -0.0451012   -0.0918511  
   0.288985600    -0.0442138   -0.0897228  
   0.290985500    -0.0430459   -0.0880299  
   0.292985400    -0.0417474   -0.0868833  
   0.294985300    -0.0403737   -0.0862394  
   0.296985200    -0.0391119   -0.0860385  
   0.298985100    -0.0380463   -0.0863724  
   0.300985000    -0.0372589   -0.0871526  
   0.302984900    -0.0368732   -0.0884569  
   0.304984800    -0.0369657   -0.0902590  
   0.306984700    -0.0376102   -0.0923857  
   0.308984600    -0.0389210   -0.0948570  
   0.310984500    -0.0409976   -0.0974337  
   0.312984400    -0.0439671   -0.0999063  
   0.314984300    -0.0478895   -0.1021118  
   0.316984200    -0.0529145   -0.1037690  
   0.318984100    -0.0590014   -0.1044565  
   0.320984000    -0.0658576   -0.1037704  
   0.322983900    -0.0732405   -0.1014468  
   0.324983800    -0.0806041   -0.0970796  
   0.326983700    -0.0872086   -0.0907146  
   0.328983600    -0.0922481   -0.0827208  
   0.330983500    -0.0950247   -0.0737129  
   0.332983400    -0.0952711   -0.0647754  
   0.334983300    -0.0934313   -0.0567728  
   0.336983200    -0.0901473   -0.0504179  
   0.338983100    -0.0863983   -0.0457045  
   0.340983000    -0.0828235   -0.0425306  
   0.342982900    -0.0798411   -0.0403313  
   0.344982800    -0.0775373   -0.0386049  
   0.346982700    -0.0760543   -0.0368790  
   0.348982600    -0.0747665   -0.0349524  
   0.350982500    -0.0740381   -0.0328103  
   0.352982400    -0.0734411   -0.0303435  
   0.354982300    -0.0730112   -0.0271674  
   0.356982200    -0.0725059   -0.0225304  
   0.358982100    -0.0715201   -0.0178050  
   0.360982000    -0.0699476   -0.0131971  
   0.362981900    -0.0677399   -0.0087123  
   0.364981800    -0.0649397   -0.0044724  
   0.366981700    -0.0615868   -0.0006596  
   0.368981600    -0.0576479    0.0027270  
   0.370981500    -0.0532667    0.0055408  
   0.372981400    -0.0487220    0.0076197  
   0.374981300    -0.0439826    0.0090183  
   0.376981200    -0.0428110   -0.0020533  
   0.378981100    -0.0382820   -0.0005805  
   0.380981000    -0.0337539    0.0000888  
   0.382980900    -0.0293946   -0.0004223  
   0.384980800    -0.0253079   -0.0016834  
   0.386980700    -0.0214886   -0.0035170  
   0.388980600    -0.0180807   -0.0058451  
   0.390980500    -0.0151065   -0.0086719  
   0.392980400    -0.0126054   -0.0119146  
   0.394980300    -0.0106258   -0.0155017  
   0.396980200    -0.0092552   -0.0192878  
   0.398980100    -0.0085007   -0.0231527  
   0.400980000    -0.0083960   -0.0270357  
   0.402979900    -0.0089256   -0.0307872  
   0.404979800    -0.0100428   -0.0343883  
   0.406979700    -0.0117169   -0.0376830  
   0.408979600    -0.0138898   -0.0405853  
   0.410979500    -0.0165776   -0.0430074  
   0.412979400    -0.0196816   -0.0448862  
   0.414979300    -0.0231759   -0.0461884  
   0.416979200    -0.0268389   -0.0467973  
   0.418979100    -0.0305506   -0.0467525  
   0.420979000    -0.0342750   -0.0460414  
   0.422978900    -0.0379002   -0.0446553  
   0.424978800    -0.0413742   -0.0425783  
   0.426978700    -0.0445674   -0.0399172  
   0.428978600    -0.0472630   -0.0366446  
   0.430978500    -0.0493923   -0.0328306  
   0.432978400    -0.0508974   -0.0286181  
   0.434978300    -0.0517166   -0.0242749  
   0.436978200    -0.0518930   -0.0196422  
   0.438978100    -0.0512742   -0.0149496  
   0.440978000    -0.0499404   -0.0102471  
   0.442977900    -0.0478187   -0.0056643  
   0.444977800    -0.0449447   -0.0013587  
   0.446977700    -0.0413830    0.0025864  
   0.448977600    -0.0371668    0.0060699  
   0.450977500    -0.0323644    0.0089586  
   0.452977400    -0.0270740    0.0112034  
   0.454977300    -0.0214105    0.0126934  
   0.456977200    -0.0154697    0.0133892  
   0.458977100    -0.0093929    0.0131765  
   0.460977000    -0.0032299    0.0120629  
   0.462976900     0.0028120    0.0100161  
   0.464976800     0.0085860    0.0070813  
   0.466976700     0.0139553    0.0032268  
   0.468976600     0.0188164   -0.0014070  
   0.470976500     0.0230006   -0.0068207  
   0.472976400     0.0264547   -0.0128815  
   0.474976300     0.0290427   -0.0194440  
   0.476976200     0.0306970   -0.0264316  
   0.478976100     0.0314483   -0.0337723  
   0.480976000     0.0312552   -0.0411872  
   0.482975900     0.0300337   -0.0484133  
   0.484975800     0.0277726   -0.0555091  
   0.486975700     0.0245215   -0.0623196  
   0.488975600     0.0202617   -0.0687523  
   0.490975500     0.0150812   -0.0746106  
   0.492975400     0.0091926   -0.0795936  
   0.494975300     0.0025358   -0.0837695  
   0.496975200    -0.0047819   -0.0870118  
   0.498975100    -0.0124050   -0.0891778  
   0.500975000    -0.0203947   -0.0902699  
   0.502974900    -0.0284735   -0.0902526  
   0.504974800    -0.0365714   -0.0890648  
   0.506974700    -0.0445259   -0.0866997  
   0.508974600    -0.0523817   -0.0831443  
   0.510974500    -0.0597805   -0.0785831  
   0.512974400    -0.0662783   -0.0730743  
   0.514974300    -0.0717894   -0.0665354  
   0.516974200    -0.0762935   -0.0593778  
   0.518974100    -0.0796153   -0.0516587  
   0.520974000    -0.0817242   -0.0432793  
   0.522973900    -0.0825732   -0.0349403  
   0.524973800    -0.0822117   -0.0266950  
   0.526973700    -0.0806235   -0.0186621  
   0.528973600    -0.0778659   -0.0110181  
   0.530973500    -0.0740566   -0.0039764  
   0.532973400    -0.0692780    0.0023573  
   0.534973300    -0.0636439    0.0078258  
   0.536973200    -0.0573558    0.0123782  
   0.538973100    -0.0504637    0.0158933  
   0.540973000    -0.0432067    0.0183454  
   0.542972900    -0.0357973    0.0196926  
   0.544972800    -0.0282871    0.0199259  
   0.546972700    -0.0209122    0.0190374  
   0.548972600    -0.0137925    0.0170133  
   0.550972500    -0.0071018    0.0139486  
   0.552972400    -0.0009849    0.0098516  
   0.554972300     0.0044345    0.0048039  
   0.556972200     0.0090112   -0.0010599  
   0.558972100     0.0127268   -0.0075967  
   0.560972000     0.0154494   -0.0146111  
   0.562971900     0.0169543   -0.0219977  
   0.564971800     0.0175222   -0.0297106  
   0.566971700     0.0167499   -0.0372732  
   0.568971600     0.0147915   -0.0446754  
   0.570971500     0.0117014   -0.0517675  
   0.572971400     0.0074077   -0.0584319  
   0.574971300     0.0019479   -0.0644925  
   0.576971200    -0.0044166   -0.0698654  
   0.578971100    -0.0115858   -0.0742949  
   0.580971000    -0.0194495   -0.0777396  
   0.582970900    -0.0277492   -0.0800264  
   0.584970800    -0.0363856   -0.0809608  
   0.586970700    -0.0452919   -0.0805195  
   0.588970600    -0.0541694   -0.0787572  
   0.590970500    -0.0627708   -0.0757662  
   0.592970400    -0.0709392   -0.0716322  
   0.594970300    -0.0786322   -0.0663351  
   0.596970200    -0.0855432   -0.0599365  
   0.598970100    -0.0915621   -0.0525625  
   0.600970000    -0.0965915   -0.0443079  
   0.602969900    -0.1005254   -0.0353582  
   0.604969800    -0.1032328   -0.0258300  
   0.606969700    -0.1046410   -0.0159197  
   0.608969600    -0.1046937   -0.0058058  
   0.610969500    -0.1033274    0.0043177  
   0.612969400    -0.1005644    0.0141949  
   0.614969300    -0.0964502    0.0236272  
   0.616969200    -0.0911357    0.0324487  
   0.618969100    -0.0846823    0.0404906  
   0.620969000    -0.0772730    0.0476119  
   0.622968900    -0.0688660    0.0536913  
   0.624968800    -0.0597791    0.0585904  
   0.626968700    -0.0500724    0.0621382  
   0.628968600    -0.0399999    0.0645107  
   0.630968500    -0.0296015    0.0655394  
   0.632968400    -0.0193261    0.0649390  
   0.634968300    -0.0092063    0.0629786  
   0.636968200     0.0004924    0.0595754  
   0.638968100     0.0097118    0.0547753  
   0.640968000     0.0181496    0.0488213  
   0.642967900     0.0255008    0.0418921  
   0.644967800     0.0317451    0.0340444  
   0.646967700     0.0367864    0.0254826  
   0.648967600     0.0404886    0.0163977  
   0.650967500     0.0428174    0.0070289  
   0.652967400     0.0437184   -0.0024387  
   0.654967300     0.0433865   -0.0120320  
   0.656967200     0.0416771   -0.0212513  
   0.658967100     0.0384759   -0.0301721  
   0.660967000     0.0341364   -0.0383422  
   0.662966900     0.0286727   -0.0457831  
   0.664966800     0.0222458   -0.0523433  
   0.666966700     0.0149343   -0.0579043  
   0.668966600     0.0068419   -0.0622513  
   0.670966500    -0.0017404   -0.0653528  
   0.672966400    -0.0102711   -0.0672229  
   0.674966300    -0.0190094   -0.0675672  
   0.676966200    -0.0276095   -0.0665847  
   0.678966100    -0.0358651   -0.0642827  
   0.680966000    -0.0436324   -0.0607528  
   0.682965900    -0.0506784   -0.0561411  
   0.684965800    -0.0569253   -0.0505135  
   0.686965700    -0.0622340   -0.0439939  
   0.688965600    -0.0664205   -0.0368699  
   0.690965500    -0.0694717   -0.0292883  
   0.692965400    -0.0712501   -0.0213340  
   0.694965300    -0.0718137   -0.0132713  
   0.696965200    -0.0711100   -0.0052506  
   0.698965100    -0.0691530    0.0025388  
   0.700965000    -0.0659707    0.0098279  
   0.702964900    -0.0617250    0.0167041  
   0.704964800    -0.0565258    0.0227031  
   0.706964700    -0.0503390    0.0278237  
   0.708964600    -0.0433109    0.0318480  
   0.710964500    -0.0358559    0.0348847  
   0.712964400    -0.0280885    0.0365095  
   0.714964300    -0.0200821    0.0368421  
   0.716964200    -0.0122506    0.0360019  
   0.718964100    -0.0046365    0.0339437  
   0.720964000     0.0024064    0.0308038  
   0.722963900     0.0089394    0.0264475  
   0.724963800     0.0148647    0.0211790  
   0.726963700     0.0197679    0.0151967  
   0.728963600     0.0236589    0.0085557  
   0.730963500     0.0263211    0.0011797  
   0.732963400     0.0279277   -0.0063635  
   0.734963300     0.0284711   -0.0141732  
   0.736963200     0.0283267   -0.0231203  
   0.738963100     0.0266376   -0.0317694  
   0.740963000     0.0234326   -0.0400272  
   0.742962900     0.0188064   -0.0475455  
   0.744962800     0.0130158   -0.0539881  
   0.746962700     0.0063009   -0.0592184  
   0.748962600    -0.0011432   -0.0632327  
   0.750962500    -0.0035626   -0.0619821  
   0.752962400    -0.0111760   -0.0656474  
   0.754962300    -0.0193684   -0.0678774  
   0.756962200    -0.0279026   -0.0686079  
   0.758962100    -0.0365349   -0.0677721  
   0.760962000    -0.0450145   -0.0653972  
   0.762961900    -0.0528384   -0.0618975  
   0.764961800    -0.0599151   -0.0577661  
   0.766961700    -0.0663832   -0.0526674  
   0.768961600    -0.0720633   -0.0466989  
   0.770961500    -0.0768792   -0.0399439  
   0.772961400    -0.0807667   -0.0326273  
   0.774961300    -0.0837535   -0.0247164  
   0.776961200    -0.0854995   -0.0163531  
   0.778961100    -0.0859538   -0.0080755  
   0.780961000    -0.0852282    0.0001683  
   0.782960900    -0.0832218    0.0082181  
   0.784960800    -0.0799516    0.0159453  
   0.786960700    -0.0755315    0.0230995  
   0.788960600    -0.0700840    0.0295999  
   0.790960500    -0.0637139    0.0352762  
   0.792960400    -0.0565886    0.0397984  
   0.794960300    -0.0489155    0.0431942  
   0.796960200    -0.0409636    0.0454353  
   0.798960100    -0.0327157    0.0463733  
   0.800960000    -0.0244624    0.0460429  
   0.802959900    -0.0164372    0.0444704  
   0.804959800    -0.0088809    0.0417057  
   0.806959700    -0.0020806    0.0378002  
   0.808959600     0.0042067    0.0328382  
   0.810959500     0.0095596    0.0269412  
   0.812959400     0.0139913    0.0202877  
   0.814959300     0.0172366    0.0129355  
   0.816959200     0.0193172    0.0051349  
   0.818959100     0.0202457   -0.0030573  
   0.820959000     0.0197498   -0.0111661  
   0.822958900     0.0180117   -0.0191421  
   0.824958800     0.0149974   -0.0270123  
   0.826958700     0.0107890   -0.0341298  
   0.828958600     0.0054274   -0.0405402  
   0.830958500    -0.0009179   -0.0460900  
   0.832958400    -0.0081188   -0.0506034  
   0.834958300    -0.0160329   -0.0540153  
   0.836958200    -0.0244796   -0.0561376  
   0.838958100    -0.0332172   -0.0569969  
   0.840958000    -0.0421020   -0.0565498  
   0.842957900    -0.0508866   -0.0547289  
   0.844957800    -0.0594939   -0.0514502  
   0.846957700    -0.0674160   -0.0469715  
   0.848957600    -0.0746675   -0.0413141  
   0.850957500    -0.0811507   -0.0346175  
   0.852957400    -0.0866412   -0.0267048  
   0.854957300    -0.0908632   -0.0182499  
   0.856957200    -0.0938191   -0.0091996  
   0.858957100    -0.0954221    0.0002361  
   0.860957000    -0.0957449    0.0098121  
   0.862956900    -0.0947209    0.0193097  
   0.864956800    -0.0925532    0.0284661  
   0.866956700    -0.0891612    0.0371700  
   0.868956600    -0.0845392    0.0451990  
   0.870956500    -0.0788499    0.0526289  
   0.872956400    -0.0721242    0.0591999  
   0.874956300    -0.0646108    0.0645930  
   0.876956200    -0.0562004    0.0690085  
   0.878956100    -0.0472796    0.0720961  
   0.880956000    -0.0379555    0.0739218  
   0.882955900    -0.0285296    0.0743880  
   0.884955800    -0.0191500    0.0734812  
   0.886955700    -0.0098413    0.0712651  
   0.888955600    -0.0012922    0.0677596  
   0.890955500     0.0066476    0.0631295  
   0.892955400     0.0136704    0.0573945  
   0.894955300     0.0196289    0.0507455  
