! MS46122B
! 2250307/22442219
! 7/28/2025 1:58:45 PM
! C:\USERS\SPARKY\DOCUMENTS\VNA_DATA\JULY28_2025\3K\ECAL_OPEN_F.S1P
! CHANNEL.1
! TR.MEASUREMENT
! RAW.DATA
# GHZ S RI R 50.0
! FREQ.GHZ         S11RE         S11IM         
!; PortSelection: Port_1
   0.001000000     1.0461550   -0.0727983  
   0.002999900     0.9484480   -0.2220528  
   0.004999800     0.8080050   -0.0874778  
   0.006999700     0.5302705   -0.4043446  
   0.008999600     0.9407353   -0.0006647  
   0.010999500     0.9266075   -0.2276422  
   0.012999400     0.8870856   -0.3362221  
   0.014999300     0.8473530   -0.4180388  
   0.016999200     0.8073554   -0.4887593  
   0.018999100     0.7648981   -0.5543590  
   0.020999000     0.7182442   -0.6153185  
   0.022998900     0.6666511   -0.6713113  
   0.024998800     0.6008783   -0.6874235  
   0.026998700     0.5474973   -0.7697179  
   0.028998600     0.4782614   -0.8113645  
   0.030998500     0.4023751   -0.8467319  
   0.032998400     0.3222415   -0.8405226  
   0.034998300     0.2292572   -0.8950052  
   0.036998200     0.1324456   -0.9048852  
   0.038998100     0.0296526   -0.9034593  
   0.040998000    -0.0782856   -0.8880048  
   0.042997900    -0.1900516   -0.8575776  
   0.044997800    -0.2809097   -0.7872650  
   0.046997700    -0.4162727   -0.7394730  
   0.048997600    -0.5240229   -0.6483618  
   0.050997500    -0.6223788   -0.5323182  
   0.052997400    -0.7039608   -0.3906251  
   0.054997300    -0.7608016   -0.2244701  
   0.056997200    -0.7829357   -0.0347758  
   0.058997100    -0.7594997    0.1669095  
   0.060997000    -0.6835747    0.3677085  
   0.062996900    -0.5531064    0.5506689  
   0.064996800    -0.3734853    0.6958369  
   0.066996700    -0.1591956    0.7880216  
   0.068996600     0.0691667    0.8183367  
   0.070996500     0.2918953    0.7887863  
   0.072996400     0.4909726    0.7065480  
   0.074996300     0.6546308    0.5852308  
   0.076996200     0.7780329    0.4391354  
   0.078996100     0.8617518    0.2813608  
   0.080996000     0.9084062    0.1209681  
   0.082995900     0.9237385   -0.0343070  
   0.084995800     0.9114591   -0.1793721  
   0.086995700     0.8788454   -0.3123456  
   0.088995600     0.8286480   -0.4319161  
   0.090995500     0.7654548   -0.5371817  
   0.092995400     0.6926041   -0.6295629  
   0.094995300     0.6102825   -0.7074416  
   0.096995200     0.5222306   -0.7719609  
   0.098995100     0.4289102   -0.8242261  
   0.100995000     0.3325124   -0.8637221  
   0.102994900     0.2336552   -0.8913071  
   0.104994800     0.1335244   -0.9072957  
   0.106994700     0.0321533   -0.9112650  
   0.108994600    -0.0687439   -0.9047582  
   0.110994500    -0.1686662   -0.8865234  
   0.112994400    -0.2666861   -0.8567240  
   0.114994300    -0.3620277   -0.8150039  
   0.116994200    -0.4532116   -0.7618068  
   0.118994100    -0.5388553   -0.6962994  
   0.120994000    -0.6191592   -0.6203368  
   0.122993900    -0.6901304   -0.5311493  
   0.124993800    -0.7507293   -0.4304613  
   0.126993700    -0.7990330   -0.3187083  
   0.128993600    -0.8309033   -0.1969987  
   0.130993500    -0.8465362   -0.0673574  
   0.132993400    -0.8429582    0.0681666  
   0.134993300    -0.8168247    0.2069101  
   0.136993200    -0.7670228    0.3444400  
   0.138993100    -0.6921287    0.4763968  
   0.140993000    -0.5914352    0.5976362  
   0.142992900    -0.4670981    0.7018485  
   0.144992800    -0.3223382    0.7843893  
   0.146992700    -0.1604605    0.8377110  
   0.148992600     0.0114959    0.8585510  
   0.150992500     0.1848744    0.8442943  
   0.152992400     0.3531291    0.7970553  
   0.154992300     0.5076042    0.7178485  
   0.156992200     0.6421984    0.6108652  
   0.158992100     0.7518209    0.4826443  
   0.160992000     0.8329808    0.3388554  
   0.162991900     0.8849732    0.1866326  
   0.164991800     0.9086581    0.0319412  
   0.166991700     0.9043179   -0.1189067  
   0.168991600     0.8756387   -0.2622095  
   0.170991500     0.8255745   -0.3946387  
   0.172991400     0.7574294   -0.5134999  
   0.174991300     0.6748497   -0.6165207  
   0.176991200     0.5802968   -0.7042847  
   0.178991100     0.4769274   -0.7749124  
   0.180991000     0.3683479   -0.8300565  
   0.182990900     0.2548229   -0.8672712  
   0.184990800     0.1395602   -0.8891631  
   0.186990700     0.0238629   -0.8953121  
   0.188990600    -0.0647766   -0.8872376  
   0.190990500    -0.1965809   -0.8625054  
   0.192990400    -0.3063916   -0.8236769  
   0.194990300    -0.4066836   -0.7726163  
   0.196990200    -0.4993278   -0.7090768  
   0.198990100    -0.5832011   -0.6337672  
   0.200990000    -0.6573134   -0.5472097  
   0.202989900    -0.7201657   -0.4500060  
   0.204989800    -0.7702466   -0.3441460  
   0.206989700    -0.8073633   -0.2313630  
   0.208989600    -0.8272460   -0.1120496  
   0.210989500    -0.8299458    0.0118471  
   0.212989400    -0.8146532    0.1378360  
   0.214989300    -0.7801108    0.2633945  
   0.216989200    -0.7255873    0.3841177  
   0.218989100    -0.6515277    0.4978701  
   0.220989000    -0.5579408    0.6008205  
   0.222988900    -0.4457889    0.6894876  
   0.224988800    -0.3178225    0.7596648  
   0.226988700    -0.1775208    0.8081921  
   0.228988600    -0.0292081    0.8317425  
   0.230988500     0.1230231    0.8290532  
   0.232988400     0.2735155    0.7978358  
   0.234988300     0.4173419    0.7413535  
   0.236988200     0.5492445    0.6598694  
   0.238988100     0.6637858    0.5568156  
   0.240988000     0.7574306    0.4361855  
   0.242987900     0.8275535    0.3030891  
   0.244987800     0.8730168    0.1616347  
   0.246987700     0.8938856    0.0168818  
   0.248987600     0.8898172   -0.1266762  
   0.250987500     0.8633654   -0.2649770  
   0.252987400     0.8160856   -0.3942738  
   0.254987300     0.7511847   -0.5110440  
   0.256987200     0.6714060   -0.6139767  
   0.258987100     0.5801566   -0.7032140  
   0.260987000     0.4782340   -0.7757112  
   0.262986900     0.3689353   -0.8322237  
   0.264986800     0.2549172   -0.8720574  
   0.266986700     0.1382189   -0.8953671  
   0.268986600     0.0216271   -0.9028709  
   0.270986500    -0.0926067   -0.8948259  
   0.272986400    -0.2037620   -0.8723723  
   0.274986300    -0.3102084   -0.8359770  
   0.276986200    -0.4106625   -0.7862436  
   0.278986100    -0.5042635   -0.7238187  
   0.280986000    -0.5892864   -0.6493666  
   0.282985900    -0.6645898   -0.5642135  
   0.284985800    -0.7282001   -0.4688225  
   0.286985700    -0.7788906   -0.3652436  
   0.288985600    -0.8154333   -0.2552077  
   0.290985500    -0.8371463   -0.1401737  
   0.292985400    -0.8426068   -0.0211122  
   0.294985300    -0.8309003    0.1001611  
   0.296985200    -0.8009109    0.2217323  
   0.298985100    -0.7515379    0.3409680  
   0.300985000    -0.6816645    0.4536915  
   0.302984900    -0.5930972    0.5556562  
   0.304984800    -0.4856075    0.6436658  
   0.306984700    -0.3620985    0.7126347  
   0.308984600    -0.2258497    0.7591295  
   0.310984500    -0.0816848    0.7793794  
   0.312984400     0.0651621    0.7711146  
   0.314984300     0.2078945    0.7334601  
   0.316984200     0.3385441    0.6677226  
   0.318984100     0.4506610    0.5772325  
   0.320984000     0.5376239    0.4692753  
   0.322983900     0.5964053    0.3523696  
   0.324983800     0.6272469    0.2364887  
   0.326983700     0.6366956    0.1294473  
   0.328983600     0.6319560    0.0349596  
   0.330983500     0.6212947   -0.0472284  
   0.332983400     0.6101921   -0.1218262  
   0.334983300     0.5997574   -0.1955195  
   0.336983200     0.5867445   -0.2733923  
   0.338983100     0.5664905   -0.3576643  
   0.340983000     0.5327888   -0.4463491  
   0.342982900     0.4824597   -0.5353543  
   0.344982800     0.4134535   -0.6195971  
   0.346982700     0.3263445   -0.6935980  
   0.348982600     0.2247129   -0.7513978  
   0.350982500     0.1123583   -0.7921358  
   0.352982400    -0.0066194   -0.8127373  
   0.354982300    -0.1335979   -0.8123567  
   0.356982200    -0.2722889   -0.7850967  
   0.358982100    -0.4032761   -0.7328839  
   0.360982000    -0.5213559   -0.6588182  
   0.362981900    -0.6240563   -0.5651078  
   0.364981800    -0.7090737   -0.4552584  
   0.366981700    -0.7736245   -0.3329687  
   0.368981600    -0.8158503   -0.2021522  
   0.370981500    -0.8354370   -0.0660842  
   0.372981400    -0.8322344    0.0711396  
   0.374981300    -0.8058288    0.2062398  
   0.376981200    -0.8362653    0.0720077  
   0.378981100    -0.8093992    0.2111581  
   0.380981000    -0.7590131    0.3452383  
   0.382980900    -0.6941687    0.4580291  
   0.384980800    -0.6161493    0.5558288  
   0.386980700    -0.5233752    0.6424475  
   0.388980600    -0.4171321    0.7146688  
   0.390980500    -0.3007995    0.7704592  
   0.392980400    -0.1761172    0.8078693  
   0.394980300    -0.0459852    0.8257001  
   0.396980200     0.0864461    0.8230296  
   0.398980100     0.2186899    0.7992753  
   0.400980000     0.3462048    0.7544464  
   0.402979900     0.4664472    0.6889479  
   0.404979800     0.5747290    0.6049174  
   0.406979700     0.6683313    0.5031788  
   0.408979600     0.7445210    0.3877016  
   0.410979500     0.8004522    0.2602494  
   0.412979400     0.8350938    0.1251034  
   0.414979300     0.8453581   -0.0136826  
   0.416979200     0.8337865   -0.1519327  
   0.418979100     0.7999537   -0.2851528  
   0.420979000     0.7450144   -0.4100797  
   0.422978900     0.6711582   -0.5237408  
   0.424978800     0.5805064   -0.6229547  
   0.426978700     0.4763430   -0.7054507  
   0.428978600     0.3619471   -0.7696753  
   0.430978500     0.2409492   -0.8143853  
   0.432978400     0.1165702   -0.8394904  
   0.434978300    -0.0086172   -0.8470480  
   0.436978200    -0.1319444   -0.8343281  
   0.438978100    -0.2504968   -0.8037983  
   0.440978000    -0.3622629   -0.7569376  
   0.442977900    -0.4652838   -0.6945172  
   0.444977800    -0.5571424   -0.6185991  
   0.446977700    -0.6370761   -0.5306870  
   0.448977600    -0.7029054   -0.4330754  
   0.450977500    -0.7543988   -0.3270117  
   0.452977400    -0.7902281   -0.2144541  
   0.454977300    -0.8095778   -0.0969239  
   0.456977200    -0.8120321    0.0226664  
   0.458977100    -0.7968556    0.1420900  
   0.460977000    -0.7643828    0.2585844  
   0.462976900    -0.7147354    0.3692380  
   0.464976800    -0.6484283    0.4725126  
   0.466976700    -0.5671048    0.5650820  
   0.468976600    -0.4715873    0.6455379  
   0.470976500    -0.3637908    0.7108725  
   0.472976400    -0.2461396    0.7589973  
   0.474976300    -0.1211620    0.7883707  
   0.476976200     0.0079575    0.7979093  
   0.478976100     0.1378048    0.7864494  
   0.480976000     0.2644776    0.7543764  
   0.482975900     0.3847491    0.7018614  
   0.484975800     0.4950809    0.6300448  
   0.486975700     0.5925868    0.5411068  
   0.488975600     0.6742412    0.4372179  
   0.490975500     0.7372689    0.3214196  
   0.492975400     0.7801921    0.1971273  
   0.494975300     0.8017396    0.0685793  
   0.496975200     0.8023979   -0.0607220  
   0.498975100     0.7816591   -0.1861696  
   0.500975000     0.7421362   -0.3055609  
   0.502974900     0.6853949   -0.4144772  
   0.504974800     0.6135375   -0.5115967  
   0.506974700     0.5291348   -0.5953957  
   0.508974600     0.4344218   -0.6647130  
   0.510974500     0.3328456   -0.7187536  
   0.512974400     0.2268831   -0.7569513  
   0.514974300     0.1192522   -0.7782735  
   0.516974200     0.0112760   -0.7864287  
   0.518974100    -0.0946279   -0.7806464  
   0.520974000    -0.1984381   -0.7618970  
   0.522973900    -0.2983544   -0.7302683  
   0.524973800    -0.3938178   -0.6860713  
   0.526973700    -0.4843743   -0.6295937  
   0.528973600    -0.5673041   -0.5609050  
   0.530973500    -0.6418880   -0.4799786  
   0.532973400    -0.7054464   -0.3881401  
   0.534973300    -0.7556201   -0.2861195  
   0.536973200    -0.7906839   -0.1757885  
   0.538973100    -0.8087052   -0.0606922  
   0.540973000    -0.8092042    0.0570505  
   0.542972900    -0.7915056    0.1743686  
   0.544972800    -0.7555175    0.2885675  
   0.546972700    -0.7020270    0.3969865  
   0.548972600    -0.6316690    0.4965011  
   0.550972500    -0.5466832    0.5844126  
   0.552972400    -0.4486487    0.6585733  
   0.554972300    -0.3396881    0.7170228  
   0.556972200    -0.2221274    0.7580815  
   0.558972100    -0.0993939    0.7806930  
   0.560972000     0.0256512    0.7840297  
   0.562971900     0.1501174    0.7679035  
   0.564971800     0.2710476    0.7321919  
   0.566971700     0.3849390    0.6784971  
   0.568971600     0.4895635    0.6070756  
   0.570971500     0.5820210    0.5198503  
   0.572971400     0.6596929    0.4186574  
   0.574971300     0.7207111    0.3056940  
   0.576971200     0.7628799    0.1835790  
   0.578971100     0.7849510    0.0556815  
   0.580971000     0.7861428   -0.0736565  
   0.582970900     0.7668334   -0.2012947  
   0.584970800     0.7272607   -0.3234407  
   0.586970700     0.6690001   -0.4369062  
   0.588970600     0.5939404   -0.5393669  
   0.590970500     0.5041607   -0.6278968  
   0.592970400     0.4025135   -0.7009222  
   0.594970300     0.2914939   -0.7567961  
   0.596970200     0.1739745   -0.7943715  
   0.598970100     0.0532367   -0.8131244  
   0.600970000    -0.0682477   -0.8138889  
   0.602969900    -0.1874001   -0.7964466  
   0.604969800    -0.3019862   -0.7614090  
   0.606969700    -0.4094642   -0.7102279  
   0.608969600    -0.5076565   -0.6440910  
   0.610969500    -0.5948567   -0.5648117  
   0.612969400    -0.6688175   -0.4743341  
   0.614969300    -0.7284348   -0.3747745  
   0.616969200    -0.7731375   -0.2686269  
   0.618969100    -0.8021198   -0.1579290  
   0.620969000    -0.8155361   -0.0448495  
   0.622968900    -0.8127432    0.0689871  
   0.624968800    -0.7940744    0.1816510  
   0.626968700    -0.7596899    0.2911317  
   0.628968600    -0.7100750    0.3952408  
   0.630968500    -0.6456759    0.4918374  
   0.632968400    -0.5673926    0.5789406  
   0.634968300    -0.4770556    0.6546369  
   0.636968200    -0.3757705    0.7168960  
   0.638968100    -0.2655508    0.7640095  
   0.640968000    -0.1484662    0.7945606  
   0.642967900    -0.0269730    0.8074852  
   0.644967800     0.0961997    0.8022429  
   0.646967700     0.2183297    0.7780698  
   0.648967600     0.3356833    0.7352173  
   0.650967500     0.4460962    0.6743826  
   0.652967400     0.5461963    0.5969681  
   0.654967300     0.6334438    0.5042112  
   0.656967200     0.7053886    0.3985723  
   0.658967100     0.7600559    0.2824783  
   0.660967000     0.7957630    0.1584534  
   0.662966900     0.8113495    0.0294447  
   0.664966800     0.8059567   -0.1008207  
   0.666966700     0.7796344   -0.2291179  
   0.668966600     0.7332988   -0.3508524  
   0.670966500     0.6682112   -0.4633765  
   0.672966400     0.5877420   -0.5642915  
   0.674966300     0.4919940   -0.6493072  
   0.676966200     0.3853313   -0.7171577  
   0.678966100     0.2705305   -0.7670988  
   0.680966000     0.1509238   -0.7982434  
   0.682965900     0.0293412   -0.8105767  
   0.684965800    -0.0914407   -0.8046746  
   0.686965700    -0.2085951   -0.7805901  
   0.688965600    -0.3198768   -0.7400487  
   0.690965500    -0.4222657   -0.6830523  
   0.692965400    -0.5147972   -0.6138840  
   0.694965300    -0.5957086   -0.5322308  
   0.696965200    -0.6635046   -0.4410717  
   0.698965100    -0.7175801   -0.3411210  
   0.700965000    -0.7565197   -0.2352628  
   0.702964900    -0.7799639   -0.1246468  
   0.704964800    -0.7876267   -0.0121270  
   0.706964700    -0.7788438    0.1006756  
   0.708964600    -0.7538509    0.2110690  
   0.710964500    -0.7135522    0.3180187  
   0.712964400    -0.6571950    0.4180070  
   0.714964300    -0.5861888    0.5089865  
   0.716964200    -0.5024477    0.5887907  
   0.718964100    -0.4071823    0.6556467  
   0.720964000    -0.3026913    0.7073564  
   0.722963900    -0.1912518    0.7429594  
   0.724963800    -0.0745908    0.7611313  
   0.726963700     0.0436214    0.7612070  
   0.728963600     0.1618374    0.7423741  
   0.730963500     0.2749702    0.7046021  
   0.732963400     0.3812763    0.6499271  
   0.734963300     0.4785540    0.5789300  
   0.736963200     0.5750729    0.4794852  
   0.738963100     0.6523817    0.3640175  
   0.740963000     0.7073742    0.2368625  
   0.742962900     0.7380481    0.1031175  
   0.744962800     0.7444665   -0.0331447  
   0.746962700     0.7265474   -0.1668415  
   0.748962600     0.6856468   -0.2941514  
   0.750962500     0.7109337   -0.1797744  
   0.752962400     0.6696210   -0.3046991  
   0.754962300     0.6077533   -0.4198446  
   0.756962200     0.5280117   -0.5222740  
   0.758962100     0.4325970   -0.6085420  
   0.760962000     0.3242414   -0.6776779  
   0.762961900     0.2122072   -0.7252938  
   0.764961800     0.1046943   -0.7528838  
   0.766961700    -0.0051854   -0.7652107  
   0.768961600    -0.1162151   -0.7613409  
   0.770961500    -0.2258025   -0.7414080  
   0.772961400    -0.3314274   -0.7055538  
   0.774961300    -0.4308650   -0.6549893  
   0.776961200    -0.5224088   -0.5899611  
   0.778961100    -0.6035243   -0.5115654  
   0.780961000    -0.6722302   -0.4217297  
   0.782960900    -0.7274015   -0.3220393  
   0.784960800    -0.7669614   -0.2146007  
   0.786960700    -0.7898702   -0.1019102  
   0.788960600    -0.7959355    0.0129075  
   0.790960500    -0.7845335    0.1277763  
   0.792960400    -0.7558254    0.2397727  
   0.794960300    -0.7106410    0.3460599  
   0.796960200    -0.6502689    0.4447953  
   0.798960100    -0.5760294    0.5330756  
   0.800960000    -0.4893228    0.6091620  
   0.802959900    -0.3918256    0.6718773  
   0.804959800    -0.2863535    0.7192229  
   0.806959700    -0.1745778    0.7504784  
   0.808959600    -0.0592319    0.7648261  
   0.810959500     0.0573846    0.7620025  
   0.812959400     0.1727969    0.7411191  
   0.814959300     0.2844733    0.7030758  
   0.816959200     0.3893377    0.6482365  
   0.818959100     0.4854563    0.5774041  
   0.820959000     0.5697815    0.4924508  
   0.822958900     0.6406280    0.3946681  
   0.824958800     0.6954539    0.2869050  
   0.826958700     0.7332948    0.1711155  
   0.828958600     0.7523475    0.0504329  
   0.830958500     0.7518159   -0.0720921  
   0.832958400     0.7321476   -0.1931174  
   0.834958300     0.6935101   -0.3094196  
   0.836958200     0.6367332   -0.4178507  
   0.838958100     0.5638644   -0.5159269  
   0.840958000     0.4764635   -0.6013283  
   0.842957900     0.3767088   -0.6720593  
   0.844957800     0.2675797   -0.7255040  
   0.846957700     0.1519430   -0.7609918  
   0.848957600     0.0324327   -0.7777799  
   0.850957500    -0.0872817   -0.7761866  
   0.852957400    -0.2047919   -0.7560209  
   0.854957300    -0.3169326   -0.7183248  
   0.856957200    -0.4213325   -0.6643047  
   0.858957100    -0.5154325   -0.5959170  
   0.860957000    -0.5976090   -0.5147935  
   0.862956900    -0.6659268   -0.4237879  
   0.864956800    -0.7199185   -0.3249068  
   0.866956700    -0.7587367   -0.2201976  
   0.868956600    -0.7814851   -0.1119230  
   0.870956500    -0.7889302   -0.0018885  
   0.872956400    -0.7807421    0.1079310  
   0.874956300    -0.7569920    0.2148016  
   0.876956200    -0.7185342    0.3181945  
   0.878956100    -0.6659775    0.4150403  
   0.880956000    -0.5998819    0.5037456  
   0.882955900    -0.5216359    0.5826715  
   0.884955800    -0.4322456    0.6498979  
   0.886955700    -0.3338934    0.7042219  
   0.888955600    -0.2279611    0.7436109  
   0.890955500    -0.1169715    0.7677349  
   0.892955400    -0.0026094    0.7754095  
   0.894955300     0.1124263    0.7660397  
