! MS46122B
! 2250307/22442219
! 7/24/2025 7:33:44 AM
! C:\USERS\SPARKY\DOCUMENTS\VNA_DATA\JULY24_2025\3K\ECAL_SHORT_C.S1P
! CHANNEL.1
! TR.MEASUREMENT
! RAW.DATA
# GHZ S RI R 50.0
! FREQ.GHZ         S11RE         S11IM         
!; PortSelection: Port_1
   0.001000000     1.0453990   -0.0719032  
   0.002999900     0.9640676   -0.1943191  
   0.004999800     0.9045433   -0.2993807  
   0.006999700     0.8379843   -0.3970326  
   0.008999600     0.7608883   -0.4925652  
   0.010999500     0.6703720   -0.5839307  
   0.012999400     0.5610466   -0.6689141  
   0.014999300     0.4279382   -0.7424394  
   0.016999200     0.2638483   -0.7944366  
   0.018999100     0.0638691   -0.8083447  
   0.020999000    -0.1695099   -0.7561268  
   0.022998900    -0.4136638   -0.5997027  
   0.024998800    -0.5809061   -0.3073084  
   0.026998700    -0.6400883    0.0934196  
   0.028998600    -0.4539497    0.4807219  
   0.030998500    -0.1069526    0.7096117  
   0.032998400     0.2368307    0.7210185  
   0.034998300     0.5545728    0.6368911  
   0.036998200     0.7529246    0.4702697  
   0.038998100     0.8713630    0.2883088  
   0.040998000     0.9301182    0.1132056  
   0.042997900     0.9482070   -0.0464364  
   0.044997800     0.9073476   -0.1655300  
   0.046997700     0.9048473   -0.3134218  
   0.048997600     0.8595116   -0.4227492  
   0.050997500     0.8032992   -0.5176218  
   0.052997400     0.7394692   -0.5996842  
   0.054997300     0.6703390   -0.6701843  
   0.056997200     0.5946203   -0.7320250  
   0.058997100     0.5163623   -0.7833149  
   0.060997000     0.4345792   -0.8256691  
   0.062996900     0.3498027   -0.8595390  
   0.064996800     0.2626151   -0.8844242  
   0.066996700     0.1726855   -0.9003260  
   0.068996600     0.0809226   -0.9074025  
   0.070996500    -0.0121176   -0.9056566  
   0.072996400    -0.1062711   -0.8928341  
   0.074996300    -0.2010744   -0.8691281  
   0.076996200    -0.2953015   -0.8339776  
   0.078996100    -0.3875912   -0.7866673  
   0.080996000    -0.4766826   -0.7264021  
   0.082995900    -0.5608215   -0.6523888  
   0.084995800    -0.6372750   -0.5634635  
   0.086995700    -0.7044446   -0.4613425  
   0.088995600    -0.7592124   -0.3448543  
   0.090995500    -0.7974168   -0.2155819  
   0.092995400    -0.8165567   -0.0745972  
   0.094995300    -0.8105409    0.0745320  
   0.096995200    -0.7770621    0.2280787  
   0.098995100    -0.7124684    0.3792000  
   0.100995000    -0.6153226    0.5219973  
   0.102994900    -0.4879429    0.6450315  
   0.104994800    -0.3334708    0.7413694  
   0.106994700    -0.1585396    0.8030704  
   0.108994600     0.0267862    0.8263474  
   0.110994500     0.2126885    0.8091890  
   0.112994400     0.3887817    0.7523816  
   0.114994300     0.5457334    0.6617334  
   0.116994200     0.6766152    0.5436627  
   0.118994100     0.7774486    0.4060013  
   0.120994000     0.8489951    0.2576948  
   0.122993900     0.8877655    0.1046988  
   0.124993800     0.8980207   -0.0458367  
   0.126993700     0.8830739   -0.1900981  
   0.128993600     0.8448701   -0.3228107  
   0.130993500     0.7900382   -0.4434709  
   0.132993400     0.7204639   -0.5504413  
   0.134993300     0.6392990   -0.6425497  
   0.136993200     0.5488012   -0.7196704  
   0.138993100     0.4516813   -0.7819118  
   0.140993000     0.3499363   -0.8294911  
   0.142992900     0.2450228   -0.8631536  
   0.144992800     0.1388326   -0.8837415  
   0.146992700     0.0320554   -0.8901377  
   0.148992600    -0.0733437   -0.8831537  
   0.150992500    -0.1767860   -0.8624273  
   0.152992400    -0.2770731   -0.8305218  
   0.154992300    -0.3724472   -0.7861873  
   0.156992200    -0.4630754   -0.7306535  
   0.158992100    -0.5464008   -0.6636443  
   0.160992000    -0.6220583   -0.5857262  
   0.162991900    -0.6883513   -0.4974384  
   0.164991800    -0.7439425   -0.3993221  
   0.166991700    -0.7869219   -0.2925940  
   0.168991600    -0.8155155   -0.1784275  
   0.170991500    -0.8289108   -0.0581749  
   0.172991400    -0.8249758    0.0661458  
   0.174991300    -0.8021974    0.1917642  
   0.176991200    -0.7596844    0.3165148  
   0.178991100    -0.6964745    0.4365893  
   0.180991000    -0.6138268    0.5486368  
   0.182990900    -0.5106053    0.6476631  
   0.184990800    -0.3889352    0.7300352  
   0.186990700    -0.2518129    0.7920625  
   0.188990600    -0.1279695    0.8257703  
   0.190990500     0.0469680    0.8395594  
   0.192990400     0.2061351    0.8218333  
   0.194990300     0.3571368    0.7764902  
   0.196990200     0.4968960    0.7047260  
   0.198990100     0.6208408    0.6090996  
   0.200990000     0.7250996    0.4932035  
   0.202989900     0.8062648    0.3620100  
   0.204989800     0.8619962    0.2212482  
   0.206989700     0.8932538    0.0758223  
   0.208989600     0.8981297   -0.0688412  
   0.210989500     0.8791590   -0.2100843  
   0.212989400     0.8386106   -0.3428897  
   0.214989300     0.7791504   -0.4647507  
   0.216989200     0.7040488   -0.5726781  
   0.218989100     0.6157833   -0.6656088  
   0.220989000     0.5169647   -0.7432483  
   0.222988900     0.4100575   -0.8046263  
   0.224988800     0.2978136   -0.8494351  
   0.226988700     0.1826105   -0.8779397  
   0.228988600     0.0673208   -0.8900739  
   0.230988500    -0.0474675   -0.8863858  
   0.232988400    -0.1597274   -0.8669556  
   0.234988300    -0.2682471   -0.8340231  
   0.236988200    -0.3711161   -0.7872148  
   0.238988100    -0.4668713   -0.7272987  
   0.240988000    -0.5535433   -0.6553715  
   0.242987900    -0.6302632   -0.5724406  
   0.244987800    -0.6956062   -0.4794565  
   0.246987700    -0.7485205   -0.3770257  
   0.248987600    -0.7877125   -0.2664409  
   0.250987500    -0.8112037   -0.1492438  
   0.252987400    -0.8179063   -0.0284727  
   0.254987300    -0.8070213    0.0936541  
   0.256987200    -0.7777225    0.2151349  
   0.258987100    -0.7305081    0.3341010  
   0.260987000    -0.6628084    0.4467812  
   0.262986900    -0.5756005    0.5496637  
   0.264986800    -0.4709178    0.6388717  
   0.266986700    -0.3497611    0.7111071  
   0.268986600    -0.2162526    0.7622913  
   0.270986500    -0.0736963    0.7900826  
   0.272986400     0.0730352    0.7927611  
   0.274986300     0.2197062    0.7689079  
   0.276986200     0.3606762    0.7186158  
   0.278986100     0.4912814    0.6430979  
   0.280986000     0.6062350    0.5450642  
   0.282985900     0.7007732    0.4283808  
   0.284985800     0.7721869    0.2973303  
   0.286985700     0.8181306    0.1580794  
   0.288985600     0.8386814    0.0156894  
   0.290985500     0.8341157   -0.1248990  
   0.292985400     0.8067543   -0.2596098  
   0.294985300     0.7588107   -0.3850333  
   0.296985200     0.6921294   -0.4984275  
   0.298985100     0.6103353   -0.5981001  
   0.300985000     0.5165605   -0.6818819  
   0.302984900     0.4138570   -0.7485095  
   0.304984800     0.3052830   -0.7978902  
   0.306984700     0.1940032   -0.8301324  
   0.308984600     0.0827812   -0.8465294  
   0.310984500    -0.0266083   -0.8474282  
   0.312984400    -0.1327896   -0.8342603  
   0.314984300    -0.2342585   -0.8081656  
   0.316984200    -0.3302307   -0.7701764  
   0.318984100    -0.4204595   -0.7211976  
   0.320984000    -0.5035234   -0.6622524  
   0.322983900    -0.5791470   -0.5939535  
   0.324983800    -0.6466292   -0.5179211  
   0.326983700    -0.7053409   -0.4339881  
   0.328983600    -0.7550471   -0.3422237  
   0.330983500    -0.7943934   -0.2426912  
   0.332983400    -0.8210332   -0.1360834  
   0.334983300    -0.8319628   -0.0236558  
   0.336983200    -0.8255945    0.0924397  
   0.338983100    -0.8013016    0.2074570  
   0.340983000    -0.7590718    0.3182888  
   0.342982900    -0.7002752    0.4224996  
   0.344982800    -0.6261782    0.5175717  
   0.346982700    -0.5374961    0.6024945  
   0.348982600    -0.4358113    0.6725616  
   0.350982500    -0.3245069    0.7284366  
   0.352982400    -0.2045066    0.7674467  
   0.354982300    -0.0732913    0.7884583  
   0.356982200     0.0746516    0.7863770  
   0.358982100     0.2200994    0.7575400  
   0.360982000     0.3589142    0.7024443  
   0.362981900     0.4864762    0.6228169  
   0.364981800     0.5979838    0.5205283  
   0.366981700     0.6892273    0.3982905  
   0.368981600     0.7564141    0.2604153  
   0.370981500     0.7968990    0.1118078  
   0.372981400     0.8087711   -0.0421000  
   0.374981300     0.7913434   -0.1963755  
   0.376981200     0.8094235   -0.0878510  
   0.378981100     0.7824402   -0.2397507  
   0.380981000     0.7276514   -0.3827982  
   0.382980900     0.6556596   -0.5018048  
   0.384980800     0.5693865   -0.6013599  
   0.386980700     0.4693494   -0.6847878  
   0.388980600     0.3584553   -0.7501906  
   0.390980500     0.2411086   -0.7968493  
   0.392980400     0.1199209   -0.8243172  
   0.394980300    -0.0018557   -0.8330011  
   0.396980200    -0.1216899   -0.8233182  
   0.398980100    -0.2375639   -0.7970235  
   0.400980000    -0.3471577   -0.7541589  
   0.402979900    -0.4487495   -0.6963400  
   0.404979800    -0.5395969   -0.6259617  
   0.406979700    -0.6195505   -0.5438230  
   0.408979600    -0.6865619   -0.4520305  
   0.410979500    -0.7401090   -0.3517343  
   0.412979400    -0.7796251   -0.2438568  
   0.414979300    -0.8020841   -0.1318572  
   0.416979200    -0.8105847   -0.0169968  
   0.418979100    -0.8026864    0.0975448  
   0.420979000    -0.7785744    0.2106278  
   0.422978900    -0.7382799    0.3200995  
   0.424978800    -0.6821362    0.4237696  
   0.426978700    -0.6112506    0.5194263  
   0.428978600    -0.5262305    0.6047009  
   0.430978500    -0.4288943    0.6768494  
   0.432978400    -0.3212693    0.7343358  
   0.434978300    -0.2053506    0.7769478  
   0.436978200    -0.0825829    0.8005513  
   0.438978100     0.0435604    0.8053983  
   0.440978000     0.1705275    0.7906107  
   0.442977900     0.2949597    0.7556785  
   0.444977800     0.4131251    0.7015489  
   0.446977700     0.5221636    0.6288809  
   0.448977600     0.6187816    0.5390738  
   0.450977500     0.6999424    0.4345329  
   0.452977400     0.7637279    0.3176754  
   0.454977300     0.8077608    0.1912563  
   0.456977200     0.8307807    0.0588808  
   0.458977100     0.8320363   -0.0747486  
   0.460977000     0.8111419   -0.2064603  
   0.462976900     0.7704656   -0.3319170  
   0.464976800     0.7101029   -0.4482871  
   0.466976700     0.6333950   -0.5531120  
   0.468976600     0.5416670   -0.6428087  
   0.470976500     0.4382237   -0.7168491  
   0.472976400     0.3262946   -0.7731634  
   0.474976300     0.2082811   -0.8113253  
   0.476976200     0.0877916   -0.8311471  
   0.478976100    -0.0323670   -0.8327211  
   0.480976000    -0.1494579   -0.8172080  
   0.482975900    -0.2614265   -0.7851648  
   0.484975800    -0.3667727   -0.7384720  
   0.486975700    -0.4640353   -0.6775005  
   0.488975600    -0.5511516   -0.6042699  
   0.490975500    -0.6270669   -0.5196843  
   0.492975400    -0.6901536   -0.4255784  
   0.494975300    -0.7397604   -0.3234394  
   0.496975200    -0.7748377   -0.2147872  
   0.498975100    -0.7938701   -0.1027782  
   0.500975000    -0.7970904    0.0119447  
   0.502974900    -0.7835873    0.1266059  
   0.504974800    -0.7531378    0.2389296  
   0.506974700    -0.7061218    0.3471018  
   0.508974600    -0.6417620    0.4483969  
   0.510974500    -0.5617139    0.5392973  
   0.512974400    -0.4677612    0.6167340  
   0.514974300    -0.3619344    0.6773717  
   0.516974200    -0.2480997    0.7209871  
   0.518974100    -0.1290725    0.7453392  
   0.520974000    -0.0082280    0.7498493  
   0.522973900     0.1107602    0.7353442  
   0.524973800     0.2243953    0.7025468  
   0.526973700     0.3304307    0.6532388  
   0.528973600     0.4264303    0.5893849  
   0.530973500     0.5115282    0.5129842  
   0.532973400     0.5838670    0.4261534  
   0.534973300     0.6426279    0.3306731  
   0.536973200     0.6874253    0.2280462  
   0.538973100     0.7168842    0.1206822  
   0.540973000     0.7315172    0.0104440  
   0.542972900     0.7300757   -0.1013958  
   0.544972800     0.7122351   -0.2122920  
   0.546972700     0.6780428   -0.3203616  
   0.548972600     0.6278857   -0.4228393  
   0.550972500     0.5627424   -0.5174219  
   0.552972400     0.4832315   -0.6016063  
   0.554972300     0.3914709   -0.6730041  
   0.556972200     0.2894163   -0.7298099  
   0.558972100     0.1797253   -0.7706561  
   0.560972000     0.0654042   -0.7940577  
   0.562971900    -0.0506711   -0.7995647  
   0.564971800    -0.1662025   -0.7877012  
   0.566971700    -0.2777406   -0.7590088  
   0.568971600    -0.3837506   -0.7142603  
   0.570971500    -0.4815443   -0.6544919  
   0.572971400    -0.5695435   -0.5810677  
   0.574971300    -0.6460903   -0.4952477  
   0.576971200    -0.7092878   -0.3993145  
   0.578971100    -0.7582912   -0.2949580  
   0.580971000    -0.7913257   -0.1848677  
   0.582970900    -0.8081200   -0.0713499  
   0.584970800    -0.8082458    0.0432945  
   0.586970700    -0.7921446    0.1567326  
   0.588970600    -0.7600117    0.2667657  
   0.590970500    -0.7120813    0.3713604  
   0.592970400    -0.6493110    0.4686570  
   0.594970300    -0.5728941    0.5563982  
   0.596970200    -0.4838984    0.6325582  
   0.598970100    -0.3841921    0.6952808  
   0.600970000    -0.2749833    0.7430953  
   0.602969900    -0.1589339    0.7746021  
   0.604969800    -0.0379823    0.7885031  
   0.606969700     0.0847030    0.7835753  
   0.608969600     0.2069782    0.7593519  
   0.610969500     0.3245711    0.7162108  
   0.612969400     0.4351764    0.6544827  
   0.614969300     0.5349264    0.5757474  
   0.616969200     0.6211530    0.4816183  
   0.618969100     0.6913076    0.3747461  
   0.620969000     0.7435297    0.2581926  
   0.622968900     0.7764889    0.1342953  
   0.624968800     0.7888811    0.0062597  
   0.626968700     0.7801585   -0.1223509  
   0.628968600     0.7509953   -0.2479506  
   0.630968500     0.7019286   -0.3671194  
   0.632968400     0.6343842   -0.4757943  
   0.634968300     0.5506367   -0.5719817  
   0.636968200     0.4528909   -0.6526789  
   0.638968100     0.3449268   -0.7159563  
   0.640968000     0.2287438   -0.7615609  
   0.642967900     0.1083127   -0.7878138  
   0.644967800    -0.0133013   -0.7947464  
   0.646967700    -0.1332961   -0.7831115  
   0.648967600    -0.2484898   -0.7536070  
   0.650967500    -0.3564929   -0.7079237  
   0.652967400    -0.4552971   -0.6470644  
   0.654967300    -0.5433670   -0.5733861  
   0.656967200    -0.6190090   -0.4882861  
   0.658967100    -0.6811653   -0.3939705  
   0.660967000    -0.7290035   -0.2918681  
   0.662966900    -0.7616955   -0.1838596  
   0.664966800    -0.7782898   -0.0723127  
   0.666966700    -0.7790225    0.0406925  
   0.668966600    -0.7631398    0.1526246  
   0.670966500    -0.7315186    0.2614867  
   0.672966400    -0.6848998    0.3654521  
   0.674966300    -0.6229916    0.4612255  
   0.676966200    -0.5474708    0.5471237  
   0.678966100    -0.4597294    0.6214665  
   0.680966000    -0.3615835    0.6823813  
   0.682965900    -0.2542618    0.7285283  
   0.684965800    -0.1405647    0.7587202  
   0.686965700    -0.0222650    0.7709666  
   0.688965600     0.0973702    0.7654300  
   0.690965500     0.2157628    0.7401046  
   0.692965400     0.3297562    0.6973701  
   0.694965300     0.4363093    0.6371797  
   0.696965200     0.5329103    0.5600320  
   0.698965100     0.6164312    0.4680691  
   0.700965000     0.6842582    0.3634041  
   0.702964900     0.7349916    0.2485672  
   0.704964800     0.7662933    0.1268815  
   0.706964700     0.7777769    0.0015505  
   0.708964600     0.7687272   -0.1239763  
   0.710964500     0.7402876   -0.2462395  
   0.712964400     0.6920730   -0.3611326  
   0.714964300     0.6263644   -0.4660785  
   0.716964200     0.5457927   -0.5579557  
   0.718964100     0.4534903   -0.6345999  
   0.720964000     0.3518925   -0.6953089  
   0.722963900     0.2438022   -0.7391641  
   0.724963800     0.1323610   -0.7663010  
   0.726963700     0.0192494   -0.7764748  
   0.728963600    -0.0931194   -0.7705048  
   0.730963500    -0.2017503   -0.7476034  
   0.732963400    -0.3052541   -0.7113875  
   0.734963300    -0.4022414   -0.6606510  
   0.736963200    -0.5031473   -0.5859466  
   0.738963100    -0.5902724   -0.4955961  
   0.740963000    -0.6620207   -0.3926037  
   0.742962900    -0.7153678   -0.2791820  
   0.744962800    -0.7496196   -0.1580487  
   0.746962700    -0.7631846   -0.0325503  
   0.748962600    -0.7560672    0.0943236  
   0.750962500    -0.7756680   -0.0219644  
   0.752962400    -0.7659425    0.1061653  
   0.754962300    -0.7347048    0.2313107  
   0.756962200    -0.6823778    0.3499228  
   0.758962100    -0.6098574    0.4585545  
   0.760962000    -0.5193262    0.5532684  
   0.762961900    -0.4190576    0.6279844  
   0.764961800    -0.3185458    0.6807367  
   0.766961700    -0.2110376    0.7171974  
   0.768961600    -0.0986288    0.7370436  
   0.770961500     0.0151915    0.7401301  
   0.772961400     0.1281539    0.7254853  
   0.774961300     0.2372492    0.6942964  
   0.776961200     0.3407983    0.6465558  
   0.778961100     0.4361802    0.5842266  
   0.780961000     0.5215747    0.5073181  
   0.782960900     0.5947491    0.4179681  
   0.784960800     0.6538407    0.3182082  
   0.786960700     0.6972860    0.2099714  
   0.788960600     0.7236503    0.0959783  
   0.790960500     0.7321938   -0.0209235  
   0.792960400     0.7226164   -0.1378166  
   0.794960300     0.6951065   -0.2516757  
   0.796960200     0.6500010   -0.3602193  
   0.798960100     0.5890017   -0.4602886  
   0.800960000     0.5132567   -0.5495390  
   0.802959900     0.4246781   -0.6258184  
   0.804959800     0.3255617   -0.6876891  
   0.806959700     0.2186471   -0.7337025  
   0.808959600     0.1058179   -0.7626125  
   0.810959500    -0.0093651   -0.7737830  
   0.812959400    -0.1250872   -0.7674115  
   0.814959300    -0.2378767   -0.7435284  
   0.816959200    -0.3456353   -0.7032284  
   0.818959100    -0.4455475   -0.6472831  
   0.820959000    -0.5356642   -0.5774934  
   0.822958900    -0.6142423   -0.4952998  
   0.824958800    -0.6793861   -0.4023836  
   0.826958700    -0.7300246   -0.3014361  
   0.828958600    -0.7650003   -0.1944402  
   0.830958500    -0.7841074   -0.0837219  
   0.832958400    -0.7868589    0.0281276  
   0.834958300    -0.7734871    0.1387846  
   0.836958200    -0.7442952    0.2462894  
   0.838958100    -0.6998423    0.3481194  
   0.840958000    -0.6413350    0.4428475  
   0.842957900    -0.5694606    0.5287442  
   0.844957800    -0.4855004    0.6032992  
   0.846957700    -0.3912931    0.6653425  
   0.848957600    -0.2884997    0.7133573  
   0.850957500    -0.1790996    0.7458367  
   0.852957400    -0.0653643    0.7619681  
   0.854957300     0.0504887    0.7610090  
   0.856957200     0.1655028    0.7423534  
   0.858957100     0.2767701    0.7066539  
   0.860957000     0.3818028    0.6541399  
   0.862956900     0.4774971    0.5855213  
   0.864956800     0.5621454    0.5033107  
   0.866956700     0.6331636    0.4087296  
   0.868956600     0.6884342    0.3033054  
   0.870956500     0.7276729    0.1901022  
   0.872956400     0.7486900    0.0712301  
   0.874956300     0.7503864   -0.0501623  
   0.876956200     0.7328230   -0.1712313  
   0.878956100     0.6957309   -0.2880909  
   0.880956000     0.6404248   -0.3975221  
   0.882955900     0.5678943   -0.4968470  
   0.884955800     0.4806710   -0.5828918  
   0.886955700     0.3806010   -0.6533910  
   0.888955600     0.2713003   -0.7067446  
   0.890955500     0.1556359   -0.7412782  
   0.892955400     0.0366940   -0.7571393  
   0.894955300    -0.0821363   -0.7537660  
