! MS46122B
! 2250307/22442219
! 7/22/2025 7:52:00 AM
! C:\USERS\SPARKY\DOCUMENTS\VNA_DATA\JULY22_2025\3K\ECAL_OPEN_A_REPEAT.S1P
! CHANNEL.1
! TR.MEASUREMENT
! RAW.DATA
# GHZ S RI R 50.0
! FREQ.GHZ         S11RE         S11IM         
!; PortSelection: Port_1
   0.001000000     1.0454700   -0.0724176  
   0.002999900     0.9479330   -0.2219237  
   0.004999800     0.8089032   -0.0891730  
   0.006999700     0.5256607   -0.4045829  
   0.008999600     0.9405451   -0.0006245  
   0.010999500     0.9261580   -0.2272917  
   0.012999400     0.8866224   -0.3359947  
   0.014999300     0.8468848   -0.4178351  
   0.016999200     0.8068174   -0.4886121  
   0.018999100     0.7641680   -0.5542178  
   0.020999000     0.7175269   -0.6152729  
   0.022998900     0.6657864   -0.6712660  
   0.024998800     0.6001194   -0.6873914  
   0.026998700     0.5464265   -0.7696543  
   0.028998600     0.4771185   -0.8112083  
   0.030998500     0.4010887   -0.8463984  
   0.032998400     0.3208705   -0.8402027  
   0.034998300     0.2277324   -0.8943577  
   0.036998200     0.1308251   -0.9040670  
   0.038998100     0.0279968   -0.9023699  
   0.040998000    -0.0799662   -0.8865849  
   0.042997900    -0.1915988   -0.8558204  
   0.044997800    -0.2822869   -0.7853479  
   0.046997700    -0.4174200   -0.7370528  
   0.048997600    -0.5247692   -0.6456730  
   0.050997500    -0.6226565   -0.5294001  
   0.052997400    -0.7036695   -0.3876440  
   0.054997300    -0.7599212   -0.2214125  
   0.056997200    -0.7813619   -0.0320962  
   0.058997100    -0.7574295    0.1691306  
   0.060997000    -0.6810398    0.3691515  
   0.062996900    -0.5504820    0.5512788  
   0.064996800    -0.3710920    0.6956227  
   0.066996700    -0.1572512    0.7872312  
   0.068996600     0.0704847    0.8172396  
   0.070996500     0.2925876    0.7875571  
   0.072996400     0.4912103    0.7053739  
   0.074996300     0.6544500    0.5843242  
   0.076996200     0.7776321    0.4384625  
   0.078996100     0.8612269    0.2810004  
   0.080996000     0.9077936    0.1206499  
   0.082995900     0.9230924   -0.0344648  
   0.084995800     0.9108062   -0.1793977  
   0.086995700     0.8780995   -0.3122113  
   0.088995600     0.8278893   -0.4318003  
   0.090995500     0.7646511   -0.5369514  
   0.092995400     0.6916779   -0.6292571  
   0.094995300     0.6094323   -0.7070143  
   0.096995200     0.5212054   -0.7714243  
   0.098995100     0.4279072   -0.8235353  
   0.100995000     0.3313136   -0.8629497  
   0.102994900     0.2325750   -0.8902809  
   0.104994800     0.1323729   -0.9061087  
   0.106994700     0.0309748   -0.9098440  
   0.108994600    -0.0697507   -0.9031315  
   0.110994500    -0.1694417   -0.8846792  
   0.112994400    -0.2673367   -0.8546337  
   0.114994300    -0.3624471   -0.8128194  
   0.116994200    -0.4530982   -0.7593954  
   0.118994100    -0.5386626   -0.6937733  
   0.120994000    -0.6186479   -0.6177756  
   0.122993900    -0.6892598   -0.5285553  
   0.124993800    -0.7495490   -0.4279656  
   0.126993700    -0.7973225   -0.3163275  
   0.128993600    -0.8287427   -0.1949213  
   0.130993500    -0.8441321   -0.0655321  
   0.132993400    -0.8403071    0.0696383  
   0.134993300    -0.8139763    0.2078907  
   0.136993200    -0.7641367    0.3449692  
   0.138993100    -0.6889079    0.4765361  
   0.140993000    -0.5886930    0.5970321  
   0.142992900    -0.4646410    0.7007733  
   0.144992800    -0.3202800    0.7829140  
   0.146992700    -0.1590393    0.8359929  
   0.148992600     0.0125366    0.8567321  
   0.150992500     0.1854379    0.8424427  
   0.152992400     0.3532335    0.7953118  
   0.154992300     0.5073627    0.7163289  
   0.156992200     0.6417099    0.6096348  
   0.158992100     0.7511450    0.4816706  
   0.160992000     0.8321154    0.3382133  
   0.162991900     0.8842971    0.1860884  
   0.164991800     0.9077525    0.0316710  
   0.166991700     0.9034337   -0.1190726  
   0.168991600     0.8747241   -0.2622119  
   0.170991500     0.8246437   -0.3944912  
   0.172991400     0.7564621   -0.5132070  
   0.174991300     0.6738711   -0.6160842  
   0.176991200     0.5794715   -0.7034718  
   0.178991100     0.4759196   -0.7740843  
   0.180991000     0.3673206   -0.8290884  
   0.182990900     0.2539289   -0.8660945  
   0.184990800     0.1386510   -0.8877468  
   0.186990700     0.0231265   -0.8936366  
   0.188990600    -0.0655061   -0.8855065  
   0.190990500    -0.1969804   -0.8604181  
   0.192990400    -0.3065061   -0.8214403  
   0.194990300    -0.4065228   -0.7702127  
   0.196990200    -0.4988584   -0.7065741  
   0.198990100    -0.5823570   -0.6312237  
   0.200990000    -0.6561596   -0.5446523  
   0.202989900    -0.7186220   -0.4476024  
   0.204989800    -0.7684350   -0.3417930  
   0.206989700    -0.8050290   -0.2292934  
   0.208989600    -0.8246140   -0.1103469  
   0.210989500    -0.8270242    0.0132371  
   0.212989400    -0.8115013    0.1390053  
   0.214989300    -0.7768102    0.2639384  
   0.216989200    -0.7222170    0.3842950  
   0.218989100    -0.6482901    0.4974134  
   0.220989000    -0.5548890    0.5999686  
   0.222988900    -0.4431009    0.6880158  
   0.224988800    -0.3152494    0.7581785  
   0.226988700    -0.1753994    0.8062263  
   0.228988600    -0.0275944    0.8294896  
   0.230988500     0.1243889    0.8266723  
   0.232988400     0.2742253    0.7955308  
   0.234988300     0.4177579    0.7391354  
   0.236988200     0.5491917    0.6577903  
   0.238988100     0.6634133    0.5550109  
   0.240988000     0.7567462    0.4346117  
   0.242987900     0.8266859    0.3016941  
   0.244987800     0.8719814    0.1603980  
   0.246987700     0.8926492    0.0161037  
   0.248987600     0.8886090   -0.1273919  
   0.250987500     0.8620738   -0.2654699  
   0.252987400     0.8146282   -0.3943619  
   0.254987300     0.7498114   -0.5110895  
   0.256987200     0.6699563   -0.6137631  
   0.258987100     0.5787170   -0.7028066  
   0.260987000     0.4768336   -0.7750260  
   0.262986900     0.3676457   -0.8312110  
   0.264986800     0.2535945   -0.8708373  
   0.266986700     0.1370711   -0.8938167  
   0.268986600     0.0207227   -0.9010822  
   0.270986500    -0.0933757   -0.8929223  
   0.272986400    -0.2041437   -0.8701985  
   0.274986300    -0.3102898   -0.8335992  
   0.276986200    -0.4104219   -0.7837708  
   0.278986100    -0.5038149   -0.7211934  
   0.280986000    -0.5883043   -0.6468031  
   0.282985900    -0.6631764   -0.5617122  
   0.284985800    -0.7264029   -0.4664617  
   0.286985700    -0.7767064   -0.3630734  
   0.288985600    -0.8128866   -0.2533317  
   0.290985500    -0.8342151   -0.1385352  
   0.292985400    -0.8395448   -0.0199178  
   0.294985300    -0.8276197    0.1008973  
   0.296985200    -0.7974551    0.2219727  
   0.298985100    -0.7480607    0.3406657  
   0.300985000    -0.6784117    0.4525835  
   0.302984900    -0.5899653    0.5543715  
   0.304984800    -0.4828938    0.6418079  
   0.306984700    -0.3594866    0.7104830  
   0.308984600    -0.2237361    0.7566243  
   0.310984500    -0.0801701    0.7765321  
   0.312984400     0.0661902    0.7680066  
   0.314984300     0.2081865    0.7303469  
   0.316984200     0.3381874    0.6646869  
   0.318984100     0.4494087    0.5744610  
   0.320984000     0.5356587    0.4670671  
   0.322983900     0.5938917    0.3511038  
   0.324983800     0.6247779    0.2361721  
   0.326983700     0.6343926    0.1304408  
   0.328983600     0.6304544    0.0368675  
   0.330983500     0.6210458   -0.0450034  
   0.332983400     0.6109301   -0.1198423  
   0.334983300     0.6012279   -0.1942533  
   0.336983200     0.5884855   -0.2730936  
   0.338983100     0.5679339   -0.3581643  
   0.340983000     0.5336406   -0.4474086  
   0.342982900     0.4826072   -0.5366067  
   0.344982800     0.4129611   -0.6206779  
   0.346982700     0.3252852   -0.6943263  
   0.348982600     0.2232197   -0.7516932  
   0.350982500     0.1106587   -0.7917815  
   0.352982400    -0.0080795   -0.8117632  
   0.354982300    -0.1348281   -0.8108154  
   0.356982200    -0.2731165   -0.7831101  
   0.358982100    -0.4036147   -0.7305527  
   0.360982000    -0.5212523   -0.6561939  
   0.362981900    -0.6232808   -0.5625213  
   0.364981800    -0.7077125   -0.4529260  
   0.366981700    -0.7713810   -0.3310636  
   0.368981600    -0.8132770   -0.2002681  
   0.370981500    -0.8326523   -0.0646443  
   0.372981400    -0.8291469    0.0720409  
   0.374981300    -0.8025898    0.2065715  
   0.376981200    -0.8329968    0.0727695  
   0.378981100    -0.8060338    0.2114936  
   0.380981000    -0.7556179    0.3449538  
   0.382980900    -0.6908597    0.4572041  
   0.384980800    -0.6130021    0.5546728  
   0.386980700    -0.5205321    0.6407604  
   0.388980600    -0.4147591    0.7126298  
   0.390980500    -0.2986005    0.7681967  
   0.392980400    -0.1744731    0.8053907  
   0.394980300    -0.0447410    0.8231413  
   0.396980200     0.0875726    0.8206313  
   0.398980100     0.2190984    0.7967747  
   0.400980000     0.3463041    0.7520961  
   0.402979900     0.4662260    0.6867679  
   0.404979800     0.5743009    0.6028093  
   0.406979700     0.6676511    0.5014379  
   0.408979600     0.7436821    0.3860861  
   0.410979500     0.7995131    0.2589566  
   0.412979400     0.8339975    0.1238078  
   0.414979300     0.8442662   -0.0148952  
   0.416979200     0.8325348   -0.1527945  
   0.418979100     0.7986133   -0.2858481  
   0.420979000     0.7435339   -0.4106060  
   0.422978900     0.6696376   -0.5240256  
   0.424978800     0.5789015   -0.6229413  
   0.426978700     0.4747112   -0.7051639  
   0.428978600     0.3603123   -0.7689266  
   0.430978500     0.2394571   -0.8134176  
   0.432978400     0.1151536   -0.8382388  
   0.434978300    -0.0098467   -0.8455586  
   0.436978200    -0.1329088   -0.8323987  
   0.438978100    -0.2510017   -0.8017235  
   0.440978000    -0.3627293   -0.7544479  
   0.442977900    -0.4650395   -0.6919980  
   0.444977800    -0.5564424   -0.6159122  
   0.446977700    -0.6357919   -0.5282226  
   0.448977600    -0.7014216   -0.4305339  
   0.450977500    -0.7524488   -0.3246593  
   0.452977400    -0.7878988   -0.2123407  
   0.454977300    -0.8068125   -0.0952589  
   0.456977200    -0.8090361    0.0238964  
   0.458977100    -0.7936421    0.1430471  
   0.460977000    -0.7611114    0.2588471  
   0.462976900    -0.7114154    0.3692257  
   0.464976800    -0.6453055    0.4716516  
   0.466976700    -0.5641269    0.5638828  
   0.468976600    -0.4689822    0.6438386  
   0.470976500    -0.3613896    0.7088846  
   0.472976400    -0.2442082    0.7567383  
   0.474976300    -0.1195956    0.7859142  
   0.476976200     0.0091865    0.7953600  
   0.478976100     0.1384556    0.7838619  
   0.480976000     0.2647071    0.7518605  
   0.482975900     0.3846194    0.6994672  
   0.484975800     0.4946564    0.6277947  
   0.486975700     0.5917951    0.5391740  
   0.488975600     0.6731763    0.4354908  
   0.490975500     0.7360950    0.3199478  
   0.492975400     0.7787575    0.1959522  
   0.494975300     0.8001801    0.0677307  
   0.496975200     0.8007607   -0.0612564  
   0.498975100     0.7800533   -0.1866466  
   0.500975000     0.7404491   -0.3054654  
   0.502974900     0.6837870   -0.4140444  
   0.504974800     0.6119967   -0.5108663  
   0.506974700     0.5277529   -0.5943365  
   0.508974600     0.4332597   -0.6634663  
   0.510974500     0.3319426   -0.7172694  
   0.512974400     0.2262471   -0.7553282  
   0.514974300     0.1188418   -0.7765452  
   0.516974200     0.0112084   -0.7846829  
   0.518974100    -0.0945122   -0.7788571  
   0.520974000    -0.1981091   -0.7601252  
   0.522973900    -0.2978774   -0.7285079  
   0.524973800    -0.3931981   -0.6843346  
   0.526973700    -0.4834867   -0.6277735  
   0.528973600    -0.5664436   -0.5590528  
   0.530973500    -0.6407558   -0.4780497  
   0.532973400    -0.7038475   -0.3862079  
   0.534973300    -0.7538010   -0.2844774  
   0.536973200    -0.7884718   -0.1741361  
   0.538973100    -0.8061588   -0.0592768  
   0.540973000    -0.8063420    0.0580070  
   0.542972900    -0.7883667    0.1751318  
   0.544972800    -0.7523205    0.2887291  
   0.546972700    -0.6987420    0.3966219  
   0.548972600    -0.6286187    0.4956170  
   0.550972500    -0.5437961    0.5830729  
   0.552972400    -0.4460764    0.6568271  
   0.554972300    -0.3374886    0.7149632  
   0.556972200    -0.2204074    0.7557707  
   0.558972100    -0.0982276    0.7782747  
   0.560972000     0.0264713    0.7815560  
   0.562971900     0.1505821    0.7653748  
   0.564971800     0.2710403    0.7300700  
   0.566971700     0.3846304    0.6764162  
   0.568971600     0.4888904    0.6052382  
   0.570971500     0.5809856    0.5183835  
   0.572971400     0.6588131    0.4172251  
   0.574971300     0.7196291    0.3047006  
   0.576971200     0.7617719    0.1827541  
   0.578971100     0.7837846    0.0553323  
   0.580971000     0.7850147   -0.0739722  
   0.582970900     0.7657193   -0.2013864  
   0.584970800     0.7260855   -0.3236462  
   0.586970700     0.6678963   -0.4368390  
   0.588970600     0.5928439   -0.5390003  
   0.590970500     0.5030677   -0.6274496  
   0.592970400     0.4015165   -0.7002464  
   0.594970300     0.2905273   -0.7559134  
   0.596970200     0.1732613   -0.7928184  
   0.598970100     0.0524439   -0.8118296  
   0.600970000    -0.0688862   -0.8123730  
   0.602969900    -0.1877079   -0.7945644  
   0.604969800    -0.3021892   -0.7594737  
   0.606969700    -0.4094627   -0.7080392  
   0.608969600    -0.5072544   -0.6418273  
   0.610969500    -0.5940884   -0.5624976  
   0.612969400    -0.6676586   -0.4719370  
   0.614969300    -0.7268229   -0.3725714  
   0.616969200    -0.7711729   -0.2664734  
   0.618969100    -0.7997316   -0.1560782  
   0.620969000    -0.8128143   -0.0434917  
   0.622968900    -0.8096543    0.0701613  
   0.624968800    -0.7908959    0.1824143  
   0.626968700    -0.7563415    0.2914307  
   0.628968600    -0.7065632    0.3950613  
   0.630968500    -0.6423244    0.4911177  
   0.632968400    -0.5642514    0.5776893  
   0.634968300    -0.4741221    0.6529763  
   0.636968200    -0.3730298    0.7148631  
   0.638968100    -0.2631794    0.7616426  
   0.640968000    -0.1466107    0.7919540  
   0.642967900    -0.0256437    0.8046525  
   0.644967800     0.0973090    0.7992736  
   0.646967700     0.2187484    0.7752654  
   0.648967600     0.3356264    0.7324513  
   0.650967500     0.4456356    0.6718163  
   0.652967400     0.5454208    0.5947422  
   0.654967300     0.6323234    0.5022357  
   0.656967200     0.7039887    0.3970576  
   0.658967100     0.7585273    0.2813440  
   0.660967000     0.7941812    0.1576540  
   0.662966900     0.8097702    0.0289711  
   0.664966800     0.8045025   -0.1011372  
   0.666966700     0.7782320   -0.2289723  
   0.668966600     0.7319922   -0.3504838  
   0.670966500     0.6669972   -0.4629165  
   0.672966400     0.5865899   -0.5636820  
   0.674966300     0.4910315   -0.6483226  
   0.676966200     0.3844303   -0.7162505  
   0.678966100     0.2697410   -0.7659905  
   0.680966000     0.1502917   -0.7969944  
   0.682965900     0.0288442   -0.8092498  
   0.684965800    -0.0917639   -0.8030870  
   0.686965700    -0.2087232   -0.7788682  
   0.688965600    -0.3197718   -0.7381608  
   0.690965500    -0.4217666   -0.6811270  
   0.692965400    -0.5141317   -0.6118083  
   0.694965300    -0.5947095   -0.5301546  
   0.696965200    -0.6621654   -0.4389549  
   0.698965100    -0.7157454   -0.3391284  
   0.700965000    -0.7544556   -0.2333713  
   0.702964900    -0.7774200   -0.1230354  
   0.704964800    -0.7848271   -0.0106736  
   0.706964700    -0.7757757    0.1018056  
   0.708964600    -0.7504851    0.2119449  
   0.710964500    -0.7100437    0.3183870  
   0.712964400    -0.6536119    0.4178615  
   0.714964300    -0.5825789    0.5082943  
   0.716964200    -0.4989867    0.5875569  
   0.718964100    -0.4037693    0.6540004  
   0.720964000    -0.2996467    0.7051796  
   0.722963900    -0.1884383    0.7404884  
   0.724963800    -0.0726020    0.7582206  
   0.726963700     0.0455267    0.7581686  
   0.728963600     0.1627936    0.7391797  
   0.730963500     0.2756060    0.7013910  
   0.732963400     0.3813451    0.6468195  
   0.734963300     0.4781517    0.5760709  
   0.736963200     0.5742348    0.4770952  
   0.738963100     0.6511405    0.3619862  
   0.740963000     0.7058938    0.2352533  
   0.742962900     0.7364686    0.1020158  
   0.744962800     0.7429193   -0.0337653  
   0.746962700     0.7251137   -0.1670809  
   0.748962600     0.6844391   -0.2940993  
   0.750962500     0.7099125   -0.1798155  
   0.752962400     0.6687721   -0.3045098  
   0.754962300     0.6071252   -0.4195447  
   0.756962200     0.5275169   -0.5219321  
   0.758962100     0.4322663   -0.6081090  
   0.760962000     0.3240134   -0.6771889  
   0.762961900     0.2119786   -0.7249051  
   0.764961800     0.1047988   -0.7524068  
   0.766961700    -0.0052389   -0.7646434  
   0.768961600    -0.1162148   -0.7606315  
   0.770961500    -0.2257694   -0.7406134  
   0.772961400    -0.3312729   -0.7044259  
   0.774961300    -0.4305495   -0.6538600  
   0.776961200    -0.5218371   -0.5886530  
   0.778961100    -0.6026980   -0.5102024  
   0.780961000    -0.6711265   -0.4203031  
   0.782960900    -0.7258948   -0.3205956  
   0.784960800    -0.7650856   -0.2133298  
   0.786960700    -0.7876378   -0.1009268  
   0.788960600    -0.7933757    0.0138416  
   0.790960500    -0.7816961    0.1284075  
   0.792960400    -0.7527731    0.2398015  
   0.794960300    -0.7074816    0.3457918  
   0.796960200    -0.6472117    0.4438607  
   0.798960100    -0.5730115    0.5316518  
   0.800960000    -0.4864268    0.6074522  
   0.802959900    -0.3892143    0.6698020  
   0.804959800    -0.2840408    0.7168506  
   0.806959700    -0.1725997    0.7477236  
   0.808959600    -0.0577436    0.7619094  
   0.810959500     0.0584354    0.7589862  
   0.812959400     0.1733472    0.7380691  
   0.814959300     0.2845322    0.7000443  
   0.816959200     0.3892657    0.6452588  
   0.818959100     0.4848551    0.5748067  
   0.820959000     0.5688704    0.4901268  
   0.822958900     0.6394905    0.3926385  
   0.824958800     0.6941635    0.2852035  
   0.826958700     0.7317838    0.1697361  
   0.828958600     0.7508938    0.0494293  
   0.830958500     0.7503512   -0.0728481  
   0.832958400     0.7307410   -0.1936543  
   0.834958300     0.6922005   -0.3096928  
   0.836958200     0.6354966   -0.4178928  
   0.838958100     0.5626410   -0.5159954  
   0.840958000     0.4752586   -0.6012444  
   0.842957900     0.3756289   -0.6715428  
   0.844957800     0.2666209   -0.7248828  
   0.846957700     0.1511217   -0.7601704  
   0.848957600     0.0317765   -0.7769217  
   0.850957500    -0.0879854   -0.7749630  
   0.852957400    -0.2053329   -0.7545736  
   0.854957300    -0.3171293   -0.7166724  
   0.856957200    -0.4210897   -0.6626362  
   0.858957100    -0.5150206   -0.5940611  
   0.860957000    -0.5967444   -0.5130211  
   0.862956900    -0.6647748   -0.4220011  
   0.864956800    -0.7183461   -0.3231374  
   0.866956700    -0.7568074   -0.2185404  
   0.868956600    -0.7792024   -0.1103877  
   0.870956500    -0.7863296   -0.0007760  
   0.872956400    -0.7778453    0.1086944  
   0.874956300    -0.7539147    0.2153804  
   0.876956200    -0.7152627    0.3182170  
   0.878956100    -0.6626508    0.4146096  
   0.880956000    -0.5965152    0.5028102  
   0.882955900    -0.5185075    0.5812874  
   0.884955800    -0.4293135    0.6480970  
   0.886955700    -0.3312321    0.7019845  
   0.888955600    -0.2256639    0.7410377  
   0.890955500    -0.1149450    0.7649376  
   0.892955400    -0.0012563    0.7723112  
   0.894955300     0.1134169    0.7628979  
