! MS46122B
! 2250307/22442219
! 7/23/2025 7:46:51 AM
! C:\USERS\SPARKY\DOCUMENTS\VNA_DATA\JULY23_2025\3K\ECAL_LOAD_B.S1P
! CHANNEL.1
! TR.MEASUREMENT
! RAW.DATA
# GHZ S RI R 50.0
! FREQ.GHZ         S11RE         S11IM         
!; PortSelection: Port_1
   0.001000000     1.0455210   -0.0719991  
   0.002999900     0.9527317   -0.1942966  
   0.004999800     0.8776295   -0.2786316  
   0.006999700     0.7926231   -0.3677777  
   0.008999600     0.7018229   -0.4072461  
   0.010999500     0.6249980   -0.4338686  
   0.012999400     0.5575140   -0.4495161  
   0.014999300     0.4994211   -0.4571110  
   0.016999200     0.4494004   -0.4586572  
   0.018999100     0.4067373   -0.4552258  
   0.020999000     0.3712402   -0.4490096  
   0.022998900     0.3408866   -0.4413620  
   0.024998800     0.3101593   -0.4110402  
   0.026998700     0.2924631   -0.4225750  
   0.028998600     0.2726996   -0.4125526  
   0.030998500     0.2549042   -0.4025379  
   0.032998400     0.2354143   -0.3752220  
   0.034998300     0.2232605   -0.3828928  
   0.036998200     0.2094253   -0.3735536  
   0.038998100     0.1965319   -0.3646789  
   0.040998000     0.1843102   -0.3561403  
   0.042997900     0.1727572   -0.3479489  
   0.044997800     0.1605887   -0.3261311  
   0.046997700     0.1504774   -0.3330069  
   0.048997600     0.1404760   -0.3258848  
   0.050997500     0.1310159   -0.3190246  
   0.052997400     0.1227994   -0.3119526  
   0.054997300     0.1134949   -0.3060608  
   0.056997200     0.1054365   -0.3000938  
   0.058997100     0.0979137   -0.2943374  
   0.060997000     0.0907657   -0.2889127  
   0.062996900     0.0839148   -0.2836882  
   0.064996800     0.0776689   -0.2786429  
   0.066996700     0.0717680   -0.2737320  
   0.068996600     0.0661950   -0.2689284  
   0.070996500     0.0609646   -0.2644549  
   0.072996400     0.0559819   -0.2597846  
   0.074996300     0.0512210   -0.2551853  
   0.076996200     0.0467214   -0.2505642  
   0.078996100     0.0424301   -0.2459366  
   0.080996000     0.0381745   -0.2413422  
   0.082995900     0.0340935   -0.2367418  
   0.084995800     0.0302744   -0.2318508  
   0.086995700     0.0264328   -0.2270897  
   0.088995600     0.0230101   -0.2224182  
   0.090995500     0.0197974   -0.2177498  
   0.092995400     0.0167949   -0.2132849  
   0.094995300     0.0139444   -0.2086416  
   0.096995200     0.0113789   -0.2039818  
   0.098995100     0.0090042   -0.1994187  
   0.100995000     0.0056592   -0.1956826  
   0.102994900     0.0036155   -0.1912031  
   0.104994800     0.0018266   -0.1868527  
   0.106994700     0.0004194   -0.1824726  
   0.108994600    -0.0007714   -0.1783731  
   0.110994500    -0.0017387   -0.1744309  
   0.112994400    -0.0024952   -0.1706925  
   0.114994300    -0.0030461   -0.1671073  
   0.116994200    -0.0034490   -0.1637185  
   0.118994100    -0.0036944   -0.1605357  
   0.120994000    -0.0036168   -0.1576729  
   0.122993900    -0.0036763   -0.1548262  
   0.124993800    -0.0036817   -0.1522597  
   0.126993700    -0.0036440   -0.1499940  
   0.128993600    -0.0035934   -0.1478782  
   0.130993500    -0.0035270   -0.1460379  
   0.132993400    -0.0035692   -0.1443565  
   0.134993300    -0.0036439   -0.1429117  
   0.136993200    -0.0038615   -0.1416315  
   0.138993100    -0.0042210   -0.1404853  
   0.140993000    -0.0047180   -0.1394353  
   0.142992900    -0.0054234   -0.1384588  
   0.144992800    -0.0062346   -0.1376546  
   0.146992700    -0.0072628   -0.1367659  
   0.148992600    -0.0084747   -0.1358753  
   0.150992500    -0.0097739   -0.1347714  
   0.152992400    -0.0113136   -0.1337217  
   0.154992300    -0.0129815   -0.1325378  
   0.156992200    -0.0147617   -0.1311819  
   0.158992100    -0.0166238   -0.1296361  
   0.160992000    -0.0185556   -0.1278837  
   0.162991900    -0.0205128   -0.1259130  
   0.164991800    -0.0224559   -0.1236879  
   0.166991700    -0.0243223   -0.1212228  
   0.168991600    -0.0261028   -0.1184777  
   0.170991500    -0.0277799   -0.1154934  
   0.172991400    -0.0292047   -0.1122883  
   0.174991300    -0.0303729   -0.1088849  
   0.176991200    -0.0312908   -0.1052667  
   0.178991100    -0.0318963   -0.1015095  
   0.180991000    -0.0321629   -0.0976406  
   0.182990900    -0.0320475   -0.0936741  
   0.184990800    -0.0315112   -0.0896647  
   0.186990700    -0.0305637   -0.0856749  
   0.188990600    -0.0274407   -0.0824356  
   0.190990500    -0.0271637   -0.0781120  
   0.192990400    -0.0251703   -0.0744712  
   0.194990300    -0.0225654   -0.0711968  
   0.196990200    -0.0195787   -0.0682499  
   0.198990100    -0.0162757   -0.0656888  
   0.200990000    -0.0126783   -0.0635349  
   0.202989900    -0.0088536   -0.0618538  
   0.204989800    -0.0048485   -0.0606808  
   0.206989700    -0.0007463   -0.0600480  
   0.208989600     0.0034131   -0.0599726  
   0.210989500     0.0075846   -0.0604460  
   0.212989400     0.0116227   -0.0614891  
   0.214989300     0.0155582   -0.0630735  
   0.216989200     0.0191846   -0.0651830  
   0.218989100     0.0225053   -0.0677679  
   0.220989000     0.0254428   -0.0708084  
   0.222988900     0.0279384   -0.0742655  
   0.224988800     0.0299224   -0.0780802  
   0.226988700     0.0313642   -0.0821739  
   0.228988600     0.0322338   -0.0864724  
   0.230988500     0.0325654   -0.0908852  
   0.232988400     0.0322762   -0.0952488  
   0.234988300     0.0313896   -0.0997066  
   0.236988200     0.0298625   -0.1040226  
   0.238988100     0.0277975   -0.1081655  
   0.240988000     0.0252127   -0.1120410  
   0.242987900     0.0221953   -0.1156099  
   0.244987800     0.0187135   -0.1187694  
   0.246987700     0.0148187   -0.1214999  
   0.248987600     0.0105539   -0.1237353  
   0.250987500     0.0060403   -0.1255190  
   0.252987400     0.0014311   -0.1267086  
   0.254987300    -0.0032227   -0.1274013  
   0.256987200    -0.0079299   -0.1276205  
   0.258987100    -0.0125597   -0.1271982  
   0.260987000    -0.0170666   -0.1262384  
   0.262986900    -0.0213615   -0.1247422  
   0.264986800    -0.0253897   -0.1227951  
   0.266986700    -0.0291101   -0.1204644  
   0.268986600    -0.0323980   -0.1177788  
   0.270986500    -0.0352054   -0.1148940  
   0.272986400    -0.0375532   -0.1118317  
   0.274986300    -0.0394833   -0.1087064  
   0.276986200    -0.0408912   -0.1055187  
   0.278986100    -0.0419097   -0.1023648  
   0.280986000    -0.0424615   -0.0992756  
   0.282985900    -0.0425643   -0.0963486  
   0.284985800    -0.0422709   -0.0937147  
   0.286985700    -0.0416354   -0.0914188  
   0.288985600    -0.0406837   -0.0895167  
   0.290985500    -0.0395163   -0.0881836  
   0.292985400    -0.0382479   -0.0873481  
   0.294985300    -0.0369507   -0.0869797  
   0.296985200    -0.0358116   -0.0870863  
   0.298985100    -0.0349189   -0.0876874  
   0.300985000    -0.0343463   -0.0887052  
   0.302984900    -0.0342201   -0.0902740  
   0.304984800    -0.0345818   -0.0921670  
   0.306984700    -0.0355458   -0.0944349  
   0.308984600    -0.0371843   -0.0969071  
   0.310984500    -0.0395576   -0.0994545  
   0.312984400    -0.0428741   -0.1018423  
   0.314984300    -0.0471048   -0.1038935  
   0.316984200    -0.0523993   -0.1053689  
   0.318984100    -0.0587350   -0.1057957  
   0.320984000    -0.0657684   -0.1047999  
   0.322983900    -0.0732531   -0.1021122  
   0.324983800    -0.0805996   -0.0974059  
   0.326983700    -0.0870765   -0.0907377  
   0.328983600    -0.0919212   -0.0824706  
   0.330983500    -0.0944421   -0.0733357  
   0.332983400    -0.0945089   -0.0643515  
   0.334983300    -0.0925337   -0.0564277  
   0.336983200    -0.0892238   -0.0501011  
   0.338983100    -0.0854956   -0.0453992  
   0.340983000    -0.0819761   -0.0421524  
   0.342982900    -0.0789939   -0.0398547  
   0.344982800    -0.0766964   -0.0379092  
   0.346982700    -0.0750915   -0.0359833  
   0.348982600    -0.0737199   -0.0339391  
   0.350982500    -0.0728208   -0.0316393  
   0.352982400    -0.0720183   -0.0291114  
   0.354982300    -0.0712706   -0.0258824  
   0.356982200    -0.0705520   -0.0212954  
   0.358982100    -0.0692322   -0.0166604  
   0.360982000    -0.0673939   -0.0121984  
   0.362981900    -0.0649686   -0.0079431  
   0.364981800    -0.0619402   -0.0039661  
   0.366981700    -0.0584058   -0.0004206  
   0.368981600    -0.0543832    0.0026615  
   0.370981500    -0.0499940    0.0051189  
   0.372981400    -0.0454501    0.0068569  
   0.374981300    -0.0407893    0.0078702  
   0.376981200    -0.0393842   -0.0024375  
   0.378981100    -0.0349626   -0.0013425  
   0.380981000    -0.0305351   -0.0010416  
   0.382980900    -0.0263314   -0.0018217  
   0.384980800    -0.0224251   -0.0033213  
   0.386980700    -0.0188467   -0.0053413  
   0.388980600    -0.0156797   -0.0078306  
   0.390980500    -0.0129475   -0.0107800  
   0.392980400    -0.0107067   -0.0141300  
   0.394980300    -0.0090390   -0.0177110  
   0.396980200    -0.0079662   -0.0214878  
   0.398980100    -0.0075111   -0.0253042  
   0.400980000    -0.0076621   -0.0290689  
   0.402979900    -0.0084632   -0.0327118  
   0.404979800    -0.0097944   -0.0361368  
   0.406979700    -0.0116747   -0.0392228  
   0.408979600    -0.0140110   -0.0418935  
   0.410979500    -0.0167894   -0.0440727  
   0.412979400    -0.0200442   -0.0457200  
   0.414979300    -0.0235696   -0.0467149  
   0.416979200    -0.0272390   -0.0470294  
   0.418979100    -0.0309077   -0.0467213  
   0.420979000    -0.0345559   -0.0457621  
   0.422978900    -0.0380682   -0.0441120  
   0.424978800    -0.0413598   -0.0418016  
   0.426978700    -0.0443678   -0.0389567  
   0.428978600    -0.0468519   -0.0354787  
   0.430978500    -0.0487370   -0.0315381  
   0.432978400    -0.0499908   -0.0272726  
   0.434978300    -0.0505610   -0.0228807  
   0.436978200    -0.0504392   -0.0182519  
   0.438978100    -0.0495604   -0.0135716  
   0.440978000    -0.0479718   -0.0089490  
   0.442977900    -0.0455983   -0.0045035  
   0.444977800    -0.0425247   -0.0003514  
   0.446977700    -0.0387491    0.0034079  
   0.448977600    -0.0343683    0.0066590  
   0.450977500    -0.0294115    0.0093094  
   0.452977400    -0.0240243    0.0112811  
   0.454977300    -0.0182987    0.0125053  
   0.456977200    -0.0123591    0.0128848  
   0.458977100    -0.0062952    0.0124022  
   0.460977000    -0.0001960    0.0109940  
   0.462976900     0.0057071    0.0086848  
   0.464976800     0.0113136    0.0054874  
   0.466976700     0.0164872    0.0014157  
   0.468976600     0.0211081   -0.0034182  
   0.470976500     0.0250375   -0.0089713  
   0.472976400     0.0282145   -0.0151481  
   0.474976300     0.0304946   -0.0217887  
   0.476976200     0.0318723   -0.0287954  
   0.478976100     0.0324088   -0.0361909  
   0.480976000     0.0318634   -0.0434702  
   0.482975900     0.0303311   -0.0505915  
   0.484975800     0.0278545   -0.0575463  
   0.486975700     0.0243398   -0.0641368  
   0.488975600     0.0198629   -0.0704065  
   0.490975500     0.0145145   -0.0759775  
   0.492975400     0.0084971   -0.0807329  
   0.494975300     0.0017553   -0.0846064  
   0.496975200    -0.0055990   -0.0875831  
   0.498975100    -0.0132416   -0.0894401  
   0.500975000    -0.0211381   -0.0902575  
   0.502974900    -0.0291362   -0.0899338  
   0.504974800    -0.0370877   -0.0884722  
   0.506974700    -0.0448469   -0.0858703  
   0.508974600    -0.0525333   -0.0821158  
   0.510974500    -0.0596420   -0.0774109  
   0.512974400    -0.0658454   -0.0717012  
   0.514974300    -0.0710995   -0.0650861  
   0.516974200    -0.0752701   -0.0578990  
   0.518974100    -0.0782380   -0.0501277  
   0.520974000    -0.0800502   -0.0418187  
   0.522973900    -0.0806365   -0.0336581  
   0.524973800    -0.0799902   -0.0255650  
   0.526973700    -0.0781428   -0.0176982  
   0.528973600    -0.0751712   -0.0103240  
   0.530973500    -0.0711869   -0.0034984  
   0.532973400    -0.0662639    0.0025479  
   0.534973300    -0.0605446    0.0077385  
   0.536973200    -0.0541984    0.0119713  
   0.538973100    -0.0472880    0.0152007  
   0.540973000    -0.0401029    0.0173357  
   0.542972900    -0.0327343    0.0183997  
   0.544972800    -0.0253394    0.0183490  
   0.546972700    -0.0181210    0.0171992  
   0.548972600    -0.0111792    0.0149475  
   0.550972500    -0.0046912    0.0116346  
   0.552972400     0.0011800    0.0073529  
   0.554972300     0.0063381    0.0021839  
   0.556972200     0.0106386   -0.0037645  
   0.558972100     0.0140944   -0.0103744  
   0.560972000     0.0165231   -0.0174188  
   0.562971900     0.0178084   -0.0248647  
   0.564971800     0.0179940   -0.0324376  
   0.566971700     0.0169216   -0.0399128  
   0.568971600     0.0147622   -0.0471647  
   0.570971500     0.0114327   -0.0540838  
   0.572971400     0.0069396   -0.0605362  
   0.574971300     0.0013335   -0.0663986  
   0.576971200    -0.0051555   -0.0714956  
   0.578971100    -0.0123725   -0.0757314  
   0.580971000    -0.0202677   -0.0788408  
   0.582970900    -0.0285564   -0.0808510  
   0.584970800    -0.0371706   -0.0815093  
   0.586970700    -0.0459778   -0.0808369  
   0.588970600    -0.0547275   -0.0788202  
   0.590970500    -0.0631270   -0.0756245  
   0.592970400    -0.0711283   -0.0712983  
   0.594970300    -0.0785815   -0.0658566  
   0.596970200    -0.0852331   -0.0593473  
   0.598970100    -0.0910118   -0.0518907  
   0.600970000    -0.0957630   -0.0436220  
   0.602969900    -0.0994036   -0.0346752  
   0.604969800    -0.1018321   -0.0252091  
   0.606969700    -0.1029940   -0.0153997  
   0.608969600    -0.1028043   -0.0054243  
   0.610969500    -0.1012286    0.0045473  
   0.612969400    -0.0982594    0.0141900  
   0.614969300    -0.0940105    0.0233994  
   0.616969200    -0.0885763    0.0319375  
   0.618969100    -0.0820364    0.0397261  
   0.620969000    -0.0745569    0.0465534  
   0.622968900    -0.0661743    0.0523436  
   0.624968800    -0.0571659    0.0569583  
   0.626968700    -0.0475127    0.0602334  
   0.628968600    -0.0375686    0.0623371  
   0.630968500    -0.0273410    0.0631222  
   0.632968400    -0.0172494    0.0622483  
   0.634968300    -0.0073518    0.0601224  
   0.636968200     0.0020826    0.0565258  
   0.638968100     0.0110841    0.0517454  
   0.640968000     0.0191810    0.0456651  
   0.642967900     0.0262294    0.0387370  
   0.644967800     0.0321884    0.0309063  
   0.646967700     0.0369374    0.0224029  
   0.648967600     0.0403569    0.0134260  
   0.650967500     0.0424306    0.0042107  
   0.652967400     0.0431041   -0.0051195  
   0.654967300     0.0425804   -0.0144815  
   0.656967200     0.0406869   -0.0234682  
   0.658967100     0.0373514   -0.0321204  
   0.660967000     0.0329510   -0.0399485  
   0.662966900     0.0274746   -0.0470863  
   0.664966800     0.0210336   -0.0533549  
   0.666966700     0.0137788   -0.0586086  
   0.668966600     0.0057471   -0.0626881  
   0.670966500    -0.0026666   -0.0655257  
   0.672966400    -0.0110294   -0.0671272  
   0.674966300    -0.0195615   -0.0672623  
   0.676966200    -0.0279256   -0.0661120  
   0.678966100    -0.0359290   -0.0636724  
   0.680966000    -0.0434170   -0.0600465  
   0.682965900    -0.0501602   -0.0553672  
   0.684965800    -0.0561174   -0.0497236  
   0.686965700    -0.0611230   -0.0432306  
   0.688965600    -0.0650188   -0.0361732  
   0.690965500    -0.0677928   -0.0287172  
   0.692965400    -0.0693120   -0.0209315  
   0.694965300    -0.0696441   -0.0130475  
   0.696965200    -0.0687473   -0.0052528  
   0.698965100    -0.0666343    0.0022833  
   0.700965000    -0.0633324    0.0092948  
   0.702964900    -0.0590443    0.0159151  
   0.704964800    -0.0537930    0.0216412  
   0.706964700    -0.0475991    0.0264854  
   0.708964600    -0.0406332    0.0302126  
   0.710964500    -0.0332964    0.0329533  
   0.712964400    -0.0256476    0.0343322  
   0.714964300    -0.0178262    0.0344647  
   0.716964200    -0.0101377    0.0334227  
   0.718964100    -0.0027893    0.0312134  
   0.720964000     0.0040742    0.0278633  
   0.722963900     0.0103533    0.0233969  
   0.724963800     0.0159640    0.0182243  
   0.726963700     0.0206284    0.0122333  
   0.728963600     0.0242364    0.0056215  
   0.730963500     0.0266972   -0.0016676  
   0.732963400     0.0280695   -0.0090842  
   0.734963300     0.0284117   -0.0167316  
   0.736963200     0.0280429   -0.0255046  
   0.738963100     0.0261683   -0.0339127  
   0.740963000     0.0228030   -0.0420023  
   0.742962900     0.0181092   -0.0492127  
   0.744962800     0.0122648   -0.0554117  
   0.746962700     0.0055526   -0.0603804  
   0.748962600    -0.0018293   -0.0641615  
   0.750962500    -0.0038935   -0.0628417  
   0.752962400    -0.0114591   -0.0662866  
   0.754962300    -0.0195583   -0.0683139  
   0.756962200    -0.0279544   -0.0688421  
   0.758962100    -0.0364116   -0.0678669  
   0.760962000    -0.0446871   -0.0653830  
   0.762961900    -0.0522868   -0.0617839  
   0.764961800    -0.0591324   -0.0576143  
   0.766961700    -0.0653602   -0.0524838  
   0.768961600    -0.0707990   -0.0465224  
   0.770961500    -0.0753603   -0.0398403  
   0.772961400    -0.0790284   -0.0325879  
   0.774961300    -0.0817607   -0.0248216  
   0.776961200    -0.0833388   -0.0165899  
   0.778961100    -0.0836116   -0.0085083  
   0.780961000    -0.0827410   -0.0004831  
   0.782960900    -0.0806321    0.0073623  
   0.784960800    -0.0773169    0.0148191  
   0.786960700    -0.0728180    0.0217074  
   0.788960600    -0.0673676    0.0279572  
   0.790960500    -0.0610439    0.0333436  
   0.792960400    -0.0540449    0.0376145  
   0.794960300    -0.0464749    0.0407816  
   0.796960200    -0.0386651    0.0427811  
   0.798960100    -0.0305677    0.0434789  
   0.800960000    -0.0226004    0.0430236  
   0.802959900    -0.0148353    0.0413080  
   0.804959800    -0.0075576    0.0384411  
   0.806959700    -0.0009936    0.0344790  
   0.808959600     0.0049837    0.0295055  
   0.810959500     0.0100493    0.0236445  
   0.812959400     0.0141861    0.0170412  
   0.814959300     0.0171723    0.0098357  
   0.816959200     0.0190286    0.0021280  
   0.818959100     0.0197004   -0.0058321  
   0.820959000     0.0190285   -0.0136964  
   0.822958900     0.0170832   -0.0214794  
   0.824958800     0.0139669   -0.0290260  
   0.826958700     0.0096542   -0.0358663  
   0.828958600     0.0042735   -0.0419554  
   0.830958500    -0.0020669   -0.0472182  
   0.832958400    -0.0092200   -0.0514204  
   0.834958300    -0.0170363   -0.0545282  
   0.836958200    -0.0253305   -0.0564032  
   0.838958100    -0.0339092   -0.0570148  
   0.840958000    -0.0425711   -0.0563532  
   0.842957900    -0.0511497   -0.0543016  
   0.844957800    -0.0594637   -0.0509108  
   0.846957700    -0.0671186   -0.0463380  
   0.848957600    -0.0740733   -0.0406136  
   0.850957500    -0.0802497   -0.0338694  
   0.852957400    -0.0854349   -0.0260375  
   0.854957300    -0.0893812   -0.0176646  
   0.856957200    -0.0920990   -0.0087587  
   0.858957100    -0.0934290    0.0005514  
   0.860957000    -0.0934553    0.0099521  
   0.862956900    -0.0923220    0.0192010  
   0.864956800    -0.0899796    0.0281159  
   0.866956700    -0.0864664    0.0365585  
   0.868956600    -0.0817593    0.0443104  
   0.870956500    -0.0760274    0.0514733  
   0.872956400    -0.0693122    0.0577555  
   0.874956300    -0.0618319    0.0628669  
   0.876956200    -0.0535388    0.0669816  
   0.878956100    -0.0447549    0.0698345  
   0.880956000    -0.0356422    0.0714380  
   0.882955900    -0.0264267    0.0716973  
   0.884955800    -0.0173015    0.0706249  
   0.886955700    -0.0082752    0.0682805  
   0.888955600     0.0000326    0.0647256  
   0.890955500     0.0076199    0.0599930  
   0.892955400     0.0143280    0.0542690  
   0.894955300     0.0200033    0.0476799  
