! MS46122B
! 2250307/22442219
! 7/25/2025 1:34:49 PM
! C:\USERS\SPARKY\DOCUMENTS\VNA_DATA\JULY25_2025\3K\ECAL_LOAD_D.S1P
! CHANNEL.1
! TR.MEASUREMENT
! RAW.DATA
# GHZ S RI R 50.0
! FREQ.GHZ         S11RE         S11IM         
!; PortSelection: Port_1
   0.001000000     1.0444590   -0.0723416  
   0.002999900     0.9517334   -0.1944846  
   0.004999800     0.8764040   -0.2785503  
   0.006999700     0.7914541   -0.3673868  
   0.008999600     0.7007229   -0.4060186  
   0.010999500     0.6242289   -0.4321443  
   0.012999400     0.5575911   -0.4474676  
   0.014999300     0.5004391   -0.4552087  
   0.016999200     0.4505983   -0.4567264  
   0.018999100     0.4085472   -0.4537801  
   0.020999000     0.3734237   -0.4480741  
   0.022998900     0.3431994   -0.4408194  
   0.024998800     0.3122221   -0.4112203  
   0.026998700     0.2944519   -0.4232329  
   0.028998600     0.2743488   -0.4136513  
   0.030998500     0.2561404   -0.4039424  
   0.032998400     0.2361161   -0.3767946  
   0.034998300     0.2234570   -0.3845085  
   0.036998200     0.2091144   -0.3751616  
   0.038998100     0.1957281   -0.3660875  
   0.040998000     0.1830804   -0.3573051  
   0.042997900     0.1713011   -0.3487873  
   0.044997800     0.1586642   -0.3265452  
   0.046997700     0.1483870   -0.3328942  
   0.048997600     0.1382737   -0.3252319  
   0.050997500     0.1287596   -0.3178279  
   0.052997400     0.1199167   -0.3106642  
   0.054997300     0.1119116   -0.3035981  
   0.056997200     0.1037201   -0.2973069  
   0.058997100     0.0965656   -0.2911878  
   0.060997000     0.0897714   -0.2853663  
   0.062996900     0.0834567   -0.2798441  
   0.064996800     0.0777244   -0.2745872  
   0.066996700     0.0723689   -0.2695346  
   0.068996600     0.0673425   -0.2646853  
   0.070996500     0.0627195   -0.2602532  
   0.072996400     0.0582582   -0.2557074  
   0.074996300     0.0540397   -0.2513036  
   0.076996200     0.0499963   -0.2470139  
   0.078996100     0.0461232   -0.2427504  
   0.080996000     0.0422700   -0.2386142  
   0.082995900     0.0384525   -0.2344862  
   0.084995800     0.0349234   -0.2301545  
   0.086995700     0.0311840   -0.2259645  
   0.088995600     0.0277025   -0.2218007  
   0.090995500     0.0244600   -0.2176647  
   0.092995400     0.0213173   -0.2137499  
   0.094995300     0.0182870   -0.2095972  
   0.096995200     0.0153509   -0.2054541  
   0.098995100     0.0125993   -0.2012809  
   0.100995000     0.0088216   -0.1979161  
   0.102994900     0.0064145   -0.1937414  
   0.104994800     0.0040427   -0.1895403  
   0.106994700     0.0020554   -0.1852699  
   0.108994600     0.0003255   -0.1811716  
   0.110994500    -0.0011962   -0.1771853  
   0.112994400    -0.0024831   -0.1732726  
   0.114994300    -0.0035389   -0.1694471  
   0.116994200    -0.0043862   -0.1657509  
   0.118994100    -0.0050131   -0.1622085  
   0.120994000    -0.0052572   -0.1588990  
   0.122993900    -0.0055768   -0.1556013  
   0.124993800    -0.0057777   -0.1524814  
   0.126993700    -0.0058187   -0.1496790  
   0.128993600    -0.0057500   -0.1469985  
   0.130993500    -0.0056285   -0.1445808  
   0.132993400    -0.0054841   -0.1424304  
   0.134993300    -0.0053120   -0.1404817  
   0.136993200    -0.0052166   -0.1387207  
   0.138993100    -0.0051841   -0.1371824  
   0.140993000    -0.0052177   -0.1358362  
   0.142992900    -0.0054126   -0.1346700  
   0.144992800    -0.0056880   -0.1337046  
   0.146992700    -0.0061781   -0.1327555  
   0.148992600    -0.0068085   -0.1318513  
   0.150992500    -0.0075835   -0.1308730  
   0.152992400    -0.0086106   -0.1299962  
   0.154992300    -0.0097383   -0.1290525  
   0.156992200    -0.0110859   -0.1280192  
   0.158992100    -0.0125659   -0.1268954  
   0.160992000    -0.0141482   -0.1255973  
   0.162991900    -0.0158271   -0.1241191  
   0.164991800    -0.0176000   -0.1224258  
   0.166991700    -0.0193507   -0.1205179  
   0.168991600    -0.0210922   -0.1183655  
   0.170991500    -0.0228311   -0.1159469  
   0.172991400    -0.0244295   -0.1132816  
   0.174991300    -0.0258411   -0.1103936  
   0.176991200    -0.0270373   -0.1072641  
   0.178991100    -0.0280399   -0.1039477  
   0.180991000    -0.0287373   -0.1004669  
   0.182990900    -0.0291047   -0.0967939  
   0.184990800    -0.0291082   -0.0930273  
   0.186990700    -0.0286943   -0.0892218  
   0.188990600    -0.0260537   -0.0859934  
   0.190990500    -0.0264488   -0.0816615  
   0.192990400    -0.0250417   -0.0779086  
   0.194990300    -0.0229785   -0.0744330  
   0.196990200    -0.0204858   -0.0712422  
   0.198990100    -0.0176405   -0.0683370  
   0.200990000    -0.0144440   -0.0657614  
   0.202989900    -0.0109457   -0.0636195  
   0.204989800    -0.0071975   -0.0619396  
   0.206989700    -0.0032819   -0.0607712  
   0.208989600     0.0008029   -0.0601213  
   0.210989500     0.0049571   -0.0600421  
   0.212989400     0.0091060   -0.0605120  
   0.214989300     0.0131498   -0.0615561  
   0.216989200     0.0170767   -0.0631537  
   0.218989100     0.0207290   -0.0653077  
   0.220989000     0.0240828   -0.0679521  
   0.222988900     0.0270210   -0.0710816  
   0.224988800     0.0295128   -0.0746291  
   0.226988700     0.0314976   -0.0785411  
   0.228988600     0.0329402   -0.0827321  
   0.230988500     0.0338255   -0.0871510  
   0.232988400     0.0340751   -0.0916255  
   0.234988300     0.0337206   -0.0962482  
   0.236988200     0.0327196   -0.1008132  
   0.238988100     0.0311013   -0.1052613  
   0.240988000     0.0289235   -0.1095048  
   0.242987900     0.0262269   -0.1135163  
   0.244987800     0.0230332   -0.1171710  
   0.246987700     0.0193536   -0.1204153  
   0.248987600     0.0151944   -0.1232058  
   0.250987500     0.0107207   -0.1255193  
   0.252987400     0.0060122   -0.1272790  
   0.254987300     0.0012752   -0.1285190  
   0.256987200    -0.0036306   -0.1292400  
   0.258987100    -0.0085181   -0.1293238  
   0.260987000    -0.0134021   -0.1288582  
   0.262986900    -0.0181157   -0.1276536  
   0.264986800    -0.0226340   -0.1259686  
   0.266986700    -0.0268141   -0.1238590  
   0.268986600    -0.0306241   -0.1213449  
   0.270986500    -0.0340084   -0.1185100  
   0.272986400    -0.0368527   -0.1154426  
   0.274986300    -0.0393139   -0.1122113  
   0.276986200    -0.0412743   -0.1088798  
   0.278986100    -0.0427711   -0.1054375  
   0.280986000    -0.0437042   -0.1020289  
   0.282985900    -0.0441908   -0.0987198  
   0.284985800    -0.0442176   -0.0956229  
   0.286985700    -0.0438450   -0.0928469  
   0.288985600    -0.0430224   -0.0904854  
   0.290985500    -0.0419434   -0.0885671  
   0.292985400    -0.0406409   -0.0871896  
   0.294985300    -0.0392669   -0.0863202  
   0.296985200    -0.0379189   -0.0858615  
   0.298985100    -0.0367892   -0.0859417  
   0.300985000    -0.0358890   -0.0865448  
   0.302984900    -0.0353473   -0.0876381  
   0.304984800    -0.0352333   -0.0892822  
   0.306984700    -0.0357185   -0.0912757  
   0.308984600    -0.0368008   -0.0935974  
   0.310984500    -0.0386689   -0.0961184  
   0.312984400    -0.0414260   -0.0985702  
   0.314984300    -0.0451283   -0.1007524  
   0.316984200    -0.0498158   -0.1023697  
   0.318984100    -0.0556740   -0.1030378  
   0.320984000    -0.0624039   -0.1023615  
   0.322983900    -0.0695292   -0.1000096  
   0.324983800    -0.0765782   -0.0956414  
   0.326983700    -0.0827861   -0.0894639  
   0.328983600    -0.0874278   -0.0816314  
   0.330983500    -0.0897948   -0.0729469  
   0.332983400    -0.0897570   -0.0644634  
   0.334983300    -0.0877371   -0.0570119  
   0.336983200    -0.0844400   -0.0511921  
   0.338983100    -0.0808363   -0.0470029  
   0.340983000    -0.0774213   -0.0442522  
   0.342982900    -0.0747133   -0.0424009  
   0.344982800    -0.0726979   -0.0409408  
   0.346982700    -0.0714937   -0.0394244  
   0.348982600    -0.0705501   -0.0377065  
   0.350982500    -0.0700868   -0.0357233  
   0.352982400    -0.0697875   -0.0333327  
   0.354982300    -0.0696199   -0.0302166  
   0.356982200    -0.0695088   -0.0256352  
   0.358982100    -0.0688927   -0.0209649  
   0.360982000    -0.0676323   -0.0162943  
   0.362981900    -0.0658054   -0.0117557  
   0.364981800    -0.0632341   -0.0074047  
   0.366981700    -0.0601442   -0.0034071  
   0.368981600    -0.0564971    0.0001769  
   0.370981500    -0.0522893    0.0031908  
   0.372981400    -0.0478809    0.0055284  
   0.374981300    -0.0431970    0.0071388  
   0.376981200    -0.0415476   -0.0033488  
   0.378981100    -0.0370658   -0.0016775  
   0.380981000    -0.0325430   -0.0007851  
   0.382980900    -0.0281296   -0.0010476  
   0.384980800    -0.0239351   -0.0020906  
   0.386980700    -0.0199729   -0.0037344  
   0.388980600    -0.0163985   -0.0058919  
   0.390980500    -0.0131971   -0.0085786  
   0.392980400    -0.0104748   -0.0116956  
   0.394980300    -0.0082652   -0.0152128  
   0.396980200    -0.0066478   -0.0189592  
   0.398980100    -0.0056744   -0.0228246  
   0.400980000    -0.0053124   -0.0267415  
   0.402979900    -0.0056133   -0.0305841  
   0.404979800    -0.0064765   -0.0342714  
   0.406979700    -0.0079477   -0.0377082  
   0.408979600    -0.0099449   -0.0407955  
   0.410979500    -0.0124826   -0.0434244  
   0.412979400    -0.0154434   -0.0454977  
   0.414979300    -0.0188265   -0.0470855  
   0.416979200    -0.0224445   -0.0479298  
   0.418979100    -0.0261881   -0.0481559  
   0.420979000    -0.0299465   -0.0476944  
   0.422978900    -0.0336329   -0.0465475  
   0.424978800    -0.0371766   -0.0447202  
   0.426978700    -0.0404410   -0.0422272  
   0.428978600    -0.0433714   -0.0392197  
   0.430978500    -0.0457062   -0.0355944  
   0.432978400    -0.0474266   -0.0315839  
   0.434978300    -0.0484842   -0.0273193  
   0.436978200    -0.0488971   -0.0227868  
   0.438978100    -0.0485463   -0.0181140  
   0.440978000    -0.0474581   -0.0134094  
   0.442977900    -0.0455940   -0.0088223  
   0.444977800    -0.0429994   -0.0044388  
   0.446977700    -0.0396773   -0.0003916  
   0.448977600    -0.0356716    0.0032231  
   0.450977500    -0.0310723    0.0062795  
   0.452977400    -0.0259584    0.0087231  
   0.454977300    -0.0204576    0.0104518  
   0.456977200    -0.0146242    0.0113543  
   0.458977100    -0.0086218    0.0113990  
   0.460977000    -0.0024811    0.0105340  
   0.462976900     0.0035590    0.0087598  
   0.464976800     0.0093544    0.0060534  
   0.466976700     0.0147853    0.0024740  
   0.468976600     0.0197857   -0.0019482  
   0.470976500     0.0241039   -0.0071738  
   0.472976400     0.0277388   -0.0130443  
   0.474976300     0.0305271   -0.0194767  
   0.476976200     0.0324078   -0.0263275  
   0.478976100     0.0334334   -0.0336267  
   0.480976000     0.0334610   -0.0409833  
   0.482975900     0.0324825   -0.0481876  
   0.484975800     0.0304738   -0.0553072  
   0.486975700     0.0274348   -0.0621517  
   0.488975600     0.0233731   -0.0687024  
   0.490975500     0.0183973   -0.0746548  
   0.492975400     0.0126636   -0.0798280  
   0.494975300     0.0061294   -0.0841668  
   0.496975200    -0.0010493   -0.0875929  
   0.498975100    -0.0086293   -0.0899706  
   0.500975000    -0.0165387   -0.0912680  
   0.502974900    -0.0245995   -0.0914552  
   0.504974800    -0.0326863   -0.0904417  
   0.506974700    -0.0406838   -0.0883027  
   0.508974600    -0.0484961   -0.0849952  
   0.510974500    -0.0560419   -0.0805453  
   0.512974400    -0.0626449   -0.0751745  
   0.514974300    -0.0682794   -0.0688077  
   0.516974200    -0.0729266   -0.0617769  
   0.518974100    -0.0763897   -0.0541717  
   0.520974000    -0.0786156   -0.0459863  
   0.522973900    -0.0796596   -0.0376377  
   0.524973800    -0.0794594   -0.0294604  
   0.526973700    -0.0780787   -0.0214661  
   0.528973600    -0.0755021   -0.0138625  
   0.530973500    -0.0719103   -0.0067637  
   0.532973400    -0.0673235   -0.0003879  
   0.534973300    -0.0618963    0.0051553  
   0.536973200    -0.0557753    0.0098176  
   0.538973100    -0.0490553    0.0134821  
   0.540973000    -0.0419320    0.0160915  
   0.542972900    -0.0346310    0.0176189  
   0.544972800    -0.0271695    0.0180898  
   0.546972700    -0.0198378    0.0174211  
   0.548972600    -0.0127334    0.0156198  
   0.550972500    -0.0059729    0.0127628  
   0.552972400     0.0002153    0.0088682  
   0.554972300     0.0057503    0.0040339  
   0.556972200     0.0104596   -0.0016743  
   0.558972100     0.0144010   -0.0080574  
   0.560972000     0.0173209   -0.0149717  
   0.562971900     0.0191020   -0.0223342  
   0.564971800     0.0198056   -0.0299488  
   0.566971700     0.0192400   -0.0375191  
   0.568971600     0.0175268   -0.0449545  
   0.570971500     0.0146673   -0.0521092  
   0.572971400     0.0106312   -0.0588747  
   0.574971300     0.0053754   -0.0651038  
   0.576971200    -0.0008975   -0.0706028  
   0.578971100    -0.0079196   -0.0752932  
   0.580971000    -0.0156615   -0.0789053  
   0.582970900    -0.0239041   -0.0814283  
   0.584970800    -0.0325059   -0.0825841  
   0.586970700    -0.0413136   -0.0824595  
   0.588970600    -0.0502727   -0.0809546  
   0.590970500    -0.0589282   -0.0781941  
   0.592970400    -0.0672330   -0.0741987  
   0.594970300    -0.0750218   -0.0690992  
   0.596970200    -0.0821177   -0.0628914  
   0.598970100    -0.0883244   -0.0556853  
   0.600970000    -0.0935468   -0.0475809  
   0.602969900    -0.0976684   -0.0387320  
   0.604969800    -0.1005902   -0.0293172  
   0.606969700    -0.1022749   -0.0194296  
   0.608969600    -0.1025556   -0.0093750  
   0.610969500    -0.1014529    0.0007891  
   0.612969400    -0.0989243    0.0107330  
   0.614969300    -0.0950360    0.0202727  
   0.616969200    -0.0899304    0.0291967  
   0.618969100    -0.0836711    0.0374152  
   0.620969000    -0.0763857    0.0447004  
   0.622968900    -0.0681210    0.0509774  
   0.624968800    -0.0591397    0.0560827  
   0.626968700    -0.0495119    0.0598632  
   0.628968600    -0.0394728    0.0624149  
   0.630968500    -0.0290651    0.0637072  
   0.632968400    -0.0187511    0.0633241  
   0.634968300    -0.0085595    0.0615723  
   0.636968200     0.0012515    0.0583802  
   0.638968100     0.0106451    0.0537747  
   0.640968000     0.0192151    0.0479976  
   0.642967900     0.0267425    0.0411981  
   0.644967800     0.0331975    0.0334244  
   0.646967700     0.0384458    0.0249112  
   0.648967600     0.0423597    0.0158633  
   0.650967500     0.0449115    0.0064655  
   0.652967400     0.0460621   -0.0030446  
   0.654967300     0.0459211   -0.0127422  
   0.656967200     0.0444022   -0.0220365  
   0.658967100     0.0413861   -0.0310493  
   0.660967000     0.0371819   -0.0394298  
   0.662966900     0.0318336   -0.0470875  
   0.664966800     0.0255085   -0.0538623  
   0.666966700     0.0182870   -0.0596388  
   0.668966600     0.0102915   -0.0642543  
   0.670966500     0.0015725   -0.0675826  
   0.672966400    -0.0070351   -0.0696827  
   0.674966300    -0.0158674   -0.0702469  
   0.676966200    -0.0245795   -0.0694576  
   0.678966100    -0.0330072   -0.0673448  
   0.680966000    -0.0409125   -0.0640043  
   0.682965900    -0.0481586   -0.0595139  
   0.684965800    -0.0546099   -0.0539795  
   0.686965700    -0.0601098   -0.0475499  
   0.688965600    -0.0645415   -0.0404194  
   0.690965500    -0.0678308   -0.0328568  
   0.692965400    -0.0698519   -0.0248861  
   0.694965300    -0.0706143   -0.0167484  
   0.696965200    -0.0701258   -0.0086189  
   0.698965100    -0.0683740   -0.0007247  
   0.700965000    -0.0653813    0.0067399  
   0.702964900    -0.0613067    0.0137535  
   0.704964800    -0.0562133    0.0199957  
   0.706964700    -0.0501276    0.0252962  
   0.708964600    -0.0431392    0.0295741  
   0.710964500    -0.0357225    0.0328282  
   0.712964400    -0.0279391    0.0346916  
   0.714964300    -0.0199016    0.0352825  
   0.716964200    -0.0119617    0.0346417  
   0.718964100    -0.0042510    0.0328044  
   0.720964000     0.0029362    0.0298349  
   0.722963900     0.0096450    0.0256481  
   0.724963800     0.0157515    0.0205771  
   0.726963700     0.0209354    0.0147290  
   0.728963600     0.0250109    0.0081324  
   0.730963500     0.0279369    0.0007747  
   0.732963400     0.0298005   -0.0067682  
   0.734963300     0.0305806   -0.0146202  
   0.736963200     0.0306756   -0.0237178  
   0.738963100     0.0291902   -0.0325333  
   0.740963000     0.0261893   -0.0410093  
   0.742962900     0.0217738   -0.0487834  
   0.744962800     0.0160218   -0.0555670  
   0.746962700     0.0093419   -0.0611090  
   0.748962600     0.0019229   -0.0654711  
   0.750962500     0.0001209   -0.0634424  
   0.752962400    -0.0074647   -0.0674760  
   0.754962300    -0.0156962   -0.0700737  
   0.756962200    -0.0243274   -0.0711490  
   0.758962100    -0.0331062   -0.0706602  
   0.760962000    -0.0417640   -0.0686104  
   0.762961900    -0.0498432   -0.0653603  
   0.764961800    -0.0571034   -0.0614187  
   0.766961700    -0.0637840   -0.0564795  
   0.768961600    -0.0697019   -0.0506189  
   0.770961500    -0.0747762   -0.0439849  
   0.772961400    -0.0788954   -0.0366723  
   0.774961300    -0.0820690   -0.0288278  
   0.776961200    -0.0841423   -0.0204954  
   0.778961100    -0.0848384   -0.0120668  
   0.780961000    -0.0843285   -0.0037384  
   0.782960900    -0.0825555    0.0044364  
   0.784960800    -0.0794931    0.0123004  
   0.786960700    -0.0752204    0.0196146  
   0.788960600    -0.0699300    0.0262383  
   0.790960500    -0.0636350    0.0322140  
   0.792960400    -0.0566307    0.0369819  
   0.794960300    -0.0489785    0.0406163  
   0.796960200    -0.0410304    0.0430810  
   0.798960100    -0.0327154    0.0442634  
   0.800960000    -0.0244390    0.0441422  
   0.802959900    -0.0163364    0.0427904  
   0.804959800    -0.0086357    0.0401986  
   0.806959700    -0.0016290    0.0364819  
   0.808959600     0.0048072    0.0316229  
   0.810959500     0.0103420    0.0258467  
   0.812959400     0.0150179    0.0192512  
   0.814959300     0.0184735    0.0119603  
   0.816959200     0.0208306    0.0041353  
   0.818959100     0.0219853   -0.0040512  
   0.820959000     0.0217089   -0.0122295  
   0.822958900     0.0201789   -0.0203100  
   0.824958800     0.0173549   -0.0283208  
   0.826958700     0.0133262   -0.0355920  
   0.828958600     0.0081429   -0.0422019  
   0.830958500     0.0018913   -0.0479597  
   0.832958400    -0.0052214   -0.0526969  
   0.834958300    -0.0130830   -0.0563210  
   0.836958200    -0.0214883   -0.0587299  
   0.838958100    -0.0302603   -0.0598426  
   0.840958000    -0.0391869   -0.0596048  
   0.842957900    -0.0480436   -0.0580017  
   0.844957800    -0.0567305   -0.0549658  
   0.846957700    -0.0648676   -0.0506555  
   0.848957600    -0.0722946   -0.0451599  
   0.850957500    -0.0789249   -0.0385881  
   0.852957400    -0.0846504   -0.0308852  
   0.854957300    -0.0891101   -0.0224302  
   0.856957200    -0.0923388   -0.0134143  
   0.858957100    -0.0941607   -0.0040017  
   0.860957000    -0.0946996    0.0055926  
   0.862956900    -0.0939441    0.0151373  
   0.864956800    -0.0919805    0.0243646  
   0.866956700    -0.0888039    0.0331655  
   0.868956600    -0.0843879    0.0413501  
   0.870956500    -0.0788573    0.0488604  
   0.872956400    -0.0722170    0.0556623  
   0.874956300    -0.0647840    0.0612853  
   0.876956200    -0.0564665    0.0659070  
   0.878956100    -0.0475782    0.0692490  
   0.880956000    -0.0382570    0.0713099  
   0.882955900    -0.0287703    0.0719844  
   0.884955800    -0.0193567    0.0712986  
   0.886955700    -0.0099228    0.0692890  
   0.888955600    -0.0012318    0.0659584  
   0.890955500     0.0068079    0.0614448  
   0.892955400     0.0140482    0.0558579  
   0.894955300     0.0202145    0.0493105  
