! MS46122B
! 2250307/22442219
! 7/23/2025 7:58:46 AM
! C:\USERS\SPARKY\DOCUMENTS\VNA_DATA\JULY23_2025\3K\ECAL_SHORT_B_REPEAT1.S1P
! CHANNEL.1
! TR.MEASUREMENT
! RAW.DATA
# GHZ S RI R 50.0
! FREQ.GHZ         S11RE         S11IM         
!; PortSelection: Port_1
   0.001000000     1.0459820   -0.0715721  
   0.002999900     0.9646113   -0.1941198  
   0.004999800     0.9048913   -0.2992057  
   0.006999700     0.8383980   -0.3969342  
   0.008999600     0.7612931   -0.4924968  
   0.010999500     0.6707937   -0.5838956  
   0.012999400     0.5615265   -0.6689679  
   0.014999300     0.4283466   -0.7426127  
   0.016999200     0.2642703   -0.7947013  
   0.018999100     0.0642688   -0.8087949  
   0.020999000    -0.1692847   -0.7567236  
   0.022998900    -0.4136799   -0.6004321  
   0.024998800    -0.5813428   -0.3079878  
   0.026998700    -0.6410154    0.0931908  
   0.028998600    -0.4549617    0.4811049  
   0.030998500    -0.1075202    0.7102711  
   0.032998400     0.2366109    0.7219702  
   0.034998300     0.5547917    0.6378727  
   0.036998200     0.7534496    0.4710487  
   0.038998100     0.8719936    0.2888750  
   0.040998000     0.9309061    0.1136113  
   0.042997900     0.9490319   -0.0461338  
   0.044997800     0.9081599   -0.1652653  
   0.046997700     0.9055517   -0.3133414  
   0.048997600     0.8603138   -0.4227273  
   0.050997500     0.8041354   -0.5177493  
   0.052997400     0.7412803   -0.5983457  
   0.054997300     0.6704479   -0.6711034  
   0.056997200     0.5953928   -0.7324043  
   0.058997100     0.5171047   -0.7837309  
   0.060997000     0.4353265   -0.8261159  
   0.062996900     0.3504764   -0.8601082  
   0.064996800     0.2632203   -0.8850561  
   0.066996700     0.1733915   -0.9010168  
   0.068996600     0.0814790   -0.9082631  
   0.070996500    -0.0116444   -0.9065451  
   0.072996400    -0.1058880   -0.8938311  
   0.074996300    -0.2008121   -0.8701922  
   0.076996200    -0.2951371   -0.8351120  
   0.078996100    -0.3876040   -0.7878339  
   0.080996000    -0.4767349   -0.7275565  
   0.082995900    -0.5610214   -0.6535622  
   0.084995800    -0.6376187   -0.5646834  
   0.086995700    -0.7049513   -0.4624895  
   0.088995600    -0.7599262   -0.3459458  
   0.090995500    -0.7982408   -0.2166032  
   0.092995400    -0.8175678   -0.0754839  
   0.094995300    -0.8117033    0.0738921  
   0.096995200    -0.7783330    0.2276815  
   0.098995100    -0.7138438    0.3790534  
   0.100995000    -0.6166238    0.5220551  
   0.102994900    -0.4891191    0.6454057  
   0.104994800    -0.3344463    0.7419943  
   0.106994700    -0.1592582    0.8038532  
   0.108994600     0.0263362    0.8272021  
   0.110994500     0.2125218    0.8100206  
   0.112994400     0.3888983    0.7531822  
   0.114994300     0.5460369    0.6624342  
   0.116994200     0.6770746    0.5441853  
   0.118994100     0.7779658    0.4063750  
   0.120994000     0.8495708    0.2579751  
   0.122993900     0.8883888    0.1048350  
   0.124993800     0.8987239   -0.0460456  
   0.126993700     0.8837126   -0.1901508  
   0.128993600     0.8455288   -0.3229592  
   0.130993500     0.7907133   -0.4435310  
   0.132993400     0.7210506   -0.5507032  
   0.134993300     0.6399944   -0.6426812  
   0.136993200     0.5494150   -0.7201073  
   0.138993100     0.4523163   -0.7823900  
   0.140993000     0.3505985   -0.8302383  
   0.142992900     0.2456244   -0.8638617  
   0.144992800     0.1395005   -0.8845279  
   0.146992700     0.0327866   -0.8909694  
   0.148992600    -0.0730992   -0.8841602  
   0.150992500    -0.1764098   -0.8634889  
   0.152992400    -0.2765816   -0.8316094  
   0.154992300    -0.3723433   -0.7873875  
   0.156992200    -0.4630917   -0.7319087  
   0.158992100    -0.5465535   -0.6649393  
   0.160992000    -0.6223479   -0.5870594  
   0.162991900    -0.6888499   -0.4987181  
   0.164991800    -0.7446194   -0.4005328  
   0.166991700    -0.7877490   -0.2936694  
   0.168991600    -0.8165078   -0.1793888  
   0.170991500    -0.8299154   -0.0586234  
   0.172991400    -0.8261960    0.0655368  
   0.174991300    -0.8035269    0.1913417  
   0.176991200    -0.7611716    0.3163188  
   0.178991100    -0.6977928    0.4366384  
   0.180991000    -0.6150223    0.5489662  
   0.182990900    -0.5116429    0.6481778  
   0.184990800    -0.3897684    0.7307581  
   0.186990700    -0.2525221    0.7928986  
   0.188990600    -0.1285032    0.8266361  
   0.190990500     0.0467181    0.8404765  
   0.192990400     0.2060660    0.8227520  
   0.194990300     0.3572700    0.7772989  
   0.196990200     0.4971810    0.7054840  
   0.198990100     0.6213568    0.6096935  
   0.200990000     0.7255873    0.4937866  
   0.202989900     0.8068951    0.3625230  
   0.204989800     0.8626480    0.2216132  
   0.206989700     0.8939153    0.0761721  
   0.208989600     0.8988613   -0.0685869  
   0.210989500     0.8799967   -0.2097910  
   0.212989400     0.8394732   -0.3428004  
   0.214989300     0.7800988   -0.4646623  
   0.216989200     0.7049792   -0.5728248  
   0.218989100     0.6167278   -0.6658992  
   0.220989000     0.5179419   -0.7436188  
   0.222988900     0.4110475   -0.8051168  
   0.224988800     0.2988050   -0.8501034  
   0.226988700     0.1835254   -0.8787237  
   0.228988600     0.0678378   -0.8912094  
   0.230988500    -0.0466143   -0.8874681  
   0.232988400    -0.1593139   -0.8680822  
   0.234988300    -0.2677547   -0.8352829  
   0.236988200    -0.3709247   -0.7884946  
   0.238988100    -0.4668139   -0.7287190  
   0.240988000    -0.5537143   -0.6566193  
   0.242987900    -0.6305818   -0.5736967  
   0.244987800    -0.6961700   -0.4805549  
   0.246987700    -0.7492578   -0.3780385  
   0.248987600    -0.7885957   -0.2673094  
   0.250987500    -0.8120764   -0.1500540  
   0.252987400    -0.8189411   -0.0291253  
   0.254987300    -0.8081097    0.0933706  
   0.256987200    -0.7788168    0.2150573  
   0.258987100    -0.7315565    0.3342664  
   0.260987000    -0.6637580    0.4470985  
   0.262986900    -0.5764486    0.5500011  
   0.264986800    -0.4715673    0.6396084  
   0.266986700    -0.3502530    0.7119530  
   0.268986600    -0.2165989    0.7631060  
   0.270986500    -0.0741100    0.7909431  
   0.272986400     0.0731506    0.7936054  
   0.274986300     0.2197933    0.7697369  
   0.276986200     0.3610048    0.7193279  
   0.278986100     0.4915739    0.6438629  
   0.280986000     0.6066162    0.5458078  
   0.282985900     0.7013000    0.4290483  
   0.284985800     0.7727019    0.2981188  
   0.286985700     0.8188547    0.1587164  
   0.288985600     0.8394825    0.0161913  
   0.290985500     0.8350203   -0.1244798  
   0.292985400     0.8077793   -0.2592652  
   0.294985300     0.7598680   -0.3848552  
   0.296985200     0.6933385   -0.4984001  
   0.298985100     0.6115415   -0.5982171  
   0.300985000     0.5178123   -0.6821533  
   0.302984900     0.4150689   -0.7490027  
   0.304984800     0.3063884   -0.7985610  
   0.306984700     0.1950379   -0.8309706  
   0.308984600     0.0836468   -0.8475482  
   0.310984500    -0.0259749   -0.8485674  
   0.312984400    -0.1323300   -0.8355119  
   0.314984300    -0.2340005   -0.8095137  
   0.316984200    -0.3301788   -0.7715300  
   0.318984100    -0.4206243   -0.7225429  
   0.320984000    -0.5039239   -0.6634837  
   0.322983900    -0.5796790   -0.5950381  
   0.324983800    -0.6473222   -0.5189773  
   0.326983700    -0.7062391   -0.4350101  
   0.328983600    -0.7559244   -0.3430233  
   0.330983500    -0.7954311   -0.2433540  
   0.332983400    -0.8222124   -0.1364764  
   0.334983300    -0.8331091   -0.0239106  
   0.336983200    -0.8267219    0.0923096  
   0.338983100    -0.8024173    0.2074569  
   0.340983000    -0.7601862    0.3184861  
   0.342982900    -0.7013578    0.4227878  
   0.344982800    -0.6272088    0.5179702  
   0.346982700    -0.5384810    0.6029321  
   0.348982600    -0.4366888    0.6731430  
   0.350982500    -0.3252797    0.7290935  
   0.352982400    -0.2051964    0.7682362  
   0.354982300    -0.0737536    0.7892922  
   0.356982200     0.0740142    0.7872465  
   0.358982100     0.2200233    0.7585576  
   0.360982000     0.3588762    0.7034003  
   0.362981900     0.4864266    0.6238424  
   0.364981800     0.5981363    0.5214590  
   0.366981700     0.6895316    0.3992023  
   0.368981600     0.7568642    0.2612929  
   0.370981500     0.7975288    0.1125897  
   0.372981400     0.8095102   -0.0413309  
   0.374981300     0.7921217   -0.1957546  
   0.376981200     0.8101305   -0.0870729  
   0.378981100     0.7833299   -0.2391680  
   0.380981000     0.7285601   -0.3824218  
   0.382980900     0.6566424   -0.5015401  
   0.384980800     0.5703614   -0.6011869  
   0.386980700     0.4704372   -0.6849386  
   0.388980600     0.3593620   -0.7505302  
   0.390980500     0.2419476   -0.7974971  
   0.392980400     0.1205755   -0.8249662  
   0.394980300    -0.0014153   -0.8337758  
   0.396980200    -0.1216786   -0.8242819  
   0.398980100    -0.2376868   -0.7978823  
   0.400980000    -0.3473576   -0.7549793  
   0.402979900    -0.4490008   -0.6972464  
   0.404979800    -0.5401634   -0.6267989  
   0.406979700    -0.6201368   -0.5445771  
   0.408979600    -0.6872283   -0.4527619  
   0.410979500    -0.7409829   -0.3522811  
   0.412979400    -0.7804692   -0.2445519  
   0.414979300    -0.8031383   -0.1321883  
   0.416979200    -0.8116630   -0.0172380  
   0.418979100    -0.8038435    0.0974229  
   0.420979000    -0.7796657    0.2103431  
   0.422978900    -0.7394963    0.3204813  
   0.424978800    -0.6832889    0.4241715  
   0.426978700    -0.6123721    0.5199836  
   0.428978600    -0.5272908    0.6053552  
   0.430978500    -0.4297854    0.6776746  
   0.432978400    -0.3221276    0.7353089  
   0.434978300    -0.2060352    0.7780003  
   0.436978200    -0.0831510    0.8016992  
   0.438978100     0.0432402    0.8065431  
   0.440978000     0.1703354    0.7917695  
   0.442977900     0.2949454    0.7568906  
   0.444977800     0.4131848    0.7026404  
   0.446977700     0.5224581    0.6299158  
   0.448977600     0.6191689    0.5400605  
   0.450977500     0.7004321    0.4354460  
   0.452977400     0.7642872    0.3185372  
   0.454977300     0.8084404    0.1920305  
   0.456977200     0.8316017    0.0598607  
   0.458977100     0.8326830   -0.0743774  
   0.460977000     0.8121654   -0.2059484  
   0.462976900     0.7713279   -0.3317862  
   0.464976800     0.7111336   -0.4480427  
   0.466976700     0.6342836   -0.5531105  
   0.468976600     0.5425942   -0.6430126  
   0.470976500     0.4390575   -0.7171702  
   0.472976400     0.3270863   -0.7736486  
   0.474976300     0.2089545   -0.8119254  
   0.476976200     0.0883221   -0.8318987  
   0.478976100    -0.0317399   -0.8336030  
   0.480976000    -0.1493817   -0.8180752  
   0.482975900    -0.2614567   -0.7862859  
   0.484975800    -0.3670578   -0.7393354  
   0.486975700    -0.4645185   -0.6783417  
   0.488975600    -0.5516888   -0.6051099  
   0.490975500    -0.6277133   -0.5205538  
   0.492975400    -0.6909852   -0.4262840  
   0.494975300    -0.7407556   -0.3240037  
   0.496975200    -0.7759116   -0.2152389  
   0.498975100    -0.7949075   -0.1030800  
   0.500975000    -0.7981983    0.0117171  
   0.502974900    -0.7848153    0.1265938  
   0.504974800    -0.7543927    0.2390515  
   0.506974700    -0.7072708    0.3474855  
   0.508974600    -0.6428676    0.4489033  
   0.510974500    -0.5628567    0.5399217  
   0.512974400    -0.4688582    0.6174219  
   0.514974300    -0.3628943    0.6781816  
   0.516974200    -0.2488937    0.7218785  
   0.518974100    -0.1297516    0.7463309  
   0.520974000    -0.0087218    0.7508489  
   0.522973900     0.1104326    0.7363597  
   0.524973800     0.2242928    0.7034860  
   0.526973700     0.3303769    0.6540253  
   0.528973600     0.4265124    0.5901842  
   0.530973500     0.5116263    0.5137239  
   0.532973400     0.5839072    0.4268367  
   0.534973300     0.6427425    0.3313030  
   0.536973200     0.6875926    0.2286100  
   0.538973100     0.7172709    0.1209245  
   0.540973000     0.7318050    0.0108123  
   0.542972900     0.7303994   -0.1011410  
   0.544972800     0.7125673   -0.2120942  
   0.546972700     0.6784062   -0.3202084  
   0.548972600     0.6282912   -0.4228817  
   0.550972500     0.5631841   -0.5174652  
   0.552972400     0.4836707   -0.6017975  
   0.554972300     0.3917857   -0.6733693  
   0.556972200     0.2897877   -0.7302335  
   0.558972100     0.1800219   -0.7711170  
   0.560972000     0.0655701   -0.7947684  
   0.562971900    -0.0506532   -0.8003922  
   0.564971800    -0.1662738   -0.7885424  
   0.566971700    -0.2779776   -0.7598534  
   0.568971600    -0.3841479   -0.7151990  
   0.570971500    -0.4821736   -0.6554077  
   0.572971400    -0.5702395   -0.5819486  
   0.574971300    -0.6469302   -0.4960890  
   0.576971200    -0.7102821   -0.4000784  
   0.578971100    -0.7593775   -0.2956289  
   0.580971000    -0.7925669   -0.1853733  
   0.582970900    -0.8094369   -0.0716543  
   0.584970800    -0.8095974    0.0431478  
   0.586970700    -0.7935134    0.1567232  
   0.588970600    -0.7613710    0.2669499  
   0.590970500    -0.7133703    0.3717024  
   0.592970400    -0.6505752    0.4691433  
   0.594970300    -0.5739464    0.5570735  
   0.596970200    -0.4849503    0.6333597  
   0.598970100    -0.3850486    0.6961632  
   0.600970000    -0.2757332    0.7440196  
   0.602969900    -0.1594536    0.7755145  
   0.604969800    -0.0384830    0.7894864  
   0.606969700     0.0844263    0.7846246  
   0.608969600     0.2066052    0.7603890  
   0.610969500     0.3244838    0.7170982  
   0.612969400     0.4351968    0.6554105  
   0.614969300     0.5352477    0.5763921  
   0.616969200     0.6214550    0.4823287  
   0.618969100     0.6916865    0.3752837  
   0.620969000     0.7441704    0.2585987  
   0.622968900     0.7769968    0.1345102  
   0.624968800     0.7894695    0.0063908  
   0.626968700     0.7807660   -0.1225078  
   0.628968600     0.7515208   -0.2480937  
   0.630968500     0.7025104   -0.3672423  
   0.632968400     0.6348814   -0.4762262  
   0.634968300     0.5510096   -0.5721694  
   0.636968200     0.4531947   -0.6532339  
   0.638968100     0.3450611   -0.7168084  
   0.640968000     0.2288546   -0.7623561  
   0.642967900     0.1082857   -0.7886436  
   0.644967800    -0.0132973   -0.7956492  
   0.646967700    -0.1335887   -0.7839723  
   0.648967600    -0.2489585   -0.7544280  
   0.650967500    -0.3571393   -0.7087466  
   0.652967400    -0.4560846   -0.6477862  
   0.654967300    -0.5442406   -0.5740415  
   0.656967200    -0.6199914   -0.4888126  
   0.658967100    -0.6822321   -0.3943733  
   0.660967000    -0.7300420   -0.2921221  
   0.662966900    -0.7628093   -0.1840894  
   0.664966800    -0.7794791   -0.0722982  
   0.666966700    -0.7801101    0.0406266  
   0.668966600    -0.7643089    0.1527314  
   0.670966500    -0.7327024    0.2619263  
   0.672966400    -0.6859769    0.3657080  
   0.674966300    -0.6240354    0.4616570  
   0.676966200    -0.5484407    0.5476348  
   0.678966100    -0.4606299    0.6221116  
   0.680966000    -0.3623117    0.6831383  
   0.682965900    -0.2549475    0.7293174  
   0.684965800    -0.1411695    0.7595707  
   0.686965700    -0.0228103    0.7719172  
   0.688965600     0.0971145    0.7663629  
   0.690965500     0.2155992    0.7410179  
   0.692965400     0.3296708    0.6983222  
   0.694965300     0.4364033    0.6381272  
   0.696965200     0.5331218    0.5609488  
   0.698965100     0.6168165    0.4689364  
   0.700965000     0.6850739    0.3643056  
   0.702964900     0.7356560    0.2493024  
   0.704964800     0.7671214    0.1276214  
   0.706964700     0.7787300    0.0020864  
   0.708964600     0.7698389   -0.1236921  
   0.710964500     0.7413541   -0.2460518  
   0.712964400     0.6931863   -0.3611401  
   0.714964300     0.6274691   -0.4663194  
   0.716964200     0.5468629   -0.5584881  
   0.718964100     0.4544289   -0.6352823  
   0.720964000     0.3527665   -0.6961076  
   0.722963900     0.2444250   -0.7401655  
   0.724963800     0.1327502   -0.7674161  
   0.726963700     0.0194352   -0.7778011  
   0.728963600    -0.0931521   -0.7716632  
   0.730963500    -0.2017386   -0.7488856  
   0.732963400    -0.3055747   -0.7125039  
   0.734963300    -0.4026910   -0.6617577  
   0.736963200    -0.5037988   -0.5869457  
   0.738963100    -0.5909954   -0.4963415  
   0.740963000    -0.6627330   -0.3933529  
   0.742962900    -0.7162530   -0.2797206  
   0.744962800    -0.7505447   -0.1584958  
   0.746962700    -0.7641162   -0.0328290  
   0.748962600    -0.7569818    0.0942867  
   0.750962500    -0.7765725   -0.0221743  
   0.752962400    -0.7668766    0.1060306  
   0.754962300    -0.7354810    0.2312780  
   0.756962200    -0.6831431    0.3502215  
   0.758962100    -0.6106514    0.4588511  
   0.760962000    -0.5202028    0.5536209  
   0.762961900    -0.4196490    0.6284841  
   0.764961800    -0.3189363    0.6813955  
   0.766961700    -0.2113743    0.7178643  
   0.768961600    -0.0987053    0.7378092  
   0.770961500     0.0151439    0.7408987  
   0.772961400     0.1282118    0.7262772  
   0.774961300     0.2374474    0.6950141  
   0.776961200     0.3411287    0.6472718  
   0.778961100     0.4366138    0.5848166  
   0.780961000     0.5221000    0.5078567  
   0.782960900     0.5952930    0.4183682  
   0.784960800     0.6546609    0.3184915  
   0.786960700     0.6980107    0.2102492  
   0.788960600     0.7244467    0.0962382  
   0.790960500     0.7329641   -0.0208066  
   0.792960400     0.7235030   -0.1377721  
   0.794960300     0.6958926   -0.2518020  
   0.796960200     0.6507832   -0.3604726  
   0.798960100     0.5897544   -0.4606496  
   0.800960000     0.5139747   -0.5499789  
   0.802959900     0.4253457   -0.6264243  
   0.804959800     0.3262108   -0.6884354  
   0.806959700     0.2191262   -0.7343725  
   0.808959600     0.1061333   -0.7633524  
   0.810959500    -0.0092478   -0.7746666  
   0.812959400    -0.1249913   -0.7682114  
   0.814959300    -0.2379663   -0.7442877  
   0.816959200    -0.3456446   -0.7040981  
   0.818959100    -0.4456498   -0.6481866  
   0.820959000    -0.5360062   -0.5783194  
   0.822958900    -0.6147255   -0.4958829  
   0.824958800    -0.6798864   -0.4031003  
   0.826958700    -0.7306511   -0.3021114  
   0.828958600    -0.7657022   -0.1947738  
   0.830958500    -0.7848834   -0.0842615  
   0.832958400    -0.7877041    0.0278716  
   0.834958300    -0.7743461    0.1385887  
   0.836958200    -0.7452636    0.2462585  
   0.838958100    -0.7007929    0.3481937  
   0.840958000    -0.6423115    0.4431340  
   0.842957900    -0.5704061    0.5290753  
   0.844957800    -0.4863907    0.6038339  
   0.846957700    -0.3921594    0.6660993  
   0.848957600    -0.2892931    0.7142175  
   0.850957500    -0.1798428    0.7468172  
   0.852957400    -0.0660048    0.7630334  
   0.854957300     0.0497854    0.7622104  
   0.856957200     0.1651374    0.7435909  
   0.858957100     0.2766763    0.7080010  
   0.860957000     0.3819678    0.6554422  
   0.862956900     0.4779013    0.5867565  
   0.864956800     0.5627629    0.5044127  
   0.866956700     0.6339778    0.4096470  
   0.868956600     0.6894104    0.3040347  
   0.870956500     0.7287087    0.1906347  
   0.872956400     0.7497604    0.0716443  
   0.874956300     0.7514219   -0.0499884  
   0.876956200     0.7338942   -0.1710779  
   0.878956100     0.6968278   -0.2881662  
   0.880956000     0.6413356   -0.3977332  
   0.882955900     0.5687688   -0.4972675  
   0.884955800     0.4815588   -0.5832978  
   0.886955700     0.3814327   -0.6538449  
   0.888955600     0.2720363   -0.7072592  
   0.890955500     0.1562435   -0.7418693  
   0.892955400     0.0370572   -0.7577872  
   0.894955300    -0.0817856   -0.7544397  
