! MS46122B
! 2250307/22442219
! 7/28/2025 2:05:57 PM
! C:\USERS\SPARKY\DOCUMENTS\VNA_DATA\JULY28_2025\3K\ECAL_OPEN_F_REPEAT1.S1P
! CHANNEL.1
! TR.MEASUREMENT
! RAW.DATA
# GHZ S RI R 50.0
! FREQ.GHZ         S11RE         S11IM         
!; PortSelection: Port_1
   0.001000000     1.0460960   -0.0731610  
   0.002999900     0.9482979   -0.2225338  
   0.004999800     0.8103936   -0.0893954  
   0.006999700     0.5277046   -0.4050380  
   0.008999600     0.9411054   -0.0011729  
   0.010999500     0.9267427   -0.2278554  
   0.012999400     0.8871560   -0.3364475  
   0.014999300     0.8473944   -0.4182715  
   0.016999200     0.8074793   -0.4889470  
   0.018999100     0.7650695   -0.5546414  
   0.020999000     0.7183220   -0.6155518  
   0.022998900     0.6666737   -0.6715161  
   0.024998800     0.6008351   -0.6877119  
   0.026998700     0.5474550   -0.7699752  
   0.028998600     0.4782343   -0.8116069  
   0.030998500     0.4023454   -0.8468947  
   0.032998400     0.3220077   -0.8407261  
   0.034998300     0.2289828   -0.8951270  
   0.036998200     0.1322792   -0.9051214  
   0.038998100     0.0294409   -0.9036353  
   0.040998000    -0.0785560   -0.8881950  
   0.042997900    -0.1902975   -0.8576651  
   0.044997800    -0.2812417   -0.7874174  
   0.046997700    -0.4164724   -0.7394993  
   0.048997600    -0.5242551   -0.6483579  
   0.050997500    -0.6225780   -0.5322776  
   0.052997400    -0.7041557   -0.3905675  
   0.054997300    -0.7610332   -0.2241865  
   0.056997200    -0.7830769   -0.0345717  
   0.058997100    -0.7596011    0.1671445  
   0.060997000    -0.6836528    0.3679371  
   0.062996900    -0.5530590    0.5508618  
   0.064996800    -0.3734108    0.6959721  
   0.066996700    -0.1590527    0.7881564  
   0.068996600     0.0693424    0.8185182  
   0.070996500     0.2920765    0.7888485  
   0.072996400     0.4912196    0.7065139  
   0.074996300     0.6547489    0.5851942  
   0.076996200     0.7781971    0.4391107  
   0.078996100     0.8618777    0.2812590  
   0.080996000     0.9085536    0.1208388  
   0.082995900     0.9238573   -0.0343901  
   0.084995800     0.9115636   -0.1795041  
   0.086995700     0.8788863   -0.3124363  
   0.088995600     0.8287211   -0.4320999  
   0.090995500     0.7654368   -0.5373388  
   0.092995400     0.6924368   -0.6297536  
   0.094995300     0.6103438   -0.7075976  
   0.096995200     0.5222008   -0.7721211  
   0.098995100     0.4288943   -0.8243999  
   0.100995000     0.3324295   -0.8638442  
   0.102994900     0.2335910   -0.8914192  
   0.104994800     0.1334412   -0.9074411  
   0.106994700     0.0319803   -0.9113622  
   0.108994600    -0.0688567   -0.9048547  
   0.110994500    -0.1687969   -0.8866109  
   0.112994400    -0.2667820   -0.8568231  
   0.114994300    -0.3620797   -0.8151806  
   0.116994200    -0.4532905   -0.7618537  
   0.118994100    -0.5390892   -0.6963624  
   0.120994000    -0.6193368   -0.6203319  
   0.122993900    -0.6902749   -0.5311036  
   0.124993800    -0.7508278   -0.4304157  
   0.126993700    -0.7991247   -0.3186902  
   0.128993600    -0.8308643   -0.1970705  
   0.130993500    -0.8466442   -0.0672467  
   0.132993400    -0.8430340    0.0683046  
   0.134993300    -0.8168850    0.2069472  
   0.136993200    -0.7669968    0.3446316  
   0.138993100    -0.6918239    0.4767807  
   0.140993000    -0.5914163    0.5977876  
   0.142992900    -0.4670509    0.7019903  
   0.144992800    -0.3222421    0.7845324  
   0.146992700    -0.1603862    0.8378724  
   0.148992600     0.0116068    0.8586789  
   0.150992500     0.1850016    0.8443787  
   0.152992400     0.3532663    0.7970872  
   0.154992300     0.5077260    0.7178710  
   0.156992200     0.6423559    0.6108849  
   0.158992100     0.7519653    0.4826013  
   0.160992000     0.8330743    0.3388116  
   0.162991900     0.8851351    0.1864872  
   0.164991800     0.9085416    0.0320021  
   0.166991700     0.9045224   -0.1188799  
   0.168991600     0.8757457   -0.2622488  
   0.170991500     0.8256410   -0.3947659  
   0.172991400     0.7575185   -0.5135661  
   0.174991300     0.6748587   -0.6167001  
   0.176991200     0.5804054   -0.7043185  
   0.178991100     0.4769039   -0.7750546  
   0.180991000     0.3682618   -0.8302332  
   0.182990900     0.2548394   -0.8674351  
   0.184990800     0.1394503   -0.8893031  
   0.186990700     0.0238924   -0.8953768  
   0.188990600    -0.0648648   -0.8873172  
   0.190990500    -0.1966771   -0.8625816  
   0.192990400    -0.3065642   -0.8236337  
   0.194990300    -0.4068168   -0.7726231  
   0.196990200    -0.4994817   -0.7090822  
   0.198990100    -0.5833379   -0.6337695  
   0.200990000    -0.6574664   -0.5471618  
   0.202989900    -0.7202852   -0.4500076  
   0.204989800    -0.7704613   -0.3440369  
   0.206989700    -0.8074442   -0.2312161  
   0.208989600    -0.8272779   -0.1118731  
   0.210989500    -0.8300355    0.0121209  
   0.212989400    -0.8147036    0.1381529  
   0.214989300    -0.7801410    0.2636077  
   0.216989200    -0.7255229    0.3844198  
   0.218989100    -0.6515369    0.4979995  
   0.220989000    -0.5578843    0.6010094  
   0.222988900    -0.4457723    0.6895900  
   0.224988800    -0.3176998    0.7598299  
   0.226988700    -0.1773775    0.8083183  
   0.228988600    -0.0290364    0.8317853  
   0.230988500     0.1233118    0.8290909  
   0.232988400     0.2736663    0.7978830  
   0.234988300     0.4177136    0.7413681  
   0.236988200     0.5494255    0.6598606  
   0.238988100     0.6639485    0.5566535  
   0.240988000     0.7574635    0.4362823  
   0.242987900     0.8276688    0.3029918  
   0.244987800     0.8730919    0.1614895  
   0.246987700     0.8938668    0.0169116  
   0.248987600     0.8899018   -0.1267824  
   0.250987500     0.8635381   -0.2653843  
   0.252987400     0.8160883   -0.3943043  
   0.254987300     0.7512110   -0.5111673  
   0.256987200     0.6712629   -0.6141360  
   0.258987100     0.5800853   -0.7033507  
   0.260987000     0.4781862   -0.7758238  
   0.262986900     0.3689660   -0.8323042  
   0.264986800     0.2547398   -0.8722727  
   0.266986700     0.1381897   -0.8955229  
   0.268986600     0.0215347   -0.9029508  
   0.270986500    -0.0928021   -0.8949890  
   0.272986400    -0.2038884   -0.8724470  
   0.274986300    -0.3103458   -0.8360063  
   0.276986200    -0.4107404   -0.7862945  
   0.278986100    -0.5045977   -0.7237777  
   0.280986000    -0.5895216   -0.6493047  
   0.282985900    -0.6647034   -0.5641960  
   0.284985800    -0.7283380   -0.4687864  
   0.286985700    -0.7790307   -0.3651560  
   0.288985600    -0.8156161   -0.2552495  
   0.290985500    -0.8370876   -0.1399571  
   0.292985400    -0.8427079   -0.0209739  
   0.294985300    -0.8309829    0.1002910  
   0.296985200    -0.8009054    0.2218327  
   0.298985100    -0.7515470    0.3411020  
   0.300985000    -0.6817588    0.4537063  
   0.302984900    -0.5931292    0.5557799  
   0.304984800    -0.4856698    0.6437806  
   0.306984700    -0.3620184    0.7127388  
   0.308984600    -0.2257407    0.7592444  
   0.310984500    -0.0816166    0.7794611  
   0.312984400     0.0653331    0.7710668  
   0.314984300     0.2080145    0.7335135  
   0.316984200     0.3387476    0.6677816  
   0.318984100     0.4506982    0.5772765  
   0.320984000     0.5375964    0.4693541  
   0.322983900     0.5964780    0.3523622  
   0.324983800     0.6273564    0.2363458  
   0.326983700     0.6367364    0.1295029  
   0.328983600     0.6319860    0.0350479  
   0.330983500     0.6215002   -0.0472402  
   0.332983400     0.6102898   -0.1217747  
   0.334983300     0.5997619   -0.1955861  
   0.336983200     0.5869309   -0.2734183  
   0.338983100     0.5665843   -0.3577182  
   0.340983000     0.5328581   -0.4464458  
   0.342982900     0.4824982   -0.5354803  
   0.344982800     0.4134421   -0.6197399  
   0.346982700     0.3263199   -0.6937252  
   0.348982600     0.2246553   -0.7515587  
   0.350982500     0.1122480   -0.7922594  
   0.352982400    -0.0067017   -0.8128619  
   0.354982300    -0.1336730   -0.8124614  
   0.356982200    -0.2724195   -0.7851395  
   0.358982100    -0.4033962   -0.7329078  
   0.360982000    -0.5216504   -0.6586306  
   0.362981900    -0.6242177   -0.5650391  
   0.364981800    -0.7092146   -0.4552760  
   0.366981700    -0.7737749   -0.3328966  
   0.368981600    -0.8159273   -0.2020449  
   0.370981500    -0.8355339   -0.0661023  
   0.372981400    -0.8323160    0.0712152  
   0.374981300    -0.8059360    0.2063664  
   0.376981200    -0.8363554    0.0720096  
   0.378981100    -0.8095124    0.2112908  
   0.380981000    -0.7590331    0.3453526  
   0.382980900    -0.6942072    0.4581171  
   0.384980800    -0.6160418    0.5561625  
   0.386980700    -0.5233487    0.6425876  
   0.388980600    -0.4170998    0.7148234  
   0.390980500    -0.3007520    0.7705770  
   0.392980400    -0.1760256    0.8079745  
   0.394980300    -0.0459374    0.8257653  
   0.396980200     0.0867156    0.8231189  
   0.398980100     0.2187559    0.7993069  
   0.400980000     0.3462619    0.7544641  
   0.402979900     0.4665630    0.6889753  
   0.404979800     0.5749228    0.6047257  
   0.406979700     0.6684581    0.5032768  
   0.408979600     0.7446300    0.3876317  
   0.410979500     0.8005543    0.2602649  
   0.412979400     0.8351850    0.1250202  
   0.414979300     0.8454407   -0.0137482  
   0.416979200     0.8338298   -0.1519841  
   0.418979100     0.7999861   -0.2852273  
   0.420979000     0.7450184   -0.4101803  
   0.422978900     0.6711840   -0.5238091  
   0.424978800     0.5805193   -0.6230273  
   0.426978700     0.4763790   -0.7055237  
   0.428978600     0.3619300   -0.7696435  
   0.430978500     0.2409169   -0.8144860  
   0.432978400     0.1164995   -0.8394694  
   0.434978300    -0.0087554   -0.8472195  
   0.436978200    -0.1319750   -0.8344351  
   0.438978100    -0.2507112   -0.8038560  
   0.440978000    -0.3624027   -0.7569678  
   0.442977900    -0.4654799   -0.6944790  
   0.444977800    -0.5573279   -0.6185428  
   0.446977700    -0.6372136   -0.5306306  
   0.448977600    -0.7030450   -0.4330203  
   0.450977500    -0.7545706   -0.3268332  
   0.452977400    -0.7903387   -0.2143463  
   0.454977300    -0.8096293   -0.0967912  
   0.456977200    -0.8121241    0.0227663  
   0.458977100    -0.7969450    0.1422106  
   0.460977000    -0.7644469    0.2586991  
   0.462976900    -0.7147966    0.3693848  
   0.464976800    -0.6484891    0.4725817  
   0.466976700    -0.5671418    0.5652081  
   0.468976600    -0.4715965    0.6456609  
   0.470976500    -0.3637325    0.7109978  
   0.472976400    -0.2461098    0.7591479  
   0.474976300    -0.1210303    0.7885834  
   0.476976200     0.0081573    0.7979998  
   0.478976100     0.1379146    0.7865369  
   0.480976000     0.2645563    0.7544580  
   0.482975900     0.3849020    0.7018866  
   0.484975800     0.4952046    0.6300604  
   0.486975700     0.5927262    0.5411106  
   0.488975600     0.6743448    0.4371955  
   0.490975500     0.7373874    0.3213496  
   0.492975400     0.7802551    0.1970856  
   0.494975300     0.8018125    0.0685041  
   0.496975200     0.8024774   -0.0608084  
   0.498975100     0.7818180   -0.1864213  
   0.500975000     0.7421780   -0.3056695  
   0.502974900     0.6853961   -0.4145920  
   0.504974800     0.6135346   -0.5117102  
   0.506974700     0.5291426   -0.5954936  
   0.508974600     0.4345023   -0.6648771  
   0.510974500     0.3328024   -0.7188952  
   0.512974400     0.2268378   -0.7570940  
   0.514974300     0.1192266   -0.7782967  
   0.516974200     0.0112021   -0.7865454  
   0.518974100    -0.0946939   -0.7807401  
   0.520974000    -0.1984324   -0.7619441  
   0.522973900    -0.2984879   -0.7303346  
   0.524973800    -0.3940956   -0.6860915  
   0.526973700    -0.4844907   -0.6296520  
   0.528973600    -0.5675761   -0.5608478  
   0.530973500    -0.6421379   -0.4800912  
   0.532973400    -0.7055542   -0.3880337  
   0.534973300    -0.7557201   -0.2861303  
   0.536973200    -0.7908038   -0.1757197  
   0.538973100    -0.8088078   -0.0606322  
   0.540973000    -0.8093014    0.0572164  
   0.542972900    -0.7915588    0.1744845  
   0.544972800    -0.7555541    0.2887256  
   0.546972700    -0.7020072    0.3971109  
   0.548972600    -0.6316986    0.4966241  
   0.550972500    -0.5466602    0.5845622  
   0.552972400    -0.4486470    0.6587337  
   0.554972300    -0.3396133    0.7171353  
   0.556972200    -0.2220783    0.7581778  
   0.558972100    -0.0992865    0.7807884  
   0.560972000     0.0257551    0.7841423  
   0.562971900     0.1502196    0.7679393  
   0.564971800     0.2711459    0.7323788  
   0.566971700     0.3850377    0.6785214  
   0.568971600     0.4895942    0.6071132  
   0.570971500     0.5820248    0.5199087  
   0.572971400     0.6598996    0.4184968  
   0.574971300     0.7208885    0.3055359  
   0.576971200     0.7629963    0.1834889  
   0.578971100     0.7850300    0.0557998  
   0.580971000     0.7862835   -0.0737060  
   0.582970900     0.7668301   -0.2014893  
   0.584970800     0.7273359   -0.3235786  
   0.586970700     0.6689963   -0.4370935  
   0.588970600     0.5939193   -0.5395515  
   0.590970500     0.5041292   -0.6280816  
   0.592970400     0.4024864   -0.7010546  
   0.594970300     0.2914737   -0.7568877  
   0.596970200     0.1739835   -0.7942078  
   0.598970100     0.0531067   -0.8133643  
   0.600970000    -0.0683536   -0.8139744  
   0.602969900    -0.1874088   -0.7963175  
   0.604969800    -0.3020964   -0.7614663  
   0.606969700    -0.4095890   -0.7102392  
   0.608969600    -0.5077842   -0.6441121  
   0.610969500    -0.5949640   -0.5648181  
   0.612969400    -0.6689610   -0.4742485  
   0.614969300    -0.7285520   -0.3747281  
   0.616969200    -0.7732621   -0.2685236  
   0.618969100    -0.8022251   -0.1578835  
   0.620969000    -0.8156030   -0.0448217  
   0.622968900    -0.8127998    0.0690701  
   0.624968800    -0.7941405    0.1817522  
   0.626968700    -0.7596978    0.2912349  
   0.628968600    -0.7099393    0.3953832  
   0.630968500    -0.6456712    0.4918986  
   0.632968400    -0.5673935    0.5790577  
   0.634968300    -0.4770295    0.6547545  
   0.636968200    -0.3757269    0.7169938  
   0.638968100    -0.2654454    0.7640848  
   0.640968000    -0.1483545    0.7946337  
   0.642967900    -0.0268601    0.8075566  
   0.644967800     0.0965230    0.8022372  
   0.646967700     0.2183837    0.7781343  
   0.648967600     0.3358136    0.7352283  
   0.650967500     0.4463819    0.6742808  
   0.652967400     0.5463201    0.5968729  
   0.654967300     0.6336294    0.5040820  
   0.656967200     0.7055771    0.3984751  
   0.658967100     0.7601163    0.2824164  
   0.660967000     0.7957829    0.1585395  
   0.662966900     0.8114588    0.0293937  
   0.664966800     0.8061002   -0.1010097  
   0.666966700     0.7797264   -0.2292296  
   0.668966600     0.7334123   -0.3508690  
   0.670966500     0.6682490   -0.4635053  
   0.672966400     0.5877162   -0.5644588  
   0.674966300     0.4920206   -0.6492923  
   0.676966200     0.3852989   -0.7173494  
   0.678966100     0.2704695   -0.7672298  
   0.680966000     0.1508723   -0.7983683  
   0.682965900     0.0292705   -0.8106552  
   0.684965800    -0.0915332   -0.8047588  
   0.686965700    -0.2087003   -0.7806624  
   0.688965600    -0.3199932   -0.7400688  
   0.690965500    -0.4221979   -0.6831563  
   0.692965400    -0.5148994   -0.6138912  
   0.694965300    -0.5958153   -0.5322365  
   0.696965200    -0.6636274   -0.4410099  
   0.698965100    -0.7176349   -0.3409864  
   0.700965000    -0.7566099   -0.2351994  
   0.702964900    -0.7799193   -0.1246699  
   0.704964800    -0.7875343   -0.0123264  
   0.706964700    -0.7789038    0.1007681  
   0.708964600    -0.7538146    0.2112223  
   0.710964500    -0.7135072    0.3182630  
   0.712964400    -0.6571976    0.4181367  
   0.714964300    -0.5861568    0.5090929  
   0.716964200    -0.5024442    0.5889041  
   0.718964100    -0.4071411    0.6557027  
   0.720964000    -0.3025965    0.7074676  
   0.722963900    -0.1912234    0.7430525  
   0.724963800    -0.0746521    0.7612141  
   0.726963700     0.0437108    0.7613267  
   0.728963600     0.1617502    0.7424878  
   0.730963500     0.2752454    0.7046082  
   0.732963400     0.3813263    0.6499624  
   0.734963300     0.4786693    0.5789530  
   0.736963200     0.5751864    0.4795071  
   0.738963100     0.6524724    0.3640466  
   0.740963000     0.7074566    0.2368278  
   0.742962900     0.7381391    0.1030787  
   0.744962800     0.7445614   -0.0331992  
   0.746962700     0.7266116   -0.1668908  
   0.748962600     0.6856949   -0.2942125  
   0.750962500     0.7110103   -0.1798391  
   0.752962400     0.6696622   -0.3047351  
   0.754962300     0.6078225   -0.4199259  
   0.756962200     0.5280353   -0.5224000  
   0.758962100     0.4325823   -0.6086678  
   0.760962000     0.3242140   -0.6777647  
   0.762961900     0.2120961   -0.7254533  
   0.764961800     0.1046915   -0.7529841  
   0.766961700    -0.0052289   -0.7652521  
   0.768961600    -0.1162767   -0.7614083  
   0.770961500    -0.2258736   -0.7414579  
   0.772961400    -0.3315307   -0.7055575  
   0.774961300    -0.4309829   -0.6550252  
   0.776961200    -0.5225314   -0.5900493  
   0.778961100    -0.6035824   -0.5115715  
   0.780961000    -0.6723070   -0.4217039  
   0.782960900    -0.7274917   -0.3219918  
   0.784960800    -0.7670289   -0.2146185  
   0.786960700    -0.7899944   -0.1017755  
   0.788960600    -0.7960124    0.0129620  
   0.790960500    -0.7845429    0.1280606  
   0.792960400    -0.7557966    0.2398965  
   0.794960300    -0.7106371    0.3462204  
   0.796960200    -0.6502994    0.4448174  
   0.798960100    -0.5760583    0.5330107  
   0.800960000    -0.4893182    0.6092691  
   0.802959900    -0.3917681    0.6720681  
   0.804959800    -0.2862662    0.7193931  
   0.806959700    -0.1744570    0.7506151  
   0.808959600    -0.0591410    0.7649286  
   0.810959500     0.0575056    0.7620650  
   0.812959400     0.1728770    0.7411943  
   0.814959300     0.2844891    0.7030324  
   0.816959200     0.3894983    0.6482661  
   0.818959100     0.4856078    0.5774112  
   0.820959000     0.5698928    0.4924405  
   0.822958900     0.6407422    0.3946552  
   0.824958800     0.6955259    0.2869235  
   0.826958700     0.7333782    0.1710407  
   0.828958600     0.7524622    0.0504218  
   0.830958500     0.7518969   -0.0721983  
   0.832958400     0.7322133   -0.1932638  
   0.834958300     0.6935870   -0.3095016  
   0.836958200     0.6368045   -0.4179893  
   0.838958100     0.5638347   -0.5161436  
   0.840958000     0.4765166   -0.6016430  
   0.842957900     0.3766701   -0.6721255  
   0.844957800     0.2676101   -0.7255906  
   0.846957700     0.1519294   -0.7610866  
   0.848957600     0.0324020   -0.7778997  
   0.850957500    -0.0873088   -0.7762505  
   0.852957400    -0.2050353   -0.7560182  
   0.854957300    -0.3171212   -0.7182631  
   0.856957200    -0.4213628   -0.6643534  
   0.858957100    -0.5155897   -0.5958183  
   0.860957000    -0.5976587   -0.5148278  
   0.862956900    -0.6660295   -0.4238297  
   0.864956800    -0.7199505   -0.3249429  
   0.866956700    -0.7588230   -0.2200666  
   0.868956600    -0.7815412   -0.1116569  
   0.870956500    -0.7889713   -0.0017932  
   0.872956400    -0.7807574    0.1079418  
   0.874956300    -0.7569633    0.2149649  
   0.876956200    -0.7185063    0.3183510  
   0.878956100    -0.6659154    0.4151984  
   0.880956000    -0.5996235    0.5038818  
   0.882955900    -0.5215781    0.5828086  
   0.884955800    -0.4322092    0.6500039  
   0.886955700    -0.3338713    0.7043001  
   0.888955600    -0.2278951    0.7437002  
   0.890955500    -0.1168727    0.7678357  
   0.892955400    -0.0025405    0.7754783  
   0.894955300     0.1125418    0.7660459  
