! MS46122B
! 2250307/22442219
! 7/24/2025 7:42:42 AM
! C:\USERS\SPARKY\DOCUMENTS\VNA_DATA\JULY24_2025\3K\ECAL_SHORT_C_REPEAT1.S1P
! CHANNEL.1
! TR.MEASUREMENT
! RAW.DATA
# GHZ S RI R 50.0
! FREQ.GHZ         S11RE         S11IM         
!; PortSelection: Port_1
   0.001000000     1.0455720   -0.0718909  
   0.002999900     0.9641205   -0.1943762  
   0.004999800     0.9045629   -0.2994366  
   0.006999700     0.8379849   -0.3970603  
   0.008999600     0.7609652   -0.4926064  
   0.010999500     0.6704243   -0.5839031  
   0.012999400     0.5611932   -0.6688544  
   0.014999300     0.4280313   -0.7424158  
   0.016999200     0.2639832   -0.7943542  
   0.018999100     0.0640895   -0.8082847  
   0.020999000    -0.1691872   -0.7561349  
   0.022998900    -0.4132827   -0.5998356  
   0.024998800    -0.5805908   -0.3075471  
   0.026998700    -0.6399152    0.0930946  
   0.028998600    -0.4539896    0.4804024  
   0.030998500    -0.1070427    0.7094737  
   0.032998400     0.2367516    0.7208857  
   0.034998300     0.5546725    0.6367300  
   0.036998200     0.7530124    0.4702129  
   0.038998100     0.8714266    0.2882162  
   0.040998000     0.9301609    0.1131190  
   0.042997900     0.9482695   -0.0464835  
   0.044997800     0.9073162   -0.1656681  
   0.046997700     0.9048998   -0.3134175  
   0.048997600     0.8594925   -0.4228222  
   0.050997500     0.8032440   -0.5177313  
   0.052997400     0.7394429   -0.5997172  
   0.054997300     0.6702712   -0.6701932  
   0.056997200     0.5946434   -0.7320710  
   0.058997100     0.5164118   -0.7833146  
   0.060997000     0.4346159   -0.8255930  
   0.062996900     0.3498614   -0.8595136  
   0.064996800     0.2626600   -0.8844371  
   0.066996700     0.1728328   -0.9002867  
   0.068996600     0.0810294   -0.9073973  
   0.070996500    -0.0120323   -0.9056534  
   0.072996400    -0.1062313   -0.8928331  
   0.074996300    -0.2010039   -0.8691395  
   0.076996200    -0.2952225   -0.8340122  
   0.078996100    -0.3874867   -0.7867161  
   0.080996000    -0.4766413   -0.7264010  
   0.082995900    -0.5606969   -0.6524358  
   0.084995800    -0.6371788   -0.5635393  
   0.086995700    -0.7043332   -0.4614221  
   0.088995600    -0.7591407   -0.3449138  
   0.090995500    -0.7973313   -0.2157284  
   0.092995400    -0.8164918   -0.0747160  
   0.094995300    -0.8104926    0.0743990  
   0.096995200    -0.7770308    0.2279846  
   0.098995100    -0.7124724    0.3790897  
   0.100995000    -0.6153347    0.5218366  
   0.102994900    -0.4880150    0.6449033  
   0.104994800    -0.3335352    0.7412550  
   0.106994700    -0.1586257    0.8030221  
   0.108994600     0.0266758    0.8262774  
   0.110994500     0.2126011    0.8091189  
   0.112994400     0.3887474    0.7523801  
   0.114994300     0.5457157    0.6617215  
   0.116994200     0.6765925    0.5436616  
   0.118994100     0.7773962    0.4059847  
   0.120994000     0.8489790    0.2576837  
   0.122993900     0.8877763    0.1046916  
   0.124993800     0.8979154   -0.0459419  
   0.126993700     0.8830656   -0.1900070  
   0.128993600     0.8448893   -0.3228301  
   0.130993500     0.7900173   -0.4434851  
   0.132993400     0.7203943   -0.5504112  
   0.134993300     0.6392936   -0.6424866  
   0.136993200     0.5487658   -0.7196484  
   0.138993100     0.4517423   -0.7817869  
   0.140993000     0.3498995   -0.8296531  
   0.142992900     0.2450553   -0.8631276  
   0.144992800     0.1390474   -0.8836566  
   0.146992700     0.0320799   -0.8901101  
   0.148992600    -0.0732777   -0.8831242  
   0.150992500    -0.1767171   -0.8623918  
   0.152992400    -0.2768321   -0.8304475  
   0.154992300    -0.3722048   -0.7862126  
   0.156992200    -0.4629747   -0.7306151  
   0.158992100    -0.5463281   -0.6636714  
   0.160992000    -0.6219791   -0.5857831  
   0.162991900    -0.6882666   -0.4975107  
   0.164991800    -0.7438636   -0.3993621  
   0.166991700    -0.7868316   -0.2926484  
   0.168991600    -0.8155404   -0.1787647  
   0.170991500    -0.8288487   -0.0580583  
   0.172991400    -0.8249438    0.0660333  
   0.174991300    -0.8022060    0.1916230  
   0.176991200    -0.7596793    0.3163901  
   0.178991100    -0.6965193    0.4364425  
   0.180991000    -0.6138675    0.5485207  
   0.182990900    -0.5106425    0.6475386  
   0.184990800    -0.3889322    0.7299914  
   0.186990700    -0.2518649    0.7920006  
   0.188990600    -0.1280621    0.8257086  
   0.190990500     0.0469002    0.8395234  
   0.192990400     0.2060595    0.8217947  
   0.194990300     0.3570009    0.7765371  
   0.196990200     0.4969071    0.7045929  
   0.198990100     0.6209273    0.6089809  
   0.200990000     0.7250360    0.4931885  
   0.202989900     0.8061743    0.3619873  
   0.204989800     0.8620831    0.2210320  
   0.206989700     0.8931878    0.0759932  
   0.208989600     0.8980783   -0.0688930  
   0.210989500     0.8791493   -0.2100634  
   0.212989400     0.8385731   -0.3428843  
   0.214989300     0.7790726   -0.4647966  
   0.216989200     0.7040215   -0.5727115  
   0.218989100     0.6157594   -0.6656253  
   0.220989000     0.5169307   -0.7432464  
   0.222988900     0.4101828   -0.8046379  
   0.224988800     0.2977556   -0.8494473  
   0.226988700     0.1828393   -0.8779066  
   0.228988600     0.0671824   -0.8901314  
   0.230988500    -0.0474148   -0.8863766  
   0.232988400    -0.1597753   -0.8669130  
   0.234988300    -0.2682152   -0.8340095  
   0.236988200    -0.3710887   -0.7871741  
   0.238988100    -0.4667432   -0.7273321  
   0.240988000    -0.5534466   -0.6553355  
   0.242987900    -0.6301771   -0.5724594  
   0.244987800    -0.6955129   -0.4794826  
   0.246987700    -0.7484611   -0.3770170  
   0.248987600    -0.7877423   -0.2662916  
   0.250987500    -0.8111417   -0.1492769  
   0.252987400    -0.8178340   -0.0285747  
   0.254987300    -0.8069379    0.0935629  
   0.256987200    -0.7776818    0.2150399  
   0.258987100    -0.7304929    0.3340160  
   0.260987000    -0.6628036    0.4466989  
   0.262986900    -0.5756018    0.5494224  
   0.264986800    -0.4709301    0.6387707  
   0.266986700    -0.3496743    0.7111476  
   0.268986600    -0.2161923    0.7622562  
   0.270986500    -0.0738007    0.7900336  
   0.272986400     0.0730272    0.7926937  
   0.274986300     0.2198513    0.7687665  
   0.276986200     0.3606244    0.7185686  
   0.278986100     0.4912611    0.6430339  
   0.280986000     0.6061823    0.5450756  
   0.282985900     0.7007539    0.4283438  
   0.284985800     0.7721965    0.2972483  
   0.286985700     0.8181096    0.1579763  
   0.288985600     0.8386711    0.0156112  
   0.290985500     0.8341470   -0.1249363  
   0.292985400     0.8067158   -0.2596300  
   0.294985300     0.7587766   -0.3850406  
   0.296985200     0.6921225   -0.4984607  
   0.298985100     0.6103404   -0.5981264  
   0.300985000     0.5164612   -0.6819226  
   0.302984900     0.4138373   -0.7484846  
   0.304984800     0.3052423   -0.7978975  
   0.306984700     0.1939761   -0.8301402  
   0.308984600     0.0827701   -0.8465379  
   0.310984500    -0.0265784   -0.8474275  
   0.312984400    -0.1327657   -0.8342724  
   0.314984300    -0.2342853   -0.8081930  
   0.316984200    -0.3302207   -0.7702029  
   0.318984100    -0.4204945   -0.7212354  
   0.320984000    -0.5035735   -0.6622012  
   0.322983900    -0.5791216   -0.5938423  
   0.324983800    -0.6466312   -0.5179480  
   0.326983700    -0.7053705   -0.4340865  
   0.328983600    -0.7549823   -0.3423032  
   0.330983500    -0.7942815   -0.2428091  
   0.332983400    -0.8208372   -0.1361895  
   0.334983300    -0.8319467   -0.0236542  
   0.336983200    -0.8255639    0.0922808  
   0.338983100    -0.8012646    0.2073678  
   0.340983000    -0.7590896    0.3182277  
   0.342982900    -0.7002856    0.4223408  
   0.344982800    -0.6261678    0.5174531  
   0.346982700    -0.5374943    0.6023997  
   0.348982600    -0.4358361    0.6724765  
   0.350982500    -0.3244699    0.7283338  
   0.352982400    -0.2045548    0.7673638  
   0.354982300    -0.0734181    0.7883561  
   0.356982200     0.0745915    0.7862735  
   0.358982100     0.2201606    0.7575077  
   0.360982000     0.3590097    0.7023375  
   0.362981900     0.4864038    0.6227995  
   0.364981800     0.5979194    0.5204663  
   0.366981700     0.6891745    0.3983122  
   0.368981600     0.7563002    0.2603822  
   0.370981500     0.7968905    0.1117949  
   0.372981400     0.8087339   -0.0422786  
   0.374981300     0.7912712   -0.1963908  
   0.376981200     0.8093430   -0.0878351  
   0.378981100     0.7823611   -0.2397749  
   0.380981000     0.7275719   -0.3828449  
   0.382980900     0.6555728   -0.5017908  
   0.384980800     0.5693138   -0.6012123  
   0.386980700     0.4694075   -0.6848119  
   0.388980600     0.3583910   -0.7501813  
   0.390980500     0.2410964   -0.7969995  
   0.392980400     0.1198454   -0.8243006  
   0.394980300    -0.0017624   -0.8329673  
   0.396980200    -0.1219072   -0.8233480  
   0.398980100    -0.2377805   -0.7969735  
   0.400980000    -0.3471829   -0.7541424  
   0.402979900    -0.4487583   -0.6963423  
   0.404979800    -0.5396182   -0.6259418  
   0.406979700    -0.6195560   -0.5438042  
   0.408979600    -0.6865058   -0.4520232  
   0.410979500    -0.7400723   -0.3517310  
   0.412979400    -0.7795840   -0.2438293  
   0.414979300    -0.8020837   -0.1318288  
   0.416979200    -0.8105180   -0.0170959  
   0.418979100    -0.8026888    0.0973016  
   0.420979000    -0.7785278    0.2105745  
   0.422978900    -0.7382283    0.3201233  
   0.424978800    -0.6821070    0.4237140  
   0.426978700    -0.6112003    0.5193880  
   0.428978600    -0.5261952    0.6046612  
   0.430978500    -0.4288759    0.6767898  
   0.432978400    -0.3212573    0.7342663  
   0.434978300    -0.2053611    0.7769141  
   0.436978200    -0.0825397    0.8004811  
   0.438978100     0.0435710    0.8053534  
   0.440978000     0.1705012    0.7905680  
   0.442977900     0.2948880    0.7557328  
   0.444977800     0.4130935    0.7015050  
   0.446977700     0.5221385    0.6288294  
   0.448977600     0.6187329    0.5390397  
   0.450977500     0.6999109    0.4344781  
   0.452977400     0.7636481    0.3176345  
   0.454977300     0.8077161    0.1912065  
   0.456977200     0.8307454    0.0589225  
   0.458977100     0.8319958   -0.0748079  
   0.460977000     0.8111967   -0.2066424  
   0.462976900     0.7704039   -0.3319610  
   0.464976800     0.7101506   -0.4485595  
   0.466976700     0.6333216   -0.5531248  
   0.468976600     0.5416213   -0.6428128  
   0.470976500     0.4383468   -0.7167408  
   0.472976400     0.3262664   -0.7731609  
   0.474976300     0.2084064   -0.8112524  
   0.476976200     0.0877652   -0.8311450  
   0.478976100    -0.0322315   -0.8327580  
   0.480976000    -0.1494940   -0.8171500  
   0.482975900    -0.2614977   -0.7851877  
   0.484975800    -0.3668115   -0.7384787  
   0.486975700    -0.4640799   -0.6774034  
   0.488975600    -0.5511567   -0.6042574  
   0.490975500    -0.6270297   -0.5196956  
   0.492975400    -0.6901400   -0.4256034  
   0.494975300    -0.7397169   -0.3234377  
   0.496975200    -0.7747853   -0.2148131  
   0.498975100    -0.7937977   -0.1027959  
   0.500975000    -0.7970192    0.0118850  
   0.502974900    -0.7835389    0.1265628  
   0.504974800    -0.7531122    0.2388871  
   0.506974700    -0.7060537    0.3471051  
   0.508974600    -0.6416886    0.4483863  
   0.510974500    -0.5617241    0.5392007  
   0.512974400    -0.4677442    0.6166980  
   0.514974300    -0.3619182    0.6773056  
   0.516974200    -0.2480421    0.7209089  
   0.518974100    -0.1290915    0.7452815  
   0.520974000    -0.0082200    0.7497814  
   0.522973900     0.1107908    0.7352728  
   0.524973800     0.2245255    0.7024367  
   0.526973700     0.3304215    0.6531326  
   0.528973600     0.4264140    0.5892835  
   0.530973500     0.5114970    0.5128873  
   0.532973400     0.5838393    0.4261232  
   0.534973300     0.6424701    0.3305003  
   0.536973200     0.6873482    0.2279548  
   0.538973100     0.7169889    0.1203308  
   0.540973000     0.7314137    0.0104019  
   0.542972900     0.7299421   -0.1014397  
   0.544972800     0.7121328   -0.2123912  
   0.546972700     0.6779101   -0.3203276  
   0.548972600     0.6278546   -0.4227809  
   0.550972500     0.5627046   -0.5173972  
   0.552972400     0.4831578   -0.6015612  
   0.554972300     0.3912290   -0.6731108  
   0.556972200     0.2893699   -0.7297775  
   0.558972100     0.1796737   -0.7705908  
   0.560972000     0.0655225   -0.7938708  
   0.562971900    -0.0506499   -0.7994834  
   0.564971800    -0.1661956   -0.7876462  
   0.566971700    -0.2777295   -0.7589697  
   0.568971600    -0.3837206   -0.7142717  
   0.570971500    -0.4815866   -0.6544775  
   0.572971400    -0.5695029   -0.5810588  
   0.574971300    -0.6460556   -0.4952260  
   0.576971200    -0.7092449   -0.3992937  
   0.578971100    -0.7582164   -0.2949436  
   0.580971000    -0.7912666   -0.1847568  
   0.582970900    -0.8080884   -0.0713594  
   0.584970800    -0.8081812    0.0432534  
   0.586970700    -0.7921045    0.1566920  
   0.588970600    -0.7599686    0.2667122  
   0.590970500    -0.7120389    0.3712924  
   0.592970400    -0.6493302    0.4685906  
   0.594970300    -0.5728135    0.5563769  
   0.596970200    -0.4839092    0.6325234  
   0.598970100    -0.3842204    0.6952026  
   0.600970000    -0.2750393    0.7430395  
   0.602969900    -0.1588428    0.7744790  
   0.604969800    -0.0380502    0.7884382  
   0.606969700     0.0847105    0.7835494  
   0.608969600     0.2068914    0.7593208  
   0.610969500     0.3245613    0.7161395  
   0.612969400     0.4351940    0.6544423  
   0.614969300     0.5349047    0.5756878  
   0.616969200     0.6210352    0.4814382  
   0.618969100     0.6913254    0.3747411  
   0.620969000     0.7436382    0.2581899  
   0.622968900     0.7764308    0.1343220  
   0.624968800     0.7888187    0.0062273  
   0.626968700     0.7801253   -0.1223544  
   0.628968600     0.7509382   -0.2479542  
   0.630968500     0.7019351   -0.3669176  
   0.632968400     0.6343472   -0.4758047  
   0.634968300     0.5505919   -0.5720162  
   0.636968200     0.4528605   -0.6524938  
   0.638968100     0.3448469   -0.7160416  
   0.640968000     0.2287184   -0.7615170  
   0.642967900     0.1083070   -0.7877563  
   0.644967800    -0.0133971   -0.7947523  
   0.646967700    -0.1332617   -0.7830244  
   0.648967600    -0.2484411   -0.7534995  
   0.650967500    -0.3564958   -0.7079059  
   0.652967400    -0.4552454   -0.6469936  
   0.654967300    -0.5433144   -0.5733616  
   0.656967200    -0.6189564   -0.4881779  
   0.658967100    -0.6811227   -0.3939419  
   0.660967000    -0.7289198   -0.2918086  
   0.662966900    -0.7615988   -0.1838314  
   0.664966800    -0.7782436   -0.0722678  
   0.666966700    -0.7789838    0.0406884  
   0.668966600    -0.7630688    0.1526689  
   0.670966500    -0.7314354    0.2615990  
   0.672966400    -0.6848509    0.3654591  
   0.674966300    -0.6230423    0.4611111  
   0.676966200    -0.5474419    0.5470471  
   0.678966100    -0.4596878    0.6213885  
   0.680966000    -0.3615578    0.6823247  
   0.682965900    -0.2542554    0.7284889  
   0.684965800    -0.1405726    0.7586756  
   0.686965700    -0.0222811    0.7709448  
   0.688965600     0.0973513    0.7653865  
   0.690965500     0.2158165    0.7400007  
   0.692965400     0.3297108    0.6972985  
   0.694965300     0.4364519    0.6370479  
   0.696965200     0.5328920    0.5600087  
   0.698965100     0.6163874    0.4680030  
   0.700965000     0.6842119    0.3633374  
   0.702964900     0.7349594    0.2485450  
   0.704964800     0.7662808    0.1269279  
   0.706964700     0.7776903    0.0016433  
   0.708964600     0.7687832   -0.1240432  
   0.710964500     0.7402983   -0.2463117  
   0.712964400     0.6920223   -0.3612592  
   0.714964300     0.6263644   -0.4660298  
   0.716964200     0.5457368   -0.5580093  
   0.718964100     0.4533653   -0.6346412  
   0.720964000     0.3518661   -0.6953015  
   0.722963900     0.2437451   -0.7391881  
   0.724963800     0.1322413   -0.7664240  
   0.726963700     0.0191431   -0.7765197  
   0.728963600    -0.0931612   -0.7704778  
   0.730963500    -0.2018336   -0.7475581  
   0.732963400    -0.3052876   -0.7113450  
   0.734963300    -0.4022805   -0.6606576  
   0.736963200    -0.5031967   -0.5859723  
   0.738963100    -0.5902650   -0.4955116  
   0.740963000    -0.6617794   -0.3927562  
   0.742962900    -0.7153123   -0.2791254  
   0.744962800    -0.7495396   -0.1581164  
   0.746962700    -0.7630992   -0.0325271  
   0.748962600    -0.7559630    0.0944696  
   0.750962500    -0.7756361   -0.0220373  
   0.752962400    -0.7659149    0.1061370  
   0.754962300    -0.7346306    0.2312958  
   0.756962200    -0.6823632    0.3498093  
   0.758962100    -0.6098164    0.4584805  
   0.760962000    -0.5192817    0.5532066  
   0.762961900    -0.4190506    0.6279348  
   0.764961800    -0.3185657    0.6806487  
   0.766961700    -0.2110665    0.7171182  
   0.768961600    -0.0986653    0.7369605  
   0.770961500     0.0152174    0.7400578  
   0.772961400     0.1280759    0.7253957  
   0.774961300     0.2371610    0.6942443  
   0.776961200     0.3407423    0.6465244  
   0.778961100     0.4361322    0.5841491  
   0.780961000     0.5214927    0.5072491  
   0.782960900     0.5946568    0.4178805  
   0.784960800     0.6539112    0.3181045  
   0.786960700     0.6972110    0.2099175  
   0.788960600     0.7235606    0.0959256  
   0.790960500     0.7320924   -0.0209285  
   0.792960400     0.7225390   -0.1377772  
   0.794960300     0.6949843   -0.2516721  
   0.796960200     0.6499098   -0.3601978  
   0.798960100     0.5889032   -0.4602568  
   0.800960000     0.5132322   -0.5494645  
   0.802959900     0.4245737   -0.6257879  
   0.804959800     0.3255349   -0.6876854  
   0.806959700     0.2185904   -0.7335647  
   0.808959600     0.1057125   -0.7625707  
   0.810959500    -0.0094369   -0.7737530  
   0.812959400    -0.1251297   -0.7673382  
   0.814959300    -0.2379015   -0.7434196  
   0.816959200    -0.3456969   -0.7031244  
   0.818959100    -0.4455362   -0.6472409  
   0.820959000    -0.5356142   -0.5774633  
   0.822958900    -0.6142756   -0.4951380  
   0.824958800    -0.6792936   -0.4024694  
   0.826958700    -0.7299915   -0.3013884  
   0.828958600    -0.7649097   -0.1944634  
   0.830958500    -0.7840383   -0.0836629  
   0.832958400    -0.7867554    0.0281675  
   0.834958300    -0.7733822    0.1388777  
   0.836958200    -0.7442423    0.2463119  
   0.838958100    -0.6997629    0.3480427  
   0.840958000    -0.6412871    0.4428127  
   0.842957900    -0.5695087    0.5285404  
   0.844957800    -0.4854501    0.6031965  
   0.846957700    -0.3912492    0.6653008  
   0.848957600    -0.2884194    0.7133580  
   0.850957500    -0.1791097    0.7457504  
   0.852957400    -0.0653541    0.7619168  
   0.854957300     0.0504700    0.7609131  
   0.856957200     0.1654159    0.7422627  
   0.858957100     0.2767695    0.7066237  
   0.860957000     0.3816999    0.6541129  
   0.862956900     0.4774435    0.5854778  
   0.864956800     0.5620765    0.5032644  
   0.866956700     0.6330591    0.4086926  
   0.868956600     0.6883446    0.3032774  
   0.870956500     0.7275434    0.1900527  
   0.872956400     0.7486191    0.0711923  
   0.874956300     0.7503421   -0.0501622  
   0.876956200     0.7327563   -0.1713075  
   0.878956100     0.6956736   -0.2880973  
   0.880956000     0.6403931   -0.3975122  
   0.882955900     0.5678245   -0.4968764  
   0.884955800     0.4805492   -0.5829059  
   0.886955700     0.3805959   -0.6533455  
   0.888955600     0.2711823   -0.7067488  
   0.890955500     0.1555666   -0.7412385  
   0.892955400     0.0365684   -0.7571092  
   0.894955300    -0.0821978   -0.7536908  
