! MS46122B
! 2250307/22442219
! 7/23/2025 7:59:32 AM
! C:\USERS\SPARKY\DOCUMENTS\VNA_DATA\JULY23_2025\3K\ECAL_OPEN_B_REPEAT1.S1P
! CHANNEL.1
! TR.MEASUREMENT
! RAW.DATA
# GHZ S RI R 50.0
! FREQ.GHZ         S11RE         S11IM         
!; PortSelection: Port_1
   0.001000000     1.0456260   -0.0726095  
   0.002999900     0.9477953   -0.2220645  
   0.004999800     0.8098993   -0.0897545  
   0.006999700     0.5244826   -0.4041257  
   0.008999600     0.9405897   -0.0006568  
   0.010999500     0.9262188   -0.2273026  
   0.012999400     0.8868146   -0.3359267  
   0.014999300     0.8468235   -0.4178309  
   0.016999200     0.8068183   -0.4885308  
   0.018999100     0.7641335   -0.5541597  
   0.020999000     0.7175453   -0.6151953  
   0.022998900     0.6657993   -0.6711234  
   0.024998800     0.6001026   -0.6871540  
   0.026998700     0.5464466   -0.7694759  
   0.028998600     0.4771744   -0.8110337  
   0.030998500     0.4011564   -0.8462310  
   0.032998400     0.3211153   -0.8400333  
   0.034998300     0.2275920   -0.8939608  
   0.036998200     0.1310261   -0.9037923  
   0.038998100     0.0282527   -0.9021211  
   0.040998000    -0.0795725   -0.8863673  
   0.042997900    -0.1912169   -0.8556735  
   0.044997800    -0.2817661   -0.7852806  
   0.046997700    -0.4168371   -0.7370169  
   0.048997600    -0.5240815   -0.6457149  
   0.050997500    -0.6219850   -0.5296243  
   0.052997400    -0.7022520   -0.3892108  
   0.054997300    -0.7594682   -0.2211193  
   0.056997200    -0.7808002   -0.0326885  
   0.058997100    -0.7569619    0.1683767  
   0.060997000    -0.6808196    0.3683477  
   0.062996900    -0.5504234    0.5505056  
   0.064996800    -0.3711513    0.6949407  
   0.066996700    -0.1574058    0.7866905  
   0.068996600     0.0702980    0.8168746  
   0.070996500     0.2924945    0.7872072  
   0.072996400     0.4911074    0.7051528  
   0.074996300     0.6544922    0.5841244  
   0.076996200     0.7776913    0.4381533  
   0.078996100     0.8613032    0.2806409  
   0.080996000     0.9079197    0.1203874  
   0.082995900     0.9231436   -0.0347483  
   0.084995800     0.9108466   -0.1797477  
   0.086995700     0.8781801   -0.3126521  
   0.088995600     0.8279154   -0.4321227  
   0.090995500     0.7646633   -0.5372360  
   0.092995400     0.6917082   -0.6294810  
   0.094995300     0.6093689   -0.7072313  
   0.096995200     0.5211099   -0.7716084  
   0.098995100     0.4278980   -0.8236673  
   0.100995000     0.3314102   -0.8630549  
   0.102994900     0.2326134   -0.8904101  
   0.104994800     0.1324943   -0.9062591  
   0.106994700     0.0312324   -0.9098793  
   0.108994600    -0.0694348   -0.9032312  
   0.110994500    -0.1691639   -0.8848124  
   0.112994400    -0.2669194   -0.8548794  
   0.114994300    -0.3620147   -0.8130213  
   0.116994200    -0.4528887   -0.7596984  
   0.118994100    -0.5380519   -0.6941826  
   0.120994000    -0.6183065   -0.6180820  
   0.122993900    -0.6887572   -0.5290921  
   0.124993800    -0.7489357   -0.4285600  
   0.126993700    -0.7969470   -0.3170181  
   0.128993600    -0.8284945   -0.1956010  
   0.130993500    -0.8439406   -0.0663441  
   0.132993400    -0.8401430    0.0687992  
   0.134993300    -0.8139631    0.2070402  
   0.136993200    -0.7641100    0.3441085  
   0.138993100    -0.6891196    0.4757898  
   0.140993000    -0.5889767    0.5963577  
   0.142992900    -0.4649723    0.7002091  
   0.144992800    -0.3206239    0.7824554  
   0.146992700    -0.1590689    0.8355609  
   0.148992600     0.0121621    0.8565316  
   0.150992500     0.1851954    0.8422711  
   0.152992400     0.3530422    0.7951893  
   0.154992300     0.5072668    0.7162336  
   0.156992200     0.6416777    0.6095347  
   0.158992100     0.7511337    0.4816112  
   0.160992000     0.8322223    0.3380479  
   0.162991900     0.8842407    0.1860108  
   0.164991800     0.9078699    0.0315672  
   0.166991700     0.9036171   -0.1190052  
   0.168991600     0.8748168   -0.2623338  
   0.170991500     0.8247342   -0.3947470  
   0.172991400     0.7566621   -0.5131764  
   0.174991300     0.6740571   -0.6161306  
   0.176991200     0.5796987   -0.7035837  
   0.178991100     0.4761955   -0.7741719  
   0.180991000     0.3676248   -0.8291629  
   0.182990900     0.2543113   -0.8662185  
   0.184990800     0.1391216   -0.8877987  
   0.186990700     0.0235618   -0.8937646  
   0.188990600    -0.0650039   -0.8855433  
   0.190990500    -0.1965875   -0.8604701  
   0.192990400    -0.3061281   -0.8215634  
   0.194990300    -0.4060776   -0.7704903  
   0.196990200    -0.4984396   -0.7068997  
   0.198990100    -0.5819065   -0.6315649  
   0.200990000    -0.6557839   -0.5450373  
   0.202989900    -0.7182594   -0.4480078  
   0.204989800    -0.7680755   -0.3422267  
   0.206989700    -0.8046551   -0.2295162  
   0.208989600    -0.8242719   -0.1105841  
   0.210989500    -0.8268093    0.0129887  
   0.212989400    -0.8113261    0.1385635  
   0.214989300    -0.7766463    0.2635917  
   0.216989200    -0.7220539    0.3839605  
   0.218989100    -0.6481186    0.4971057  
   0.220989000    -0.5547150    0.5996369  
   0.222988900    -0.4428892    0.6877566  
   0.224988800    -0.3151252    0.7576542  
   0.226988700    -0.1751599    0.8059800  
   0.228988600    -0.0273897    0.8291910  
   0.230988500     0.1246076    0.8263991  
   0.232988400     0.2742048    0.7949554  
   0.234988300     0.4178143    0.7388569  
   0.236988200     0.5492826    0.6575890  
   0.238988100     0.6635171    0.5547026  
   0.240988000     0.7567527    0.4345510  
   0.242987900     0.8268524    0.3014114  
   0.244987800     0.8721604    0.1604271  
   0.246987700     0.8928578    0.0160175  
   0.248987600     0.8887817   -0.1273371  
   0.250987500     0.8623953   -0.2656098  
   0.252987400     0.8150119   -0.3942655  
   0.254987300     0.7501792   -0.5109972  
   0.256987200     0.6702127   -0.6137190  
   0.258987100     0.5791909   -0.7027566  
   0.260987000     0.4774282   -0.7749293  
   0.262986900     0.3681348   -0.8312654  
   0.264986800     0.2541989   -0.8709421  
   0.266986700     0.1378267   -0.8940311  
   0.268986600     0.0213975   -0.9012957  
   0.270986500    -0.0927887   -0.8931426  
   0.272986400    -0.2036102   -0.8704499  
   0.274986300    -0.3098123   -0.8338954  
   0.276986200    -0.4099892   -0.7840983  
   0.278986100    -0.5034113   -0.7215443  
   0.280986000    -0.5879780   -0.6471688  
   0.282985900    -0.6628046   -0.5621148  
   0.284985800    -0.7260637   -0.4668424  
   0.286985700    -0.7764332   -0.3634454  
   0.288985600    -0.8127003   -0.2538949  
   0.290985500    -0.8339638   -0.1387772  
   0.292985400    -0.8393101   -0.0201419  
   0.294985300    -0.8274139    0.1006960  
   0.296985200    -0.7973015    0.2217233  
   0.298985100    -0.7476629    0.3403593  
   0.300985000    -0.6781876    0.4525758  
   0.302984900    -0.5897290    0.5541664  
   0.304984800    -0.4825770    0.6417013  
   0.306984700    -0.3592288    0.7103103  
   0.308984600    -0.2235033    0.7564050  
   0.310984500    -0.0799097    0.7763150  
   0.312984400     0.0664226    0.7677126  
   0.314984300     0.2083660    0.7300988  
   0.316984200     0.3382064    0.6644298  
   0.318984100     0.4494076    0.5743102  
   0.320984000     0.5356768    0.4669405  
   0.322983900     0.5938542    0.3510423  
   0.324983800     0.6245875    0.2362829  
   0.326983700     0.6344049    0.1305059  
   0.328983600     0.6305404    0.0369605  
   0.330983500     0.6211968   -0.0448908  
   0.332983400     0.6111341   -0.1198064  
   0.334983300     0.6014462   -0.1942573  
   0.336983200     0.5887516   -0.2731425  
   0.338983100     0.5682271   -0.3582014  
   0.340983000     0.5338627   -0.4475187  
   0.342982900     0.4828094   -0.5367092  
   0.344982800     0.4131820   -0.6208042  
   0.346982700     0.3255730   -0.6943520  
   0.348982600     0.2233767   -0.7518395  
   0.350982500     0.1108917   -0.7918485  
   0.352982400    -0.0080233   -0.8118547  
   0.354982300    -0.1347931   -0.8108284  
   0.356982200    -0.2731422   -0.7831195  
   0.358982100    -0.4036261   -0.7305137  
   0.360982000    -0.5212780   -0.6560498  
   0.362981900    -0.6232843   -0.5623817  
   0.364981800    -0.7076678   -0.4527260  
   0.366981700    -0.7716103   -0.3305391  
   0.368981600    -0.8133300   -0.2000643  
   0.370981500    -0.8324736   -0.0643553  
   0.372981400    -0.8288950    0.0722062  
   0.374981300    -0.8023097    0.2067194  
   0.376981200    -0.8327525    0.0730423  
   0.378981100    -0.8057389    0.2116098  
   0.380981000    -0.7553717    0.3449840  
   0.382980900    -0.6905947    0.4573001  
   0.384980800    -0.6127433    0.5547512  
   0.386980700    -0.5203363    0.6406937  
   0.388980600    -0.4145891    0.7125722  
   0.390980500    -0.2984408    0.7681638  
   0.392980400    -0.1745227    0.8052828  
   0.394980300    -0.0447634    0.8230866  
   0.396980200     0.0875111    0.8203122  
   0.398980100     0.2191108    0.7967327  
   0.400980000     0.3462681    0.7520717  
   0.402979900     0.4662800    0.6867852  
   0.404979800     0.5742749    0.6029939  
   0.406979700     0.6677459    0.5015383  
   0.408979600     0.7437315    0.3861287  
   0.410979500     0.7996476    0.2590655  
   0.412979400     0.8341396    0.1238708  
   0.414979300     0.8444103   -0.0148504  
   0.416979200     0.8327098   -0.1527560  
   0.418979100     0.7987337   -0.2858192  
   0.420979000     0.7436934   -0.4106324  
   0.422978900     0.6697541   -0.5240209  
   0.424978800     0.5789755   -0.6229631  
   0.426978700     0.4747838   -0.7052383  
   0.428978600     0.3602912   -0.7690685  
   0.430978500     0.2393422   -0.8134977  
   0.432978400     0.1150028   -0.8382232  
   0.434978300    -0.0099763   -0.8455811  
   0.436978200    -0.1331803   -0.8322743  
   0.438978100    -0.2513772   -0.8015015  
   0.440978000    -0.3627855   -0.7543316  
   0.442977900    -0.4653470   -0.6917881  
   0.444977800    -0.5566580   -0.6156459  
   0.446977700    -0.6360036   -0.5278982  
   0.448977600    -0.7014930   -0.4302519  
   0.450977500    -0.7524797   -0.3243249  
   0.452977400    -0.7878415   -0.2121055  
   0.454977300    -0.8067752   -0.0950295  
   0.456977200    -0.8089475    0.0240545  
   0.458977100    -0.7935606    0.1431842  
   0.460977000    -0.7610348    0.2588940  
   0.462976900    -0.7113211    0.3689640  
   0.464976800    -0.6452214    0.4717144  
   0.466976700    -0.5640025    0.5638150  
   0.468976600    -0.4690841    0.6437023  
   0.470976500    -0.3614782    0.7087784  
   0.472976400    -0.2443591    0.7566833  
   0.474976300    -0.1198083    0.7858886  
   0.476976200     0.0089606    0.7953673  
   0.478976100     0.1382661    0.7839008  
   0.480976000     0.2645379    0.7519156  
   0.482975900     0.3844888    0.6995224  
   0.484975800     0.4944856    0.6278889  
   0.486975700     0.5918132    0.5392262  
   0.488975600     0.6731884    0.4355307  
   0.490975500     0.7360391    0.3199773  
   0.492975400     0.7787595    0.1959352  
   0.494975300     0.8002231    0.0676370  
   0.496975200     0.8008468   -0.0614117  
   0.498975100     0.7800592   -0.1867877  
   0.500975000     0.7404238   -0.3057303  
   0.502974900     0.6836791   -0.4143656  
   0.504974800     0.6118683   -0.5111542  
   0.506974700     0.5274298   -0.5948023  
   0.508974600     0.4330669   -0.6637500  
   0.510974500     0.3316447   -0.7175420  
   0.512974400     0.2259681   -0.7555466  
   0.514974300     0.1184850   -0.7766857  
   0.516974200     0.0107930   -0.7847958  
   0.518974100    -0.0949309   -0.7789612  
   0.520974000    -0.1985235   -0.7601716  
   0.522973900    -0.2984181   -0.7285439  
   0.524973800    -0.3937108   -0.6842405  
   0.526973700    -0.4839463   -0.6277571  
   0.528973600    -0.5668234   -0.5589069  
   0.530973500    -0.6410017   -0.4779013  
   0.532973400    -0.7039946   -0.3861400  
   0.534973300    -0.7539361   -0.2843318  
   0.536973200    -0.7886199   -0.1740080  
   0.538973100    -0.8062693   -0.0591923  
   0.540973000    -0.8064499    0.0581387  
   0.542972900    -0.7884341    0.1752226  
   0.544972800    -0.7523332    0.2888288  
   0.546972700    -0.6987867    0.3967287  
   0.548972600    -0.6285701    0.4956704  
   0.550972500    -0.5437256    0.5831142  
   0.552972400    -0.4460123    0.6568624  
   0.554972300    -0.3374490    0.7149045  
   0.556972200    -0.2203258    0.7556632  
   0.558972100    -0.0979814    0.7781268  
   0.560972000     0.0265603    0.7814036  
   0.562971900     0.1506534    0.7652054  
   0.564971800     0.2710828    0.7297939  
   0.566971700     0.3846482    0.6760885  
   0.568971600     0.4889592    0.6048941  
   0.570971500     0.5811301    0.5179020  
   0.572971400     0.6587474    0.4168790  
   0.574971300     0.7195293    0.3042618  
   0.576971200     0.7616203    0.1823112  
   0.578971100     0.7836290    0.0547194  
   0.580971000     0.7847793   -0.0743492  
   0.582970900     0.7654039   -0.2019637  
   0.584970800     0.7258449   -0.3238172  
   0.586970700     0.6676134   -0.4371915  
   0.588970600     0.5925211   -0.5393918  
   0.590970500     0.5027279   -0.6277763  
   0.592970400     0.4011557   -0.7004907  
   0.594970300     0.2901804   -0.7561331  
   0.596970200     0.1728116   -0.7930732  
   0.598970100     0.0521868   -0.8119853  
   0.600970000    -0.0692104   -0.8125336  
   0.602969900    -0.1880302   -0.7946364  
   0.604969800    -0.3024479   -0.7596017  
   0.606969700    -0.4097998   -0.7081155  
   0.608969600    -0.5074573   -0.6420076  
   0.610969500    -0.5942476   -0.5626655  
   0.612969400    -0.6678385   -0.4721338  
   0.614969300    -0.7270455   -0.3727139  
   0.616969200    -0.7713748   -0.2666131  
   0.618969100    -0.7999364   -0.1561685  
   0.620969000    -0.8129793   -0.0435536  
   0.622968900    -0.8098223    0.0701972  
   0.624968800    -0.7909804    0.1824632  
   0.626968700    -0.7563896    0.2914650  
   0.628968600    -0.7065358    0.3951188  
   0.630968500    -0.6422703    0.4911501  
   0.632968400    -0.5641135    0.5777080  
   0.634968300    -0.4739164    0.6529323  
   0.636968200    -0.3728402    0.7147661  
   0.638968100    -0.2631140    0.7615197  
   0.640968000    -0.1463384    0.7917668  
   0.642967900    -0.0252751    0.8044366  
   0.644967800     0.0976476    0.7990068  
   0.646967700     0.2188943    0.7749315  
   0.648967600     0.3359391    0.7320064  
   0.650967500     0.4460282    0.6712692  
   0.652967400     0.5456983    0.5942174  
   0.654967300     0.6324804    0.5017068  
   0.656967200     0.7040689    0.3965572  
   0.658967100     0.7586251    0.2807076  
   0.660967000     0.7942311    0.1570640  
   0.662966900     0.8098693    0.0284066  
   0.664966800     0.8040436   -0.1014984  
   0.666966700     0.7782083   -0.2295820  
   0.668966600     0.7319785   -0.3509063  
   0.670966500     0.6669552   -0.4633403  
   0.672966400     0.5865367   -0.5641000  
   0.674966300     0.4909782   -0.6486775  
   0.676966200     0.3843592   -0.7166286  
   0.678966100     0.2696697   -0.7663180  
   0.680966000     0.1501655   -0.7973466  
   0.682965900     0.0287157   -0.8095805  
   0.684965800    -0.0919919   -0.8034200  
   0.686965700    -0.2088682   -0.7791285  
   0.688965600    -0.3199174   -0.7384387  
   0.690965500    -0.4218932   -0.6813672  
   0.692965400    -0.5142630   -0.6119899  
   0.694965300    -0.5948610   -0.5302722  
   0.696965200    -0.6623223   -0.4390340  
   0.698965100    -0.7158643   -0.3391238  
   0.700965000    -0.7544872   -0.2333548  
   0.702964900    -0.7773984   -0.1230012  
   0.704964800    -0.7844705   -0.0108132  
   0.706964700    -0.7756204    0.1018469  
   0.708964600    -0.7502642    0.2119602  
   0.710964500    -0.7097138    0.3184133  
   0.712964400    -0.6532522    0.4177827  
   0.714964300    -0.5821725    0.5081980  
   0.716964200    -0.4985127    0.5873951  
   0.718964100    -0.4031887    0.6538170  
   0.720964000    -0.2990937    0.7049045  
   0.722963900    -0.1880085    0.7400773  
   0.724963800    -0.0719632    0.7578309  
   0.726963700     0.0462256    0.7576190  
   0.728963600     0.1635314    0.7385781  
   0.730963500     0.2764293    0.7006685  
   0.732963400     0.3819605    0.6460930  
   0.734963300     0.4786854    0.5753291  
   0.736963200     0.5746471    0.4761451  
   0.738963100     0.6514863    0.3611298  
   0.740963000     0.7061459    0.2344177  
   0.742962900     0.7366624    0.1011817  
   0.744962800     0.7430219   -0.0345862  
   0.746962700     0.7251500   -0.1678675  
   0.748962600     0.6843650   -0.2948900  
   0.750962500     0.7100500   -0.1805150  
   0.752962400     0.6688399   -0.3053027  
   0.754962300     0.6070961   -0.4202807  
   0.756962200     0.5274270   -0.5226580  
   0.758962100     0.4320665   -0.6088020  
   0.760962000     0.3237962   -0.6778750  
   0.762961900     0.2117058   -0.7254755  
   0.764961800     0.1043954   -0.7528802  
   0.766961700    -0.0055381   -0.7651249  
   0.768961600    -0.1166048   -0.7609912  
   0.770961500    -0.2260856   -0.7408673  
   0.772961400    -0.3315513   -0.7046524  
   0.774961300    -0.4308878   -0.6539758  
   0.776961200    -0.5221170   -0.5887576  
   0.778961100    -0.6027843   -0.5102094  
   0.780961000    -0.6712077   -0.4202820  
   0.782960900    -0.7258968   -0.3205514  
   0.784960800    -0.7650182   -0.2131395  
   0.786960700    -0.7875045   -0.1006904  
   0.788960600    -0.7931911    0.0137971  
   0.790960500    -0.7814135    0.1285104  
   0.792960400    -0.7524482    0.2398854  
   0.794960300    -0.7071189    0.3457505  
   0.796960200    -0.6466851    0.4439046  
   0.798960100    -0.5725364    0.5315394  
   0.800960000    -0.4859311    0.6073154  
   0.802959900    -0.3887386    0.6696262  
   0.804959800    -0.2834843    0.7165653  
   0.806959700    -0.1721837    0.7474911  
   0.808959600    -0.0573342    0.7615780  
   0.810959500     0.0589014    0.7586128  
   0.812959400     0.1737797    0.7377015  
   0.814959300     0.2849621    0.6995707  
   0.816959200     0.3895932    0.6449391  
   0.818959100     0.4852709    0.5743078  
   0.820959000     0.5692545    0.4895663  
   0.822958900     0.6398576    0.3920857  
   0.824958800     0.6944827    0.2846237  
   0.826958700     0.7321868    0.1691024  
   0.828958600     0.7511706    0.0487239  
   0.830958500     0.7505568   -0.0736060  
   0.832958400     0.7308307   -0.1944056  
   0.834958300     0.6922141   -0.3104107  
   0.836958200     0.6354647   -0.4185787  
   0.838958100     0.5625003   -0.5164980  
   0.840958000     0.4750894   -0.6018879  
   0.842957900     0.3752953   -0.6721449  
   0.844957800     0.2662331   -0.7253324  
   0.846957700     0.1506101   -0.7605102  
   0.848957600     0.0312851   -0.7771333  
   0.850957500    -0.0883469   -0.7751052  
   0.852957400    -0.2055681   -0.7546464  
   0.854957300    -0.3175577   -0.7166252  
   0.856957200    -0.4214222   -0.6624990  
   0.858957100    -0.5152155   -0.5938025  
   0.860957000    -0.5968878   -0.5126965  
   0.862956900    -0.6648842   -0.4214999  
   0.864956800    -0.7183149   -0.3227471  
   0.866956700    -0.7566494   -0.2180795  
   0.868956600    -0.7789981   -0.1098277  
   0.870956500    -0.7860578   -0.0001412  
   0.872956400    -0.7774765    0.1093174  
   0.874956300    -0.7533544    0.2157885  
   0.876956200    -0.7147416    0.3186987  
   0.878956100    -0.6620659    0.4149965  
   0.880956000    -0.5957213    0.5031788  
   0.882955900    -0.5178056    0.5815762  
   0.884955800    -0.4285897    0.6483150  
   0.886955700    -0.3305135    0.7021354  
   0.888955600    -0.2249497    0.7411461  
   0.890955500    -0.1143444    0.7649580  
   0.892955400    -0.0004028    0.7724588  
   0.894955300     0.1138696    0.7629964  
