! MS46122B
! 2250307/22442219
! 7/27/2025 9:13:01 AM
! C:\USERS\SPARKY\DOCUMENTS\VNA_DATA\JULY27_2025\3K\ECAL_SHORT_E.S1P
! CHANNEL.1
! TR.MEASUREMENT
! RAW.DATA
# GHZ S RI R 50.0
! FREQ.GHZ         S11RE         S11IM         
!; PortSelection: Port_1
   0.001000000     1.0461140   -0.0720437  
   0.002999900     0.9646381   -0.1943919  
   0.004999800     0.9051780   -0.2994120  
   0.006999700     0.8386130   -0.3970458  
   0.008999600     0.7619511   -0.4925715  
   0.010999500     0.6716818   -0.5840062  
   0.012999400     0.5626581   -0.6691818  
   0.014999300     0.4298175   -0.7431635  
   0.016999200     0.2659179   -0.7957544  
   0.018999100     0.0659323   -0.8105726  
   0.020999000    -0.1678699   -0.7594201  
   0.022998900    -0.4131504   -0.6039631  
   0.024998800    -0.5823976   -0.3115236  
   0.026998700    -0.6435316    0.0905343  
   0.028998600    -0.4576987    0.4801967  
   0.030998500    -0.1093597    0.7106547  
   0.032998400     0.2358972    0.7221316  
   0.034998300     0.5544016    0.6376327  
   0.036998200     0.7530757    0.4705426  
   0.038998100     0.8715537    0.2882975  
   0.040998000     0.9303216    0.1130101  
   0.042997900     0.9483964   -0.0466631  
   0.044997800     0.9075583   -0.1658862  
   0.046997700     0.9050824   -0.3137757  
   0.048997600     0.8599134   -0.4231387  
   0.050997500     0.8037633   -0.5180866  
   0.052997400     0.7400481   -0.6001725  
   0.054997300     0.6709784   -0.6709557  
   0.056997200     0.5954275   -0.7329388  
   0.058997100     0.5171764   -0.7843645  
   0.060997000     0.4354939   -0.8269688  
   0.062996900     0.3507026   -0.8611121  
   0.064996800     0.2635060   -0.8863226  
   0.066996700     0.1735685   -0.9024571  
   0.068996600     0.0815933   -0.9099042  
   0.070996500    -0.0117070   -0.9084532  
   0.072996400    -0.1061904   -0.8958789  
   0.074996300    -0.2013215   -0.8724917  
   0.076996200    -0.2959140   -0.8375457  
   0.078996100    -0.3886078   -0.7903688  
   0.080996000    -0.4782843   -0.7301685  
   0.082995900    -0.5630016   -0.6561248  
   0.084995800    -0.6400615   -0.5670340  
   0.086995700    -0.7078204   -0.4646600  
   0.088995600    -0.7631970   -0.3477211  
   0.090995500    -0.8018484   -0.2179290  
   0.092995400    -0.8213786   -0.0762156  
   0.094995300    -0.8155837    0.0737954  
   0.096995200    -0.7822275    0.2282809  
   0.098995100    -0.7175584    0.3802304  
   0.100995000    -0.6196588    0.5237792  
   0.102994900    -0.4916226    0.6474015  
   0.104994800    -0.3362829    0.7441664  
   0.106994700    -0.1604095    0.8059766  
   0.108994600     0.0257394    0.8290525  
   0.110994500     0.2122917    0.8114830  
   0.112994400     0.3889052    0.7542174  
   0.114994300     0.5461152    0.6630463  
   0.116994200     0.6770646    0.5444714  
   0.118994100     0.7778732    0.4064606  
   0.120994000     0.8492727    0.2578664  
   0.122993900     0.8880178    0.1047235  
   0.124993800     0.8982912   -0.0462103  
   0.126993700     0.8832420   -0.1902224  
   0.128993600     0.8450611   -0.3230891  
   0.130993500     0.7902730   -0.4438260  
   0.132993400     0.7208448   -0.5509592  
   0.134993300     0.6397039   -0.6432458  
   0.136993200     0.5492302   -0.7205916  
   0.138993100     0.4521414   -0.7831467  
   0.140993000     0.3503328   -0.8310952  
   0.142992900     0.2454121   -0.8648779  
   0.144992800     0.1390396   -0.8858528  
   0.146992700     0.0322766   -0.8925294  
   0.148992600    -0.0736333   -0.8858595  
   0.150992500    -0.1774269   -0.8653858  
   0.152992400    -0.2780416   -0.8336632  
   0.154992300    -0.3738013   -0.7895455  
   0.156992200    -0.4650800   -0.7339825  
   0.158992100    -0.5489510   -0.6669489  
   0.160992000    -0.6252149   -0.5888225  
   0.162991900    -0.6920509   -0.5004362  
   0.164991800    -0.7480878   -0.4018695  
   0.166991700    -0.7914763   -0.2947001  
   0.168991600    -0.8204819   -0.1799461  
   0.170991500    -0.8341483   -0.0588601  
   0.172991400    -0.8303223    0.0659830  
   0.174991300    -0.8076162    0.1922900  
   0.176991200    -0.7650052    0.3178429  
   0.178991100    -0.7012852    0.4386377  
   0.180991000    -0.6180785    0.5512953  
   0.182990900    -0.5142025    0.6507939  
   0.184990800    -0.3917196    0.7335173  
   0.186990700    -0.2538776    0.7956339  
   0.188990600    -0.1293720    0.8291899  
   0.190990500     0.0463647    0.8427240  
   0.192990400     0.2060638    0.8246112  
   0.194990300     0.3575045    0.7787372  
   0.196990200     0.4974850    0.7065274  
   0.198990100     0.6216467    0.6102606  
   0.200990000     0.7256782    0.4940326  
   0.202989900     0.8066307    0.3627163  
   0.204989800     0.8626600    0.2212091  
   0.206989700     0.8934416    0.0761469  
   0.208989600     0.8982914   -0.0690159  
   0.210989500     0.8793136   -0.2100397  
   0.212989400     0.8387197   -0.3430064  
   0.214989300     0.7793157   -0.4649316  
   0.216989200     0.7040585   -0.5732315  
   0.218989100     0.6161347   -0.6660525  
   0.220989000     0.5172503   -0.7440531  
   0.222988900     0.4103409   -0.8056741  
   0.224988800     0.2980359   -0.8508314  
   0.226988700     0.1827625   -0.8796142  
   0.228988600     0.0672295   -0.8920930  
   0.230988500    -0.0478185   -0.8887382  
   0.232988400    -0.1604615   -0.8694770  
   0.234988300    -0.2693471   -0.8368091  
   0.236988200    -0.3727427   -0.7901106  
   0.238988100    -0.4689941   -0.7303106  
   0.240988000    -0.5562360   -0.6582631  
   0.242987900    -0.6334573   -0.5752071  
   0.244987800    -0.6993127   -0.4819111  
   0.246987700    -0.7527833   -0.3791042  
   0.248987600    -0.7923812   -0.2679999  
   0.250987500    -0.8161138   -0.1502562  
   0.252987400    -0.8231264   -0.0287990  
   0.254987300    -0.8123215    0.0940624  
   0.256987200    -0.7828863    0.2162505  
   0.258987100    -0.7354614    0.3359553  
   0.260987000    -0.6673635    0.4492789  
   0.262986900    -0.5796803    0.5524489  
   0.264986800    -0.4742586    0.6425239  
   0.266986700    -0.3522873    0.7149482  
   0.268986600    -0.2180007    0.7661268  
   0.270986500    -0.0749585    0.7937913  
   0.272986400     0.0726731    0.7961435  
   0.274986300     0.2196965    0.7719360  
   0.276986200     0.3610348    0.7211627  
   0.278986100     0.4920521    0.6451091  
   0.280986000     0.6068673    0.5467457  
   0.282985900     0.7015962    0.4294754  
   0.284985800     0.7727960    0.2983494  
   0.286985700     0.8187082    0.1587713  
   0.288985600     0.8391798    0.0162291  
   0.290985500     0.8347505   -0.1245562  
   0.292985400     0.8072160   -0.2593681  
   0.294985300     0.7593690   -0.3849550  
   0.296985200     0.6928929   -0.4985913  
   0.298985100     0.6109694   -0.5984060  
   0.300985000     0.5172682   -0.6825226  
   0.302984900     0.4145212   -0.7494703  
   0.304984800     0.3058504   -0.7992611  
   0.306984700     0.1943972   -0.8318594  
   0.308984600     0.0829458   -0.8486164  
   0.310984500    -0.0267099   -0.8498489  
   0.312984400    -0.1334071   -0.8369973  
   0.314984300    -0.2353865   -0.8111265  
   0.316984200    -0.3319020   -0.7732448  
   0.318984100    -0.4227206   -0.7242649  
   0.320984000    -0.5063592   -0.6651095  
   0.322983900    -0.5824744   -0.5967314  
   0.324983800    -0.6504455   -0.5203214  
   0.326983700    -0.7096145   -0.4360496  
   0.328983600    -0.7595825   -0.3437426  
   0.330983500    -0.7993500   -0.2437401  
   0.332983400    -0.8259737   -0.1367238  
   0.334983300    -0.8372828   -0.0234798  
   0.336983200    -0.8309321    0.0930062  
   0.338983100    -0.8065325    0.2087526  
   0.340983000    -0.7642205    0.3200502  
   0.342982900    -0.7048879    0.4251503  
   0.344982800    -0.6303569    0.5206242  
   0.346982700    -0.5411502    0.6059099  
   0.348982600    -0.4388624    0.6762332  
   0.350982500    -0.3268815    0.7323031  
   0.352982400    -0.2062436    0.7713013  
   0.354982300    -0.0742730    0.7921962  
   0.356982200     0.0741339    0.7898803  
   0.358982100     0.2203941    0.7607660  
   0.360982000     0.3594129    0.7051631  
   0.362981900     0.4872233    0.6250635  
   0.364981800     0.5988424    0.5222958  
   0.366981700     0.6901226    0.3997520  
   0.368981600     0.7571712    0.2614097  
   0.370981500     0.7976033    0.1124735  
   0.372981400     0.8093114   -0.0416394  
   0.374981300     0.7917305   -0.1960126  
   0.376981200     0.8095973   -0.0875057  
   0.378981100     0.7825207   -0.2395683  
   0.380981000     0.7277535   -0.3827444  
   0.382980900     0.6557752   -0.5018308  
   0.384980800     0.5695162   -0.6014266  
   0.386980700     0.4696675   -0.6851941  
   0.388980600     0.3585869   -0.7508404  
   0.390980500     0.2411439   -0.7980173  
   0.392980400     0.1197981   -0.8255330  
   0.394980300    -0.0020667   -0.8345875  
   0.396980200    -0.1226105   -0.8253910  
   0.398980100    -0.2388390   -0.7990549  
   0.400980000    -0.3487107   -0.7564345  
   0.402979900    -0.4507250   -0.6986923  
   0.404979800    -0.5422313   -0.6282546  
   0.406979700    -0.6225724   -0.5460579  
   0.408979600    -0.6900462   -0.4541277  
   0.410979500    -0.7442362   -0.3532069  
   0.412979400    -0.7840140   -0.2452416  
   0.414979300    -0.8069409   -0.1325109  
   0.416979200    -0.8156056   -0.0170795  
   0.418979100    -0.8078554    0.0981045  
   0.420979000    -0.7837349    0.2117418  
   0.422978900    -0.7432702    0.3219457  
   0.424978800    -0.6868700    0.4265299  
   0.426978700    -0.6155005    0.5226286  
   0.428978600    -0.5299812    0.6083207  
   0.430978500    -0.4321563    0.6808240  
   0.432978400    -0.3238502    0.7386145  
   0.434978300    -0.2071753    0.7812287  
   0.436978200    -0.0838744    0.8047729  
   0.438978100     0.0430520    0.8093770  
   0.440978000     0.1705068    0.7942909  
   0.442977900     0.2953936    0.7590386  
   0.444977800     0.4138776    0.7043399  
   0.446977700     0.5231395    0.6312010  
   0.448977600     0.6197977    0.5409508  
   0.450977500     0.7009198    0.4360122  
   0.452977400     0.7646478    0.3187753  
   0.454977300     0.8085799    0.1920393  
   0.456977200     0.8315472    0.0598408  
   0.458977100     0.8324539   -0.0744565  
   0.460977000     0.8117427   -0.2060814  
   0.462976900     0.7708092   -0.3318677  
   0.464976800     0.7105876   -0.4480957  
   0.466976700     0.6337208   -0.5532040  
   0.468976600     0.5420308   -0.6431358  
   0.470976500     0.4386731   -0.7172132  
   0.472976400     0.3265118   -0.7738907  
   0.474976300     0.2086612   -0.8122293  
   0.476976200     0.0876849   -0.8324586  
   0.478976100    -0.0324911   -0.8343267  
   0.480976000    -0.1501972   -0.8190047  
   0.482975900    -0.2624832   -0.7873328  
   0.484975800    -0.3683401   -0.7405614  
   0.486975700    -0.4659005   -0.6797204  
   0.488975600    -0.5536870   -0.6063797  
   0.490975500    -0.6301198   -0.5216513  
   0.492975400    -0.6936952   -0.4272396  
   0.494975300    -0.7437917   -0.3246990  
   0.496975200    -0.7792195   -0.2155995  
   0.498975100    -0.7987702   -0.1029528  
   0.500975000    -0.8018812    0.0122072  
   0.502974900    -0.7885239    0.1275898  
   0.504974800    -0.7580140    0.2405723  
   0.506974700    -0.7106125    0.3495809  
   0.508974600    -0.6459876    0.4513911  
   0.510974500    -0.5655619    0.5427788  
   0.512974400    -0.4710869    0.6205535  
   0.514974300    -0.3646002    0.6814324  
   0.516974200    -0.2500642    0.7251988  
   0.518974100    -0.1304250    0.7495262  
   0.520974000    -0.0088777    0.7538433  
   0.522973900     0.1106545    0.7389806  
   0.524973800     0.2248584    0.7057368  
   0.526973700     0.3310176    0.6559434  
   0.528973600     0.4272822    0.5915530  
   0.530973500     0.5123118    0.5147527  
   0.532973400     0.5844721    0.4275432  
   0.534973300     0.6431383    0.3317706  
   0.536973200     0.6877895    0.2289174  
   0.538973100     0.7171036    0.1212274  
   0.540973000     0.7315403    0.0111131  
   0.542972900     0.7299908   -0.1008458  
   0.544972800     0.7121446   -0.2118029  
   0.546972700     0.6778785   -0.3198301  
   0.548972600     0.6277481   -0.4224255  
   0.550972500     0.5626718   -0.5170707  
   0.552972400     0.4832008   -0.6013794  
   0.554972300     0.3913305   -0.6730339  
   0.556972200     0.2894267   -0.7299852  
   0.558972100     0.1796629   -0.7709744  
   0.560972000     0.0652568   -0.7947159  
   0.562971900    -0.0508602   -0.8005372  
   0.564971800    -0.1669298   -0.7889145  
   0.566971700    -0.2787974   -0.7604388  
   0.568971600    -0.3852047   -0.7158494  
   0.570971500    -0.4835006   -0.6561125  
   0.572971400    -0.5718939   -0.5827270  
   0.574971300    -0.6489748   -0.4967784  
   0.576971200    -0.7126368   -0.4006275  
   0.578971100    -0.7620522   -0.2959321  
   0.580971000    -0.7955300   -0.1854392  
   0.582970900    -0.8126395   -0.0712985  
   0.584970800    -0.8129321    0.0439019  
   0.586970700    -0.7969184    0.1579621  
   0.588970600    -0.7647290    0.2686712  
   0.590970500    -0.7166104    0.3738809  
   0.592970400    -0.6535862    0.4717323  
   0.594970300    -0.5767766    0.5600408  
   0.596970200    -0.4872338    0.6366699  
   0.598970100    -0.3868147    0.6996307  
   0.600970000    -0.2770219    0.7476646  
   0.602969900    -0.1602430    0.7791588  
   0.604969800    -0.0388092    0.7929865  
   0.606969700     0.0845564    0.7879217  
   0.608969600     0.2071539    0.7633590  
   0.610969500     0.3252670    0.7197574  
   0.612969400     0.4361027    0.6576801  
   0.614969300     0.5363362    0.5782480  
   0.616969200     0.6226012    0.4837088  
   0.618969100     0.6926672    0.3764651  
   0.620969000     0.7449092    0.2595178  
   0.622968900     0.7775687    0.1353325  
   0.624968800     0.7898389    0.0070414  
   0.626968700     0.7809800   -0.1216872  
   0.628968600     0.7516282   -0.2475300  
   0.630968500     0.7025443   -0.3666208  
   0.632968400     0.6348298   -0.4755901  
   0.634968300     0.5509525   -0.5715754  
   0.636968200     0.4532172   -0.6527550  
   0.638968100     0.3450404   -0.7163513  
   0.640968000     0.2289062   -0.7619486  
   0.642967900     0.1083069   -0.7884411  
   0.644967800    -0.0135772   -0.7956511  
   0.646967700    -0.1337245   -0.7841774  
   0.648967600    -0.2492757   -0.7548878  
   0.650967500    -0.3575601   -0.7092747  
   0.652967400    -0.4568888   -0.6484519  
   0.654967300    -0.5454469   -0.5747927  
   0.656967200    -0.6215360   -0.4894586  
   0.658967100    -0.6841303   -0.3950223  
   0.660967000    -0.7323877   -0.2925860  
   0.662966900    -0.7654999   -0.1842578  
   0.664966800    -0.7824688   -0.0720906  
   0.666966700    -0.7832648    0.0412721  
   0.668966600    -0.7675801    0.1538300  
   0.670966500    -0.7359942    0.2635367  
   0.672966400    -0.6891869    0.3679812  
   0.674966300    -0.6270191    0.4642863  
   0.676966200    -0.5511231    0.5506971  
   0.678966100    -0.4628999    0.6255273  
   0.680966000    -0.3640069    0.6869024  
   0.682965900    -0.2561933    0.7331446  
   0.684965800    -0.1418484    0.7634369  
   0.686965700    -0.0229370    0.7756705  
   0.688965600     0.0975148    0.7699062  
   0.690965500     0.2163220    0.7442450  
   0.692965400     0.3307518    0.7011063  
   0.694965300     0.4377032    0.6404754  
   0.696965200     0.5345040    0.5628647  
   0.698965100     0.6181607    0.4703288  
   0.700965000     0.6859777    0.3651910  
   0.702964900     0.7366197    0.2499315  
   0.704964800     0.7678878    0.1279071  
   0.706964700     0.7790458    0.0022700  
   0.708964600     0.7699189   -0.1235961  
   0.710964500     0.7412277   -0.2460361  
   0.712964400     0.6928425   -0.3611019  
   0.714964300     0.6268894   -0.4662657  
   0.716964200     0.5462285   -0.5582521  
   0.718964100     0.4537339   -0.6349601  
   0.720964000     0.3519922   -0.6957968  
   0.722963900     0.2436710   -0.7397518  
   0.724963800     0.1321396   -0.7669711  
   0.726963700     0.0187065   -0.7773103  
   0.728963600    -0.0938632   -0.7714175  
   0.730963500    -0.2027264   -0.7485594  
   0.732963400    -0.3064998   -0.7123967  
   0.734963300    -0.4036715   -0.6617801  
   0.736963200    -0.5050610   -0.5869869  
   0.738963100    -0.5925691   -0.4964122  
   0.740963000    -0.6646950   -0.3933045  
   0.742962900    -0.7183821   -0.2795413  
   0.744962800    -0.7529846   -0.1579711  
   0.746962700    -0.7667732   -0.0320829  
   0.748962600    -0.7598385    0.0954902  
   0.750962500    -0.7799168   -0.0217357  
   0.752962400    -0.7703112    0.1071692  
   0.754962300    -0.7389554    0.2329694  
   0.756962200    -0.6865736    0.3523910  
   0.758962100    -0.6137587    0.4616494  
   0.760962000    -0.5228791    0.5568814  
   0.762961900    -0.4219567    0.6321805  
   0.764961800    -0.3207732    0.6852501  
   0.766961700    -0.2127077    0.7218578  
   0.768961600    -0.0994256    0.7418714  
   0.770961500     0.0148009    0.7448374  
   0.772961400     0.1283598    0.7298776  
   0.774961300     0.2380069    0.6983885  
   0.776961200     0.3419351    0.6502419  
   0.778961100     0.4376391    0.5874632  
   0.780961000     0.5231468    0.5100514  
   0.782960900     0.5963269    0.4202051  
   0.784960800     0.6555975    0.3199628  
   0.786960700     0.6987790    0.2114320  
   0.788960600     0.7250202    0.0971394  
   0.790960500     0.7333715   -0.0199766  
   0.792960400     0.7236627   -0.1370024  
   0.794960300     0.6959561   -0.2510410  
   0.796960200     0.6506913   -0.3596600  
   0.798960100     0.5895879   -0.4598617  
   0.800960000     0.5138095   -0.5491096  
   0.802959900     0.4251745   -0.6255321  
   0.804959800     0.3260527   -0.6875065  
   0.806959700     0.2190158   -0.7335945  
   0.808959600     0.1061251   -0.7627043  
   0.810959500    -0.0092300   -0.7741849  
   0.812959400    -0.1250239   -0.7679329  
   0.814959300    -0.2380791   -0.7442763  
   0.816959200    -0.3459990   -0.7042409  
   0.818959100    -0.4462591   -0.6485153  
   0.820959000    -0.5368540   -0.5788276  
   0.822958900    -0.6159667   -0.4965156  
   0.824958800    -0.6815829   -0.4035836  
   0.826958700    -0.7327241   -0.3025584  
   0.828958600    -0.7681776   -0.1951023  
   0.830958500    -0.7877067   -0.0840737  
   0.832958400    -0.7907436    0.0281847  
   0.834958300    -0.7776095    0.1395910  
   0.836958200    -0.7485787    0.2476378  
   0.838958100    -0.7040902    0.3501442  
   0.840958000    -0.6453769    0.4455465  
   0.842957900    -0.5732948    0.5319581  
   0.844957800    -0.4888858    0.6070924  
   0.846957700    -0.3942023    0.6696950  
   0.848957600    -0.2907319    0.7180222  
   0.850957500    -0.1807038    0.7507294  
   0.852957400    -0.0663149    0.7668921  
   0.854957300     0.0501122    0.7658685  
   0.856957200     0.1658693    0.7469559  
   0.858957100     0.2777662    0.7109963  
   0.860957000     0.3832777    0.6579433  
   0.862956900     0.4793067    0.5888448  
   0.864956800     0.5641822    0.5060477  
   0.866956700     0.6352199    0.4109150  
   0.868956600     0.6905214    0.3049231  
   0.870956500     0.7297037    0.1912962  
   0.872956400     0.7504338    0.0720858  
   0.874956300     0.7518393   -0.0495938  
   0.876956200     0.7340486   -0.1708101  
   0.878956100     0.6967928   -0.2878815  
   0.880956000     0.6411409   -0.3973221  
   0.882955900     0.5684802   -0.4967819  
   0.884955800     0.4812526   -0.5827098  
   0.886955700     0.3811437   -0.6532974  
   0.888955600     0.2717153   -0.7067681  
   0.890955500     0.1560432   -0.7414296  
   0.892955400     0.0369124   -0.7574763  
   0.894955300    -0.0820250   -0.7542570  
