! MS46122B
! 2250307/22442219
! 7/27/2025 9:22:14 AM
! C:\USERS\SPARKY\DOCUMENTS\VNA_DATA\JULY27_2025\3K\ECAL_SHORT_E_REPEAT1.S1P
! CHANNEL.1
! TR.MEASUREMENT
! RAW.DATA
# GHZ S RI R 50.0
! FREQ.GHZ         S11RE         S11IM         
!; PortSelection: Port_1
   0.001000000     1.0460000   -0.0720557  
   0.002999900     0.9646586   -0.1944652  
   0.004999800     0.9052428   -0.2995114  
   0.006999700     0.8387112   -0.3972037  
   0.008999600     0.7619496   -0.4927870  
   0.010999500     0.6716515   -0.5843033  
   0.012999400     0.5625744   -0.6696056  
   0.014999300     0.4296552   -0.7437212  
   0.016999200     0.2656213   -0.7964454  
   0.018999100     0.0652849   -0.8113601  
   0.020999000    -0.1689064   -0.7603058  
   0.022998900    -0.4149279   -0.6046050  
   0.024998800    -0.5846465   -0.3115683  
   0.026998700    -0.6460662    0.0917677  
   0.028998600    -0.4595279    0.4826280  
   0.030998500    -0.1098797    0.7135531  
   0.032998400     0.2365021    0.7245887  
   0.034998300     0.5557204    0.6394846  
   0.036998200     0.7545799    0.4718002  
   0.038998100     0.8730473    0.2889925  
   0.040998000     0.9317374    0.1133444  
   0.042997900     0.9496791   -0.0466130  
   0.044997800     0.9086913   -0.1659792  
   0.046997700     0.9060266   -0.3140119  
   0.048997600     0.8608393   -0.4234877  
   0.050997500     0.8045048   -0.5185685  
   0.052997400     0.7406605   -0.6006595  
   0.054997300     0.6714570   -0.6715481  
   0.056997200     0.5958554   -0.7335234  
   0.058997100     0.5175449   -0.7850789  
   0.060997000     0.4357243   -0.8276882  
   0.062996900     0.3508969   -0.8618353  
   0.064996800     0.2635151   -0.8870535  
   0.066996700     0.1734908   -0.9032242  
   0.068996600     0.0814193   -0.9106671  
   0.070996500    -0.0119405   -0.9092433  
   0.072996400    -0.1064757   -0.8965996  
   0.074996300    -0.2017790   -0.8732339  
   0.076996200    -0.2964617   -0.8381942  
   0.078996100    -0.3893574   -0.7910145  
   0.080996000    -0.4790617   -0.7307322  
   0.082995900    -0.5638914   -0.6565617  
   0.084995800    -0.6410289   -0.5674574  
   0.086995700    -0.7089225   -0.4649408  
   0.088995600    -0.7644047   -0.3478643  
   0.090995500    -0.8031219   -0.2178836  
   0.092995400    -0.8226684   -0.0759528  
   0.094995300    -0.8168814    0.0742809  
   0.096995200    -0.7835313    0.2290454  
   0.098995100    -0.7185309    0.3812824  
   0.100995000    -0.6206411    0.5249537  
   0.102994900    -0.4923400    0.6488050  
   0.104994800    -0.3368044    0.7456970  
   0.106994700    -0.1606373    0.8076163  
   0.108994600     0.0258735    0.8306869  
   0.110994500     0.2127710    0.8130626  
   0.112994400     0.3896305    0.7556389  
   0.114994300     0.5470473    0.6642799  
   0.116994200     0.6781569    0.5454643  
   0.118994100     0.7790937    0.4071894  
   0.120994000     0.8505685    0.2583506  
   0.122993900     0.8892906    0.1049454  
   0.124993800     0.8995159   -0.0460003  
   0.126993700     0.8844106   -0.1904837  
   0.128993600     0.8461323   -0.3234460  
   0.130993500     0.7912107   -0.4443297  
   0.132993400     0.7216226   -0.5514859  
   0.134993300     0.6403820   -0.6439338  
   0.136993200     0.5498073   -0.7213491  
   0.138993100     0.4525910   -0.7838864  
   0.140993000     0.3506683   -0.8319286  
   0.142992900     0.2458002   -0.8655390  
   0.144992800     0.1391066   -0.8867394  
   0.146992700     0.0321024   -0.8934060  
   0.148992600    -0.0740360   -0.8867276  
   0.150992500    -0.1777226   -0.8662221  
   0.152992400    -0.2785095   -0.8344701  
   0.154992300    -0.3743709   -0.7903104  
   0.156992200    -0.4655952   -0.7346196  
   0.158992100    -0.5496336   -0.6675219  
   0.160992000    -0.6260558   -0.5892813  
   0.162991900    -0.6929513   -0.5008510  
   0.164991800    -0.7489693   -0.4022430  
   0.166991700    -0.7924837   -0.2948337  
   0.168991600    -0.8214849   -0.1799737  
   0.170991500    -0.8350733   -0.0585553  
   0.172991400    -0.8313743    0.0662658  
   0.174991300    -0.8086461    0.1927280  
   0.176991200    -0.7658071    0.3184481  
   0.178991100    -0.7022011    0.4393971  
   0.180991000    -0.6188722    0.5522210  
   0.182990900    -0.5148653    0.6518118  
   0.184990800    -0.3922434    0.7346753  
   0.186990700    -0.2543156    0.7967896  
   0.188990600    -0.1295197    0.8304887  
   0.190990500     0.0464801    0.8440598  
   0.192990400     0.2063895    0.8258743  
   0.194990300     0.3579314    0.7800607  
   0.196990200     0.4982040    0.7076298  
   0.198990100     0.6225186    0.6112046  
   0.200990000     0.7267440    0.4947749  
   0.202989900     0.8079443    0.3630972  
   0.204989800     0.8638263    0.2215716  
   0.206989700     0.8947320    0.0761487  
   0.208989600     0.8994827   -0.0690917  
   0.210989500     0.8804263   -0.2104409  
   0.212989400     0.8397852   -0.3434040  
   0.214989300     0.7801493   -0.4656467  
   0.216989200     0.7051017   -0.5737618  
   0.218989100     0.6168094   -0.6668147  
   0.220989000     0.5180261   -0.7447855  
   0.222988900     0.4107597   -0.8065893  
   0.224988800     0.2984224   -0.8516889  
   0.226988700     0.1828822   -0.8805721  
   0.228988600     0.0670931   -0.8931264  
   0.230988500    -0.0478629   -0.8896493  
   0.232988400    -0.1606254   -0.8704163  
   0.234988300    -0.2697579   -0.8376374  
   0.236988200    -0.3732475   -0.7909265  
   0.238988100    -0.4696395   -0.7310184  
   0.240988000    -0.5570811   -0.6588867  
   0.242987900    -0.6342624   -0.5757476  
   0.244987800    -0.7002560   -0.4823371  
   0.246987700    -0.7537353   -0.3793904  
   0.248987600    -0.7934127   -0.2681501  
   0.250987500    -0.8171865   -0.1502717  
   0.252987400    -0.8242102   -0.0286446  
   0.254987300    -0.8133692    0.0943692  
   0.256987200    -0.7839231    0.2167241  
   0.258987100    -0.7364361    0.3365853  
   0.260987000    -0.6682227    0.4500588  
   0.262986900    -0.5803667    0.5536793  
   0.264986800    -0.4749337    0.6434714  
   0.266986700    -0.3527187    0.7161005  
   0.268986600    -0.2184132    0.7673199  
   0.270986500    -0.0750682    0.7950642  
   0.272986400     0.0728821    0.7974411  
   0.274986300     0.2200694    0.7731859  
   0.276986200     0.3616804    0.7223090  
   0.278986100     0.4926921    0.6461833  
   0.280986000     0.6079008    0.5475008  
   0.282985900     0.7026488    0.4301341  
   0.284985800     0.7739214    0.2987509  
   0.286985700     0.8198740    0.1590366  
   0.288985600     0.8403558    0.0161848  
   0.290985500     0.8357203   -0.1245760  
   0.292985400     0.8083157   -0.2596019  
   0.294985300     0.7602865   -0.3854021  
   0.296985200     0.6937059   -0.4992180  
   0.298985100     0.6116630   -0.5990998  
   0.300985000     0.5177320   -0.6833144  
   0.302984900     0.4149106   -0.7502691  
   0.304984800     0.3061235   -0.8000339  
   0.306984700     0.1945497   -0.8326473  
   0.308984600     0.0829562   -0.8494374  
   0.310984500    -0.0269114   -0.8506235  
   0.312984400    -0.1335417   -0.8377279  
   0.314984300    -0.2355996   -0.8118025  
   0.316984200    -0.3322212   -0.7739248  
   0.318984100    -0.4230859   -0.7248604  
   0.320984000    -0.5068081   -0.6656897  
   0.322983900    -0.5829672   -0.5972100  
   0.324983800    -0.6510319   -0.5208351  
   0.326983700    -0.7101844   -0.4366055  
   0.328983600    -0.7603149   -0.3442091  
   0.330983500    -0.8000280   -0.2440730  
   0.332983400    -0.8271994   -0.1367037  
   0.334983300    -0.8382589   -0.0233888  
   0.336983200    -0.8318753    0.0933591  
   0.338983100    -0.8075189    0.2090068  
   0.340983000    -0.7649997    0.3208683  
   0.342982900    -0.7057211    0.4258207  
   0.344982800    -0.6310334    0.5214370  
   0.346982700    -0.5417737    0.6067606  
   0.348982600    -0.4392468    0.6772642  
   0.350982500    -0.3271895    0.7333803  
   0.352982400    -0.2063436    0.7724221  
   0.354982300    -0.0742547    0.7933104  
   0.356982200     0.0742595    0.7909557  
   0.358982100     0.2207191    0.7617607  
   0.360982000     0.3600551    0.7061197  
   0.362981900     0.4880926    0.6258737  
   0.364981800     0.5998148    0.5229837  
   0.366981700     0.6911720    0.4001764  
   0.368981600     0.7583389    0.2616870  
   0.370981500     0.7987925    0.1125754  
   0.372981400     0.8104711   -0.0419241  
   0.374981300     0.7928221   -0.1963908  
   0.376981200     0.8107153   -0.0876944  
   0.378981100     0.7836453   -0.2399238  
   0.380981000     0.7286990   -0.3832777  
   0.382980900     0.6566306   -0.5025382  
   0.384980800     0.5702538   -0.6022320  
   0.386980700     0.4700868   -0.6860963  
   0.388980600     0.3589883   -0.7517985  
   0.390980500     0.2414748   -0.7989140  
   0.392980400     0.1199161   -0.8265764  
   0.394980300    -0.0021384   -0.8355452  
   0.396980200    -0.1227574   -0.8263012  
   0.398980100    -0.2389882   -0.8000293  
   0.400980000    -0.3491451   -0.7572835  
   0.402979900    -0.4513036   -0.6994485  
   0.404979800    -0.5428150   -0.6289044  
   0.406979700    -0.6234097   -0.5465673  
   0.408979600    -0.6909266   -0.4544521  
   0.410979500    -0.7450335   -0.3536583  
   0.412979400    -0.7849600   -0.2454293  
   0.414979300    -0.8078331   -0.1325072  
   0.416979200    -0.8165583   -0.0169763  
   0.418979100    -0.8087891    0.0983426  
   0.420979000    -0.7845971    0.2122507  
   0.422978900    -0.7441379    0.3225790  
   0.424978800    -0.6876110    0.4271105  
   0.426978700    -0.6162131    0.5233009  
   0.428978600    -0.5305614    0.6091366  
   0.430978500    -0.4326208    0.6816747  
   0.432978400    -0.3241569    0.7395933  
   0.434978300    -0.2073543    0.7822603  
   0.436978200    -0.0838609    0.8058828  
   0.438978100     0.0431776    0.8104506  
   0.440978000     0.1708048    0.7953198  
   0.442977900     0.2958452    0.7600449  
   0.444977800     0.4144210    0.7052765  
   0.446977700     0.5238400    0.6320327  
   0.448977600     0.6206437    0.5416536  
   0.450977500     0.7018877    0.4365658  
   0.452977400     0.7656657    0.3191909  
   0.454977300     0.8096365    0.1922940  
   0.456977200     0.8325360    0.0595262  
   0.458977100     0.8336331   -0.0744304  
   0.460977000     0.8127252   -0.2063808  
   0.462976900     0.7717635   -0.3322161  
   0.464976800     0.7113276   -0.4488239  
   0.466976700     0.6344616   -0.5538870  
   0.468976600     0.5426018   -0.6438541  
   0.470976500     0.4390729   -0.7181333  
   0.472976400     0.3268728   -0.7748293  
   0.474976300     0.2085665   -0.8132370  
   0.476976200     0.0877740   -0.8334122  
   0.478976100    -0.0328272   -0.8352485  
   0.480976000    -0.1504075   -0.8198980  
   0.482975900    -0.2629721   -0.7882004  
   0.484975800    -0.3688472   -0.7413887  
   0.486975700    -0.4665397   -0.6804148  
   0.488975600    -0.5544203   -0.6069797  
   0.490975500    -0.6309279   -0.5221322  
   0.492975400    -0.6946219   -0.4276596  
   0.494975300    -0.7447296   -0.3250021  
   0.496975200    -0.7801652   -0.2157899  
   0.498975100    -0.7996151   -0.1031023  
   0.500975000    -0.8029850    0.0124410  
   0.502974900    -0.7895110    0.1278882  
   0.504974800    -0.7589774    0.2409950  
   0.506974700    -0.7116837    0.3499513  
   0.508974600    -0.6467906    0.4520713  
   0.510974500    -0.5663121    0.5435120  
   0.512974400    -0.4716343    0.6215048  
   0.514974300    -0.3650737    0.6824393  
   0.516974200    -0.2502963    0.7262998  
   0.518974100    -0.1304557    0.7505980  
   0.520974000    -0.0088434    0.7549120  
   0.522973900     0.1108639    0.7401030  
   0.524973800     0.2250793    0.7068197  
   0.526973700     0.3315031    0.6570110  
   0.528973600     0.4278062    0.5925797  
   0.530973500     0.5131008    0.5156037  
   0.532973400     0.5854506    0.4283451  
   0.534973300     0.6441611    0.3323693  
   0.536973200     0.6888025    0.2293737  
   0.538973100     0.7184524    0.1214183  
   0.540973000     0.7327254    0.0111537  
   0.542972900     0.7312207   -0.1010268  
   0.544972800     0.7132781   -0.2121524  
   0.546972700     0.6789426   -0.3203310  
   0.548972600     0.6286560   -0.4230352  
   0.550972500     0.5635598   -0.5178214  
   0.552972400     0.4838926   -0.6022663  
   0.554972300     0.3919958   -0.6739225  
   0.556972200     0.2897460   -0.7310212  
   0.558972100     0.1798316   -0.7721140  
   0.560972000     0.0653418   -0.7957536  
   0.562971900    -0.0510459   -0.8016462  
   0.564971800    -0.1671587   -0.7899182  
   0.566971700    -0.2791901   -0.7613765  
   0.568971600    -0.3857225   -0.7167360  
   0.570971500    -0.4841570   -0.6568993  
   0.572971400    -0.5726613   -0.5833746  
   0.574971300    -0.6497823   -0.4973117  
   0.576971200    -0.7135537   -0.4010327  
   0.578971100    -0.7630240   -0.2961940  
   0.580971000    -0.7965257   -0.1853940  
   0.582970900    -0.8136386   -0.0712958  
   0.584970800    -0.8139010    0.0440803  
   0.586970700    -0.7978650    0.1582514  
   0.588970600    -0.7656134    0.2690870  
   0.590970500    -0.7174417    0.3744258  
   0.592970400    -0.6543072    0.4724384  
   0.594970300    -0.5774139    0.5608095  
   0.596970200    -0.4877431    0.6375304  
   0.598970100    -0.3872979    0.7006190  
   0.600970000    -0.2773204    0.7486862  
   0.602969900    -0.1603012    0.7802864  
   0.604969800    -0.0387827    0.7940508  
   0.606969700     0.0846886    0.7889926  
   0.608969600     0.2075816    0.7643803  
   0.610969500     0.3257380    0.7207690  
   0.612969400     0.4367982    0.6585706  
   0.614969300     0.5370358    0.5791304  
   0.616969200     0.6236024    0.4843013  
   0.618969100     0.6937075    0.3769289  
   0.620969000     0.7460589    0.2598563  
   0.622968900     0.7787500    0.1354446  
   0.624968800     0.7910006    0.0069935  
   0.626968700     0.7821178   -0.1218478  
   0.628968600     0.7527487   -0.2476975  
   0.630968500     0.7034994   -0.3672431  
   0.632968400     0.6357080   -0.4762648  
   0.634968300     0.5516419   -0.5723778  
   0.636968200     0.4537832   -0.6535360  
   0.638968100     0.3454938   -0.7173421  
   0.640968000     0.2291570   -0.7630165  
   0.642967900     0.1084009   -0.7895029  
   0.644967800    -0.0135567   -0.7967173  
   0.646967700    -0.1339597   -0.7852008  
   0.648967600    -0.2496420   -0.7558082  
   0.650967500    -0.3581882   -0.7102284  
   0.652967400    -0.4575064   -0.6493882  
   0.654967300    -0.5461547   -0.5755050  
   0.656967200    -0.6223702   -0.4902540  
   0.658967100    -0.6850522   -0.3954923  
   0.660967000    -0.7334250   -0.2929852  
   0.662966900    -0.7665367   -0.1844427  
   0.664966800    -0.7834728   -0.0720928  
   0.666966700    -0.7843324    0.0414757  
   0.668966600    -0.7685651    0.1541173  
   0.670966500    -0.7369342    0.2639658  
   0.672966400    -0.6900735    0.3685062  
   0.674966300    -0.6277901    0.4649811  
   0.676966200    -0.5517996    0.5515036  
   0.678966100    -0.4634671    0.6264269  
   0.680966000    -0.3646126    0.6877782  
   0.682965900    -0.2565035    0.7341980  
   0.684965800    -0.1419866    0.7644739  
   0.686965700    -0.0229426    0.7767268  
   0.688965600     0.0976016    0.7709778  
   0.690965500     0.2166803    0.7452489  
   0.692965400     0.3312503    0.7020863  
   0.694965300     0.4383005    0.6413267  
   0.696965200     0.5352830    0.5635988  
   0.698965100     0.6190163    0.4709977  
   0.700965000     0.6871056    0.3657399  
   0.702964900     0.7376590    0.2502712  
   0.704964800     0.7689306    0.1281350  
   0.706964700     0.7801688    0.0023270  
   0.708964600     0.7708870   -0.1236742  
   0.710964500     0.7421609   -0.2462931  
   0.712964400     0.6937503   -0.3615654  
   0.714964300     0.6278034   -0.4666695  
   0.716964200     0.5469260   -0.5589229  
   0.718964100     0.4543625   -0.6356875  
   0.720964000     0.3525024   -0.6965678  
   0.722963900     0.2440373   -0.7406175  
   0.724963800     0.1322925   -0.7679023  
   0.726963700     0.0187291   -0.7783056  
   0.728963600    -0.0938836   -0.7723220  
   0.730963500    -0.2028616   -0.7494910  
   0.732963400    -0.3067604   -0.7132987  
   0.734963300    -0.4042998   -0.6624897  
   0.736963200    -0.5056769   -0.5877612  
   0.738963100    -0.5932027   -0.4972117  
   0.740963000    -0.6654804   -0.3937850  
   0.742962900    -0.7192549   -0.2799150  
   0.744962800    -0.7539116   -0.1582395  
   0.746962700    -0.7677213   -0.0321007  
   0.748962600    -0.7607999    0.0956512  
   0.750962500    -0.7809070   -0.0217203  
   0.752962400    -0.7713093    0.1073861  
   0.754962300    -0.7399557    0.2333772  
   0.756962200    -0.6873826    0.3529557  
   0.758962100    -0.6145436    0.4623291  
   0.760962000    -0.5234211    0.5577674  
   0.762961900    -0.4224322    0.6331279  
   0.764961800    -0.3211972    0.6862349  
   0.766961700    -0.2128970    0.7229248  
   0.768961600    -0.0995704    0.7428403  
   0.770961500     0.0148669    0.7459164  
   0.772961400     0.1285492    0.7309104  
   0.774961300     0.2383350    0.6993734  
   0.776961200     0.3425137    0.6511951  
   0.778961100     0.4383388    0.5882330  
   0.780961000     0.5239710    0.5107629  
   0.782960900     0.5972534    0.4207766  
   0.784960800     0.6565949    0.3204091  
   0.786960700     0.6998992    0.2116890  
   0.788960600     0.7260977    0.0972601  
   0.790960500     0.7344816   -0.0200469  
   0.792960400     0.7247979   -0.1372400  
   0.794960300     0.6969597   -0.2514731  
   0.796960200     0.6516551   -0.3602473  
   0.798960100     0.5904673   -0.4605589  
   0.800960000     0.5145311   -0.5499745  
   0.802959900     0.4257876   -0.6264370  
   0.804959800     0.3265156   -0.6885220  
   0.806959700     0.2193454   -0.7345062  
   0.808959600     0.1062395   -0.7638226  
   0.810959500    -0.0092780   -0.7752311  
   0.812959400    -0.1252180   -0.7689924  
   0.814959300    -0.2383893   -0.7452651  
   0.816959200    -0.3464779   -0.7051934  
   0.818959100    -0.4469093   -0.6493601  
   0.820959000    -0.5376440   -0.5795345  
   0.822958900    -0.6167984   -0.4971446  
   0.824958800    -0.6824369   -0.4042005  
   0.826958700    -0.7336702   -0.3029035  
   0.828958600    -0.7691470   -0.1953176  
   0.830958500    -0.7886692   -0.0842021  
   0.832958400    -0.7917695    0.0283862  
   0.834958300    -0.7786094    0.1398948  
   0.836958200    -0.7494864    0.2480570  
   0.838958100    -0.7050054    0.3506993  
   0.840958000    -0.6461856    0.4461735  
   0.842957900    -0.5739453    0.5327495  
   0.844957800    -0.4894535    0.6079770  
   0.846957700    -0.3945881    0.6706390  
   0.848957600    -0.2910589    0.7189968  
   0.850957500    -0.1808903    0.7517264  
   0.852957400    -0.0662594    0.7679335  
   0.854957300     0.0503323    0.7668874  
   0.856957200     0.1662188    0.7479701  
   0.858957100     0.2782132    0.7119219  
   0.860957000     0.3838501    0.6588614  
   0.862956900     0.4800741    0.5896688  
   0.864956800     0.5650370    0.5067124  
   0.866956700     0.6362332    0.4114330  
   0.868956600     0.6915411    0.3052869  
   0.870956500     0.7305675    0.1916497  
   0.872956400     0.7515284    0.0721444  
   0.874956300     0.7530504   -0.0496655  
   0.876956200     0.7351020   -0.1711600  
   0.878956100     0.6977445   -0.2882825  
   0.880956000     0.6420897   -0.3979185  
   0.882955900     0.5693626   -0.4974506  
   0.884955800     0.4818885   -0.5835984  
   0.886955700     0.3815880   -0.6542422  
   0.888955600     0.2720610   -0.7077984  
   0.890955500     0.1561754   -0.7424784  
   0.892955400     0.0368804   -0.7585232  
   0.894955300    -0.0821539   -0.7552837  
