! MS46122B
! 2250307/22442219
! 7/23/2025 7:49:48 AM
! C:\USERS\SPARKY\DOCUMENTS\VNA_DATA\JULY23_2025\3K\ECAL_OPEN_B.S1P
! CHANNEL.1
! TR.MEASUREMENT
! RAW.DATA
# GHZ S RI R 50.0
! FREQ.GHZ         S11RE         S11IM         
!; PortSelection: Port_1
   0.001000000     1.0458320   -0.0721779  
   0.002999900     0.9482081   -0.2219903  
   0.004999800     0.8104861   -0.0899452  
   0.006999700     0.5225908   -0.4051237  
   0.008999600     0.9409309   -0.0004381  
   0.010999500     0.9264540   -0.2271016  
   0.012999400     0.8870555   -0.3358277  
   0.014999300     0.8470763   -0.4178951  
   0.016999200     0.8070399   -0.4887084  
   0.018999100     0.7643389   -0.5544073  
   0.020999000     0.7176411   -0.6156265  
   0.022998900     0.6658871   -0.6716464  
   0.024998800     0.6001218   -0.6876996  
   0.026998700     0.5463058   -0.7701858  
   0.028998600     0.4768248   -0.8118234  
   0.030998500     0.4007283   -0.8470517  
   0.032998400     0.3205817   -0.8408612  
   0.034998300     0.2267554   -0.8948430  
   0.036998200     0.1299366   -0.9045724  
   0.038998100     0.0270506   -0.9028510  
   0.040998000    -0.0809535   -0.8869804  
   0.042997900    -0.1928146   -0.8560686  
   0.044997800    -0.2835267   -0.7855713  
   0.046997700    -0.4186939   -0.7369261  
   0.048997600    -0.5260198   -0.6452665  
   0.050997500    -0.6238837   -0.5288549  
   0.052997400    -0.7038190   -0.3883672  
   0.054997300    -0.7609948   -0.2196139  
   0.056997200    -0.7820370   -0.0308647  
   0.058997100    -0.7576849    0.1703794  
   0.060997000    -0.6810431    0.3702871  
   0.062996900    -0.5501711    0.5522269  
   0.064996800    -0.3706814    0.6964176  
   0.066996700    -0.1567965    0.7877296  
   0.068996600     0.0709532    0.8175669  
   0.070996500     0.2930288    0.7877126  
   0.072996400     0.4915501    0.7054870  
   0.074996300     0.6546645    0.5843366  
   0.076996200     0.7778687    0.4385151  
   0.078996100     0.8614073    0.2809553  
   0.080996000     0.9080553    0.1206319  
   0.082995900     0.9233340   -0.0344694  
   0.084995800     0.9110662   -0.1794915  
   0.086995700     0.8784145   -0.3124817  
   0.088995600     0.8281775   -0.4319723  
   0.090995500     0.7649084   -0.5372112  
   0.092995400     0.6916639   -0.6296145  
   0.094995300     0.6096171   -0.7073495  
   0.096995200     0.5212534   -0.7718179  
   0.098995100     0.4278414   -0.8239369  
   0.100995000     0.3313881   -0.8634117  
   0.102994900     0.2325908   -0.8907483  
   0.104994800     0.1323590   -0.9066015  
   0.106994700     0.0309713   -0.9103695  
   0.108994600    -0.0698128   -0.9035518  
   0.110994500    -0.1697149   -0.8851302  
   0.112994400    -0.2675723   -0.8550783  
   0.114994300    -0.3626498   -0.8133155  
   0.116994200    -0.4537035   -0.7597931  
   0.118994100    -0.5390933   -0.6941601  
   0.120994000    -0.6190483   -0.6180717  
   0.122993900    -0.6896660   -0.5288203  
   0.124993800    -0.7498810   -0.4281444  
   0.126993700    -0.7977808   -0.3164734  
   0.128993600    -0.8292640   -0.1949011  
   0.130993500    -0.8446594   -0.0655214  
   0.132993400    -0.8407084    0.0696271  
   0.134993300    -0.8143795    0.2080709  
   0.136993200    -0.7643457    0.3451674  
   0.138993100    -0.6891713    0.4768387  
   0.140993000    -0.5888923    0.5973679  
   0.142992900    -0.4647037    0.7011012  
   0.144992800    -0.3201821    0.7832272  
   0.146992700    -0.1587908    0.8362499  
   0.148992600     0.0127142    0.8569573  
   0.150992500     0.1856513    0.8426095  
   0.152992400     0.3534671    0.7954236  
   0.154992300     0.5076237    0.7164230  
   0.156992200     0.6419381    0.6096454  
   0.158992100     0.7513508    0.4816938  
   0.160992000     0.8323896    0.3381627  
   0.162991900     0.8843482    0.1861710  
   0.164991800     0.9080169    0.0315883  
   0.166991700     0.9037867   -0.1188776  
   0.168991600     0.8750494   -0.2621715  
   0.170991500     0.8250021   -0.3944324  
   0.172991400     0.7568503   -0.5131708  
   0.174991300     0.6742790   -0.6161786  
   0.176991200     0.5799287   -0.7036994  
   0.178991100     0.4764249   -0.7742444  
   0.180991000     0.3678066   -0.8293037  
   0.182990900     0.2544327   -0.8666192  
   0.184990800     0.1390869   -0.8881062  
   0.186990700     0.0237249   -0.8940654  
   0.188990600    -0.0651453   -0.8859283  
   0.190990500    -0.1967596   -0.8608020  
   0.192990400    -0.3063866   -0.8218729  
   0.194990300    -0.4064021   -0.7707837  
   0.196990200    -0.4988555   -0.7071063  
   0.198990100    -0.5824625   -0.6316893  
   0.200990000    -0.6562711   -0.5450529  
   0.202989900    -0.7188210   -0.4479099  
   0.204989800    -0.7686813   -0.3420216  
   0.206989700    -0.8053144   -0.2293416  
   0.208989600    -0.8248135   -0.1101545  
   0.210989500    -0.8272820    0.0135075  
   0.212989400    -0.8116902    0.1392465  
   0.214989300    -0.7769585    0.2641995  
   0.216989200    -0.7222136    0.3846894  
   0.218989100    -0.6481401    0.4978628  
   0.220989000    -0.5545585    0.6002941  
   0.222988900    -0.4426405    0.6884261  
   0.224988800    -0.3147921    0.7583591  
   0.226988700    -0.1747766    0.8064768  
   0.228988600    -0.0270062    0.8295864  
   0.230988500     0.1248880    0.8267208  
   0.232988400     0.2747704    0.7952891  
   0.234988300     0.4182588    0.7389956  
   0.236988200     0.5495598    0.6576701  
   0.238988100     0.6636941    0.5547563  
   0.240988000     0.7570145    0.4345107  
   0.242987900     0.8269650    0.3015816  
   0.244987800     0.8722726    0.1605133  
   0.246987700     0.8929322    0.0162284  
   0.248987600     0.8889488   -0.1271453  
   0.250987500     0.8624811   -0.2651324  
   0.252987400     0.8151735   -0.3940547  
   0.254987300     0.7504621   -0.5107773  
   0.256987200     0.6705053   -0.6136433  
   0.258987100     0.5794855   -0.7027184  
   0.260987000     0.4776744   -0.7749896  
   0.262986900     0.3684649   -0.8313501  
   0.264986800     0.2544534   -0.8710546  
   0.266986700     0.1380339   -0.8942367  
   0.268986600     0.0215044   -0.9015297  
   0.270986500    -0.0927143   -0.8934017  
   0.272986400    -0.2036919   -0.8707400  
   0.274986300    -0.3099440   -0.8341578  
   0.276986200    -0.4102256   -0.7843149  
   0.278986100    -0.5037320   -0.7217137  
   0.280986000    -0.5882850   -0.6472737  
   0.282985900    -0.6632152   -0.5621256  
   0.284985800    -0.7265003   -0.4667996  
   0.286985700    -0.7768894   -0.3632919  
   0.288985600    -0.8131318   -0.2533815  
   0.290985500    -0.8344486   -0.1384262  
   0.292985400    -0.8397033   -0.0196783  
   0.294985300    -0.8277279    0.1012351  
   0.296985200    -0.7974926    0.2222950  
   0.298985100    -0.7478536    0.3409790  
   0.300985000    -0.6781951    0.4530835  
   0.302984900    -0.5894834    0.5549367  
   0.304984800    -0.4823783    0.6422127  
   0.306984700    -0.3589126    0.7107760  
   0.308984600    -0.2231341    0.7566963  
   0.310984500    -0.0795274    0.7764257  
   0.312984400     0.0667103    0.7676709  
   0.314984300     0.2084929    0.7298967  
   0.316984200     0.3381327    0.6641828  
   0.318984100     0.4489678    0.5740255  
   0.320984000     0.5348424    0.4669582  
   0.322983900     0.5926856    0.3515115  
   0.324983800     0.6235497    0.2372224  
   0.326983700     0.6336145    0.1320940  
   0.328983600     0.6303180    0.0389936  
   0.330983500     0.6217201   -0.0427763  
   0.332983400     0.6123776   -0.1178247  
   0.334983300     0.6031939   -0.1929138  
   0.336983200     0.5907841   -0.2724336  
   0.338983100     0.5700803   -0.3581532  
   0.340983000     0.5354585   -0.4479203  
   0.342982900     0.4840285   -0.5374454  
   0.344982800     0.4139948   -0.6216892  
   0.346982700     0.3261374   -0.6952239  
   0.348982600     0.2236501   -0.7526210  
   0.350982500     0.1108652   -0.7925714  
   0.352982400    -0.0080528   -0.8124057  
   0.354982300    -0.1349265   -0.8113490  
   0.356982200    -0.2733307   -0.7835023  
   0.358982100    -0.4038850   -0.7308452  
   0.360982000    -0.5215999   -0.6562688  
   0.362981900    -0.6236051   -0.5624872  
   0.364981800    -0.7080872   -0.4526432  
   0.366981700    -0.7716575   -0.3306412  
   0.368981600    -0.8136781   -0.1997944  
   0.370981500    -0.8327698   -0.0640088  
   0.372981400    -0.8291452    0.0725561  
   0.374981300    -0.8025037    0.2071571  
   0.376981200    -0.8330212    0.0734651  
   0.378981100    -0.8059579    0.2120392  
   0.380981000    -0.7554532    0.3454843  
   0.382980900    -0.6906765    0.4576703  
   0.384980800    -0.6127409    0.5552612  
   0.386980700    -0.5202227    0.6412200  
   0.388980600    -0.4143832    0.7130746  
   0.390980500    -0.2983894    0.7685277  
   0.392980400    -0.1740820    0.8057312  
   0.394980300    -0.0444612    0.8234406  
   0.396980200     0.0877197    0.8206283  
   0.398980100     0.2194692    0.7970014  
   0.400980000     0.3466407    0.7523192  
   0.402979900     0.4665734    0.6869656  
   0.404979800     0.5746342    0.6029822  
   0.406979700     0.6680040    0.5016190  
   0.408979600     0.7439878    0.3862587  
   0.410979500     0.7998922    0.2591128  
   0.412979400     0.8343525    0.1239980  
   0.414979300     0.8446472   -0.0147526  
   0.416979200     0.8329062   -0.1526384  
   0.418979100     0.7989844   -0.2857217  
   0.420979000     0.7439173   -0.4105139  
   0.422978900     0.6699763   -0.5239912  
   0.424978800     0.5792143   -0.6229275  
   0.426978700     0.4750111   -0.7052180  
   0.428978600     0.3605590   -0.7690613  
   0.430978500     0.2395460   -0.8135632  
   0.432978400     0.1150910   -0.8384277  
   0.434978300    -0.0100037   -0.8457313  
   0.436978200    -0.1331475   -0.8324656  
   0.438978100    -0.2513754   -0.8017088  
   0.440978000    -0.3631543   -0.7543188  
   0.442977900    -0.4654893   -0.6918141  
   0.444977800    -0.5571215   -0.6156726  
   0.446977700    -0.6364275   -0.5277309  
   0.448977600    -0.7018015   -0.4301565  
   0.450977500    -0.7527658   -0.3243041  
   0.452977400    -0.7881540   -0.2120525  
   0.454977300    -0.8070851   -0.0948200  
   0.456977200    -0.8092374    0.0243393  
   0.458977100    -0.7938064    0.1435093  
   0.460977000    -0.7612787    0.2592683  
   0.462976900    -0.7114479    0.3694044  
   0.464976800    -0.6454136    0.4720172  
   0.466976700    -0.5640659    0.5642438  
   0.468976600    -0.4690857    0.6441818  
   0.470976500    -0.3614841    0.7092250  
   0.472976400    -0.2443393    0.7570794  
   0.474976300    -0.1196503    0.7863449  
   0.476976200     0.0090853    0.7956848  
   0.478976100     0.1384141    0.7841964  
   0.480976000     0.2646567    0.7521584  
   0.482975900     0.3846608    0.6996758  
   0.484975800     0.4946876    0.6279433  
   0.486975700     0.5918580    0.5392855  
   0.488975600     0.6731232    0.4355847  
   0.490975500     0.7360050    0.3200074  
   0.492975400     0.7786113    0.1960174  
   0.494975300     0.7999796    0.0677506  
   0.496975200     0.8006003   -0.0612432  
   0.498975100     0.7797424   -0.1865164  
   0.500975000     0.7401268   -0.3053311  
   0.502974900     0.6834837   -0.4137763  
   0.504974800     0.6116991   -0.5105719  
   0.506974700     0.5275643   -0.5939867  
   0.508974600     0.4331916   -0.6630669  
   0.510974500     0.3319319   -0.7168564  
   0.512974400     0.2262944   -0.7549357  
   0.514974300     0.1190909   -0.7761422  
   0.516974200     0.0114252   -0.7844718  
   0.518974100    -0.0941769   -0.7788102  
   0.520974000    -0.1977784   -0.7602293  
   0.522973900    -0.2977532   -0.7287244  
   0.524973800    -0.3932754   -0.6846035  
   0.526973700    -0.4835662   -0.6280796  
   0.528973600    -0.5667109   -0.5593637  
   0.530973500    -0.6411945   -0.4783193  
   0.532973400    -0.7042732   -0.3864055  
   0.534973300    -0.7542924   -0.2843495  
   0.536973200    -0.7889942   -0.1740871  
   0.538973100    -0.8066604   -0.0591002  
   0.540973000    -0.8067979    0.0583507  
   0.542972900    -0.7887340    0.1755426  
   0.544972800    -0.7525759    0.2891862  
   0.546972700    -0.6990046    0.3971289  
   0.548972600    -0.6286845    0.4961187  
   0.550972500    -0.5438318    0.5835106  
   0.552972400    -0.4460503    0.6573112  
   0.554972300    -0.3373587    0.7154005  
   0.556972200    -0.2202079    0.7560934  
   0.558972100    -0.0979539    0.7785490  
   0.560972000     0.0268065    0.7817985  
   0.562971900     0.1509386    0.7655272  
   0.564971800     0.2714136    0.7300600  
   0.566971700     0.3849907    0.6762956  
   0.568971600     0.4892808    0.6050532  
   0.570971500     0.5815375    0.5179728  
   0.572971400     0.6590886    0.4169111  
   0.574971300     0.7198070    0.3043212  
   0.576971200     0.7618734    0.1824202  
   0.578971100     0.7838757    0.0549107  
   0.580971000     0.7850142   -0.0744065  
   0.582970900     0.7656089   -0.2018488  
   0.584970800     0.7259462   -0.3241813  
   0.586970700     0.6677597   -0.4373611  
   0.588970600     0.5926256   -0.5393848  
   0.590970500     0.5028253   -0.6279109  
   0.592970400     0.4013623   -0.7005361  
   0.594970300     0.2902028   -0.7563633  
   0.596970200     0.1727790   -0.7932925  
   0.598970100     0.0520977   -0.8122566  
   0.600970000    -0.0692493   -0.8127450  
   0.602969900    -0.1881664   -0.7949637  
   0.604969800    -0.3025458   -0.7598351  
   0.606969700    -0.4098932   -0.7083297  
   0.608969600    -0.5076540   -0.6421949  
   0.610969500    -0.5944574   -0.5628130  
   0.612969400    -0.6681085   -0.4722517  
   0.614969300    -0.7273383   -0.3728542  
   0.616969200    -0.7716825   -0.2666442  
   0.618969100    -0.8002787   -0.1561162  
   0.620969000    -0.8132704   -0.0434035  
   0.622968900    -0.8101651    0.0703575  
   0.624968800    -0.7912642    0.1827246  
   0.626968700    -0.7566268    0.2917642  
   0.628968600    -0.7066627    0.3954782  
   0.630968500    -0.6423627    0.4915119  
   0.632968400    -0.5641758    0.5780607  
   0.634968300    -0.4739219    0.6533282  
   0.636968200    -0.3727922    0.7151086  
   0.638968100    -0.2628385    0.7618176  
   0.640968000    -0.1462509    0.7920982  
   0.642967900    -0.0250942    0.8046440  
   0.644967800     0.0978277    0.7991765  
   0.646967700     0.2192151    0.7750257  
   0.648967600     0.3362503    0.7320586  
   0.650967500     0.4462936    0.6712503  
   0.652967400     0.5458945    0.5942133  
   0.654967300     0.6326462    0.5016733  
   0.656967200     0.7043967    0.3962045  
   0.658967100     0.7587674    0.2806195  
   0.660967000     0.7942976    0.1569672  
   0.662966900     0.8099071    0.0283250  
   0.664966800     0.8040960   -0.1015696  
   0.666966700     0.7782762   -0.2293367  
   0.668966600     0.7320243   -0.3508738  
   0.670966500     0.6670030   -0.4633479  
   0.672966400     0.5866180   -0.5641077  
   0.674966300     0.4910358   -0.6488062  
   0.676966200     0.3844504   -0.7166506  
   0.678966100     0.2697397   -0.7663584  
   0.680966000     0.1502513   -0.7974164  
   0.682965900     0.0287594   -0.8096974  
   0.684965800    -0.0920052   -0.8035479  
   0.686965700    -0.2088672   -0.7792652  
   0.688965600    -0.3199702   -0.7385445  
   0.690965500    -0.4219495   -0.6814726  
   0.692965400    -0.5143979   -0.6120719  
   0.694965300    -0.5949979   -0.5303606  
   0.696965200    -0.6624858   -0.4391152  
   0.698965100    -0.7160400   -0.3391331  
   0.700965000    -0.7546245   -0.2332192  
   0.702964900    -0.7776215   -0.1229259  
   0.704964800    -0.7846953   -0.0106558  
   0.706964700    -0.7758073    0.1019537  
   0.708964600    -0.7505023    0.2119781  
   0.710964500    -0.7099099    0.3185601  
   0.712964400    -0.6534263    0.4179994  
   0.714964300    -0.5822753    0.5084177  
   0.716964200    -0.4985958    0.5876181  
   0.718964100    -0.4031963    0.6540572  
   0.720964000    -0.2990490    0.7050981  
   0.722963900    -0.1879418    0.7402833  
   0.724963800    -0.0718325    0.7580237  
   0.726963700     0.0463519    0.7577627  
   0.728963600     0.1635359    0.7387256  
   0.730963500     0.2765326    0.7007991  
   0.732963400     0.3819147    0.6462048  
   0.734963300     0.4786563    0.5754860  
   0.736963200     0.5745515    0.4764974  
   0.738963100     0.6514355    0.3614484  
   0.740963000     0.7061486    0.2347865  
   0.742962900     0.7367327    0.1015967  
   0.744962800     0.7432020   -0.0340918  
   0.746962700     0.7254604   -0.1674121  
   0.748962600     0.6848736   -0.2944711  
   0.750962500     0.7104977   -0.1798901  
   0.752962400     0.6694402   -0.3048506  
   0.754962300     0.6078315   -0.4199788  
   0.756962200     0.5282176   -0.5224902  
   0.758962100     0.4328951   -0.6088288  
   0.760962000     0.3245707   -0.6780849  
   0.762961900     0.2123376   -0.7258757  
   0.764961800     0.1049993   -0.7533854  
   0.766961700    -0.0051444   -0.7656892  
   0.768961600    -0.1163521   -0.7615566  
   0.770961500    -0.2259636   -0.7414230  
   0.772961400    -0.3315764   -0.7051950  
   0.774961300    -0.4310091   -0.6544632  
   0.776961200    -0.5222741   -0.5890834  
   0.778961100    -0.6030415   -0.5105066  
   0.780961000    -0.6714815   -0.4204866  
   0.782960900    -0.7262088   -0.3206607  
   0.784960800    -0.7652977   -0.2132912  
   0.786960700    -0.7877609   -0.1006588  
   0.788960600    -0.7934055    0.0140862  
   0.790960500    -0.7815731    0.1286215  
   0.792960400    -0.7525672    0.2399544  
   0.794960300    -0.7072476    0.3458817  
   0.796960200    -0.6468400    0.4439841  
   0.798960100    -0.5725662    0.5317395  
   0.800960000    -0.4859788    0.6074722  
   0.802959900    -0.3886602    0.6698090  
   0.804959800    -0.2834027    0.7169147  
   0.806959700    -0.1719993    0.7477272  
   0.808959600    -0.0570555    0.7617450  
   0.810959500     0.0590781    0.7588082  
   0.812959400     0.1740519    0.7378936  
   0.814959300     0.2852049    0.6998008  
   0.816959200     0.3898370    0.6451463  
   0.818959100     0.4855659    0.5744522  
   0.820959000     0.5695888    0.4896508  
   0.822958900     0.6402051    0.3921305  
   0.824958800     0.6948452    0.2846295  
   0.826958700     0.7325580    0.1690907  
   0.828958600     0.7514971    0.0486726  
   0.830958500     0.7508668   -0.0736730  
   0.832958400     0.7311192   -0.1945599  
   0.834958300     0.6924777   -0.3106153  
   0.836958200     0.6356148   -0.4188590  
   0.838958100     0.5626410   -0.5167893  
   0.840958000     0.4752568   -0.6021022  
   0.842957900     0.3754001   -0.6723239  
   0.844957800     0.2663708   -0.7255214  
   0.846957700     0.1506525   -0.7607442  
   0.848957600     0.0312601   -0.7772137  
   0.850957500    -0.0882550   -0.7752765  
   0.852957400    -0.2055435   -0.7548220  
   0.854957300    -0.3175821   -0.7167609  
   0.856957200    -0.4215029   -0.6625602  
   0.858957100    -0.5151881   -0.5940247  
   0.860957000    -0.5969881   -0.5127149  
   0.862956900    -0.6649427   -0.4216339  
   0.864956800    -0.7184624   -0.3227153  
   0.866956700    -0.7568347   -0.2179462  
   0.868956600    -0.7791267   -0.1097726  
   0.870956500    -0.7861504   -0.0000368  
   0.872956400    -0.7775693    0.1094288  
   0.874956300    -0.7534505    0.2158771  
   0.876956200    -0.7148094    0.3189271  
   0.878956100    -0.6620881    0.4152430  
   0.880956000    -0.5957576    0.5034407  
   0.882955900    -0.5177464    0.5818590  
   0.884955800    -0.4285294    0.6485973  
   0.886955700    -0.3304215    0.7024065  
   0.888955600    -0.2248088    0.7414449  
   0.890955500    -0.1141101    0.7652629  
   0.892955400    -0.0002268    0.7727398  
   0.894955300     0.1143330    0.7630970  
