! MS46122B
! 2250307/22442219
! 7/28/2025 1:59:43 PM
! C:\USERS\SPARKY\DOCUMENTS\VNA_DATA\JULY28_2025\3K\ECAL_LOAD_F.S1P
! CHANNEL.1
! TR.MEASUREMENT
! RAW.DATA
# GHZ S RI R 50.0
! FREQ.GHZ         S11RE         S11IM         
!; PortSelection: Port_1
   0.001000000     1.0458250   -0.0727553  
   0.002999900     0.9529201   -0.1947659  
   0.004999800     0.8777333   -0.2788510  
   0.006999700     0.7932471   -0.3676923  
   0.008999600     0.7026319   -0.4066252  
   0.010999500     0.6260961   -0.4330866  
   0.012999400     0.5594769   -0.4487356  
   0.014999300     0.5021966   -0.4567658  
   0.016999200     0.4521340   -0.4584748  
   0.018999100     0.4099042   -0.4556241  
   0.020999000     0.3745208   -0.4499815  
   0.022998900     0.3441254   -0.4428042  
   0.024998800     0.3130285   -0.4130279  
   0.026998700     0.2951872   -0.4250858  
   0.028998600     0.2750224   -0.4154660  
   0.030998500     0.2567724   -0.4056962  
   0.032998400     0.2366768   -0.3784744  
   0.034998300     0.2239828   -0.3862141  
   0.036998200     0.2096809   -0.3768847  
   0.038998100     0.1962633   -0.3678517  
   0.040998000     0.1836064   -0.3591313  
   0.042997900     0.1717979   -0.3506433  
   0.044997800     0.1591666   -0.3284217  
   0.046997700     0.1487864   -0.3349150  
   0.048997600     0.1386206   -0.3273920  
   0.050997500     0.1290421   -0.3200497  
   0.052997400     0.1201234   -0.3129632  
   0.054997300     0.1119682   -0.3060043  
   0.056997200     0.1037311   -0.2997929  
   0.058997100     0.0963873   -0.2937066  
   0.060997000     0.0894426   -0.2879604  
   0.062996900     0.0830042   -0.2824639  
   0.064996800     0.0771360   -0.2772079  
   0.066996700     0.0716143   -0.2721785  
   0.068996600     0.0664441   -0.2673209  
   0.070996500     0.0616472   -0.2628605  
   0.072996400     0.0570244   -0.2582687  
   0.074996300     0.0526530   -0.2537919  
   0.076996200     0.0484907   -0.2493886  
   0.078996100     0.0444760   -0.2450410  
   0.080996000     0.0405153   -0.2407698  
   0.082995900     0.0365764   -0.2365316  
   0.084995800     0.0329538   -0.2320547  
   0.086995700     0.0291856   -0.2277006  
   0.088995600     0.0256825   -0.2233971  
   0.090995500     0.0223902   -0.2191376  
   0.092995400     0.0192219   -0.2150440  
   0.094995300     0.0161967   -0.2107507  
   0.096995200     0.0133617   -0.2064775  
   0.098995100     0.0106775   -0.2022273  
   0.100995000     0.0069000   -0.1987153  
   0.102994900     0.0045514   -0.1944448  
   0.104994800     0.0022756   -0.1901587  
   0.106994700     0.0004097   -0.1858578  
   0.108994600    -0.0012161   -0.1817291  
   0.110994500    -0.0025936   -0.1777038  
   0.112994400    -0.0037949   -0.1737942  
   0.114994300    -0.0047390   -0.1699953  
   0.116994200    -0.0055020   -0.1663353  
   0.118994100    -0.0060119   -0.1628434  
   0.120994000    -0.0062432   -0.1596055  
   0.122993900    -0.0065124   -0.1564248  
   0.124993800    -0.0066372   -0.1534054  
   0.126993700    -0.0066600   -0.1506599  
   0.128993600    -0.0066062   -0.1481104  
   0.130993500    -0.0064840   -0.1458059  
   0.132993400    -0.0063548   -0.1437154  
   0.134993300    -0.0062792   -0.1419161  
   0.136993200    -0.0062377   -0.1402454  
   0.138993100    -0.0063053   -0.1387593  
   0.140993000    -0.0064381   -0.1374629  
   0.142992900    -0.0067511   -0.1363515  
   0.144992800    -0.0071555   -0.1354516  
   0.146992700    -0.0077617   -0.1345007  
   0.148992600    -0.0085470   -0.1336128  
   0.150992500    -0.0094389   -0.1326009  
   0.152992400    -0.0105925   -0.1316826  
   0.154992300    -0.0118870   -0.1307046  
   0.156992200    -0.0133417   -0.1296040  
   0.158992100    -0.0149231   -0.1283699  
   0.160992000    -0.0166262   -0.1269808  
   0.162991900    -0.0183799   -0.1253770  
   0.164991800    -0.0202518   -0.1235741  
   0.166991700    -0.0220649   -0.1215133  
   0.168991600    -0.0238394   -0.1192257  
   0.170991500    -0.0256130   -0.1166574  
   0.172991400    -0.0271882   -0.1138567  
   0.174991300    -0.0285814   -0.1108182  
   0.176991200    -0.0297696   -0.1075605  
   0.178991100    -0.0306993   -0.1041005  
   0.180991000    -0.0313334   -0.1005032  
   0.182990900    -0.0316161   -0.0967214  
   0.184990800    -0.0315097   -0.0928609  
   0.186990700    -0.0310133   -0.0889607  
   0.188990600    -0.0282544   -0.0857345  
   0.190990500    -0.0285309   -0.0813134  
   0.192990400    -0.0269947   -0.0775369  
   0.194990300    -0.0248003   -0.0740483  
   0.196990200    -0.0221961   -0.0708771  
   0.198990100    -0.0192242   -0.0679946  
   0.200990000    -0.0159430   -0.0654889  
   0.202989900    -0.0123356   -0.0634072  
   0.204989800    -0.0085124   -0.0617988  
   0.206989700    -0.0045089   -0.0607280  
   0.208989600    -0.0003905   -0.0601821  
   0.210989500     0.0037864   -0.0601991  
   0.212989400     0.0079396   -0.0607939  
   0.214989300     0.0120001   -0.0619460  
   0.216989200     0.0158842   -0.0636799  
   0.218989100     0.0195006   -0.0659120  
   0.220989000     0.0227843   -0.0686508  
   0.222988900     0.0256584   -0.0718709  
   0.224988800     0.0280459   -0.0754987  
   0.226988700     0.0299280   -0.0794600  
   0.228988600     0.0312711   -0.0837167  
   0.230988500     0.0320499   -0.0881413  
   0.232988400     0.0321945   -0.0926098  
   0.234988300     0.0317077   -0.0972219  
   0.236988200     0.0305814   -0.1017666  
   0.238988100     0.0288368   -0.1061721  
   0.240988000     0.0265730   -0.1103656  
   0.242987900     0.0237815   -0.1142925  
   0.244987800     0.0205058   -0.1178471  
   0.246987700     0.0167300   -0.1209995  
   0.248987600     0.0125285   -0.1236768  
   0.250987500     0.0080015   -0.1258974  
   0.252987400     0.0033015   -0.1275235  
   0.254987300    -0.0014696   -0.1286181  
   0.256987200    -0.0063780   -0.1292474  
   0.258987100    -0.0112468   -0.1292491  
   0.260987000    -0.0160612   -0.1286049  
   0.262986900    -0.0207327   -0.1273051  
   0.264986800    -0.0251537   -0.1255599  
   0.266986700    -0.0292774   -0.1233516  
   0.268986600    -0.0329891   -0.1207588  
   0.270986500    -0.0362449   -0.1178615  
   0.272986400    -0.0390085   -0.1147632  
   0.274986300    -0.0413812   -0.1115213  
   0.276986200    -0.0432696   -0.1082003  
   0.278986100    -0.0445728   -0.1047595  
   0.280986000    -0.0454100   -0.1013832  
   0.282985900    -0.0458167   -0.0981072  
   0.284985800    -0.0457459   -0.0950699  
   0.286985700    -0.0452897   -0.0923553  
   0.288985600    -0.0444344   -0.0900919  
   0.290985500    -0.0432638   -0.0882644  
   0.292985400    -0.0419267   -0.0869868  
   0.294985300    -0.0405149   -0.0861885  
   0.296985200    -0.0391736   -0.0858583  
   0.298985100    -0.0380279   -0.0860499  
   0.300985000    -0.0371524   -0.0867499  
   0.302984900    -0.0366396   -0.0879534  
   0.304984800    -0.0365789   -0.0896606  
   0.306984700    -0.0370778   -0.0917616  
   0.308984600    -0.0382036   -0.0941991  
   0.310984500    -0.0401066   -0.0968172  
   0.312984400    -0.0429349   -0.0993503  
   0.314984300    -0.0466996   -0.1016281  
   0.316984200    -0.0515128   -0.1034020  
   0.318984100    -0.0574426   -0.1042221  
   0.320984000    -0.0642592   -0.1037527  
   0.322983900    -0.0716047   -0.1016068  
   0.324983800    -0.0789735   -0.0974656  
   0.326983700    -0.0856440   -0.0913292  
   0.328983600    -0.0908057   -0.0834748  
   0.330983500    -0.0937750   -0.0745337  
   0.332983400    -0.0941817   -0.0656103  
   0.334983300    -0.0924143   -0.0575614  
   0.336983200    -0.0891962   -0.0511105  
   0.338983100    -0.0854379   -0.0464039  
   0.340983000    -0.0818174   -0.0432297  
   0.342982900    -0.0788097   -0.0410679  
   0.344982800    -0.0765212   -0.0394014  
   0.346982700    -0.0750365   -0.0377469  
   0.348982600    -0.0738270   -0.0359040  
   0.350982500    -0.0731581   -0.0338741  
   0.352982400    -0.0726532   -0.0314482  
   0.354982300    -0.0723108   -0.0282887  
   0.356982200    -0.0719650   -0.0236673  
   0.358982100    -0.0710843   -0.0189694  
   0.360982000    -0.0696239   -0.0143129  
   0.362981900    -0.0675869   -0.0097961  
   0.364981800    -0.0648731   -0.0054771  
   0.366981700    -0.0616497   -0.0015643  
   0.368981600    -0.0577841    0.0019357  
   0.370981500    -0.0534595    0.0048782  
   0.372981400    -0.0489470    0.0070913  
   0.374981300    -0.0441988    0.0085888  
   0.376981200    -0.0428907   -0.0023856  
   0.378981100    -0.0383802   -0.0008002  
   0.380981000    -0.0338186   -0.0000026  
   0.382980900    -0.0293947   -0.0003914  
   0.384980800    -0.0252180   -0.0015449  
   0.386980700    -0.0213226   -0.0033024  
   0.388980600    -0.0178035   -0.0055409  
   0.390980500    -0.0146924   -0.0083208  
   0.392980400    -0.0120806   -0.0115294  
   0.394980300    -0.0099544   -0.0150751  
   0.396980200    -0.0084571   -0.0188448  
   0.398980100    -0.0075852   -0.0227445  
   0.400980000    -0.0073423   -0.0266585  
   0.402979900    -0.0077658   -0.0304668  
   0.404979800    -0.0087449   -0.0341326  
   0.406979700    -0.0103056   -0.0375194  
   0.408979600    -0.0123806   -0.0405188  
   0.410979500    -0.0149921   -0.0430665  
   0.412979400    -0.0180527   -0.0450386  
   0.414979300    -0.0215095   -0.0464981  
   0.416979200    -0.0251256   -0.0472301  
   0.418979100    -0.0288706   -0.0473340  
   0.420979000    -0.0326183   -0.0467420  
   0.422978900    -0.0362982   -0.0454738  
   0.424978800    -0.0397726   -0.0435077  
   0.426978700    -0.0430418   -0.0409498  
   0.428978600    -0.0458480   -0.0378166  
   0.430978500    -0.0480706   -0.0340584  
   0.432978400    -0.0496809   -0.0299071  
   0.434978300    -0.0506236   -0.0256136  
   0.436978200    -0.0508873   -0.0210330  
   0.438978100    -0.0503983   -0.0163376  
   0.440978000    -0.0491784   -0.0116348  
   0.442977900    -0.0471811   -0.0070268  
   0.444977800    -0.0444243   -0.0026711  
   0.446977700    -0.0409799    0.0013268  
   0.448977600    -0.0368405    0.0048633  
   0.450977500    -0.0321174    0.0078569  
   0.452977400    -0.0268742    0.0101940  
   0.454977300    -0.0212665    0.0117893  
   0.456977200    -0.0153436    0.0125738  
   0.458977100    -0.0092920    0.0124875  
   0.460977000    -0.0031176    0.0114755  
   0.462976900     0.0029508    0.0095467  
   0.464976800     0.0087603    0.0067176  
   0.466976700     0.0141831    0.0029670  
   0.468976600     0.0191326   -0.0016021  
   0.470976500     0.0234001   -0.0069356  
   0.472976400     0.0269527   -0.0129527  
   0.474976300     0.0296562   -0.0194671  
   0.476976200     0.0314156   -0.0264478  
   0.478976100     0.0323238   -0.0337669  
   0.480976000     0.0322145   -0.0412014  
   0.482975900     0.0311163   -0.0484556  
   0.484975800     0.0289824   -0.0556056  
   0.486975700     0.0258194   -0.0624562  
   0.488975600     0.0216424   -0.0689871  
   0.490975500     0.0165485   -0.0749324  
   0.492975400     0.0107027   -0.0800302  
   0.494975300     0.0040885   -0.0843081  
   0.496975200    -0.0031804   -0.0876906  
   0.498975100    -0.0108148   -0.0899860  
   0.500975000    -0.0187965   -0.0912061  
   0.502974900    -0.0269126   -0.0913157  
   0.504974800    -0.0350432   -0.0902376  
   0.506974700    -0.0430612   -0.0879967  
   0.508974600    -0.0509471   -0.0845764  
   0.510974500    -0.0584757   -0.0800645  
   0.512974400    -0.0650810   -0.0746471  
   0.514974300    -0.0707236   -0.0681600  
   0.516974200    -0.0753612   -0.0610374  
   0.518974100    -0.0788306   -0.0533687  
   0.520974000    -0.0810679   -0.0450658  
   0.522973900    -0.0820478   -0.0366136  
   0.524973800    -0.0817994   -0.0283185  
   0.526973700    -0.0803402   -0.0202131  
   0.528973600    -0.0776669   -0.0125225  
   0.530973500    -0.0739782   -0.0053520  
   0.532973400    -0.0692496    0.0010784  
   0.534973300    -0.0636791    0.0066436  
   0.536973200    -0.0574166    0.0113062  
   0.538973100    -0.0505625    0.0149441  
   0.540973000    -0.0432975    0.0175068  
   0.542972900    -0.0358676    0.0189699  
   0.544972800    -0.0283127    0.0193215  
   0.546972700    -0.0208900    0.0185194  
   0.548972600    -0.0137242    0.0166151  
   0.550972500    -0.0069529    0.0136087  
   0.552972400    -0.0007379    0.0095756  
   0.554972300     0.0047757    0.0046015  
   0.556972200     0.0094728   -0.0012129  
   0.558972100     0.0133021   -0.0077351  
   0.560972000     0.0161511   -0.0147380  
   0.562971900     0.0177985   -0.0221514  
   0.564971800     0.0184245   -0.0298825  
   0.566971700     0.0177412   -0.0374912  
   0.568971600     0.0159122   -0.0449607  
   0.570971500     0.0129145   -0.0521356  
   0.572971400     0.0087275   -0.0588735  
   0.574971300     0.0033086   -0.0650718  
   0.576971200    -0.0030024   -0.0705382  
   0.578971100    -0.0101254   -0.0751450  
   0.580971000    -0.0179972   -0.0786520  
   0.582970900    -0.0262992   -0.0810829  
   0.584970800    -0.0349723   -0.0821519  
   0.586970700    -0.0438966   -0.0818570  
   0.588970600    -0.0528421   -0.0802335  
   0.590970500    -0.0615018   -0.0773229  
   0.592970400    -0.0697978   -0.0732565  
   0.594970300    -0.0775791   -0.0680369  
   0.596970200    -0.0846157   -0.0617011  
   0.598970100    -0.0907749   -0.0543744  
   0.600970000    -0.0959368   -0.0461525  
   0.602969900    -0.0999740   -0.0372278  
   0.604969800    -0.1028353   -0.0276973  
   0.606969700    -0.1043597   -0.0177765  
   0.608969600    -0.1045526   -0.0076358  
   0.610969500    -0.1033127    0.0025519  
   0.612969400    -0.1006752    0.0124917  
   0.614969300    -0.0966559    0.0220177  
   0.616969200    -0.0914360    0.0309429  
   0.618969100    -0.0850391    0.0391002  
   0.620969000    -0.0776932    0.0463566  
   0.622968900    -0.0693088    0.0525475  
   0.624968800    -0.0602657    0.0575769  
   0.626968700    -0.0505365    0.0612595  
   0.628968600    -0.0404533    0.0637403  
   0.630968500    -0.0300142    0.0648911  
   0.632968400    -0.0196868    0.0644017  
   0.634968300    -0.0095261    0.0625415  
   0.636968200     0.0003045    0.0592515  
   0.638968100     0.0096260    0.0545319  
   0.640968000     0.0181608    0.0486257  
   0.642967900     0.0256110    0.0417403  
   0.644967800     0.0319799    0.0339077  
   0.646967700     0.0371353    0.0253389  
   0.648967600     0.0409466    0.0162453  
   0.650967500     0.0434010    0.0068152  
   0.652967400     0.0444016   -0.0027035  
   0.654967300     0.0441734   -0.0123712  
   0.656967200     0.0425394   -0.0216508  
   0.658967100     0.0393995   -0.0306579  
   0.660967000     0.0351031   -0.0389453  
   0.662966900     0.0296902   -0.0464881  
   0.664966800     0.0232610   -0.0531774  
   0.666966700     0.0160176   -0.0588544  
   0.668966600     0.0078580   -0.0633326  
   0.670966500    -0.0007897   -0.0665828  
   0.672966400    -0.0093983   -0.0685294  
   0.674966300    -0.0182098   -0.0690046  
   0.676966200    -0.0268941   -0.0680900  
   0.678966100    -0.0352681   -0.0658522  
   0.680966000    -0.0431339   -0.0624098  
   0.682965900    -0.0503266   -0.0578234  
   0.684965800    -0.0567032   -0.0522221  
   0.686965700    -0.0621284   -0.0456999  
   0.688965600    -0.0664383   -0.0385497  
   0.690965500    -0.0696269   -0.0309263  
   0.692965400    -0.0715154   -0.0229351  
   0.694965300    -0.0722126   -0.0147903  
   0.696965200    -0.0715793   -0.0066957  
   0.698965100    -0.0697441    0.0011896  
   0.700965000    -0.0666341    0.0085843  
   0.702964900    -0.0624584    0.0155346  
   0.704964800    -0.0573005    0.0217103  
   0.706964700    -0.0511386    0.0269484  
   0.708964600    -0.0441128    0.0311128  
   0.710964500    -0.0366572    0.0342624  
   0.712964400    -0.0288668    0.0360183  
   0.714964300    -0.0208132    0.0364952  
   0.716964200    -0.0128760    0.0357532  
   0.718964100    -0.0052158    0.0337818  
   0.720964000     0.0019267    0.0307204  
   0.722963900     0.0085464    0.0264170  
   0.724963800     0.0145754    0.0212592  
   0.726963700     0.0196230    0.0153631  
   0.728963600     0.0236055    0.0086721  
   0.730963500     0.0263728    0.0012837  
   0.732963400     0.0281145   -0.0062571  
   0.734963300     0.0287516   -0.0141162  
   0.736963200     0.0287082   -0.0231354  
   0.738963100     0.0270906   -0.0318523  
   0.740963000     0.0239622   -0.0401988  
   0.742962900     0.0193838   -0.0478307  
   0.744962800     0.0136300   -0.0543819  
   0.746962700     0.0069007   -0.0597161  
   0.748962600    -0.0005414   -0.0638394  
   0.750962500    -0.0027975   -0.0624755  
   0.752962400    -0.0104310   -0.0662715  
   0.754962300    -0.0186427   -0.0686067  
   0.756962200    -0.0272324   -0.0694346  
   0.758962100    -0.0359162   -0.0686982  
   0.760962000    -0.0444752   -0.0664131  
   0.762961900    -0.0523954   -0.0629612  
   0.764961800    -0.0595472   -0.0589019  
   0.766961700    -0.0660774   -0.0538315  
   0.768961600    -0.0718520   -0.0478959  
   0.770961500    -0.0767598   -0.0411855  
   0.772961400    -0.0807425   -0.0338397  
   0.774961300    -0.0837712   -0.0259772  
   0.776961200    -0.0856719   -0.0175526  
   0.778961100    -0.0862186   -0.0092566  
   0.780961000    -0.0855701   -0.0009475  
   0.782960900    -0.0836636    0.0071612  
   0.784960800    -0.0804757    0.0149497  
   0.786960700    -0.0761115    0.0221782  
   0.788960600    -0.0707234    0.0287310  
   0.790960500    -0.0643222    0.0345594  
   0.792960400    -0.0572630    0.0392149  
   0.794960300    -0.0495584    0.0427314  
   0.796960200    -0.0416075    0.0450885  
   0.798960100    -0.0332923    0.0461252  
   0.800960000    -0.0250168    0.0458909  
   0.802959900    -0.0169185    0.0443955  
   0.804959800    -0.0092916    0.0417134  
   0.806959700    -0.0023412    0.0378789  
   0.808959600     0.0040071    0.0329435  
   0.810959500     0.0094522    0.0271048  
   0.812959400     0.0139962    0.0204319  
   0.814959300     0.0173559    0.0131173  
   0.816959200     0.0195526    0.0053348  
   0.818959100     0.0206084   -0.0029206  
   0.820959000     0.0202295   -0.0110768  
   0.822958900     0.0185415   -0.0191108  
   0.824958800     0.0156390   -0.0270748  
   0.826958700     0.0114973   -0.0342677  
   0.828958600     0.0062161   -0.0407800  
   0.830958500    -0.0000850   -0.0464343  
   0.832958400    -0.0072629   -0.0510700  
   0.834958300    -0.0151743   -0.0545721  
   0.836958200    -0.0236174   -0.0568478  
   0.838958100    -0.0323820   -0.0578423  
   0.840958000    -0.0413027   -0.0574733  
   0.842957900    -0.0501027   -0.0557664  
   0.844957800    -0.0588070   -0.0525539  
   0.846957700    -0.0668012   -0.0481939  
   0.848957600    -0.0741465   -0.0426141  
   0.850957500    -0.0807249   -0.0359590  
   0.852957400    -0.0863587   -0.0281038  
   0.854957300    -0.0906676   -0.0196545  
   0.856957200    -0.0937370   -0.0106117  
   0.858957100    -0.0954922   -0.0011844  
   0.860957000    -0.0958748    0.0084198  
   0.862956900    -0.0949482    0.0179462  
   0.864956800    -0.0928882    0.0271658  
   0.866956700    -0.0895898    0.0359342  
   0.868956600    -0.0850265    0.0440293  
   0.870956500    -0.0794055    0.0515207  
   0.872956400    -0.0727127    0.0581694  
   0.874956300    -0.0652118    0.0636670  
   0.876956200    -0.0568576    0.0681423  
   0.878956100    -0.0479442    0.0713595  
   0.880956000    -0.0385936    0.0732904  
   0.882955900    -0.0291301    0.0738503  
   0.884955800    -0.0197299    0.0730494  
   0.886955700    -0.0103654    0.0709155  
   0.888955600    -0.0017176    0.0675064  
   0.890955500     0.0062430    0.0628959  
   0.892955400     0.0133304    0.0571825  
   0.894955300     0.0194016    0.0505635  
