! MS46122B
! 2250307/22442219
! 7/22/2025 7:41:47 AM
! C:\USERS\SPARKY\DOCUMENTS\VNA_DATA\JULY22_2025\3K\ECAL_LOAD_A.S1P
! CHANNEL.1
! TR.MEASUREMENT
! RAW.DATA
# GHZ S RI R 50.0
! FREQ.GHZ         S11RE         S11IM         
!; PortSelection: Port_1
   0.001000000     1.0453220   -0.0718399  
   0.002999900     0.9598210   -0.1917439  
   0.004999800     0.8780528   -0.2933992  
   0.006999700     0.7871802   -0.3595137  
   0.008999600     0.7028500   -0.4036351  
   0.010999500     0.6271388   -0.4316767  
   0.012999400     0.5604782   -0.4491712  
   0.014999300     0.4999086   -0.4582603  
   0.016999200     0.4502239   -0.4580281  
   0.018999100     0.4082347   -0.4550334  
   0.020999000     0.3728685   -0.4491922  
   0.022998900     0.3423960   -0.4418144  
   0.024998800     0.3115546   -0.4117435  
   0.026998700     0.2938485   -0.4234761  
   0.028998600     0.2739129   -0.4136426  
   0.030998500     0.2559093   -0.4037420  
   0.032998400     0.2361137   -0.3765142  
   0.034998300     0.2237304   -0.3841578  
   0.036998200     0.2096857   -0.3748942  
   0.038998100     0.1965680   -0.3659154  
   0.040998000     0.1841852   -0.3572817  
   0.042997900     0.1725355   -0.3490219  
   0.044997800     0.1600675   -0.3269946  
   0.046997700     0.1499130   -0.3337125  
   0.048997600     0.1398073   -0.3263934  
   0.050997500     0.1302517   -0.3193381  
   0.052997400     0.1213203   -0.3124037  
   0.054997300     0.1132052   -0.3057087  
   0.056997200     0.1048632   -0.2997506  
   0.058997100     0.0974290   -0.2938433  
   0.060997000     0.0903723   -0.2882624  
   0.062996900     0.0836980   -0.2829109  
   0.064996800     0.0776361   -0.2777552  
   0.066996700     0.0719449   -0.2727848  
   0.068996600     0.0665555   -0.2679510  
   0.070996500     0.0615101   -0.2634990  
   0.072996400     0.0566936   -0.2588651  
   0.074996300     0.0521413   -0.2543005  
   0.076996200     0.0477915   -0.2497618  
   0.078996100     0.0436211   -0.2452956  
   0.080996000     0.0395287   -0.2408505  
   0.082995900     0.0355207   -0.2364167  
   0.084995800     0.0317887   -0.2317352  
   0.086995700     0.0279578   -0.2271490  
   0.088995600     0.0245205   -0.2226395  
   0.090995500     0.0212865   -0.2181723  
   0.092995400     0.0181800   -0.2138954  
   0.094995300     0.0152773   -0.2094232  
   0.096995200     0.0125667   -0.2049507  
   0.098995100     0.0100759   -0.2005445  
   0.100995000     0.0064872   -0.1969148  
   0.102994900     0.0042922   -0.1925274  
   0.104994800     0.0023644   -0.1882023  
   0.106994700     0.0006836   -0.1838610  
   0.108994600    -0.0007055   -0.1797221  
   0.110994500    -0.0018703   -0.1757724  
   0.112994400    -0.0028259   -0.1719424  
   0.114994300    -0.0035773   -0.1682789  
   0.116994200    -0.0041245   -0.1647619  
   0.118994100    -0.0045174   -0.1614559  
   0.120994000    -0.0045527   -0.1584092  
   0.122993900    -0.0047283   -0.1554121  
   0.124993800    -0.0048200   -0.1526476  
   0.126993700    -0.0047960   -0.1501718  
   0.128993600    -0.0047575   -0.1478630  
   0.130993500    -0.0046854   -0.1457952  
   0.132993400    -0.0046464   -0.1439460  
   0.134993300    -0.0046610   -0.1423203  
   0.136993200    -0.0047669   -0.1408634  
   0.138993100    -0.0049909   -0.1395591  
   0.140993000    -0.0053314   -0.1383868  
   0.142992900    -0.0058536   -0.1373455  
   0.144992800    -0.0064719   -0.1364973  
   0.146992700    -0.0073309   -0.1355903  
   0.148992600    -0.0083300   -0.1346771  
   0.150992500    -0.0094577   -0.1336324  
   0.152992400    -0.0108335   -0.1326286  
   0.154992300    -0.0122932   -0.1315264  
   0.156992200    -0.0139487   -0.1302871  
   0.158992100    -0.0156838   -0.1288820  
   0.160992000    -0.0175059   -0.1272869  
   0.162991900    -0.0193830   -0.1254822  
   0.164991800    -0.0212658   -0.1234595  
   0.166991700    -0.0231028   -0.1211665  
   0.168991600    -0.0248969   -0.1186238  
   0.170991500    -0.0266033   -0.1158283  
   0.172991400    -0.0280736   -0.1128224  
   0.174991300    -0.0293550   -0.1095978  
   0.176991200    -0.0303635   -0.1061398  
   0.178991100    -0.0311301   -0.1025244  
   0.180991000    -0.0315641   -0.0987919  
   0.182990900    -0.0316261   -0.0949041  
   0.184990800    -0.0312862   -0.0909895  
   0.186990700    -0.0305372   -0.0870381  
   0.188990600    -0.0275791   -0.0838141  
   0.190990500    -0.0275464   -0.0794515  
   0.192990400    -0.0257539   -0.0757701  
   0.194990300    -0.0233406   -0.0724038  
   0.196990200    -0.0205365   -0.0693595  
   0.198990100    -0.0173852   -0.0666806  
   0.200990000    -0.0139143   -0.0643685  
   0.202989900    -0.0102025   -0.0625218  
   0.204989800    -0.0062925   -0.0611649  
   0.206989700    -0.0022474   -0.0603417  
   0.208989600     0.0018886   -0.0600517  
   0.210989500     0.0060351   -0.0603328  
   0.212989400     0.0101412   -0.0611700  
   0.214989300     0.0141020   -0.0625789  
   0.216989200     0.0178465   -0.0645064  
   0.218989100     0.0212979   -0.0669619  
   0.220989000     0.0243757   -0.0698666  
   0.222988900     0.0270278   -0.0732202  
   0.224988800     0.0291714   -0.0769491  
   0.226988700     0.0308094   -0.0809675  
   0.228988600     0.0318903   -0.0852439  
   0.230988500     0.0324077   -0.0896670  
   0.232988400     0.0323072   -0.0941010  
   0.234988300     0.0315824   -0.0985954  
   0.236988200     0.0302410   -0.1030278  
   0.238988100     0.0283027   -0.1072779  
   0.240988000     0.0258699   -0.1112954  
   0.242987900     0.0229448   -0.1150016  
   0.244987800     0.0195493   -0.1183574  
   0.246987700     0.0157094   -0.1212621  
   0.248987600     0.0114774   -0.1236895  
   0.250987500     0.0069507   -0.1256661  
   0.252987400     0.0022955   -0.1270418  
   0.254987300    -0.0024060   -0.1278978  
   0.256987200    -0.0071860   -0.1283166  
   0.258987100    -0.0119165   -0.1280866  
   0.260987000    -0.0165697   -0.1272646  
   0.262986900    -0.0210479   -0.1258614  
   0.264986800    -0.0252288   -0.1240028  
   0.266986700    -0.0291212   -0.1217269  
   0.268986600    -0.0326056   -0.1190879  
   0.270986500    -0.0356041   -0.1162034  
   0.272986400    -0.0381251   -0.1131256  
   0.274986300    -0.0402534   -0.1099547  
   0.276986200    -0.0418822   -0.1066993  
   0.278986100    -0.0430363   -0.1034273  
   0.280986000    -0.0436643   -0.1002217  
   0.282985900    -0.0439109   -0.0971270  
   0.284985800    -0.0437242   -0.0943196  
   0.286985700    -0.0431729   -0.0918474  
   0.288985600    -0.0422439   -0.0897912  
   0.290985500    -0.0410730   -0.0882323  
   0.292985400    -0.0397607   -0.0871857  
   0.294985300    -0.0384127   -0.0866685  
   0.296985200    -0.0371833   -0.0865627  
   0.298985100    -0.0361687   -0.0869673  
   0.300985000    -0.0354616   -0.0878819  
   0.302984900    -0.0351446   -0.0892732  
   0.304984800    -0.0353036   -0.0911260  
   0.306984700    -0.0360663   -0.0932686  
   0.308984600    -0.0374759   -0.0958058  
   0.310984500    -0.0396273   -0.0983759  
   0.312984400    -0.0427218   -0.1008291  
   0.314984300    -0.0467056   -0.1030176  
   0.316984200    -0.0517644   -0.1046270  
   0.318984100    -0.0579466   -0.1052623  
   0.320984000    -0.0648659   -0.1045198  
   0.322983900    -0.0723036   -0.1021072  
   0.324983800    -0.0796778   -0.0976462  
   0.326983700    -0.0862383   -0.0912863  
   0.328983600    -0.0912821   -0.0832193  
   0.330983500    -0.0940577   -0.0741728  
   0.332983400    -0.0943008   -0.0652226  
   0.334983300    -0.0924491   -0.0572014  
   0.336983200    -0.0892098   -0.0507972  
   0.338983100    -0.0854671   -0.0460820  
   0.340983000    -0.0818690   -0.0428532  
   0.342982900    -0.0788898   -0.0405785  
   0.344982800    -0.0765655   -0.0387761  
   0.346982700    -0.0750201   -0.0369601  
   0.348982600    -0.0737052   -0.0350297  
   0.350982500    -0.0729003   -0.0328072  
   0.352982400    -0.0722393   -0.0303638  
   0.354982300    -0.0716909   -0.0271682  
   0.356982200    -0.0711253   -0.0225644  
   0.358982100    -0.0700297   -0.0179181  
   0.360982000    -0.0683419   -0.0133465  
   0.362981900    -0.0660974   -0.0089719  
   0.364981800    -0.0632067   -0.0048561  
   0.366981700    -0.0597948   -0.0011526  
   0.368981600    -0.0558684    0.0021252  
   0.370981500    -0.0515252    0.0047956  
   0.372981400    -0.0469864    0.0067327  
   0.374981300    -0.0422896    0.0079897  
   0.376981200    -0.0408574   -0.0026063  
   0.378981100    -0.0363932   -0.0012796  
   0.380981000    -0.0319181   -0.0007550  
   0.382980900    -0.0276099   -0.0013603  
   0.384980800    -0.0235910   -0.0027065  
   0.386980700    -0.0198511   -0.0045973  
   0.388980600    -0.0165284   -0.0069977  
   0.390980500    -0.0136155   -0.0098612  
   0.392980400    -0.0112054   -0.0131459  
   0.394980300    -0.0093363   -0.0167305  
   0.396980200    -0.0080413   -0.0205114  
   0.398980100    -0.0074104   -0.0243567  
   0.400980000    -0.0073750   -0.0281908  
   0.402979900    -0.0080003   -0.0319149  
   0.404979800    -0.0091700   -0.0354476  
   0.406979700    -0.0109007   -0.0386626  
   0.408979600    -0.0130943   -0.0414939  
   0.410979500    -0.0158249   -0.0438424  
   0.412979400    -0.0189816   -0.0456315  
   0.414979300    -0.0224485   -0.0468622  
   0.416979200    -0.0261260   -0.0473639  
   0.418979100    -0.0298289   -0.0472299  
   0.420979000    -0.0335159   -0.0464368  
   0.422978900    -0.0371015   -0.0449603  
   0.424978800    -0.0404829   -0.0428141  
   0.426978700    -0.0436209   -0.0401099  
   0.428978600    -0.0462472   -0.0367941  
   0.430978500    -0.0482813   -0.0329429  
   0.432978400    -0.0496899   -0.0287196  
   0.434978300    -0.0504231   -0.0243547  
   0.436978200    -0.0504791   -0.0197615  
   0.438978100    -0.0497847   -0.0150623  
   0.440978000    -0.0483380   -0.0104141  
   0.442977900    -0.0461550   -0.0058995  
   0.444977800    -0.0432237   -0.0016523  
   0.446977700    -0.0395949    0.0022311  
   0.448977600    -0.0353117    0.0056075  
   0.450977500    -0.0304894    0.0084205  
   0.452977400    -0.0251579    0.0105815  
   0.454977300    -0.0194937    0.0119655  
   0.456977200    -0.0135521    0.0125476  
   0.458977100    -0.0074865    0.0122416  
   0.460977000    -0.0013529    0.0110370  
   0.462976900     0.0046279    0.0089027  
   0.464976800     0.0103303    0.0058721  
   0.466976700     0.0156290    0.0019493  
   0.468976600     0.0203952   -0.0027570  
   0.470976500     0.0244918   -0.0082021  
   0.472976400     0.0278379   -0.0142865  
   0.474976300     0.0303150   -0.0208779  
   0.476976200     0.0318902   -0.0278659  
   0.478976100     0.0325794   -0.0352539  
   0.480976000     0.0322701   -0.0425702  
   0.482975900     0.0309549   -0.0497432  
   0.484975800     0.0286460   -0.0567894  
   0.486975700     0.0252943   -0.0635220  
   0.488975600     0.0209794   -0.0699091  
   0.490975500     0.0157532   -0.0756619  
   0.492975400     0.0098406   -0.0805646  
   0.494975300     0.0031529   -0.0846406  
   0.496975200    -0.0041550   -0.0877995  
   0.498975100    -0.0117781   -0.0898689  
   0.500975000    -0.0197225   -0.0908659  
   0.502974900    -0.0277510   -0.0907573  
   0.504974800    -0.0357820   -0.0894950  
   0.506974700    -0.0436680   -0.0870606  
   0.508974600    -0.0514459   -0.0834629  
   0.510974500    -0.0587617   -0.0788814  
   0.512974400    -0.0651628   -0.0732961  
   0.514974300    -0.0705863   -0.0667935  
   0.516974200    -0.0749993   -0.0596240  
   0.518974100    -0.0782339   -0.0518998  
   0.520974000    -0.0802456   -0.0435884  
   0.522973900    -0.0810247   -0.0353014  
   0.524973800    -0.0805757   -0.0271039  
   0.526973700    -0.0789302   -0.0191282  
   0.528973600    -0.0761191   -0.0116029  
   0.530973500    -0.0722739   -0.0046249  
   0.532973400    -0.0674579    0.0016247  
   0.534973300    -0.0618145    0.0070084  
   0.536973200    -0.0555158    0.0114426  
   0.538973100    -0.0486338    0.0148829  
   0.540973000    -0.0414220    0.0172334  
   0.542972900    -0.0340331    0.0184924  
   0.544972800    -0.0265733    0.0186460  
   0.546972700    -0.0192686    0.0176726  
   0.548972600    -0.0122226    0.0155917  
   0.550972500    -0.0056177    0.0124631  
   0.552972400     0.0004247    0.0083183  
   0.554972300     0.0057417    0.0032519  
   0.556972200     0.0102283   -0.0026216  
   0.558972100     0.0138803   -0.0091656  
   0.560972000     0.0165063   -0.0161722  
   0.562971900     0.0179853   -0.0235955  
   0.564971800     0.0183687   -0.0311844  
   0.566971700     0.0174956   -0.0387107  
   0.568971600     0.0154819   -0.0460629  
   0.570971500     0.0123378   -0.0530732  
   0.572971400     0.0080124   -0.0596574  
   0.574971300     0.0025068   -0.0656515  
   0.576971200    -0.0038919   -0.0709000  
   0.578971100    -0.0110372   -0.0753267  
   0.580971000    -0.0189036   -0.0786048  
   0.582970900    -0.0271925   -0.0808147  
   0.584970800    -0.0357944   -0.0816555  
   0.586970700    -0.0446132   -0.0811731  
   0.588970600    -0.0534466   -0.0793333  
   0.590970500    -0.0619721   -0.0762729  
   0.592970400    -0.0700610   -0.0720809  
   0.594970300    -0.0776590   -0.0667809  
   0.596970200    -0.0844950   -0.0603432  
   0.598970100    -0.0904216   -0.0529788  
   0.600970000    -0.0953627   -0.0447322  
   0.602969900    -0.0991732   -0.0358149  
   0.604969800    -0.1017881   -0.0263571  
   0.606969700    -0.1031238   -0.0165116  
   0.608969600    -0.1031183   -0.0064858  
   0.610969500    -0.1016990    0.0035738  
   0.612969400    -0.0988892    0.0133436  
   0.614969300    -0.0947616    0.0226735  
   0.616969200    -0.0894306    0.0313741  
   0.618969100    -0.0829984    0.0393248  
   0.620969000    -0.0755660    0.0463165  
   0.622968900    -0.0672064    0.0522864  
   0.624968800    -0.0582105    0.0571067  
   0.626968700    -0.0485536    0.0605567  
   0.628968600    -0.0385707    0.0628085  
   0.630968500    -0.0282633    0.0637818  
   0.632968400    -0.0181109    0.0630783  
   0.634968300    -0.0081052    0.0611180  
   0.636968200     0.0014934    0.0577128  
   0.638968100     0.0106286    0.0529154  
   0.640968000     0.0189056    0.0469681  
   0.642967900     0.0261341    0.0400694  
   0.644967800     0.0322758    0.0322483  
   0.646967700     0.0371989    0.0237492  
   0.648967600     0.0407778    0.0147549  
   0.650967500     0.0430451    0.0054197  
   0.652967400     0.0438653   -0.0039283  
   0.654967300     0.0434522   -0.0134388  
   0.656967200     0.0417190   -0.0225235  
   0.658967100     0.0384689   -0.0313264  
   0.660967000     0.0341322   -0.0393536  
   0.662966900     0.0286947   -0.0466685  
   0.664966800     0.0222801   -0.0531305  
   0.666966700     0.0150674   -0.0585704  
   0.668966600     0.0069808   -0.0628284  
   0.670966500    -0.0015285   -0.0658425  
   0.672966400    -0.0099877   -0.0676161  
   0.674966300    -0.0186401   -0.0679122  
   0.676966200    -0.0271297   -0.0668732  
   0.678966100    -0.0353008   -0.0645318  
   0.680966000    -0.0429390   -0.0610138  
   0.682965900    -0.0498496   -0.0563737  
   0.684965800    -0.0559925   -0.0507588  
   0.686965700    -0.0611903   -0.0442786  
   0.688965600    -0.0652588   -0.0371913  
   0.690965500    -0.0682300   -0.0296878  
   0.692965400    -0.0699213   -0.0218286  
   0.694965300    -0.0704258   -0.0138487  
   0.696965200    -0.0696430   -0.0059268  
   0.698965100    -0.0676675    0.0017681  
   0.700965000    -0.0644804    0.0089476  
   0.702964900    -0.0602453    0.0156711  
   0.704964800    -0.0550358    0.0215821  
   0.706964700    -0.0488824    0.0265992  
   0.708964600    -0.0419120    0.0305201  
   0.710964500    -0.0345313    0.0334424  
   0.712964400    -0.0268295    0.0349742  
   0.714964300    -0.0189120    0.0352658  
   0.716964200    -0.0111522    0.0343675  
   0.718964100    -0.0036701    0.0322515  
   0.720964000     0.0032822    0.0290340  
   0.722963900     0.0097128    0.0246583  
   0.724963800     0.0154704    0.0194967  
   0.726963700     0.0203166    0.0135960  
   0.728963600     0.0240588    0.0069329  
   0.730963500     0.0266498   -0.0003805  
   0.732963400     0.0281815   -0.0078547  
   0.734963300     0.0286525   -0.0155960  
   0.736963200     0.0284304   -0.0244584  
   0.738963100     0.0266561   -0.0330165  
   0.740963000     0.0234050   -0.0412123  
   0.742962900     0.0187635   -0.0485897  
   0.744962800     0.0129747   -0.0549546  
   0.746962700     0.0062681   -0.0600866  
   0.748962600    -0.0011502   -0.0640120  
   0.750962500    -0.0033085   -0.0626307  
   0.752962400    -0.0108852   -0.0662227  
   0.754962300    -0.0190306   -0.0683983  
   0.756962200    -0.0275019   -0.0690544  
   0.758962100    -0.0360531   -0.0682098  
   0.760962000    -0.0444516   -0.0658101  
   0.762961900    -0.0521909   -0.0622937  
   0.764961800    -0.0591662   -0.0581625  
   0.766961700    -0.0655200   -0.0530815  
   0.768961600    -0.0711075   -0.0471462  
   0.770961500    -0.0758330   -0.0404655  
   0.772961400    -0.0796440   -0.0331943  
   0.774961300    -0.0825033   -0.0254199  
   0.776961200    -0.0842358   -0.0170857  
   0.778961100    -0.0846272   -0.0089222  
   0.780961000    -0.0838714   -0.0007849  
   0.782960900    -0.0818811    0.0071455  
   0.784960800    -0.0786189    0.0147565  
   0.786960700    -0.0741823    0.0218059  
   0.788960600    -0.0687734    0.0281599  
   0.790960500    -0.0624557    0.0337505  
   0.792960400    -0.0554356    0.0381913  
   0.794960300    -0.0478016    0.0415071  
   0.796960200    -0.0399739    0.0436722  
   0.798960100    -0.0318003    0.0445548  
   0.800960000    -0.0237100    0.0441774  
   0.802959900    -0.0158286    0.0425837  
   0.804959800    -0.0083988    0.0398115  
   0.806959700    -0.0017019    0.0359245  
   0.808959600     0.0044736    0.0309915  
   0.810959500     0.0096881    0.0251462  
   0.812959400     0.0140136    0.0185521  
   0.814959300     0.0171588    0.0112894  
   0.816959200     0.0191990    0.0035687  
   0.818959100     0.0200321   -0.0044845  
   0.820959000     0.0194819   -0.0124571  
   0.822958900     0.0177054   -0.0203163  
   0.824958800     0.0146963   -0.0280627  
   0.826958700     0.0104759   -0.0350490  
   0.828958600     0.0051571   -0.0413270  
   0.830958500    -0.0011399   -0.0467505  
   0.832958400    -0.0082663   -0.0511577  
   0.834958300    -0.0161040   -0.0544606  
   0.836958200    -0.0244550   -0.0564937  
   0.838958100    -0.0330822   -0.0572895  
   0.840958000    -0.0418255   -0.0567841  
   0.842957900    -0.0504575   -0.0549222  
   0.844957800    -0.0589528   -0.0516120  
   0.846957700    -0.0667440   -0.0471429  
   0.848957600    -0.0738394   -0.0415177  
   0.850957500    -0.0801838   -0.0348423  
   0.852957400    -0.0855444   -0.0270206  
   0.854957300    -0.0896467   -0.0186464  
   0.856957200    -0.0925129   -0.0097046  
   0.858957100    -0.0940036   -0.0003541  
   0.860957000    -0.0942148    0.0090897  
   0.862956900    -0.0932133    0.0184166  
   0.864956800    -0.0910279    0.0274057  
   0.866956700    -0.0876285    0.0359545  
   0.868956600    -0.0830454    0.0438335  
   0.870956500    -0.0773658    0.0511124  
   0.872956400    -0.0706881    0.0575545  
   0.874956300    -0.0632403    0.0628108  
   0.876956200    -0.0549288    0.0670747  
   0.878956100    -0.0461424    0.0700949  
   0.880956000    -0.0369450    0.0718247  
   0.882955900    -0.0276477    0.0722362  
   0.884955800    -0.0184533    0.0712926  
   0.886955700    -0.0092761    0.0690489  
   0.888955600    -0.0008655    0.0655583  
   0.890955500     0.0068836    0.0609188  
   0.892955400     0.0137525    0.0552291  
   0.894955300     0.0195937    0.0486379  
