! MS46122B
! 2250307/22442219
! 7/27/2025 9:15:03 AM
! C:\USERS\SPARKY\DOCUMENTS\VNA_DATA\JULY27_2025\3K\ECAL_LOAD_E.S1P
! CHANNEL.1
! TR.MEASUREMENT
! RAW.DATA
# GHZ S RI R 50.0
! FREQ.GHZ         S11RE         S11IM         
!; PortSelection: Port_1
   0.001000000     1.0456070   -0.0728069  
   0.002999900     0.9526537   -0.1947782  
   0.004999800     0.8775281   -0.2789524  
   0.006999700     0.7930883   -0.3679154  
   0.008999600     0.7023961   -0.4070780  
   0.010999500     0.6257122   -0.4337458  
   0.012999400     0.5587436   -0.4495106  
   0.014999300     0.5011392   -0.4575017  
   0.016999200     0.4509011   -0.4590441  
   0.018999100     0.4084675   -0.4559538  
   0.020999000     0.3730127   -0.4500921  
   0.022998900     0.3426041   -0.4426647  
   0.024998800     0.3115995   -0.4126717  
   0.026998700     0.2938141   -0.4244338  
   0.028998600     0.2738222   -0.4146276  
   0.030998500     0.2557866   -0.4047287  
   0.032998400     0.2359930   -0.3774489  
   0.034998300     0.2235091   -0.3851509  
   0.036998200     0.2094342   -0.3758702  
   0.038998100     0.1962694   -0.3669406  
   0.040998000     0.1838473   -0.3583039  
   0.042997900     0.1722168   -0.3500103  
   0.044997800     0.1597154   -0.3280174  
   0.046997700     0.1494149   -0.3347437  
   0.048997600     0.1393118   -0.3274326  
   0.050997500     0.1297532   -0.3203636  
   0.052997400     0.1208230   -0.3135053  
   0.054997300     0.1124535   -0.3068447  
   0.056997200     0.1041586   -0.3008216  
   0.058997100     0.0967111   -0.2949182  
   0.060997000     0.0896010   -0.2893440  
   0.062996900     0.0828740   -0.2839859  
   0.064996800     0.0767493   -0.2788132  
   0.066996700     0.0709993   -0.2738351  
   0.068996600     0.0655733   -0.2689885  
   0.070996500     0.0604818   -0.2645043  
   0.072996400     0.0556442   -0.2598545  
   0.074996300     0.0510403   -0.2552808  
   0.076996200     0.0466327   -0.2506955  
   0.078996100     0.0424583   -0.2461900  
   0.080996000     0.0383178   -0.2417033  
   0.082995900     0.0342748   -0.2372373  
   0.084995800     0.0305465   -0.2325090  
   0.086995700     0.0266533   -0.2279010  
   0.088995600     0.0232308   -0.2233613  
   0.090995500     0.0199731   -0.2188459  
   0.092995400     0.0169165   -0.2145241  
   0.094995300     0.0139863   -0.2100261  
   0.096995200     0.0112659   -0.2054925  
   0.098995100     0.0087856   -0.2010627  
   0.100995000     0.0052425   -0.1974045  
   0.102994900     0.0030345   -0.1929882  
   0.104994800     0.0010989   -0.1886743  
   0.106994700    -0.0005226   -0.1842883  
   0.108994600    -0.0018958   -0.1801859  
   0.110994500    -0.0030574   -0.1762262  
   0.112994400    -0.0040069   -0.1723995  
   0.114994300    -0.0047616   -0.1687277  
   0.116994200    -0.0053006   -0.1652160  
   0.118994100    -0.0056966   -0.1618938  
   0.120994000    -0.0057443   -0.1588699  
   0.122993900    -0.0059214   -0.1559084  
   0.124993800    -0.0059989   -0.1531523  
   0.126993700    -0.0060068   -0.1506508  
   0.128993600    -0.0059607   -0.1483419  
   0.130993500    -0.0059142   -0.1463050  
   0.132993400    -0.0058915   -0.1444305  
   0.134993300    -0.0059059   -0.1428202  
   0.136993200    -0.0060434   -0.1413744  
   0.138993100    -0.0062819   -0.1400776  
   0.140993000    -0.0066680   -0.1388736  
   0.142992900    -0.0072409   -0.1378078  
   0.144992800    -0.0079046   -0.1369549  
   0.146992700    -0.0087446   -0.1360376  
   0.148992600    -0.0097818   -0.1351111  
   0.150992500    -0.0109088   -0.1340208  
   0.152992400    -0.0123095   -0.1329939  
   0.154992300    -0.0138212   -0.1318699  
   0.156992200    -0.0154773   -0.1305987  
   0.158992100    -0.0172253   -0.1291623  
   0.160992000    -0.0190585   -0.1275196  
   0.162991900    -0.0209164   -0.1256854  
   0.164991800    -0.0228111   -0.1236249  
   0.166991700    -0.0246580   -0.1213065  
   0.168991600    -0.0264435   -0.1187164  
   0.170991500    -0.0281248   -0.1158957  
   0.172991400    -0.0296140   -0.1128616  
   0.174991300    -0.0308562   -0.1095965  
   0.176991200    -0.0318683   -0.1061071  
   0.178991100    -0.0326134   -0.1024662  
   0.180991000    -0.0330148   -0.0987045  
   0.182990900    -0.0330508   -0.0948119  
   0.184990800    -0.0326840   -0.0908752  
   0.186990700    -0.0319224   -0.0869140  
   0.188990600    -0.0289397   -0.0837021  
   0.190990500    -0.0288658   -0.0793310  
   0.192990400    -0.0270591   -0.0756370  
   0.194990300    -0.0246145   -0.0722801  
   0.196990200    -0.0217792   -0.0692499  
   0.198990100    -0.0186103   -0.0665666  
   0.200990000    -0.0151439   -0.0642822  
   0.202989900    -0.0114034   -0.0624371  
   0.204989800    -0.0074998   -0.0610936  
   0.206989700    -0.0034524   -0.0602816  
   0.208989600     0.0006981   -0.0600193  
   0.210989500     0.0048404   -0.0603226  
   0.212989400     0.0089452   -0.0611639  
   0.214989300     0.0128824   -0.0625909  
   0.216989200     0.0166115   -0.0645351  
   0.218989100     0.0200642   -0.0669817  
   0.220989000     0.0231190   -0.0699000  
   0.222988900     0.0257490   -0.0732488  
   0.224988800     0.0278791   -0.0769647  
   0.226988700     0.0294881   -0.0809951  
   0.228988600     0.0305602   -0.0852696  
   0.230988500     0.0310627   -0.0896823  
   0.232988400     0.0309343   -0.0940864  
   0.234988300     0.0302103   -0.0985883  
   0.236988200     0.0288339   -0.1029692  
   0.238988100     0.0269197   -0.1072159  
   0.240988000     0.0244545   -0.1112061  
   0.242987900     0.0215461   -0.1149078  
   0.244987800     0.0181283   -0.1182029  
   0.246987700     0.0142810   -0.1210864  
   0.248987600     0.0100561   -0.1235060  
   0.250987500     0.0055462   -0.1254399  
   0.252987400     0.0008969   -0.1268018  
   0.254987300    -0.0037807   -0.1276542  
   0.256987200    -0.0085542   -0.1280567  
   0.258987100    -0.0133007   -0.1278031  
   0.260987000    -0.0179135   -0.1269498  
   0.262986900    -0.0223432   -0.1255252  
   0.264986800    -0.0265036   -0.1236730  
   0.266986700    -0.0303798   -0.1213774  
   0.268986600    -0.0338518   -0.1187112  
   0.270986500    -0.0368045   -0.1158545  
   0.272986400    -0.0393171   -0.1127989  
   0.274986300    -0.0414285   -0.1096168  
   0.276986200    -0.0430693   -0.1063972  
   0.278986100    -0.0441567   -0.1031305  
   0.280986000    -0.0447904   -0.0999155  
   0.282985900    -0.0450360   -0.0968645  
   0.284985800    -0.0448183   -0.0940726  
   0.286985700    -0.0442732   -0.0916177  
   0.288985600    -0.0433493   -0.0895789  
   0.290985500    -0.0421853   -0.0880563  
   0.292985400    -0.0408462   -0.0870371  
   0.294985300    -0.0395492   -0.0865090  
   0.296985200    -0.0383105   -0.0864476  
   0.298985100    -0.0373287   -0.0868741  
   0.300985000    -0.0366375   -0.0877824  
   0.302984900    -0.0363341   -0.0891853  
   0.304984800    -0.0365277   -0.0910525  
   0.306984700    -0.0372973   -0.0932043  
   0.308984600    -0.0387342   -0.0957420  
   0.310984500    -0.0409459   -0.0983044  
   0.312984400    -0.0440307   -0.1007807  
   0.314984300    -0.0480636   -0.1029571  
   0.316984200    -0.0531901   -0.1045700  
   0.318984100    -0.0593846   -0.1052149  
   0.320984000    -0.0663516   -0.1044415  
   0.322983900    -0.0737989   -0.1020370  
   0.324983800    -0.0812394   -0.0975969  
   0.326983700    -0.0878835   -0.0911892  
   0.328983600    -0.0929813   -0.0830692  
   0.330983500    -0.0958243   -0.0739421  
   0.332983400    -0.0960919   -0.0649101  
   0.334983300    -0.0942704   -0.0567594  
   0.336983200    -0.0909748   -0.0502705  
   0.338983100    -0.0872110   -0.0454559  
   0.340983000    -0.0835582   -0.0421685  
   0.342982900    -0.0805006   -0.0398588  
   0.344982800    -0.0781315   -0.0380149  
   0.346982700    -0.0765223   -0.0361689  
   0.348982600    -0.0751408   -0.0342238  
   0.350982500    -0.0743446   -0.0319781  
   0.352982400    -0.0735901   -0.0295267  
   0.354982300    -0.0730073   -0.0263386  
   0.356982200    -0.0723482   -0.0217186  
   0.358982100    -0.0712127   -0.0170499  
   0.360982000    -0.0694801   -0.0125048  
   0.362981900    -0.0671747   -0.0081254  
   0.364981800    -0.0642542   -0.0040071  
   0.366981700    -0.0608133   -0.0003014  
   0.368981600    -0.0568004    0.0029562  
   0.370981500    -0.0524373    0.0056153  
   0.372981400    -0.0478931    0.0075483  
   0.374981300    -0.0431738    0.0087849  
   0.376981200    -0.0419597   -0.0021567  
   0.378981100    -0.0374732   -0.0008515  
   0.380981000    -0.0329922   -0.0003072  
   0.382980900    -0.0287118   -0.0009369  
   0.384980800    -0.0247067   -0.0023050  
   0.386980700    -0.0209902   -0.0042320  
   0.388980600    -0.0176920   -0.0066216  
   0.390980500    -0.0148230   -0.0095172  
   0.392980400    -0.0124409   -0.0127925  
   0.394980300    -0.0106123   -0.0163824  
   0.396980200    -0.0093597   -0.0201650  
   0.398980100    -0.0087673   -0.0240061  
   0.400980000    -0.0087619   -0.0278366  
   0.402979900    -0.0094227   -0.0315323  
   0.404979800    -0.0106293   -0.0350425  
   0.406979700    -0.0123824   -0.0382415  
   0.408979600    -0.0146238   -0.0410346  
   0.410979500    -0.0173545   -0.0433573  
   0.412979400    -0.0205295   -0.0451061  
   0.414979300    -0.0240213   -0.0462826  
   0.416979200    -0.0276912   -0.0467506  
   0.418979100    -0.0313977   -0.0465909  
   0.420979000    -0.0350642   -0.0457552  
   0.422978900    -0.0386294   -0.0442299  
   0.424978800    -0.0420411   -0.0420729  
   0.426978700    -0.0451316   -0.0393267  
   0.428978600    -0.0477151   -0.0359353  
   0.430978500    -0.0497460   -0.0320707  
   0.432978400    -0.0511320   -0.0278344  
   0.434978300    -0.0518336   -0.0234535  
   0.436978200    -0.0518593   -0.0188264  
   0.438978100    -0.0511128   -0.0141257  
   0.440978000    -0.0496482   -0.0094552  
   0.442977900    -0.0474381   -0.0049442  
   0.444977800    -0.0444456   -0.0006939  
   0.446977700    -0.0407978    0.0031736  
   0.448977600    -0.0364980    0.0065384  
   0.450977500    -0.0316122    0.0093267  
   0.452977400    -0.0262768    0.0114478  
   0.454977300    -0.0205730    0.0128245  
   0.456977200    -0.0146201    0.0133763  
   0.458977100    -0.0085528    0.0130544  
   0.460977000    -0.0023945    0.0118047  
   0.462976900     0.0035886    0.0096394  
   0.464976800     0.0092824    0.0065639  
   0.466976700     0.0145701    0.0026360  
   0.468976600     0.0193365   -0.0021013  
   0.470976500     0.0234207   -0.0075809  
   0.472976400     0.0267521   -0.0136918  
   0.474976300     0.0292178   -0.0203031  
   0.476976200     0.0307347   -0.0272917  
   0.478976100     0.0314027   -0.0346604  
   0.480976000     0.0310531   -0.0420129  
   0.482975900     0.0297121   -0.0491981  
   0.484975800     0.0273838   -0.0562307  
   0.486975700     0.0239948   -0.0629706  
   0.488975600     0.0196388   -0.0693414  
   0.490975500     0.0143993   -0.0750756  
   0.492975400     0.0084509   -0.0799438  
   0.494975300     0.0017420   -0.0839977  
   0.496975200    -0.0055946   -0.0871407  
   0.498975100    -0.0132498   -0.0891817  
   0.500975000    -0.0211703   -0.0901386  
   0.502974900    -0.0292459   -0.0900214  
   0.504974800    -0.0372602   -0.0887305  
   0.506974700    -0.0451336   -0.0862580  
   0.508974600    -0.0529725   -0.0826223  
   0.510974500    -0.0602386   -0.0780290  
   0.512974400    -0.0666292   -0.0724199  
   0.514974300    -0.0720287   -0.0658480  
   0.516974200    -0.0764544   -0.0586567  
   0.518974100    -0.0796506   -0.0509231  
   0.520974000    -0.0816511   -0.0425295  
   0.522973900    -0.0823981   -0.0342469  
   0.524973800    -0.0819335   -0.0260382  
   0.526973700    -0.0802478   -0.0180280  
   0.528973600    -0.0774052   -0.0105009  
   0.530973500    -0.0735232   -0.0034800  
   0.532973400    -0.0686628    0.0027510  
   0.534973300    -0.0629836    0.0081222  
   0.536973200    -0.0566325    0.0125603  
   0.538973100    -0.0497233    0.0159703  
   0.540973000    -0.0424619    0.0183144  
   0.542972900    -0.0350537    0.0195429  
   0.544972800    -0.0275589    0.0196678  
   0.546972700    -0.0202319    0.0186669  
   0.548972600    -0.0131867    0.0165395  
   0.550972500    -0.0065568    0.0133893  
   0.552972400    -0.0005437    0.0092081  
   0.554972300     0.0047849    0.0040949  
   0.556972200     0.0092498   -0.0018195  
   0.558972100     0.0128807   -0.0083786  
   0.560972000     0.0154725   -0.0154206  
   0.562971900     0.0169014   -0.0228328  
   0.564971800     0.0172874   -0.0304889  
   0.566971700     0.0163748   -0.0380249  
   0.568971600     0.0143304   -0.0453664  
   0.570971500     0.0111338   -0.0523771  
   0.572971400     0.0067361   -0.0589677  
   0.574971300     0.0012296   -0.0649190  
   0.576971200    -0.0052013   -0.0701685  
   0.578971100    -0.0123795   -0.0745218  
   0.580971000    -0.0202593   -0.0778139  
   0.582970900    -0.0285732   -0.0799560  
   0.584970800    -0.0372006   -0.0807721  
   0.586970700    -0.0460870   -0.0801961  
   0.588970600    -0.0548801   -0.0783600  
   0.590970500    -0.0634056   -0.0752536  
   0.592970400    -0.0715099   -0.0710400  
   0.594970300    -0.0790917   -0.0656708  
   0.596970200    -0.0858843   -0.0591997  
   0.598970100    -0.0918073   -0.0517817  
   0.600970000    -0.0967076   -0.0435061  
   0.602969900    -0.1004997   -0.0345415  
   0.604969800    -0.1030918   -0.0250352  
   0.606969700    -0.1043773   -0.0151597  
   0.608969600    -0.1043247   -0.0050780  
   0.610969500    -0.1028488    0.0049816  
   0.612969400    -0.0999782    0.0147608  
   0.614969300    -0.0957957    0.0240969  
   0.616969200    -0.0904232    0.0328091  
   0.618969100    -0.0839150    0.0407415  
   0.620969000    -0.0764534    0.0477334  
   0.622968900    -0.0680370    0.0536931  
   0.624968800    -0.0589832    0.0584659  
   0.626968700    -0.0493020    0.0618961  
   0.628968600    -0.0392552    0.0641692  
   0.630968500    -0.0289238    0.0650637  
   0.632968400    -0.0187193    0.0643612  
   0.634968300    -0.0087133    0.0623081  
   0.636968200     0.0009054    0.0588280  
   0.638968100     0.0100214    0.0540064  
   0.640968000     0.0183274    0.0480047  
   0.642967900     0.0255544    0.0410597  
   0.644967800     0.0316758    0.0332068  
   0.646967700     0.0365856    0.0246581  
   0.648967600     0.0401647    0.0156221  
   0.650967500     0.0423939    0.0062893  
   0.652967400     0.0432005   -0.0031207  
   0.654967300     0.0427233   -0.0126088  
   0.656967200     0.0409764   -0.0217129  
   0.658967100     0.0377104   -0.0305433  
   0.660967000     0.0333419   -0.0385953  
   0.662966900     0.0278749   -0.0458943  
   0.664966800     0.0214310   -0.0523532  
   0.666966700     0.0141497   -0.0577445  
   0.668966600     0.0060524   -0.0619978  
   0.670966500    -0.0024705   -0.0649910  
   0.672966400    -0.0109368   -0.0667549  
   0.674966300    -0.0195930   -0.0670173  
   0.676966200    -0.0280975   -0.0659378  
   0.678966100    -0.0362538   -0.0635753  
   0.680966000    -0.0438904   -0.0600277  
   0.682965900    -0.0508311   -0.0553724  
   0.684965800    -0.0569467   -0.0497155  
   0.686965700    -0.0621252   -0.0432065  
   0.688965600    -0.0662037   -0.0360942  
   0.690965500    -0.0691372   -0.0285889  
   0.692965400    -0.0707944   -0.0206842  
   0.694965300    -0.0712666   -0.0126887  
   0.696965200    -0.0704784   -0.0047671  
   0.698965100    -0.0684709    0.0029219  
   0.700965000    -0.0652189    0.0101036  
   0.702964900    -0.0609478    0.0168783  
   0.704964800    -0.0557112    0.0227442  
   0.706964700    -0.0495457    0.0277478  
   0.708964600    -0.0425259    0.0316390  
   0.710964500    -0.0351228    0.0345470  
   0.712964400    -0.0273959    0.0360637  
   0.714964300    -0.0194712    0.0363093  
   0.716964200    -0.0117285    0.0353806  
   0.718964100    -0.0042077    0.0332270  
   0.720964000     0.0027627    0.0300132  
   0.722963900     0.0091661    0.0256218  
   0.724963800     0.0149456    0.0203506  
   0.726963700     0.0197541    0.0144352  
   0.728963600     0.0235001    0.0077426  
   0.730963500     0.0260490    0.0003826  
   0.732963400     0.0275396   -0.0071100  
   0.734963300     0.0279821   -0.0148534  
   0.736963200     0.0277226   -0.0237159  
   0.738963100     0.0259311   -0.0322411  
   0.740963000     0.0226838   -0.0404130  
   0.742962900     0.0180060   -0.0477623  
   0.744962800     0.0121771   -0.0541008  
   0.746962700     0.0054867   -0.0591827  
   0.748962600    -0.0019289   -0.0630466  
   0.750962500    -0.0043813   -0.0619231  
   0.752962400    -0.0119778   -0.0654636  
   0.754962300    -0.0201280   -0.0675675  
   0.756962200    -0.0285871   -0.0681578  
   0.758962100    -0.0371049   -0.0672320  
   0.760962000    -0.0454723   -0.0647655  
   0.762961900    -0.0532151   -0.0611878  
   0.764961800    -0.0601793   -0.0570030  
   0.766961700    -0.0665346   -0.0518863  
   0.768961600    -0.0720836   -0.0458967  
   0.770961500    -0.0767816   -0.0391817  
   0.772961400    -0.0805509   -0.0318659  
   0.774961300    -0.0834238   -0.0239724  
   0.776961200    -0.0851006   -0.0157223  
   0.778961100    -0.0854428   -0.0075122  
   0.780961000    -0.0846129    0.0006514  
   0.782960900    -0.0825620    0.0085942  
   0.784960800    -0.0792413    0.0162013  
   0.786960700    -0.0748024    0.0232248  
   0.788960600    -0.0692984    0.0296587  
   0.790960500    -0.0629168    0.0351740  
   0.792960400    -0.0558619    0.0396109  
   0.794960300    -0.0481751    0.0429260  
   0.796960200    -0.0403006    0.0450127  
   0.798960100    -0.0320913    0.0458488  
   0.800960000    -0.0239723    0.0454434  
   0.802959900    -0.0160479    0.0437884  
   0.804959800    -0.0085777    0.0409780  
   0.806959700    -0.0018478    0.0370290  
   0.808959600     0.0042909    0.0320390  
   0.810959500     0.0094879    0.0261354  
   0.812959400     0.0138197    0.0194921  
   0.814959300     0.0169289    0.0121744  
   0.816959200     0.0189122    0.0044206  
   0.818959100     0.0197529   -0.0037044  
   0.820959000     0.0191762   -0.0117202  
   0.822958900     0.0173291   -0.0195931  
   0.824958800     0.0142597   -0.0273897  
   0.826958700     0.0099939   -0.0343643  
   0.828958600     0.0046222   -0.0406530  
   0.830958500    -0.0017204   -0.0460917  
   0.832958400    -0.0089181   -0.0505012  
   0.834958300    -0.0168119   -0.0537756  
   0.836958200    -0.0252204   -0.0558135  
   0.838958100    -0.0339091   -0.0565635  
   0.840958000    -0.0426803   -0.0560042  
   0.842957900    -0.0514150   -0.0540804  
   0.844957800    -0.0599008   -0.0507620  
   0.846957700    -0.0677009   -0.0462318  
   0.848957600    -0.0748286   -0.0405590  
   0.850957500    -0.0812056   -0.0337487  
   0.852957400    -0.0865574   -0.0259346  
   0.854957300    -0.0906709   -0.0174951  
   0.856957200    -0.0935281   -0.0084866  
   0.858957100    -0.0950095    0.0008974  
   0.860957000    -0.0952109    0.0104252  
   0.862956900    -0.0941389    0.0198185  
   0.864956800    -0.0918849    0.0288707  
   0.866956700    -0.0884643    0.0374618  
   0.868956600    -0.0837936    0.0453827  
   0.870956500    -0.0780798    0.0526932  
   0.872956400    -0.0713415    0.0591721  
   0.874956300    -0.0638381    0.0644434  
   0.876956200    -0.0554949    0.0686867  
   0.878956100    -0.0465847    0.0717030  
   0.880956000    -0.0373433    0.0734204  
   0.882955900    -0.0279863    0.0738177  
   0.884955800    -0.0187160    0.0728371  
   0.886955700    -0.0094956    0.0705475  
   0.888955600    -0.0010204    0.0670326  
   0.890955500     0.0067537    0.0623257  
   0.892955400     0.0136456    0.0565843  
   0.894955300     0.0194792    0.0499235  
