! MS46122B
! 2250307/22442219
! 7/25/2025 1:42:21 PM
! C:\USERS\SPARKY\DOCUMENTS\VNA_DATA\JULY25_2025\3K\ECAL_OPEN_D_REPEAT1.S1P
! CHANNEL.1
! TR.MEASUREMENT
! RAW.DATA
# GHZ S RI R 50.0
! FREQ.GHZ         S11RE         S11IM         
!; PortSelection: Port_1
   0.001000000     1.0446930   -0.0724325  
   0.002999900     0.9471141   -0.2220803  
   0.004999800     0.8106221   -0.0909283  
   0.006999700     0.5216266   -0.4045933  
   0.008999600     0.9400010   -0.0010132  
   0.010999500     0.9253944   -0.2273131  
   0.012999400     0.8857784   -0.3359022  
   0.014999300     0.8459232   -0.4177344  
   0.016999200     0.8057851   -0.4884157  
   0.018999100     0.7630257   -0.5539608  
   0.020999000     0.7163032   -0.6148604  
   0.022998900     0.6644393   -0.6707176  
   0.024998800     0.5986257   -0.6866093  
   0.026998700     0.5449464   -0.7687041  
   0.028998600     0.4756002   -0.8100300  
   0.030998500     0.3995577   -0.8449319  
   0.032998400     0.3193696   -0.8383697  
   0.034998300     0.2262833   -0.8922179  
   0.036998200     0.1295657   -0.9015777  
   0.038998100     0.0269472   -0.8994959  
   0.040998000    -0.0806735   -0.8833929  
   0.042997900    -0.1918257   -0.8522870  
   0.044997800    -0.2820334   -0.7816604  
   0.046997700    -0.4164093   -0.7331522  
   0.048997600    -0.5229815   -0.6417140  
   0.050997500    -0.6200790   -0.5256700  
   0.052997400    -0.7003441   -0.3842525  
   0.054997300    -0.7557501   -0.2190473  
   0.056997200    -0.7766931   -0.0304431  
   0.058997100    -0.7525504    0.1695950  
   0.060997000    -0.6763645    0.3683887  
   0.062996900    -0.5464804    0.5494365  
   0.064996800    -0.3680106    0.6930071  
   0.066996700    -0.1553836    0.7843710  
   0.068996600     0.0713719    0.8145140  
   0.070996500     0.2927476    0.7851458  
   0.072996400     0.4908296    0.7035128  
   0.074996300     0.6538514    0.5830820  
   0.076996200     0.7769341    0.4376636  
   0.078996100     0.8605256    0.2804767  
   0.080996000     0.9072070    0.1204185  
   0.082995900     0.9224750   -0.0345407  
   0.084995800     0.9101690   -0.1794542  
   0.086995700     0.8774360   -0.3121859  
   0.088995600     0.8271261   -0.4315242  
   0.090995500     0.7638189   -0.5365353  
   0.092995400     0.6905848   -0.6286750  
   0.094995300     0.6083710   -0.7061858  
   0.096995200     0.5201671   -0.7703229  
   0.098995100     0.4268420   -0.8221568  
   0.100995000     0.3303119   -0.8612708  
   0.102994900     0.2315433   -0.8883261  
   0.104994800     0.1316137   -0.9037109  
   0.106994700     0.0304702   -0.9071345  
   0.108994600    -0.0700108   -0.9001517  
   0.110994500    -0.1692771   -0.8814057  
   0.112994400    -0.2667401   -0.8510886  
   0.114994300    -0.3613780   -0.8090679  
   0.116994200    -0.4518960   -0.7556685  
   0.118994100    -0.5365008   -0.6900898  
   0.120994000    -0.6159431   -0.6141072  
   0.122993900    -0.6859496   -0.5251151  
   0.124993800    -0.7455826   -0.4248822  
   0.126993700    -0.7929781   -0.3136570  
   0.128993600    -0.8239119   -0.1928930  
   0.130993500    -0.8389521   -0.0642112  
   0.132993400    -0.8348376    0.0701485  
   0.134993300    -0.8086762    0.2075163  
   0.136993200    -0.7589407    0.3437098  
   0.138993100    -0.6842604    0.4745200  
   0.140993000    -0.5846655    0.5943603  
   0.142992900    -0.4613941    0.6975895  
   0.144992800    -0.3178990    0.7794431  
   0.146992700    -0.1573082    0.8324842  
   0.148992600     0.0132533    0.8534567  
   0.150992500     0.1854454    0.8396084  
   0.152992400     0.3527873    0.7929756  
   0.154992300     0.5066308    0.7145860  
   0.156992200     0.6408645    0.6084104  
   0.158992100     0.7503153    0.4808662  
   0.160992000     0.8314893    0.3377469  
   0.162991900     0.8836509    0.1859609  
   0.164991800     0.9073575    0.0314524  
   0.166991700     0.9030331   -0.1188995  
   0.168991600     0.8743474   -0.2620898  
   0.170991500     0.8242856   -0.3942605  
   0.172991400     0.7560326   -0.5128572  
   0.174991300     0.6733366   -0.6156102  
   0.176991200     0.5788393   -0.7028290  
   0.178991100     0.4752640   -0.7731908  
   0.180991000     0.3666566   -0.8278843  
   0.182990900     0.2533140   -0.8645574  
   0.184990800     0.1381804   -0.8858734  
   0.186990700     0.0228551   -0.8914288  
   0.188990600    -0.0655128   -0.8829336  
   0.190990500    -0.1966382   -0.8575723  
   0.192990400    -0.3057943   -0.8182977  
   0.194990300    -0.4052593   -0.7670520  
   0.196990200    -0.4970798   -0.7033504  
   0.198990100    -0.5800611   -0.6280591  
   0.200990000    -0.6532504   -0.5416422  
   0.202989900    -0.7151570   -0.4447662  
   0.204989800    -0.7645228   -0.3394421  
   0.206989700    -0.8005202   -0.2272639  
   0.208989600    -0.8198007   -0.1088647  
   0.210989500    -0.8220757    0.0140351  
   0.212989400    -0.8065160    0.1387567  
   0.214989300    -0.7718920    0.2631775  
   0.216989200    -0.7175289    0.3827996  
   0.218989100    -0.6439841    0.4952728  
   0.220989000    -0.5510710    0.5971991  
   0.222988900    -0.4398320    0.6849895  
   0.224988800    -0.3128126    0.7547280  
   0.226988700    -0.1735729    0.8028536  
   0.228988600    -0.0264739    0.8262063  
   0.230988500     0.1245360    0.8236880  
   0.232988400     0.2741233    0.7927929  
   0.234988300     0.4170459    0.7368701  
   0.236988200     0.5485450    0.6560942  
   0.238988100     0.6627649    0.5537117  
   0.240988000     0.7560541    0.4337458  
   0.242987900     0.8261327    0.3009930  
   0.244987800     0.8714633    0.1599961  
   0.246987700     0.8922368    0.0158118  
   0.248987600     0.8882640   -0.1275379  
   0.250987500     0.8618103   -0.2657684  
   0.252987400     0.8142523   -0.3943177  
   0.254987300     0.7493875   -0.5109016  
   0.256987200     0.6693305   -0.6134917  
   0.258987100     0.5783361   -0.7023150  
   0.260987000     0.4764096   -0.7740802  
   0.262986900     0.3670087   -0.8302025  
   0.264986800     0.2531761   -0.8694186  
   0.266986700     0.1366239   -0.8921123  
   0.268986600     0.0205571   -0.8990595  
   0.270986500    -0.0931367   -0.8905275  
   0.272986400    -0.2037047   -0.8676093  
   0.274986300    -0.3094390   -0.8307952  
   0.276986200    -0.4091268   -0.7808159  
   0.278986100    -0.5020108   -0.7181684  
   0.280986000    -0.5859993   -0.6439219  
   0.282985900    -0.6602888   -0.5588832  
   0.284985800    -0.7230374   -0.4638810  
   0.286985700    -0.7728256   -0.3608142  
   0.288985600    -0.8086179   -0.2515527  
   0.290985500    -0.8296554   -0.1373642  
   0.292985400    -0.8345784   -0.0192021  
   0.294985300    -0.8226678    0.1008298  
   0.296985200    -0.7925138    0.2213103  
   0.298985100    -0.7431980    0.3392930  
   0.300985000    -0.6739104    0.4505670  
   0.302984900    -0.5857730    0.5519409  
   0.304984800    -0.4792382    0.6388524  
   0.306984700    -0.3564813    0.7072234  
   0.308984600    -0.2214818    0.7530176  
   0.310984500    -0.0783198    0.7728791  
   0.312984400     0.0670886    0.7643279  
   0.314984300     0.2083493    0.7268143  
   0.316984200     0.3375731    0.6614755  
   0.318984100     0.4481186    0.5717863  
   0.320984000     0.5338160    0.4650840  
   0.322983900     0.5915993    0.3501134  
   0.324983800     0.6223178    0.2364093  
   0.326983700     0.6325099    0.1318449  
   0.328983600     0.6295401    0.0391295  
   0.330983500     0.6213728   -0.0424019  
   0.332983400     0.6124555   -0.1173270  
   0.334983300     0.6035839   -0.1925893  
   0.336983200     0.5912274   -0.2723178  
   0.338983100     0.5705037   -0.3583218  
   0.340983000     0.5357115   -0.4481895  
   0.342982900     0.4840241   -0.5376416  
   0.344982800     0.4136513   -0.6217512  
   0.346982700     0.3255185   -0.6950007  
   0.348982600     0.2231110   -0.7519489  
   0.350982500     0.1103776   -0.7914538  
   0.352982400    -0.0083313   -0.8108637  
   0.354982300    -0.1347875   -0.8094265  
   0.356982200    -0.2727278   -0.7812282  
   0.358982100    -0.4024425   -0.7284586  
   0.360982000    -0.5196378   -0.6539046  
   0.362981900    -0.6210405   -0.5601768  
   0.364981800    -0.7048255   -0.4507782  
   0.366981700    -0.7679090   -0.3292560  
   0.368981600    -0.8092808   -0.1989879  
   0.370981500    -0.8281898   -0.0641544  
   0.372981400    -0.8244423    0.0718313  
   0.374981300    -0.7978072    0.2058063  
   0.376981200    -0.8279133    0.0728827  
   0.378981100    -0.8008991    0.2109018  
   0.380981000    -0.7506680    0.3434796  
   0.382980900    -0.6860580    0.4551928  
   0.384980800    -0.6086603    0.5519570  
   0.386980700    -0.5166814    0.6375086  
   0.388980600    -0.4113982    0.7090548  
   0.390980500    -0.2959200    0.7643613  
   0.392980400    -0.1724026    0.8014714  
   0.394980300    -0.0432784    0.8192396  
   0.396980200     0.0882913    0.8166618  
   0.398980100     0.2195014    0.7932712  
   0.400980000     0.3463183    0.7488363  
   0.402979900     0.4659323    0.6839654  
   0.404979800     0.5737395    0.6004786  
   0.406979700     0.6670429    0.4993087  
   0.408979600     0.7430183    0.3842808  
   0.410979500     0.7988955    0.2573778  
   0.412979400     0.8334106    0.1225311  
   0.414979300     0.8436473   -0.0159596  
   0.416979200     0.8319426   -0.1537855  
   0.418979100     0.7980121   -0.2867157  
   0.420979000     0.7428176   -0.4113422  
   0.422978900     0.6688245   -0.5245529  
   0.424978800     0.5779987   -0.6232535  
   0.426978700     0.4737691   -0.7051910  
   0.428978600     0.3592544   -0.7687377  
   0.430978500     0.2385548   -0.8127049  
   0.432978400     0.1144233   -0.8372401  
   0.434978300    -0.0103265   -0.8440449  
   0.436978200    -0.1329676   -0.8305821  
   0.438978100    -0.2508025   -0.7994905  
   0.440978000    -0.3619194   -0.7520978  
   0.442977900    -0.4637675   -0.6894509  
   0.444977800    -0.5547986   -0.6133522  
   0.446977700    -0.6333349   -0.5257699  
   0.448977600    -0.6983632   -0.4282324  
   0.450977500    -0.7488400   -0.3227555  
   0.452977400    -0.7838313   -0.2107541  
   0.454977300    -0.8023733   -0.0942698  
   0.456977200    -0.8043259    0.0242921  
   0.458977100    -0.7887729    0.1428259  
   0.460977000    -0.7562069    0.2578699  
   0.462976900    -0.7065219    0.3672990  
   0.464976800    -0.6407343    0.4694474  
   0.466976700    -0.5598412    0.5611261  
   0.468976600    -0.4653833    0.6404224  
   0.470976500    -0.3583557    0.7050537  
   0.472976400    -0.2417164    0.7526947  
   0.474976300    -0.1178389    0.7818004  
   0.476976200     0.0102485    0.7912415  
   0.478976100     0.1389837    0.7798948  
   0.480976000     0.2647142    0.7481173  
   0.482975900     0.3841781    0.6960964  
   0.484975800     0.4938970    0.6248129  
   0.486975700     0.5907347    0.5365277  
   0.488975600     0.6719260    0.4333291  
   0.490975500     0.7346748    0.3181779  
   0.492975400     0.7773138    0.1945472  
   0.494975300     0.7988018    0.0666172  
   0.496975200     0.7993932   -0.0620239  
   0.498975100     0.7786321   -0.1868740  
   0.500975000     0.7392361   -0.3054539  
   0.502974900     0.6825380   -0.4139326  
   0.504974800     0.6108745   -0.5104219  
   0.506974700     0.5267398   -0.5936213  
   0.508974600     0.4325497   -0.6624568  
   0.510974500     0.3313222   -0.7160456  
   0.512974400     0.2260082   -0.7538309  
   0.514974300     0.1188938   -0.7748710  
   0.516974200     0.0115774   -0.7829029  
   0.518974100    -0.0938274   -0.7770795  
   0.520974000    -0.1970633   -0.7583318  
   0.522973900    -0.2966738   -0.7267004  
   0.524973800    -0.3917127   -0.6825135  
   0.526973700    -0.4818518   -0.6259823  
   0.528973600    -0.5643452   -0.5572167  
   0.530973500    -0.6382960   -0.4761946  
   0.532973400    -0.7009975   -0.3843824  
   0.534973300    -0.7504781   -0.2826424  
   0.536973200    -0.7847232   -0.1727715  
   0.538973100    -0.8019443   -0.0583924  
   0.540973000    -0.8018228    0.0585596  
   0.542972900    -0.7835392    0.1749266  
   0.544972800    -0.7474545    0.2878726  
   0.546972700    -0.6938421    0.3949970  
   0.548972600    -0.6240284    0.4933779  
   0.550972500    -0.5396140    0.5802120  
   0.552972400    -0.4423023    0.6535008  
   0.554972300    -0.3342119    0.7112066  
   0.556972200    -0.2177581    0.7518542  
   0.558972100    -0.0961726    0.7742212  
   0.560972000     0.0279159    0.7775093  
   0.562971900     0.1514743    0.7613742  
   0.564971800     0.2714468    0.7263634  
   0.566971700     0.3846239    0.6729792  
   0.568971600     0.4885485    0.6021410  
   0.570971500     0.5806420    0.5155343  
   0.572971400     0.6581643    0.4147470  
   0.574971300     0.7188808    0.3025662  
   0.576971200     0.7609881    0.1808457  
   0.578971100     0.7830030    0.0535239  
   0.580971000     0.7842182   -0.0754367  
   0.582970900     0.7648667   -0.2026069  
   0.584970800     0.7252656   -0.3246982  
   0.586970700     0.6670223   -0.4376699  
   0.588970600     0.5919511   -0.5396268  
   0.590970500     0.5021078   -0.6278512  
   0.592970400     0.4005172   -0.7003800  
   0.594970300     0.2896422   -0.7556078  
   0.596970200     0.1721212   -0.7926385  
   0.598970100     0.0516191   -0.8109794  
   0.600970000    -0.0695334   -0.8111438  
   0.602969900    -0.1880474   -0.7930446  
   0.604969800    -0.3022161   -0.7575710  
   0.606969700    -0.4090590   -0.7058581  
   0.608969600    -0.5063530   -0.6394938  
   0.610969500    -0.5925992   -0.5600880  
   0.612969400    -0.6656235   -0.4695271  
   0.614969300    -0.7241791   -0.3702896  
   0.616969200    -0.7679770   -0.2644993  
   0.618969100    -0.7960264   -0.1544391  
   0.620969000    -0.8086585   -0.0423201  
   0.622968900    -0.8051801    0.0708783  
   0.624968800    -0.7860920    0.1825087  
   0.626968700    -0.7514428    0.2908886  
   0.628968600    -0.7014967    0.3938906  
   0.630968500    -0.6374557    0.4893028  
   0.632968400    -0.5595996    0.5752277  
   0.634968300    -0.4697006    0.6500792  
   0.636968200    -0.3693009    0.7112709  
   0.638968100    -0.2600496    0.7577056  
   0.640968000    -0.1438052    0.7876954  
   0.642967900    -0.0234086    0.8003094  
   0.644967800     0.0987841    0.7948997  
   0.646967700     0.2196758    0.7709185  
   0.648967600     0.3362171    0.7282459  
   0.650967500     0.4455533    0.6679698  
   0.652967400     0.5448417    0.5910783  
   0.654967300     0.6313962    0.4992184  
   0.656967200     0.7029328    0.3943202  
   0.658967100     0.7573858    0.2788528  
   0.660967000     0.7929126    0.1555901  
   0.662966900     0.8085357    0.0271187  
   0.664966800     0.8029028   -0.1024206  
   0.666966700     0.7769765   -0.2302624  
   0.668966600     0.7307817   -0.3514393  
   0.670966500     0.6658279   -0.4636492  
   0.672966400     0.5854439   -0.5641165  
   0.674966300     0.4899248   -0.6484795  
   0.676966200     0.3834023   -0.7161667  
   0.678966100     0.2686827   -0.7657185  
   0.680966000     0.1495034   -0.7963200  
   0.682965900     0.0282292   -0.8083301  
   0.684965800    -0.0921448   -0.8018580  
   0.686965700    -0.2087685   -0.7773528  
   0.688965600    -0.3194600   -0.7364601  
   0.690965500    -0.4209839   -0.6793074  
   0.692965400    -0.5129046   -0.6098515  
   0.694965300    -0.5930185   -0.5281948  
   0.696965200    -0.6600403   -0.4370426  
   0.698965100    -0.7130617   -0.3374130  
   0.700965000    -0.7512326   -0.2317804  
   0.702964900    -0.7738503   -0.1219333  
   0.704964800    -0.7808825   -0.0099782  
   0.706964700    -0.7715628    0.1019926  
   0.708964600    -0.7461209    0.2114780  
   0.710964500    -0.7055352    0.3173748  
   0.712964400    -0.6491216    0.4162608  
   0.714964300    -0.5782080    0.5061342  
   0.716964200    -0.4948609    0.5848238  
   0.718964100    -0.4000813    0.6506798  
   0.720964000    -0.2963608    0.7014865  
   0.722963900    -0.1857472    0.7363871  
   0.724963800    -0.0704240    0.7539676  
   0.726963700     0.0470924    0.7537569  
   0.728963600     0.1637219    0.7347957  
   0.730963500     0.2762569    0.6971038  
   0.732963400     0.3812104    0.6428255  
   0.734963300     0.4775940    0.5724211  
   0.736963200     0.5731924    0.4739228  
   0.738963100     0.6498374    0.3591869  
   0.740963000     0.7044057    0.2329777  
   0.742962900     0.7348980    0.1002791  
   0.744962800     0.7414306   -0.0350089  
   0.746962700     0.7237873   -0.1679756  
   0.748962600     0.6833162   -0.2947114  
   0.750962500     0.7092146   -0.1805317  
   0.752962400     0.6682304   -0.3050527  
   0.754962300     0.6067372   -0.4199307  
   0.756962200     0.5272281   -0.5222505  
   0.758962100     0.4320346   -0.6084034  
   0.760962000     0.3238463   -0.6774737  
   0.762961900     0.2118669   -0.7249649  
   0.764961800     0.1044983   -0.7524348  
   0.766961700    -0.0053940   -0.7645655  
   0.768961600    -0.1163633   -0.7602887  
   0.770961500    -0.2257812   -0.7400174  
   0.772961400    -0.3310738   -0.7035822  
   0.774961300    -0.4301201   -0.6526812  
   0.776961200    -0.5211177   -0.5872841  
   0.778961100    -0.6015564   -0.5086069  
   0.780961000    -0.6693459   -0.4185281  
   0.782960900    -0.7236814   -0.3190067  
   0.784960800    -0.7623590   -0.2116341  
   0.786960700    -0.7843394   -0.0995925  
   0.788960600    -0.7896142    0.0147611  
   0.790960500    -0.7774916    0.1287717  
   0.792960400    -0.7483283    0.2396636  
   0.794960300    -0.7028812    0.3449496  
   0.796960200    -0.6424520    0.4425383  
   0.798960100    -0.5683746    0.5296930  
   0.800960000    -0.4820515    0.6046460  
   0.802959900    -0.3852633    0.6663895  
   0.804959800    -0.2803660    0.7130553  
   0.806959700    -0.1696300    0.7434862  
   0.808959600    -0.0551109    0.7573096  
   0.810959500     0.0603042    0.7542948  
   0.812959400     0.1746376    0.7333904  
   0.814959300     0.2853149    0.6954845  
   0.816959200     0.3894680    0.6407554  
   0.818959100     0.4846137    0.5706012  
   0.820959000     0.5682529    0.4862087  
   0.822958900     0.6385910    0.3890856  
   0.824958800     0.6930239    0.2820085  
   0.826958700     0.7305875    0.1668992  
   0.828958600     0.7494894    0.0469238  
   0.830958500     0.7489052   -0.0750431  
   0.832958400     0.7292899   -0.1955426  
   0.834958300     0.6906902   -0.3113027  
   0.836958200     0.6339943   -0.4193198  
   0.838958100     0.5611500   -0.5171320  
   0.840958000     0.4737685   -0.6020910  
   0.842957900     0.3741727   -0.6722122  
   0.844957800     0.2652114   -0.7252051  
   0.846957700     0.1497517   -0.7602350  
   0.848957600     0.0303910   -0.7764975  
   0.850957500    -0.0890848   -0.7743232  
   0.852957400    -0.2061208   -0.7536221  
   0.854957300    -0.3176872   -0.7153463  
   0.856957200    -0.4212019   -0.6611005  
   0.858957100    -0.5146474   -0.5922834  
   0.860957000    -0.5958555   -0.5110918  
   0.862956900    -0.6632664   -0.4200109  
   0.864956800    -0.7163053   -0.3213146  
   0.866956700    -0.7541812   -0.2169021  
   0.868956600    -0.7760731   -0.1091688  
   0.870956500    -0.7827128    0.0001376  
   0.872956400    -0.7738168    0.1091361  
   0.874956300    -0.7495128    0.2150144  
   0.876956200    -0.7107857    0.3174395  
   0.878956100    -0.6580708    0.4131987  
   0.880956000    -0.5919387    0.5006996  
   0.882955900    -0.5140864    0.5785527  
   0.884955800    -0.4252296    0.6447111  
   0.886955700    -0.3276028    0.6980650  
   0.888955600    -0.2224553    0.7367053  
   0.890955500    -0.1124179    0.7602119  
   0.892955400     0.0008411    0.7674146  
   0.894955300     0.1147964    0.7578293  
