! MS46122B
! 2250307/22442219
! 7/27/2025 9:22:51 AM
! C:\USERS\SPARKY\DOCUMENTS\VNA_DATA\JULY27_2025\3K\ECAL_OPEN_E_REPEAT1.S1P
! CHANNEL.1
! TR.MEASUREMENT
! RAW.DATA
# GHZ S RI R 50.0
! FREQ.GHZ         S11RE         S11IM         
!; PortSelection: Port_1
   0.001000000     1.0456920   -0.0728805  
   0.002999900     0.9480454   -0.2223625  
   0.004999800     0.8100696   -0.0899557  
   0.006999700     0.5263940   -0.4054272  
   0.008999600     0.9407030   -0.0010696  
   0.010999500     0.9263809   -0.2277816  
   0.012999400     0.8868198   -0.3363768  
   0.014999300     0.8471634   -0.4182619  
   0.016999200     0.8071908   -0.4889898  
   0.018999100     0.7646707   -0.5547191  
   0.020999000     0.7181371   -0.6157864  
   0.022998900     0.6664802   -0.6718369  
   0.024998800     0.6006963   -0.6880211  
   0.026998700     0.5472244   -0.7704459  
   0.028998600     0.4779505   -0.8122088  
   0.030998500     0.4019997   -0.8476127  
   0.032998400     0.3218396   -0.8415614  
   0.034998300     0.2285064   -0.8960342  
   0.036998200     0.1315913   -0.9060612  
   0.038998100     0.0286340   -0.9046463  
   0.040998000    -0.0795515   -0.8892435  
   0.042997900    -0.1915428   -0.8587583  
   0.044997800    -0.2826708   -0.7884965  
   0.046997700    -0.4182301   -0.7404130  
   0.048997600    -0.5262365   -0.6490761  
   0.050997500    -0.6248305   -0.5327392  
   0.052997400    -0.7064744   -0.3907351  
   0.054997300    -0.7634611   -0.2238121  
   0.056997200    -0.7854310   -0.0337813  
   0.058997100    -0.7617358    0.1684140  
   0.060997000    -0.6852356    0.3695211  
   0.062996900    -0.5541271    0.5526187  
   0.064996800    -0.3739270    0.6977878  
   0.066996700    -0.1590110    0.7895996  
   0.068996600     0.0696468    0.8194556  
   0.070996500     0.2925711    0.7893880  
   0.072996400     0.4916027    0.7066508  
   0.074996300     0.6551366    0.5850262  
   0.076996200     0.7782766    0.4387101  
   0.078996100     0.8617314    0.2808590  
   0.080996000     0.9082530    0.1203801  
   0.082995900     0.9233937   -0.0349402  
   0.084995800     0.9110429   -0.1799711  
   0.086995700     0.8783616   -0.3129463  
   0.088995600     0.8281315   -0.4325000  
   0.090995500     0.7648835   -0.5377349  
   0.092995400     0.6918169   -0.6301764  
   0.094995300     0.6096978   -0.7080724  
   0.096995200     0.5213627   -0.7726088  
   0.098995100     0.4280155   -0.8248713  
   0.100995000     0.3316764   -0.8644751  
   0.102994900     0.2327670   -0.8920712  
   0.104994800     0.1325430   -0.9081896  
   0.106994700     0.0309784   -0.9121295  
   0.108994600    -0.0699273   -0.9056046  
   0.110994500    -0.1699959   -0.8873364  
   0.112994400    -0.2681437   -0.8575612  
   0.114994300    -0.3635038   -0.8159271  
   0.116994200    -0.4549733   -0.7624497  
   0.118994100    -0.5406981   -0.6968285  
   0.120994000    -0.6211954   -0.6207276  
   0.122993900    -0.6922113   -0.5314177  
   0.124993800    -0.7529085   -0.4304660  
   0.126993700    -0.8012491   -0.3185081  
   0.128993600    -0.8330956   -0.1964884  
   0.130993500    -0.8487110   -0.0667394  
   0.132993400    -0.8449606    0.0692167  
   0.134993300    -0.8186070    0.2082013  
   0.136993200    -0.7685132    0.3459434  
   0.138993100    -0.6930475    0.4782240  
   0.140993000    -0.5923237    0.5992702  
   0.142992900    -0.4676205    0.7034171  
   0.144992800    -0.3225422    0.7858120  
   0.146992700    -0.1603409    0.8388634  
   0.148992600     0.0117321    0.8594495  
   0.150992500     0.1851718    0.8448539  
   0.152992400     0.3534248    0.7972671  
   0.154992300     0.5078115    0.7178354  
   0.156992200     0.6422703    0.6106721  
   0.158992100     0.7516992    0.4823261  
   0.160992000     0.8326367    0.3384826  
   0.162991900     0.8844995    0.1862679  
   0.164991800     0.9080701    0.0316049  
   0.166991700     0.9036669   -0.1191917  
   0.168991600     0.8749624   -0.2623510  
   0.170991500     0.8248518   -0.3949125  
   0.172991400     0.7567415   -0.5135581  
   0.174991300     0.6741478   -0.6166865  
   0.176991200     0.5797321   -0.7042948  
   0.178991100     0.4760173   -0.7752920  
   0.180991000     0.3676055   -0.8303033  
   0.182990900     0.2540735   -0.8678422  
   0.184990800     0.1388133   -0.8894746  
   0.186990700     0.0229835   -0.8956815  
   0.188990600    -0.0659075   -0.8877631  
   0.190990500    -0.1977514   -0.8629183  
   0.192990400    -0.3077467   -0.8240100  
   0.194990300    -0.4081484   -0.7729455  
   0.196990200    -0.5008758   -0.7093096  
   0.198990100    -0.5849519   -0.6338459  
   0.200990000    -0.6592111   -0.5470597  
   0.202989900    -0.7221863   -0.4498329  
   0.204989800    -0.7723579   -0.3435102  
   0.206989700    -0.8092753   -0.2304969  
   0.208989600    -0.8290142   -0.1109000  
   0.210989500    -0.8316646    0.0132874  
   0.212989400    -0.8161443    0.1395642  
   0.214989300    -0.7813392    0.2651678  
   0.216989200    -0.7264655    0.3861518  
   0.218989100    -0.6521057    0.4997948  
   0.220989000    -0.5581152    0.6028283  
   0.222988900    -0.4456425    0.6912395  
   0.224988800    -0.3174263    0.7611603  
   0.226988700    -0.1767344    0.8094668  
   0.228988600    -0.0281862    0.8326159  
   0.230988500     0.1243548    0.8294798  
   0.232988400     0.2745820    0.7979336  
   0.234988300     0.4180752    0.7409978  
   0.236988200     0.5499539    0.6592703  
   0.238988100     0.6642377    0.5560288  
   0.240988000     0.7574656    0.4353146  
   0.242987900     0.8273262    0.3020428  
   0.244987800     0.8725010    0.1606110  
   0.246987700     0.8931284    0.0159816  
   0.248987600     0.8888724   -0.1274559  
   0.250987500     0.8623199   -0.2657937  
   0.252987400     0.8149074   -0.3946919  
   0.254987300     0.7500057   -0.5113994  
   0.256987200     0.6700598   -0.6142076  
   0.258987100     0.5789320   -0.7033906  
   0.260987000     0.4771203   -0.7757524  
   0.262986900     0.3677905   -0.8322693  
   0.264986800     0.2538239   -0.8721021  
   0.266986700     0.1371615   -0.8953850  
   0.268986600     0.0205379   -0.9028744  
   0.270986500    -0.0937282   -0.8948722  
   0.272986400    -0.2049602   -0.8723819  
   0.274986300    -0.3114867   -0.8359796  
   0.276986200    -0.4120173   -0.7862211  
   0.278986100    -0.5057860   -0.7236792  
   0.280986000    -0.5908846   -0.6491072  
   0.282985900    -0.6661390   -0.5639215  
   0.284985800    -0.7298161   -0.4683407  
   0.286985700    -0.7805418   -0.3645917  
   0.288985600    -0.8170838   -0.2544125  
   0.290985500    -0.8387390   -0.1391727  
   0.292985400    -0.8441222   -0.0198588  
   0.294985300    -0.8322379    0.1015841  
   0.296985200    -0.8019859    0.2232837  
   0.298985100    -0.7523984    0.3427610  
   0.300985000    -0.6822828    0.4554835  
   0.302984900    -0.5932864    0.5574542  
   0.304984800    -0.4854571    0.6453074  
   0.306984700    -0.3615822    0.7140416  
   0.308984600    -0.2250414    0.7602064  
   0.310984500    -0.0807759    0.7800173  
   0.312984400     0.0662145    0.7711332  
   0.314984300     0.2086711    0.7331000  
   0.316984200     0.3389319    0.6669567  
   0.318984100     0.4504784    0.5762066  
   0.320984000     0.5367425    0.4683579  
   0.322983900     0.5950434    0.3517427  
   0.324983800     0.6255649    0.2364714  
   0.326983700     0.6350977    0.1301153  
   0.328983600     0.6307911    0.0362428  
   0.330983500     0.6208686   -0.0456668  
   0.332983400     0.6104680   -0.1204740  
   0.334983300     0.6004025   -0.1947720  
   0.336983200     0.5876556   -0.2733841  
   0.338983100     0.5671670   -0.3582890  
   0.340983000     0.5330080   -0.4474679  
   0.342982900     0.4821342   -0.5366997  
   0.344982800     0.4125699   -0.6209629  
   0.346982700     0.3250217   -0.6947689  
   0.348982600     0.2230118   -0.7523992  
   0.350982500     0.1103264   -0.7927734  
   0.352982400    -0.0085978   -0.8130530  
   0.354982300    -0.1356092   -0.8123642  
   0.356982200    -0.2742803   -0.7848418  
   0.358982100    -0.4051633   -0.7324808  
   0.360982000    -0.5233504   -0.6579841  
   0.362981900    -0.6258449   -0.5642108  
   0.364981800    -0.7107980   -0.4541697  
   0.366981700    -0.7750016   -0.3319135  
   0.368981600    -0.8174490   -0.2008504  
   0.370981500    -0.8367533   -0.0645605  
   0.372981400    -0.8333961    0.0726127  
   0.374981300    -0.8067938    0.2080910  
   0.376981200    -0.8376008    0.0735938  
   0.378981100    -0.8105102    0.2129479  
   0.380981000    -0.7598560    0.3471210  
   0.382980900    -0.6947294    0.4599140  
   0.384980800    -0.6163385    0.5579087  
   0.386980700    -0.5233977    0.6443064  
   0.388980600    -0.4169038    0.7164347  
   0.390980500    -0.3002504    0.7720357  
   0.392980400    -0.1753650    0.8092316  
   0.394980300    -0.0450289    0.8267771  
   0.396980200     0.0874476    0.8237242  
   0.398980100     0.2197611    0.7997069  
   0.400980000     0.3472905    0.7545548  
   0.402979900     0.4674457    0.6887286  
   0.404979800     0.5755444    0.6043567  
   0.406979700     0.6689291    0.5023569  
   0.408979600     0.7448400    0.3866549  
   0.410979500     0.8004966    0.2590140  
   0.412979400     0.8347655    0.1237376  
   0.414979300     0.8447654   -0.0150225  
   0.416979200     0.8328412   -0.1532199  
   0.418979100     0.7986913   -0.2863702  
   0.420979000     0.7434719   -0.4111618  
   0.422978900     0.6694730   -0.5246226  
   0.424978800     0.5785984   -0.6236613  
   0.426978700     0.4743253   -0.7059833  
   0.428978600     0.3597797   -0.7700059  
   0.430978500     0.2387761   -0.8144965  
   0.432978400     0.1142738   -0.8394593  
   0.434978300    -0.0108668   -0.8469095  
   0.436978200    -0.1340771   -0.8339161  
   0.438978100    -0.2527569   -0.8032373  
   0.440978000    -0.3644991   -0.7561213  
   0.442977900    -0.4675049   -0.6935045  
   0.444977800    -0.5592624   -0.6173637  
   0.446977700    -0.6391585   -0.5293296  
   0.448977600    -0.7049276   -0.4315583  
   0.450977500    -0.7561930   -0.3254169  
   0.452977400    -0.7919731   -0.2126612  
   0.454977300    -0.8111441   -0.0949565  
   0.456977200    -0.8133727    0.0247450  
   0.458977100    -0.7980213    0.1442849  
   0.460977000    -0.7652992    0.2608401  
   0.462976900    -0.7152792    0.3714902  
   0.464976800    -0.6488286    0.4747498  
   0.466976700    -0.5672141    0.5672901  
   0.468976600    -0.4715926    0.6475505  
   0.470976500    -0.3633782    0.7127903  
   0.472976400    -0.2455618    0.7607245  
   0.474976300    -0.1203168    0.7898446  
   0.476976200     0.0089156    0.7990211  
   0.478976100     0.1388005    0.7872138  
   0.480976000     0.2654228    0.7548101  
   0.482975900     0.3856545    0.7019295  
   0.484975800     0.4958059    0.6298179  
   0.486975700     0.5930986    0.5406230  
   0.488975600     0.6744574    0.4365359  
   0.490975500     0.7371973    0.3205743  
   0.492975400     0.7797602    0.1962782  
   0.494975300     0.8009841    0.0676742  
   0.496975200     0.8013754   -0.0615412  
   0.498975100     0.7803503   -0.1868499  
   0.500975000     0.7407011   -0.3058577  
   0.502974900     0.6837532   -0.4147276  
   0.504974800     0.6118290   -0.5116333  
   0.506974700     0.5273900   -0.5951826  
   0.508974600     0.4328048   -0.6643846  
   0.510974500     0.3312052   -0.7182479  
   0.512974400     0.2253151   -0.7563913  
   0.514974300     0.1178052   -0.7775421  
   0.516974200     0.0098913   -0.7857925  
   0.518974100    -0.0957959   -0.7800303  
   0.520974000    -0.1997867   -0.7611421  
   0.522973900    -0.2999015   -0.7296799  
   0.524973800    -0.3954844   -0.6854223  
   0.526973700    -0.4861591   -0.6288723  
   0.528973600    -0.5692260   -0.5600172  
   0.530973500    -0.6439182   -0.4787906  
   0.532973400    -0.7074166   -0.3866420  
   0.534973300    -0.7575741   -0.2843932  
   0.536973200    -0.7924610   -0.1738831  
   0.538973100    -0.8103056   -0.0585719  
   0.540973000    -0.8105733    0.0592637  
   0.542972900    -0.7926034    0.1768419  
   0.544972800    -0.7563944    0.2911112  
   0.546972700    -0.7025222    0.3995175  
   0.548972600    -0.6318853    0.4989902  
   0.550972500    -0.5466307    0.5867755  
   0.552972400    -0.4483306    0.6609287  
   0.554972300    -0.3390777    0.7190823  
   0.556972200    -0.2213221    0.7599031  
   0.558972100    -0.0985428    0.7822628  
   0.560972000     0.0267282    0.7853346  
   0.562971900     0.1512990    0.7688043  
   0.564971800     0.2721224    0.7329840  
   0.566971700     0.3859709    0.6788124  
   0.568971600     0.4905758    0.6071553  
   0.570971500     0.5827631    0.5196689  
   0.572971400     0.6602964    0.4181010  
   0.574971300     0.7209792    0.3051712  
   0.576971200     0.7628253    0.1830408  
   0.578971100     0.7846724    0.0549922  
   0.580971000     0.7856667   -0.0742571  
   0.582970900     0.7660060   -0.2019486  
   0.584970800     0.7261915   -0.3242466  
   0.586970700     0.6677980   -0.4373576  
   0.588970600     0.5926533   -0.5395876  
   0.590970500     0.5027216   -0.6280673  
   0.592970400     0.4009245   -0.7009490  
   0.594970300     0.2898191   -0.7566630  
   0.596970200     0.1722171   -0.7937531  
   0.598970100     0.0514146   -0.8127269  
   0.600970000    -0.0701182   -0.8133494  
   0.602969900    -0.1893360   -0.7956954  
   0.604969800    -0.3039358   -0.7605205  
   0.606969700    -0.4113701   -0.7092075  
   0.608969600    -0.5096599   -0.6427712  
   0.610969500    -0.5968164   -0.5632839  
   0.612969400    -0.6707756   -0.4724928  
   0.614969300    -0.7302457   -0.3727951  
   0.616969200    -0.7748510   -0.2663290  
   0.618969100    -0.8036230   -0.1554814  
   0.620969000    -0.8168191   -0.0422412  
   0.622968900    -0.8137899    0.0717627  
   0.624968800    -0.7948022    0.1846129  
   0.626968700    -0.7600396    0.2941414  
   0.628968600    -0.7098765    0.3983227  
   0.630968500    -0.6452987    0.4948212  
   0.632968400    -0.5666437    0.5818449  
   0.634968300    -0.4758917    0.6574206  
   0.636968200    -0.3743708    0.7193274  
   0.638968100    -0.2638096    0.7661519  
   0.640968000    -0.1464510    0.7962503  
   0.642967900    -0.0248711    0.8088046  
   0.644967800     0.0983466    0.8031081  
   0.646967700     0.2204240    0.7784889  
   0.648967600     0.3378377    0.7351354  
   0.650967500     0.4480268    0.6738712  
   0.652967400     0.5476707    0.5962834  
   0.654967300     0.6344180    0.5033728  
   0.656967200     0.7060928    0.3974443  
   0.658967100     0.7603703    0.2812808  
   0.660967000     0.7956802    0.1572686  
   0.662966900     0.8109374    0.0283538  
   0.664966800     0.8052747   -0.1018670  
   0.666966700     0.7787225   -0.2299292  
   0.668966600     0.7322023   -0.3514099  
   0.670966500     0.6669720   -0.4637162  
   0.672966400     0.5863580   -0.5644575  
   0.674966300     0.4906308   -0.6491389  
   0.676966200     0.3839271   -0.7169629  
   0.678966100     0.2690699   -0.7667356  
   0.680966000     0.1495508   -0.7977261  
   0.682965900     0.0279721   -0.8099517  
   0.684965800    -0.0928173   -0.8039563  
   0.686965700    -0.2099669   -0.7797297  
   0.688965600    -0.3213269   -0.7390811  
   0.690965500    -0.4235112   -0.6820762  
   0.692965400    -0.5161983   -0.6126564  
   0.694965300    -0.5971209   -0.5308575  
   0.696965200    -0.6649259   -0.4394568  
   0.698965100    -0.7189186   -0.3392999  
   0.700965000    -0.7577553   -0.2332272  
   0.702964900    -0.7809328   -0.1224853  
   0.704964800    -0.7884998   -0.0096010  
   0.706964700    -0.7794733    0.1033575  
   0.708964600    -0.7541047    0.2140513  
   0.710964500    -0.7134828    0.3210281  
   0.712964400    -0.6567470    0.4210292  
   0.714964300    -0.5852678    0.5119729  
   0.716964200    -0.5010927    0.5916401  
   0.718964100    -0.4054489    0.6581955  
   0.720964000    -0.3005561    0.7096009  
   0.722963900    -0.1888699    0.7447816  
   0.724963800    -0.0719894    0.7624717  
   0.726963700     0.0464939    0.7620583  
   0.728963600     0.1643705    0.7426971  
   0.730963500     0.2778314    0.7042935  
   0.732963400     0.3837277    0.6492448  
   0.734963300     0.4805160    0.5778263  
   0.736963200     0.5765939    0.4781022  
   0.738963100     0.6534330    0.3624129  
   0.740963000     0.7079074    0.2351746  
   0.742962900     0.7381363    0.1015245  
   0.744962800     0.7441433   -0.0345540  
   0.746962700     0.7259237   -0.1680787  
   0.748962600     0.6847837   -0.2951288  
   0.750962500     0.7102475   -0.1807557  
   0.752962400     0.6687521   -0.3055097  
   0.754962300     0.6067811   -0.4204963  
   0.756962200     0.5269436   -0.5227858  
   0.758962100     0.4314292   -0.6088730  
   0.760962000     0.3230717   -0.6778638  
   0.762961900     0.2109085   -0.7254525  
   0.764961800     0.1034734   -0.7528666  
   0.766961700    -0.0065612   -0.7650996  
   0.768961600    -0.1176750   -0.7610455  
   0.770961500    -0.2273269   -0.7409759  
   0.772961400    -0.3330484   -0.7049026  
   0.774961300    -0.4325389   -0.6542180  
   0.776961200    -0.5241140   -0.5889345  
   0.778961100    -0.6051372   -0.5103230  
   0.780961000    -0.6738533   -0.4202829  
   0.782960900    -0.7288673   -0.3202698  
   0.784960800    -0.7682759   -0.2124572  
   0.786960700    -0.7910425   -0.0996148  
   0.788960600    -0.7968228    0.0154624  
   0.790960500    -0.7851232    0.1304398  
   0.792960400    -0.7560558    0.2425564  
   0.794960300    -0.7105454    0.3489198  
   0.796960200    -0.6497763    0.4476713  
   0.798960100    -0.5751629    0.5358534  
   0.800960000    -0.4880160    0.6118295  
   0.802959900    -0.3901732    0.6743758  
   0.804959800    -0.2842684    0.7215496  
   0.806959700    -0.1722529    0.7523679  
   0.808959600    -0.0566282    0.7661523  
   0.810959500     0.0600532    0.7629226  
   0.812959400     0.1756323    0.7415808  
   0.814959300     0.2871157    0.7030352  
   0.816959200     0.3919648    0.6476935  
   0.818959100     0.4877458    0.5764370  
   0.820959000     0.5717452    0.4910878  
   0.822958900     0.6422121    0.3929725  
   0.824958800     0.6965898    0.2849909  
   0.826958700     0.7339069    0.1691234  
   0.828958600     0.7525327    0.0484328  
   0.830958500     0.7515127   -0.0741651  
   0.832958400     0.7315061   -0.1949995  
   0.834958300     0.6924095   -0.3111494  
   0.836958200     0.6352991   -0.4192919  
   0.838958100     0.5621209   -0.5171071  
   0.840958000     0.4745325   -0.6023605  
   0.842957900     0.3745918   -0.6725281  
   0.844957800     0.2653612   -0.7256865  
   0.846957700     0.1496311   -0.7608897  
   0.848957600     0.0301793   -0.7773589  
   0.850957500    -0.0894665   -0.7754633  
   0.852957400    -0.2069487   -0.7550123  
   0.854957300    -0.3191490   -0.7169588  
   0.856957200    -0.4233049   -0.6628021  
   0.858957100    -0.5173637   -0.5941089  
   0.860957000    -0.5992985   -0.5129148  
   0.862956900    -0.6675657   -0.4216552  
   0.864956800    -0.7212867   -0.3225982  
   0.866956700    -0.7599879   -0.2175804  
   0.868956600    -0.7824755   -0.1091421  
   0.870956500    -0.7896899    0.0009955  
   0.872956400    -0.7811629    0.1109702  
   0.874956300    -0.7570759    0.2179161  
   0.876956200    -0.7182482    0.3213589  
   0.878956100    -0.6652991    0.4182057  
   0.880956000    -0.5988570    0.5068716  
   0.882955900    -0.5202013    0.5856512  
   0.884955800    -0.4305099    0.6526412  
   0.886955700    -0.3318005    0.7066653  
   0.888955600    -0.2255564    0.7457198  
   0.890955500    -0.1143048    0.7694638  
   0.892955400     0.0002846    0.7767760  
   0.894955300     0.1153541    0.7668246  
