! MS46122B
! 2250307/22442219
! 7/25/2025 1:33:15 PM
! C:\USERS\SPARKY\DOCUMENTS\VNA_DATA\JULY25_2025\3K\ECAL_OPEN_D.S1P
! CHANNEL.1
! TR.MEASUREMENT
! RAW.DATA
# GHZ S RI R 50.0
! FREQ.GHZ         S11RE         S11IM         
!; PortSelection: Port_1
   0.001000000     1.0445630   -0.0724929  
   0.002999900     0.9470525   -0.2219692  
   0.004999800     0.8102410   -0.0900445  
   0.006999700     0.5224241   -0.4045242  
   0.008999600     0.9399177   -0.0008941  
   0.010999500     0.9253131   -0.2272247  
   0.012999400     0.8856945   -0.3358228  
   0.014999300     0.8458713   -0.4176389  
   0.016999200     0.8057618   -0.4883190  
   0.018999100     0.7630439   -0.5538775  
   0.020999000     0.7162842   -0.6147398  
   0.022998900     0.6645143   -0.6705874  
   0.024998800     0.5986991   -0.6865153  
   0.026998700     0.5449867   -0.7685848  
   0.028998600     0.4756745   -0.8098761  
   0.030998500     0.3996373   -0.8448367  
   0.032998400     0.3194526   -0.8382407  
   0.034998300     0.2263633   -0.8921178  
   0.036998200     0.1296688   -0.9014434  
   0.038998100     0.0270871   -0.8993403  
   0.040998000    -0.0805332   -0.8833116  
   0.042997900    -0.1917044   -0.8522102  
   0.044997800    -0.2819212   -0.7817131  
   0.046997700    -0.4162085   -0.7331415  
   0.048997600    -0.5228199   -0.6417770  
   0.050997500    -0.6198987   -0.5257304  
   0.052997400    -0.7001813   -0.3843769  
   0.054997300    -0.7556106   -0.2191277  
   0.056997200    -0.7765769   -0.0306237  
   0.058997100    -0.7524511    0.1694227  
   0.060997000    -0.6763846    0.3682271  
   0.062996900    -0.5464907    0.5492514  
   0.064996800    -0.3680669    0.6928669  
   0.066996700    -0.1554892    0.7842428  
   0.068996600     0.0712742    0.8144040  
   0.070996500     0.2925805    0.7851201  
   0.072996400     0.4907210    0.7035667  
   0.074996300     0.6537269    0.5830702  
   0.076996200     0.7768445    0.4376385  
   0.078996100     0.8604231    0.2804495  
   0.080996000     0.9070985    0.1204108  
   0.082995900     0.9224141   -0.0345207  
   0.084995800     0.9100989   -0.1793539  
   0.086995700     0.8773782   -0.3121035  
   0.088995600     0.8271621   -0.4314323  
   0.090995500     0.7637349   -0.5364364  
   0.092995400     0.6906626   -0.6285989  
   0.094995300     0.6084303   -0.7061042  
   0.096995200     0.5201768   -0.7702343  
   0.098995100     0.4268621   -0.8220605  
   0.100995000     0.3302958   -0.8612738  
   0.102994900     0.2315764   -0.8883146  
   0.104994800     0.1316293   -0.9037880  
   0.106994700     0.0305085   -0.9071187  
   0.108994600    -0.0699306   -0.9001161  
   0.110994500    -0.1693489   -0.8814215  
   0.112994400    -0.2667454   -0.8512076  
   0.114994300    -0.3613882   -0.8091124  
   0.116994200    -0.4517330   -0.7556534  
   0.118994100    -0.5364652   -0.6900792  
   0.120994000    -0.6159043   -0.6140705  
   0.122993900    -0.6858922   -0.5251735  
   0.124993800    -0.7453476   -0.4249139  
   0.126993700    -0.7929046   -0.3137720  
   0.128993600    -0.8239955   -0.1929106  
   0.130993500    -0.8389085   -0.0643210  
   0.132993400    -0.8348350    0.0700580  
   0.134993300    -0.8086923    0.2072819  
   0.136993200    -0.7589706    0.3436569  
   0.138993100    -0.6842769    0.4744906  
   0.140993000    -0.5846930    0.5942994  
   0.142992900    -0.4614103    0.6975433  
   0.144992800    -0.3179187    0.7794158  
   0.146992700    -0.1574322    0.8325295  
   0.148992600     0.0131748    0.8534649  
   0.150992500     0.1854215    0.8395972  
   0.152992400     0.3527447    0.7929730  
   0.154992300     0.5066140    0.7145821  
   0.156992200     0.6408384    0.6083920  
   0.158992100     0.7503377    0.4809059  
   0.160992000     0.8314699    0.3377143  
   0.162991900     0.8835653    0.1859518  
   0.164991800     0.9071316    0.0317660  
   0.166991700     0.9031389   -0.1188710  
   0.168991600     0.8743737   -0.2621051  
   0.170991500     0.8242833   -0.3942771  
   0.172991400     0.7560118   -0.5128829  
   0.174991300     0.6733445   -0.6155801  
   0.176991200     0.5788606   -0.7028221  
   0.178991100     0.4752831   -0.7731923  
   0.180991000     0.3666670   -0.8278826  
   0.182990900     0.2533652   -0.8646846  
   0.184990800     0.1383805   -0.8858161  
   0.186990700     0.0228759   -0.8914328  
   0.188990600    -0.0654976   -0.8829612  
   0.190990500    -0.1965938   -0.8575550  
   0.192990400    -0.3057651   -0.8183252  
   0.194990300    -0.4052181   -0.7670709  
   0.196990200    -0.4970261   -0.7033532  
   0.198990100    -0.5799830   -0.6281036  
   0.200990000    -0.6532323   -0.5416816  
   0.202989900    -0.7151186   -0.4448075  
   0.204989800    -0.7644547   -0.3394850  
   0.206989700    -0.8005123   -0.2272868  
   0.208989600    -0.8197965   -0.1089319  
   0.210989500    -0.8220591    0.0139749  
   0.212989400    -0.8064803    0.1388719  
   0.214989300    -0.7718655    0.2631099  
   0.216989200    -0.7175136    0.3827269  
   0.218989100    -0.6441100    0.4950675  
   0.220989000    -0.5510084    0.5972028  
   0.222988900    -0.4399528    0.6848817  
   0.224988800    -0.3128629    0.7546015  
   0.226988700    -0.1737317    0.8027764  
   0.228988600    -0.0265962    0.8262032  
   0.230988500     0.1247932    0.8236668  
   0.232988400     0.2741449    0.7927694  
   0.234988300     0.4173110    0.7369468  
   0.236988200     0.5485533    0.6560694  
   0.238988100     0.6626987    0.5535346  
   0.240988000     0.7560892    0.4336423  
   0.242987900     0.8260639    0.3011171  
   0.244987800     0.8715457    0.1601335  
   0.246987700     0.8923512    0.0157336  
   0.248987600     0.8882535   -0.1275295  
   0.250987500     0.8617709   -0.2657081  
   0.252987400     0.8143381   -0.3943988  
   0.254987300     0.7494465   -0.5108432  
   0.256987200     0.6693074   -0.6135065  
   0.258987100     0.5781904   -0.7022721  
   0.260987000     0.4763166   -0.7741925  
   0.262986900     0.3670565   -0.8301780  
   0.264986800     0.2530515   -0.8694998  
   0.266986700     0.1367522   -0.8921582  
   0.268986600     0.0206047   -0.8990788  
   0.270986500    -0.0931199   -0.8905083  
   0.272986400    -0.2036987   -0.8676017  
   0.274986300    -0.3094053   -0.8308077  
   0.276986200    -0.4090743   -0.7808438  
   0.278986100    -0.5019182   -0.7182329  
   0.280986000    -0.5860355   -0.6438138  
   0.282985900    -0.6602744   -0.5589268  
   0.284985800    -0.7229735   -0.4639070  
   0.286985700    -0.7728124   -0.3608601  
   0.288985600    -0.8086023   -0.2515874  
   0.290985500    -0.8295560   -0.1373046  
   0.292985400    -0.8345351   -0.0193033  
   0.294985300    -0.8226594    0.1008297  
   0.296985200    -0.7925280    0.2211694  
   0.298985100    -0.7431686    0.3392623  
   0.300985000    -0.6738864    0.4507143  
   0.302984900    -0.5858435    0.5518302  
   0.304984800    -0.4791973    0.6389185  
   0.306984700    -0.3566526    0.7070349  
   0.308984600    -0.2215596    0.7530116  
   0.310984500    -0.0786205    0.7728536  
   0.312984400     0.0670619    0.7643085  
   0.314984300     0.2083275    0.7268319  
   0.316984200     0.3376724    0.6615487  
   0.318984100     0.4480954    0.5718323  
   0.320984000     0.5337566    0.4651567  
   0.322983900     0.5916409    0.3501336  
   0.324983800     0.6223646    0.2364069  
   0.326983700     0.6325341    0.1318163  
   0.328983600     0.6295388    0.0391174  
   0.330983500     0.6212949   -0.0423925  
   0.332983400     0.6124364   -0.1173843  
   0.334983300     0.6034533   -0.1926659  
   0.336983200     0.5912281   -0.2723616  
   0.338983100     0.5704934   -0.3582786  
   0.340983000     0.5356876   -0.4481503  
   0.342982900     0.4840117   -0.5376236  
   0.344982800     0.4136446   -0.6217273  
   0.346982700     0.3254716   -0.6950094  
   0.348982600     0.2230877   -0.7519352  
   0.350982500     0.1103797   -0.7914437  
   0.352982400    -0.0083304   -0.8108236  
   0.354982300    -0.1348344   -0.8093420  
   0.356982200    -0.2726958   -0.7812335  
   0.358982100    -0.4026169   -0.7283809  
   0.360982000    -0.5196360   -0.6537967  
   0.362981900    -0.6209360   -0.5603048  
   0.364981800    -0.7047218   -0.4508218  
   0.366981700    -0.7678335   -0.3293436  
   0.368981600    -0.8092091   -0.1990584  
   0.370981500    -0.8282187   -0.0642173  
   0.372981400    -0.8244438    0.0719436  
   0.374981300    -0.7977810    0.2057655  
   0.376981200    -0.8279299    0.0729799  
   0.378981100    -0.8009439    0.2107320  
   0.380981000    -0.7506633    0.3434165  
   0.382980900    -0.6862112    0.4549621  
   0.384980800    -0.6086653    0.5519551  
   0.386980700    -0.5167138    0.6375069  
   0.388980600    -0.4115004    0.7090001  
   0.390980500    -0.2959817    0.7643721  
   0.392980400    -0.1724136    0.8014411  
   0.394980300    -0.0434503    0.8192329  
   0.396980200     0.0882757    0.8166386  
   0.398980100     0.2194588    0.7932748  
   0.400980000     0.3462268    0.7488860  
   0.402979900     0.4659230    0.6839649  
   0.404979800     0.5737829    0.6003751  
   0.406979700     0.6670550    0.4993542  
   0.408979600     0.7430389    0.3843333  
   0.410979500     0.7989145    0.2574885  
   0.412979400     0.8334256    0.1225530  
   0.414979300     0.8436775   -0.0158928  
   0.416979200     0.8319653   -0.1537973  
   0.418979100     0.7979921   -0.2867326  
   0.420979000     0.7428474   -0.4113125  
   0.422978900     0.6688626   -0.5245328  
   0.424978800     0.5780175   -0.6232329  
   0.426978700     0.4737986   -0.7051718  
   0.428978600     0.3593756   -0.7686502  
   0.430978500     0.2385614   -0.8127366  
   0.432978400     0.1144609   -0.8370076  
   0.434978300    -0.0102200   -0.8441046  
   0.436978200    -0.1330862   -0.8305590  
   0.438978100    -0.2508360   -0.7994792  
   0.440978000    -0.3618570   -0.7521002  
   0.442977900    -0.4638110   -0.6894537  
   0.444977800    -0.5546610   -0.6133133  
   0.446977700    -0.6333975   -0.5257354  
   0.448977600    -0.6983748   -0.4282651  
   0.450977500    -0.7488338   -0.3227853  
   0.452977400    -0.7837878   -0.2110094  
   0.454977300    -0.8023288   -0.0942937  
   0.456977200    -0.8042888    0.0242332  
   0.458977100    -0.7887912    0.1427552  
   0.460977000    -0.7562590    0.2578168  
   0.462976900    -0.7065768    0.3672249  
   0.464976800    -0.6407666    0.4694127  
   0.466976700    -0.5598860    0.5609711  
   0.468976600    -0.4654363    0.6403953  
   0.470976500    -0.3583772    0.7050961  
   0.472976400    -0.2416816    0.7527012  
   0.474976300    -0.1178302    0.7818255  
   0.476976200     0.0103140    0.7912685  
   0.478976100     0.1389737    0.7799031  
   0.480976000     0.2646738    0.7481784  
   0.482975900     0.3841746    0.6961288  
   0.484975800     0.4937694    0.6248839  
   0.486975700     0.5907382    0.5365608  
   0.488975600     0.6719707    0.4333278  
   0.490975500     0.7347056    0.3181805  
   0.492975400     0.7774394    0.1945351  
   0.494975300     0.7988389    0.0666329  
   0.496975200     0.7994204   -0.0620403  
   0.498975100     0.7787604   -0.1872073  
   0.500975000     0.7391959   -0.3056396  
   0.502974900     0.6825478   -0.4139057  
   0.504974800     0.6108746   -0.5104613  
   0.506974700     0.5267369   -0.5936809  
   0.508974600     0.4324978   -0.6624942  
   0.510974500     0.3313804   -0.7160203  
   0.512974400     0.2260125   -0.7538356  
   0.514974300     0.1189296   -0.7749237  
   0.516974200     0.0116972   -0.7829138  
   0.518974100    -0.0938334   -0.7771053  
   0.520974000    -0.1970534   -0.7582843  
   0.522973900    -0.2966593   -0.7267132  
   0.524973800    -0.3917259   -0.6825182  
   0.526973700    -0.4817541   -0.6259059  
   0.528973600    -0.5644181   -0.5571432  
   0.530973500    -0.6383201   -0.4763655  
   0.532973400    -0.7010888   -0.3844895  
   0.534973300    -0.7504478   -0.2828507  
   0.536973200    -0.7847208   -0.1727924  
   0.538973100    -0.8019511   -0.0584101  
   0.540973000    -0.8018060    0.0583635  
   0.542972900    -0.7836339    0.1747833  
   0.544972800    -0.7474071    0.2878370  
   0.546972700    -0.6938449    0.3949749  
   0.548972600    -0.6240461    0.4933456  
   0.550972500    -0.5395921    0.5802792  
   0.552972400    -0.4423212    0.6534702  
   0.554972300    -0.3342701    0.7112725  
   0.556972200    -0.2177760    0.7518351  
   0.558972100    -0.0961454    0.7742213  
   0.560972000     0.0278908    0.7775337  
   0.562971900     0.1513268    0.7614380  
   0.564971800     0.2714204    0.7263503  
   0.566971700     0.3845892    0.6730056  
   0.568971600     0.4886271    0.6021630  
   0.570971500     0.5806483    0.5155346  
   0.572971400     0.6580954    0.4148267  
   0.574971300     0.7188827    0.3025857  
   0.576971200     0.7609370    0.1808813  
   0.578971100     0.7830160    0.0535263  
   0.580971000     0.7841898   -0.0753466  
   0.582970900     0.7648316   -0.2028219  
   0.584970800     0.7252855   -0.3244741  
   0.586970700     0.6670055   -0.4377116  
   0.588970600     0.5919556   -0.5396927  
   0.590970500     0.5022050   -0.6278309  
   0.592970400     0.4006192   -0.7003024  
   0.594970300     0.2895341   -0.7557403  
   0.596970200     0.1723846   -0.7923433  
   0.598970100     0.0516556   -0.8109810  
   0.600970000    -0.0695266   -0.8111621  
   0.602969900    -0.1881469   -0.7929476  
   0.604969800    -0.3021969   -0.7575977  
   0.606969700    -0.4091190   -0.7058560  
   0.608969600    -0.5063390   -0.6395215  
   0.610969500    -0.5926123   -0.5600836  
   0.612969400    -0.6656132   -0.4695505  
   0.614969300    -0.7242138   -0.3703007  
   0.616969200    -0.7679726   -0.2645387  
   0.618969100    -0.7960612   -0.1544753  
   0.620969000    -0.8086691   -0.0423070  
   0.622968900    -0.8051264    0.0708809  
   0.624968800    -0.7861689    0.1825236  
   0.626968700    -0.7514582    0.2908292  
   0.628968600    -0.7016130    0.3938376  
   0.630968500    -0.6374985    0.4892524  
   0.632968400    -0.5596031    0.5752330  
   0.634968300    -0.4698822    0.6498725  
   0.636968200    -0.3692539    0.7113128  
   0.638968100    -0.2601040    0.7577012  
   0.640968000    -0.1436856    0.7876793  
   0.642967900    -0.0236078    0.8003040  
   0.644967800     0.0986235    0.7949446  
   0.646967700     0.2196500    0.7709302  
   0.648967600     0.3359757    0.7283281  
   0.650967500     0.4456508    0.6678856  
   0.652967400     0.5448123    0.5911421  
   0.654967300     0.6314477    0.4991022  
   0.656967200     0.7030405    0.3941739  
   0.658967100     0.7573395    0.2788241  
   0.660967000     0.7928565    0.1557159  
   0.662966900     0.8085461    0.0271643  
   0.664966800     0.8030484   -0.1025194  
   0.666966700     0.7769698   -0.2303074  
   0.668966600     0.7307870   -0.3514762  
   0.670966500     0.6658201   -0.4636378  
   0.672966400     0.5854338   -0.5641506  
   0.674966300     0.4899408   -0.6485092  
   0.676966200     0.3834130   -0.7162081  
   0.678966100     0.2688622   -0.7656167  
   0.680966000     0.1495178   -0.7963570  
   0.682965900     0.0282678   -0.8082134  
   0.684965800    -0.0922035   -0.8018956  
   0.686965700    -0.2087452   -0.7773829  
   0.688965600    -0.3194325   -0.7364938  
   0.690965500    -0.4209645   -0.6793057  
   0.692965400    -0.5129068   -0.6098910  
   0.694965300    -0.5930154   -0.5282203  
   0.696965200    -0.6599935   -0.4371128  
   0.698965100    -0.7131733   -0.3373366  
   0.700965000    -0.7513157   -0.2319511  
   0.702964900    -0.7738513   -0.1219506  
   0.704964800    -0.7808072   -0.0100261  
   0.706964700    -0.7715800    0.1019746  
   0.708964600    -0.7461267    0.2115473  
   0.710964500    -0.7054985    0.3174789  
   0.712964400    -0.6491459    0.4162594  
   0.714964300    -0.5782360    0.5061175  
   0.716964200    -0.4949134    0.5847666  
   0.718964100    -0.4001569    0.6506491  
   0.720964000    -0.2963800    0.7014750  
   0.722963900    -0.1857842    0.7363030  
   0.724963800    -0.0703928    0.7540004  
   0.726963700     0.0471430    0.7537236  
   0.728963600     0.1638434    0.7347974  
   0.730963500     0.2761565    0.6971381  
   0.732963400     0.3812090    0.6427845  
   0.734963300     0.4775661    0.5724069  
   0.736963200     0.5732368    0.4737170  
   0.738963100     0.6498675    0.3592229  
   0.740963000     0.7043765    0.2330193  
   0.742962900     0.7349325    0.1002531  
   0.744962800     0.7414170   -0.0350504  
   0.746962700     0.7237755   -0.1680105  
   0.748962600     0.6832895   -0.2947419  
   0.750962500     0.7091889   -0.1804034  
   0.752962400     0.6682101   -0.3050141  
   0.754962300     0.6067173   -0.4199662  
   0.756962200     0.5272385   -0.5222691  
   0.758962100     0.4320471   -0.6083862  
   0.760962000     0.3238418   -0.6774639  
   0.762961900     0.2117978   -0.7250875  
   0.764961800     0.1044279   -0.7524296  
   0.766961700    -0.0054185   -0.7645092  
   0.768961600    -0.1163885   -0.7603043  
   0.770961500    -0.2257698   -0.7399592  
   0.772961400    -0.3310620   -0.7035824  
   0.774961300    -0.4301434   -0.6527342  
   0.776961200    -0.5211089   -0.5873478  
   0.778961100    -0.6014267   -0.5087168  
   0.780961000    -0.6694076   -0.4186227  
   0.782960900    -0.7236816   -0.3190108  
   0.784960800    -0.7623246   -0.2117500  
   0.786960700    -0.7844160   -0.0995124  
   0.788960600    -0.7896208    0.0147485  
   0.790960500    -0.7775154    0.1287742  
   0.792960400    -0.7483526    0.2396585  
   0.794960300    -0.7028733    0.3449164  
   0.796960200    -0.6425452    0.4423446  
   0.798960100    -0.5684124    0.5296115  
   0.800960000    -0.4820518    0.6046179  
   0.802959900    -0.3852203    0.6664351  
   0.804959800    -0.2804685    0.7130430  
   0.806959700    -0.1696372    0.7434278  
   0.808959600    -0.0552723    0.7573269  
   0.810959500     0.0602379    0.7542776  
   0.812959400     0.1746503    0.7334101  
   0.814959300     0.2851454    0.6953996  
   0.816959200     0.3894156    0.6408022  
   0.818959100     0.4845223    0.5706453  
   0.820959000     0.5681913    0.4862582  
   0.822958900     0.6385151    0.3891294  
   0.824958800     0.6929601    0.2820779  
   0.826958700     0.7305567    0.1669414  
   0.828958600     0.7494979    0.0469667  
   0.830958500     0.7489111   -0.0750240  
   0.832958400     0.7292987   -0.1954984  
   0.834958300     0.6907548   -0.3112722  
   0.836958200     0.6340301   -0.4193065  
   0.838958100     0.5611585   -0.5170678  
   0.840958000     0.4738324   -0.6021561  
   0.842957900     0.3742212   -0.6722092  
   0.844957800     0.2652461   -0.7252105  
   0.846957700     0.1497796   -0.7602531  
   0.848957600     0.0305446   -0.7766317  
   0.850957500    -0.0888616   -0.7743704  
   0.852957400    -0.2060070   -0.7536441  
   0.854957300    -0.3177036   -0.7153284  
   0.856957200    -0.4212544   -0.6610689  
   0.858957100    -0.5146292   -0.5922906  
   0.860957000    -0.5958234   -0.5111473  
   0.862956900    -0.6632702   -0.4201105  
   0.864956800    -0.7162753   -0.3213809  
   0.866956700    -0.7541274   -0.2170808  
   0.868956600    -0.7760293   -0.1091649  
   0.870956500    -0.7827277    0.0001003  
   0.872956400    -0.7738568    0.1090386  
   0.874956300    -0.7495341    0.2150560  
   0.876956200    -0.7107786    0.3173743  
   0.878956100    -0.6581387    0.4131066  
   0.880956000    -0.5920493    0.5005687  
   0.882955900    -0.5141416    0.5785093  
   0.884955800    -0.4252827    0.6447088  
   0.886955700    -0.3276014    0.6980439  
   0.888955600    -0.2224745    0.7366775  
   0.890955500    -0.1123303    0.7602146  
   0.892955400     0.0008344    0.7674607  
   0.894955300     0.1147718    0.7578225  
