! MS46122B
! 2250307/22442219
! 7/22/2025 7:51:10 AM
! C:\USERS\SPARKY\DOCUMENTS\VNA_DATA\JULY22_2025\3K\ECAL_SHORT_A_REPEAT1.S1P
! CHANNEL.1
! TR.MEASUREMENT
! RAW.DATA
# GHZ S RI R 50.0
! FREQ.GHZ         S11RE         S11IM         
!; PortSelection: Port_1
   0.001000000     1.0455130   -0.0716349  
   0.002999900     0.9645150   -0.1941404  
   0.004999800     0.9050069   -0.2992625  
   0.006999700     0.8384523   -0.3969959  
   0.008999600     0.7613701   -0.4925646  
   0.010999500     0.6708114   -0.5839507  
   0.012999400     0.5614681   -0.6690372  
   0.014999300     0.4283227   -0.7427098  
   0.016999200     0.2641425   -0.7946720  
   0.018999100     0.0640049   -0.8085839  
   0.020999000    -0.1693881   -0.7563370  
   0.022998900    -0.4134724   -0.5997196  
   0.024998800    -0.5805664   -0.3072274  
   0.026998700    -0.6393272    0.0932523  
   0.028998600    -0.4531345    0.4799559  
   0.030998500    -0.1066204    0.7084395  
   0.032998400     0.2365693    0.7198207  
   0.034998300     0.5538868    0.6358435  
   0.036998200     0.7519763    0.4698041  
   0.038998100     0.8704058    0.2881773  
   0.040998000     0.9293202    0.1133951  
   0.042997900     0.9475696   -0.0460579  
   0.044997800     0.9069338   -0.1652044  
   0.046997700     0.9044875   -0.3129182  
   0.048997600     0.8593467   -0.4222513  
   0.050997500     0.8032486   -0.5171933  
   0.052997400     0.7394258   -0.5991748  
   0.054997300     0.6704873   -0.6696754  
   0.056997200     0.5947995   -0.7316867  
   0.058997100     0.5165318   -0.7830223  
   0.060997000     0.4348268   -0.8254954  
   0.062996900     0.3500580   -0.8594040  
   0.064996800     0.2628782   -0.8843346  
   0.066996700     0.1730503   -0.9003034  
   0.068996600     0.0811675   -0.9074886  
   0.070996500    -0.0118953   -0.9057955  
   0.072996400    -0.1061051   -0.8929937  
   0.074996300    -0.2009706   -0.8693419  
   0.076996200    -0.2952482   -0.8341973  
   0.078996100    -0.3876361   -0.7869370  
   0.080996000    -0.4767382   -0.7266349  
   0.082995900    -0.5608885   -0.6526150  
   0.084995800    -0.6373952   -0.5636807  
   0.086995700    -0.7046196   -0.4615093  
   0.088995600    -0.7593609   -0.3450164  
   0.090995500    -0.7975395   -0.2156062  
   0.092995400    -0.8167023   -0.0746620  
   0.094995300    -0.8106676    0.0744789  
   0.096995200    -0.7771086    0.2280733  
   0.098995100    -0.7125185    0.3791527  
   0.100995000    -0.6153117    0.5219497  
   0.102994900    -0.4879794    0.6447843  
   0.104994800    -0.3334027    0.7410959  
   0.106994700    -0.1585478    0.8026918  
   0.108994600     0.0266863    0.8259305  
   0.110994500     0.2124943    0.8087001  
   0.112994400     0.3884115    0.7518965  
   0.114994300     0.5452150    0.6613179  
   0.116994200     0.6759454    0.5433353  
   0.118994100     0.7767162    0.4058418  
   0.120994000     0.8481150    0.2576898  
   0.122993900     0.8870468    0.1048660  
   0.124993800     0.8973791   -0.0455278  
   0.126993700     0.8824650   -0.1896945  
   0.128993600     0.8444001   -0.3223432  
   0.130993500     0.7896634   -0.4429421  
   0.132993400     0.7201987   -0.5495923  
   0.134993300     0.6391888   -0.6419615  
   0.136993200     0.5487814   -0.7191442  
   0.138993100     0.4518161   -0.7814415  
   0.140993000     0.3501268   -0.8291223  
   0.142992900     0.2453126   -0.8627782  
   0.144992800     0.1390768   -0.8835492  
   0.146992700     0.0325148   -0.8900048  
   0.148992600    -0.0732281   -0.8831590  
   0.150992500    -0.1765570   -0.8624761  
   0.152992400    -0.2768948   -0.8306846  
   0.154992300    -0.3723614   -0.7863278  
   0.156992200    -0.4629423   -0.7308823  
   0.158992100    -0.5463966   -0.6639035  
   0.160992000    -0.6220914   -0.5860619  
   0.162991900    -0.6884717   -0.4977400  
   0.164991800    -0.7441341   -0.3996008  
   0.166991700    -0.7872506   -0.2930015  
   0.168991600    -0.8157983   -0.1786365  
   0.170991500    -0.8291215   -0.0579767  
   0.172991400    -0.8253240    0.0659985  
   0.174991300    -0.8026279    0.1915886  
   0.176991200    -0.7601098    0.3164581  
   0.178991100    -0.6968106    0.4365444  
   0.180991000    -0.6141040    0.5486089  
   0.182990900    -0.5108245    0.6476549  
   0.184990800    -0.3890628    0.7300383  
   0.186990700    -0.2519991    0.7919810  
   0.188990600    -0.1282167    0.8256406  
   0.190990500     0.0467475    0.8394066  
   0.192990400     0.2058361    0.8216370  
   0.194990300     0.3568110    0.7762846  
   0.196990200     0.4964337    0.7045507  
   0.198990100     0.6204361    0.6088384  
   0.200990000     0.7244850    0.4931043  
   0.202989900     0.8055685    0.3620374  
   0.204989800     0.8613594    0.2212834  
   0.206989700     0.8925452    0.0762777  
   0.208989600     0.8975108   -0.0685729  
   0.210989500     0.8786534   -0.2095258  
   0.212989400     0.8381782   -0.3424135  
   0.214989300     0.7788419   -0.4641276  
   0.216989200     0.7037169   -0.5722491  
   0.218989100     0.6157506   -0.6649292  
   0.220989000     0.5169682   -0.7427414  
   0.222988900     0.4101394   -0.8041304  
   0.224988800     0.2979399   -0.8490713  
   0.226988700     0.1828069   -0.8776338  
   0.228988600     0.0673887   -0.8899326  
   0.230988500    -0.0472790   -0.8863100  
   0.232988400    -0.1596144   -0.8668559  
   0.234988300    -0.2680381   -0.8340293  
   0.236988200    -0.3709588   -0.7872973  
   0.238988100    -0.4666822   -0.7274130  
   0.240988000    -0.5534233   -0.6555565  
   0.242987900    -0.6301039   -0.5727841  
   0.244987800    -0.6956054   -0.4797076  
   0.246987700    -0.7486326   -0.3772959  
   0.248987600    -0.7878373   -0.2667204  
   0.250987500    -0.8112790   -0.1495835  
   0.252987400    -0.8181278   -0.0287602  
   0.254987300    -0.8072367    0.0933800  
   0.256987200    -0.7780037    0.2149014  
   0.258987100    -0.7308671    0.3338200  
   0.260987000    -0.6631614    0.4465560  
   0.262986900    -0.5759630    0.5493286  
   0.264986800    -0.4711801    0.6390197  
   0.266986700    -0.3500435    0.7110484  
   0.268986600    -0.2165931    0.7621294  
   0.270986500    -0.0743810    0.7899421  
   0.272986400     0.0727168    0.7926079  
   0.274986300     0.2190865    0.7688211  
   0.276986200     0.3599958    0.7185687  
   0.278986100     0.4906082    0.6430991  
   0.280986000     0.6054802    0.5452552  
   0.282985900     0.7001945    0.4284593  
   0.284985800     0.7715436    0.2976188  
   0.286985700     0.8175081    0.1584611  
   0.288985600     0.8380626    0.0163564  
   0.290985500     0.8339346   -0.1243528  
   0.292985400     0.8064405   -0.2589135  
   0.294985300     0.7586477   -0.3843707  
   0.296985200     0.6922684   -0.4979156  
   0.298985100     0.6104057   -0.5974795  
   0.300985000     0.5167106   -0.6814539  
   0.302984900     0.4141475   -0.7480870  
   0.304984800     0.3056097   -0.7976577  
   0.306984700     0.1943690   -0.8299891  
   0.308984600     0.0832256   -0.8464713  
   0.310984500    -0.0262990   -0.8475577  
   0.312984400    -0.1325275   -0.8345140  
   0.314984300    -0.2341366   -0.8085257  
   0.316984200    -0.3302130   -0.7705812  
   0.318984100    -0.4205362   -0.7216258  
   0.320984000    -0.5037495   -0.6625766  
   0.322983900    -0.5793865   -0.5942424  
   0.324983800    -0.6469533   -0.5181315  
   0.326983700    -0.7056522   -0.4342402  
   0.328983600    -0.7553928   -0.3423866  
   0.330983500    -0.7946080   -0.2428639  
   0.332983400    -0.8211938   -0.1362986  
   0.334983300    -0.8323103   -0.0237215  
   0.336983200    -0.8259447    0.0921180  
   0.338983100    -0.8016626    0.2072967  
   0.340983000    -0.7595623    0.3179263  
   0.342982900    -0.7006498    0.4224407  
   0.344982800    -0.6265429    0.5174691  
   0.346982700    -0.5378844    0.6023444  
   0.348982600    -0.4361473    0.6724759  
   0.350982500    -0.3248466    0.7283050  
   0.352982400    -0.2048957    0.7673649  
   0.354982300    -0.0735636    0.7883543  
   0.356982200     0.0742147    0.7862624  
   0.358982100     0.2198607    0.7575090  
   0.360982000     0.3584412    0.7023654  
   0.362981900     0.4858457    0.6228344  
   0.364981800     0.5973870    0.5205415  
   0.366981700     0.6885926    0.3985655  
   0.368981600     0.7557343    0.2606455  
   0.370981500     0.7963166    0.1121333  
   0.372981400     0.8081869   -0.0415934  
   0.374981300     0.7908269   -0.1957169  
   0.376981200     0.8087875   -0.0873222  
   0.378981100     0.7818455   -0.2391945  
   0.380981000     0.7272619   -0.3821395  
   0.382980900     0.6553875   -0.5010812  
   0.384980800     0.5692498   -0.6005702  
   0.386980700     0.4695233   -0.6841139  
   0.388980600     0.3585798   -0.7496018  
   0.390980500     0.2413088   -0.7965778  
   0.392980400     0.1202495   -0.8239084  
   0.394980300    -0.0014619   -0.8326950  
   0.396980200    -0.1216452   -0.8233464  
   0.398980100    -0.2374887   -0.7968911  
   0.400980000    -0.3468480   -0.7541683  
   0.402979900    -0.4484850   -0.6964926  
   0.404979800    -0.5395304   -0.6261503  
   0.406979700    -0.6194168   -0.5440814  
   0.408979600    -0.6863576   -0.4525132  
   0.410979500    -0.7402332   -0.3518876  
   0.412979400    -0.7796394   -0.2443173  
   0.414979300    -0.8023365   -0.1320592  
   0.416979200    -0.8108256   -0.0172653  
   0.418979100    -0.8029578    0.0973747  
   0.420979000    -0.7789032    0.2105324  
   0.422978900    -0.7386556    0.3202578  
   0.424978800    -0.6824453    0.4238703  
   0.426978700    -0.6114987    0.5195441  
   0.428978600    -0.5264999    0.6047916  
   0.430978500    -0.4290827    0.6769642  
   0.432978400    -0.3214513    0.7343960  
   0.434978300    -0.2056610    0.7770235  
   0.436978200    -0.0827452    0.8006023  
   0.438978100     0.0433994    0.8054402  
   0.440978000     0.1703289    0.7906262  
   0.442977900     0.2947527    0.7556710  
   0.444977800     0.4128628    0.7015254  
   0.446977700     0.5218515    0.6288412  
   0.448977600     0.6184006    0.5390890  
   0.450977500     0.6995344    0.4345855  
   0.452977400     0.7632501    0.3177993  
   0.454977300     0.8072959    0.1914929  
   0.456977200     0.8303964    0.0595582  
   0.458977100     0.8314880   -0.0744810  
   0.460977000     0.8109291   -0.2058805  
   0.462976900     0.7701474   -0.3314695  
   0.464976800     0.7099462   -0.4476844  
   0.466976700     0.6333093   -0.5524405  
   0.468976600     0.5417981   -0.6422007  
   0.470976500     0.4384876   -0.7161991  
   0.472976400     0.3265910   -0.7726000  
   0.474976300     0.2089196   -0.8107457  
   0.476976200     0.0882450   -0.8307908  
   0.478976100    -0.0317256   -0.8325345  
   0.480976000    -0.1489943   -0.8169817  
   0.482975900    -0.2608750   -0.7853640  
   0.484975800    -0.3662977   -0.7385402  
   0.486975700    -0.4636466   -0.6776516  
   0.488975600    -0.5508474   -0.6045228  
   0.490975500    -0.6268387   -0.5199804  
   0.492975400    -0.6900737   -0.4259325  
   0.494975300    -0.7397163   -0.3237677  
   0.496975200    -0.7748301   -0.2151228  
   0.498975100    -0.7940252   -0.1031382  
   0.500975000    -0.7971671    0.0116078  
   0.502974900    -0.7837785    0.1263614  
   0.504974800    -0.7533925    0.2387148  
   0.506974700    -0.7063060    0.3470326  
   0.508974600    -0.6419125    0.4483854  
   0.510974500    -0.5619761    0.5392705  
   0.512974400    -0.4680589    0.6166774  
   0.514974300    -0.3622599    0.6772836  
   0.516974200    -0.2483236    0.7209197  
   0.518974100    -0.1293937    0.7453236  
   0.520974000    -0.0084911    0.7498179  
   0.522973900     0.1104936    0.7353200  
   0.524973800     0.2242508    0.7024754  
   0.526973700     0.3301384    0.6530921  
   0.528973600     0.4261996    0.5892806  
   0.530973500     0.5111564    0.5129604  
   0.532973400     0.5832604    0.4262139  
   0.534973300     0.6420872    0.3307713  
   0.536973200     0.6868880    0.2281941  
   0.538973100     0.7166172    0.1206668  
   0.540973000     0.7310081    0.0107467  
   0.542972900     0.7295436   -0.1009797  
   0.544972800     0.7117923   -0.2118324  
   0.546972700     0.6776270   -0.3197308  
   0.548972600     0.6277534   -0.4221087  
   0.550972500     0.5625473   -0.5167479  
   0.552972400     0.4831564   -0.6009141  
   0.554972300     0.3913837   -0.6723999  
   0.556972200     0.2895855   -0.7291817  
   0.558972100     0.1799314   -0.7699990  
   0.560972000     0.0656538   -0.7936450  
   0.562971900    -0.0501241   -0.7991633  
   0.564971800    -0.1658976   -0.7874427  
   0.566971700    -0.2774700   -0.7588244  
   0.568971600    -0.3834880   -0.7141243  
   0.570971500    -0.4813465   -0.6544408  
   0.572971400    -0.5693251   -0.5811306  
   0.574971300    -0.6459681   -0.4953569  
   0.576971200    -0.7092100   -0.3994536  
   0.578971100    -0.7582188   -0.2950931  
   0.580971000    -0.7913721   -0.1851008  
   0.582970900    -0.8081967   -0.0714611  
   0.584970800    -0.8083877    0.0431649  
   0.586970700    -0.7923118    0.1566346  
   0.588970600    -0.7601951    0.2666888  
   0.590970500    -0.7122754    0.3713141  
   0.592970400    -0.6495749    0.4686109  
   0.594970300    -0.5731623    0.5564316  
   0.596970200    -0.4841507    0.6326293  
   0.598970100    -0.3843748    0.6953258  
   0.600970000    -0.2752198    0.7431681  
   0.602969900    -0.1590595    0.7746284  
   0.604969800    -0.0382366    0.7885330  
   0.606969700     0.0844509    0.7836876  
   0.608969600     0.2065107    0.7594442  
   0.610969500     0.3242806    0.7161852  
   0.612969400     0.4348522    0.6545299  
   0.614969300     0.5347133    0.5756180  
   0.616969200     0.6207631    0.4816863  
   0.618969100     0.6909103    0.3748457  
   0.620969000     0.7430845    0.2583190  
   0.622968900     0.7759911    0.1345323  
   0.624968800     0.7884212    0.0064977  
   0.626968700     0.7796638   -0.1221018  
   0.628968600     0.7505298   -0.2474724  
   0.630968500     0.7015640   -0.3665279  
   0.632968400     0.6340289   -0.4753193  
   0.634968300     0.5501806   -0.5711197  
   0.636968200     0.4526864   -0.6521904  
   0.638968100     0.3446101   -0.7155859  
   0.640968000     0.2286031   -0.7610455  
   0.642967900     0.1082227   -0.7873057  
   0.644967800    -0.0134209   -0.7943071  
   0.646967700    -0.1332741   -0.7826447  
   0.648967600    -0.2484330   -0.7531468  
   0.650967500    -0.3564396   -0.7075653  
   0.652967400    -0.4552404   -0.6467328  
   0.654967300    -0.5433250   -0.5731178  
   0.656967200    -0.6189889   -0.4879389  
   0.658967100    -0.6811265   -0.3937764  
   0.660967000    -0.7289149   -0.2915244  
   0.662966900    -0.7617007   -0.1837557  
   0.664966800    -0.7784085   -0.0720739  
   0.666966700    -0.7789907    0.0407166  
   0.668966600    -0.7632800    0.1526528  
   0.670966500    -0.7316856    0.2617123  
   0.672966400    -0.6851299    0.3655186  
   0.674966300    -0.6233923    0.4611018  
   0.676966200    -0.5477771    0.5471473  
   0.678966100    -0.4600695    0.6215049  
   0.680966000    -0.3619087    0.6824632  
   0.682965900    -0.2546542    0.7286247  
   0.684965800    -0.1409860    0.7588158  
   0.686965700    -0.0227569    0.7711177  
   0.688965600     0.0970596    0.7655970  
   0.690965500     0.2153047    0.7402724  
   0.692965400     0.3292772    0.6975930  
   0.694965300     0.4360629    0.6373340  
   0.696965200     0.5324380    0.5603567  
   0.698965100     0.6159196    0.4684036  
   0.700965000     0.6837584    0.3637659  
   0.702964900     0.7345321    0.2490143  
   0.704964800     0.7659136    0.1274661  
   0.706964700     0.7772874    0.0021189  
   0.708964600     0.7684219   -0.1234620  
   0.710964500     0.7399183   -0.2456591  
   0.712964400     0.6918219   -0.3605274  
   0.714964300     0.6261104   -0.4656118  
   0.716964200     0.5456411   -0.5574456  
   0.718964100     0.4533850   -0.6340309  
   0.720964000     0.3518184   -0.6948157  
   0.722963900     0.2437336   -0.7386107  
   0.724963800     0.1323127   -0.7658405  
   0.726963700     0.0190726   -0.7760317  
   0.728963600    -0.0931588   -0.7700721  
   0.730963500    -0.2017649   -0.7471990  
   0.732963400    -0.3052206   -0.7110189  
   0.734963300    -0.4020979   -0.6603571  
   0.736963200    -0.5031334   -0.5856529  
   0.738963100    -0.5902585   -0.4952421  
   0.740963000    -0.6618695   -0.3924401  
   0.742962900    -0.7152898   -0.2789688  
   0.744962800    -0.7495742   -0.1578760  
   0.746962700    -0.7631352   -0.0324369  
   0.748962600    -0.7560421    0.0945461  
   0.750962500    -0.7758018   -0.0220327  
   0.752962400    -0.7660251    0.1061446  
   0.754962300    -0.7347111    0.2312564  
   0.756962200    -0.6825574    0.3499838  
   0.758962100    -0.6100817    0.4586303  
   0.760962000    -0.5197147    0.5532233  
   0.762961900    -0.4193552    0.6281362  
   0.764961800    -0.3187024    0.6808617  
   0.766961700    -0.2113386    0.7173952  
   0.768961600    -0.0988093    0.7372364  
   0.770961500     0.0149446    0.7402503  
   0.772961400     0.1278636    0.7256300  
   0.774961300     0.2369182    0.6944743  
   0.776961200     0.3404904    0.6467375  
   0.778961100     0.4358877    0.5843772  
   0.780961000     0.5212458    0.5074998  
   0.782960900     0.5943420    0.4180832  
   0.784960800     0.6535850    0.3183357  
   0.786960700     0.6968901    0.2102122  
   0.788960600     0.7231997    0.0962801  
   0.790960500     0.7317436   -0.0205561  
   0.792960400     0.7222068   -0.1373130  
   0.794960300     0.6946627   -0.2512035  
   0.796960200     0.6496091   -0.3596730  
   0.798960100     0.5886500   -0.4596430  
   0.800960000     0.5129659   -0.5489272  
   0.802959900     0.4244159   -0.6251636  
   0.804959800     0.3254089   -0.6870215  
   0.806959700     0.2185979   -0.7330085  
   0.808959600     0.1058754   -0.7619885  
   0.810959500    -0.0092948   -0.7731775  
   0.812959400    -0.1249579   -0.7668633  
   0.814959300    -0.2377976   -0.7429733  
   0.816959200    -0.3453248   -0.7028725  
   0.818959100    -0.4452397   -0.6470498  
   0.820959000    -0.5353892   -0.5773410  
   0.822958900    -0.6140520   -0.4951601  
   0.824958800    -0.6792291   -0.4023191  
   0.826958700    -0.7299301   -0.3014544  
   0.828958600    -0.7649375   -0.1944248  
   0.830958500    -0.7841282   -0.0838644  
   0.832958400    -0.7869183    0.0280563  
   0.834958300    -0.7735905    0.1388784  
   0.836958200    -0.7445139    0.2463244  
   0.838958100    -0.7001686    0.3482093  
   0.840958000    -0.6415948    0.4429536  
   0.842957900    -0.5697469    0.5288131  
   0.844957800    -0.4857408    0.6034362  
   0.846957700    -0.3914794    0.6655846  
   0.848957600    -0.2886786    0.7136196  
   0.850957500    -0.1792759    0.7461019  
   0.852957400    -0.0654854    0.7622334  
   0.854957300     0.0501949    0.7613006  
   0.856957200     0.1653847    0.7425151  
   0.858957100     0.2767103    0.7068366  
   0.860957000     0.3817461    0.6542410  
   0.862956900     0.4773742    0.5856260  
   0.864956800     0.5620123    0.5033616  
   0.866956700     0.6329660    0.4087691  
   0.868956600     0.6881943    0.3033295  
   0.870956500     0.7274275    0.1901940  
   0.872956400     0.7483262    0.0713237  
   0.874956300     0.7499412   -0.0500704  
   0.876956200     0.7323896   -0.1709291  
   0.878956100     0.6953465   -0.2878108  
   0.880956000     0.6399001   -0.3970946  
   0.882955900     0.5675391   -0.4964793  
   0.884955800     0.4803476   -0.5823331  
   0.886955700     0.3805201   -0.6527481  
   0.888955600     0.2712807   -0.7061151  
   0.890955500     0.1557244   -0.7406681  
   0.892955400     0.0368461   -0.7565840  
   0.894955300    -0.0819556   -0.7532230  
