! MS46122B
! 2250307/22442219
! 7/25/2025 1:41:47 PM
! C:\USERS\SPARKY\DOCUMENTS\VNA_DATA\JULY25_2025\3K\ECAL_SHORT_D_REPEAT1.S1P
! CHANNEL.1
! TR.MEASUREMENT
! RAW.DATA
# GHZ S RI R 50.0
! FREQ.GHZ         S11RE         S11IM         
!; PortSelection: Port_1
   0.001000000     1.0447910   -0.0716894  
   0.002999900     0.9637200   -0.1941559  
   0.004999800     0.9041291   -0.2993037  
   0.006999700     0.8374467   -0.3969982  
   0.008999600     0.7602758   -0.4925299  
   0.010999500     0.6695774   -0.5837926  
   0.012999400     0.5601107   -0.6686329  
   0.014999300     0.4267116   -0.7420106  
   0.016999200     0.2625213   -0.7935635  
   0.018999100     0.0625120   -0.8068728  
   0.020999000    -0.1704500   -0.7539323  
   0.022998900    -0.4137092   -0.5969253  
   0.024998800    -0.5797883   -0.3045877  
   0.026998700    -0.6377158    0.0951599  
   0.028998600    -0.4515643    0.4808170  
   0.030998500    -0.1055532    0.7087974  
   0.032998400     0.2372576    0.7202042  
   0.034998300     0.5545113    0.6363358  
   0.036998200     0.7526683    0.4702562  
   0.038998100     0.8711361    0.2884917  
   0.040998000     0.9299572    0.1135029  
   0.042997900     0.9480507   -0.0460609  
   0.044997800     0.9072163   -0.1652229  
   0.046997700     0.9046041   -0.3129825  
   0.048997600     0.8593479   -0.4222912  
   0.050997500     0.8030311   -0.5171664  
   0.052997400     0.7390031   -0.5991518  
   0.054997300     0.6701229   -0.6692262  
   0.056997200     0.5941175   -0.7312433  
   0.058997100     0.5157684   -0.7823561  
   0.060997000     0.4340055   -0.8244839  
   0.062996900     0.3492337   -0.8582479  
   0.064996800     0.2620510   -0.8829460  
   0.066996700     0.1722337   -0.8985923  
   0.068996600     0.0805474   -0.9054884  
   0.070996500    -0.0123645   -0.9035210  
   0.072996400    -0.1064653   -0.8904620  
   0.074996300    -0.2009311   -0.8665745  
   0.076996200    -0.2948544   -0.8312454  
   0.078996100    -0.3868474   -0.7838122  
   0.080996000    -0.4754989   -0.7234727  
   0.082995900    -0.5591630   -0.6495119  
   0.084995800    -0.6351723   -0.5606717  
   0.086995700    -0.7018455   -0.4587552  
   0.088995600    -0.7561972   -0.3426204  
   0.090995500    -0.7939591   -0.2137043  
   0.092995400    -0.8128462   -0.0733762  
   0.094995300    -0.8066803    0.0751249  
   0.096995200    -0.7731917    0.2280012  
   0.098995100    -0.7088367    0.3783679  
   0.100995000    -0.6121443    0.5205666  
   0.102994900    -0.4854675    0.6430740  
   0.104994800    -0.3315606    0.7392722  
   0.106994700    -0.1573031    0.8008790  
   0.108994600     0.0274238    0.8243986  
   0.110994500     0.2127586    0.8075127  
   0.112994400     0.3885108    0.7511567  
   0.114994300     0.5453181    0.6609412  
   0.116994200     0.6761799    0.5432537  
   0.118994100     0.7770764    0.4059022  
   0.120994000     0.8487324    0.2577982  
   0.122993900     0.8875871    0.1049618  
   0.124993800     0.8980244   -0.0456295  
   0.126993700     0.8830149   -0.1897173  
   0.128993600     0.8448362   -0.3225066  
   0.130993500     0.7899066   -0.4430952  
   0.132993400     0.7201654   -0.5497831  
   0.134993300     0.6391819   -0.6417512  
   0.136993200     0.5484703   -0.7189825  
   0.138993100     0.4512919   -0.7810915  
   0.140993000     0.3495557   -0.8284007  
   0.142992900     0.2446433   -0.8618341  
   0.144992800     0.1385740   -0.8821509  
   0.146992700     0.0320850   -0.8882483  
   0.148992600    -0.0733240   -0.8810492  
   0.150992500    -0.1764866   -0.8601465  
   0.152992400    -0.2765040   -0.8280465  
   0.154992300    -0.3715814   -0.7835417  
   0.156992200    -0.4617715   -0.7279071  
   0.158992100    -0.5446452   -0.6609191  
   0.160992000    -0.6199438   -0.5830626  
   0.162991900    -0.6857740   -0.4949591  
   0.164991800    -0.7409336   -0.3970166  
   0.166991700    -0.7835422   -0.2907975  
   0.168991600    -0.8117669   -0.1769309  
   0.170991500    -0.8247928   -0.0568129  
   0.172991400    -0.8207922    0.0665862  
   0.174991300    -0.7979678    0.1915941  
   0.176991200    -0.7558024    0.3156433  
   0.178991100    -0.6926938    0.4351422  
   0.180991000    -0.6103767    0.5467003  
   0.182990900    -0.5076567    0.6453186  
   0.184990800    -0.3864976    0.7274331  
   0.186990700    -0.2500702    0.7892344  
   0.188990600    -0.1268344    0.8230407  
   0.190990500     0.0474859    0.8370006  
   0.192990400     0.2061367    0.8195729  
   0.194990300     0.3567679    0.7745774  
   0.196990200     0.4962466    0.7033427  
   0.198990100     0.6202633    0.6079493  
   0.200990000     0.7243392    0.4924875  
   0.202989900     0.8057665    0.3615947  
   0.204989800     0.8613940    0.2210830  
   0.206989700     0.8927134    0.0760926  
   0.208989600     0.8977363   -0.0687457  
   0.210989500     0.8788533   -0.2097666  
   0.212989400     0.8382810   -0.3426097  
   0.214989300     0.7788413   -0.4643396  
   0.216989200     0.7035996   -0.5723528  
   0.218989100     0.6154346   -0.6649438  
   0.220989000     0.5165305   -0.7425046  
   0.222988900     0.4096112   -0.8036441  
   0.224988800     0.2974151   -0.8482511  
   0.226988700     0.1823006   -0.8764680  
   0.228988600     0.0671576   -0.8883500  
   0.230988500    -0.0474194   -0.8844166  
   0.232988400    -0.1595435   -0.8647215  
   0.234988300    -0.2676673   -0.8316186  
   0.236988200    -0.3701833   -0.7846524  
   0.238988100    -0.4654335   -0.7246234  
   0.240988000    -0.5517004   -0.6527249  
   0.242987900    -0.6278818   -0.5700309  
   0.244987800    -0.6927836   -0.4771313  
   0.246987700    -0.7453462   -0.3749866  
   0.248987600    -0.7841369   -0.2647362  
   0.250987500    -0.8072084   -0.1481088  
   0.252987400    -0.8138201   -0.0277953  
   0.254987300    -0.8027859    0.0937398  
   0.256987200    -0.7735409    0.2146171  
   0.258987100    -0.7264752    0.3329808  
   0.260987000    -0.6590273    0.4450559  
   0.262986900    -0.5722165    0.5473145  
   0.264986800    -0.4679550    0.6366234  
   0.266986700    -0.3473407    0.7083876  
   0.268986600    -0.2144976    0.7593366  
   0.270986500    -0.0727570    0.7871723  
   0.272986400     0.0737068    0.7899825  
   0.274986300     0.2197416    0.7664169  
   0.276986200     0.3605188    0.7163817  
   0.278986100     0.4907035    0.6413358  
   0.280986000     0.6054543    0.5437782  
   0.282985900     0.7001202    0.4272245  
   0.284985800     0.7713696    0.2967194  
   0.286985700     0.8173977    0.1575699  
   0.288985600     0.8380042    0.0153915  
   0.290985500     0.8334724   -0.1249405  
   0.292985400     0.8061308   -0.2595026  
   0.294985300     0.7582300   -0.3847992  
   0.296985200     0.6916894   -0.4981084  
   0.298985100     0.6096810   -0.5974959  
   0.300985000     0.5158961   -0.6811224  
   0.302984900     0.4132867   -0.7474469  
   0.304984800     0.3047894   -0.7965882  
   0.306984700     0.1936512   -0.8285324  
   0.308984600     0.0826989   -0.8446404  
   0.310984500    -0.0263020   -0.8452608  
   0.312984400    -0.1323041   -0.8319519  
   0.314984300    -0.2334351   -0.8056965  
   0.316984200    -0.3289734   -0.7675970  
   0.318984100    -0.4187870   -0.7186103  
   0.320984000    -0.5014604   -0.6596540  
   0.322983900    -0.5766021   -0.5916375  
   0.324983800    -0.6436883   -0.5158523  
   0.326983700    -0.7020382   -0.4321315  
   0.328983600    -0.7514806   -0.3407120  
   0.330983500    -0.7904357   -0.2415675  
   0.332983400    -0.8168561   -0.1353479  
   0.334983300    -0.8278054   -0.0230915  
   0.336983200    -0.8212482    0.0922476  
   0.338983100    -0.7969115    0.2067676  
   0.340983000    -0.7548826    0.3169947  
   0.342982900    -0.6962650    0.4208029  
   0.344982800    -0.6224695    0.5153965  
   0.346982700    -0.5342107    0.5999165  
   0.348982600    -0.4329959    0.6697592  
   0.350982500    -0.3221310    0.7254313  
   0.352982400    -0.2026733    0.7644109  
   0.354982300    -0.0718195    0.7854216  
   0.356982200     0.0752663    0.7833939  
   0.358982100     0.2206788    0.7548194  
   0.360982000     0.3589357    0.6999245  
   0.362981900     0.4861304    0.6206446  
   0.364981800     0.5974640    0.5186449  
   0.366981700     0.6886073    0.3968872  
   0.368981600     0.7557213    0.2592170  
   0.370981500     0.7962790    0.1108525  
   0.372981400     0.8081613   -0.0428614  
   0.374981300     0.7907911   -0.1968389  
   0.376981200     0.8091151   -0.0883811  
   0.378981100     0.7820237   -0.2401218  
   0.380981000     0.7272692   -0.3830377  
   0.382980900     0.6553103   -0.5018475  
   0.384980800     0.5690550   -0.6011651  
   0.386980700     0.4692010   -0.6844769  
   0.388980600     0.3581890   -0.7496416  
   0.390980500     0.2409221   -0.7963184  
   0.392980400     0.1199039   -0.8233014  
   0.394980300    -0.0015855   -0.8317470  
   0.396980200    -0.1215913   -0.8220845  
   0.398980100    -0.2366833   -0.7952697  
   0.400980000    -0.3460924   -0.7523965  
   0.402979900    -0.4472555   -0.6945347  
   0.404979800    -0.5378191   -0.6241027  
   0.406979700    -0.6171622   -0.5421084  
   0.408979600    -0.6837897   -0.4505243  
   0.410979500    -0.7370879   -0.3502047  
   0.412979400    -0.7760552   -0.2431176  
   0.414979300    -0.7984336   -0.1311964  
   0.416979200    -0.8066504   -0.0169601  
   0.418979100    -0.7986134    0.0970638  
   0.420979000    -0.7744734    0.2093701  
   0.422978900    -0.7343904    0.3188342  
   0.424978800    -0.6784143    0.4218871  
   0.426978700    -0.6077548    0.5170813  
   0.428978600    -0.5231873    0.6018856  
   0.430978500    -0.4262598    0.6738266  
   0.432978400    -0.3191300    0.7309295  
   0.434978300    -0.2038501    0.7735355  
   0.436978200    -0.0816098    0.7971451  
   0.438978100     0.0440928    0.8021303  
   0.440978000     0.1706046    0.7875583  
   0.442977900     0.2946470    0.7529259  
   0.444977800     0.4126570    0.6990244  
   0.446977700     0.5214143    0.6268457  
   0.448977600     0.6179203    0.5374036  
   0.450977500     0.6990434    0.4332269  
   0.452977400     0.7628474    0.3166566  
   0.454977300     0.8069988    0.1904741  
   0.456977200     0.8301502    0.0586269  
   0.458977100     0.8313400   -0.0752689  
   0.460977000     0.8107589   -0.2066524  
   0.462976900     0.7699379   -0.3322596  
   0.464976800     0.7097895   -0.4482004  
   0.466976700     0.6329938   -0.5530370  
   0.468976600     0.5412834   -0.6425902  
   0.470976500     0.4380777   -0.7163184  
   0.472976400     0.3260434   -0.7725779  
   0.474976300     0.2083020   -0.8104358  
   0.476976200     0.0877401   -0.8301548  
   0.478976100    -0.0319167   -0.8315395  
   0.480976000    -0.1490685   -0.8157126  
   0.482975900    -0.2607933   -0.7836761  
   0.484975800    -0.3656728   -0.7367480  
   0.486975700    -0.4625236   -0.6757907  
   0.488975600    -0.5492874   -0.6025141  
   0.490975500    -0.6248425   -0.5180380  
   0.492975400    -0.6875142   -0.4241474  
   0.494975300    -0.7367795   -0.3222610  
   0.496975200    -0.7715109   -0.2139704  
   0.498975100    -0.7902315   -0.1023752  
   0.500975000    -0.7932721    0.0118734  
   0.502974900    -0.7797698    0.1260856  
   0.504974800    -0.7493443    0.2378974  
   0.506974700    -0.7022746    0.3457056  
   0.508974600    -0.6381913    0.4464774  
   0.510974500    -0.5586179    0.5368561  
   0.512974400    -0.4651060    0.6138784  
   0.514974300    -0.3597885    0.6742386  
   0.516974200    -0.2464420    0.7177147  
   0.518974100    -0.1280169    0.7420280  
   0.520974000    -0.0077732    0.7467326  
   0.522973900     0.1107330    0.7325266  
   0.524973800     0.2240594    0.7001160  
   0.526973700     0.3297710    0.6511736  
   0.528973600     0.4256657    0.5879040  
   0.530973500     0.5107986    0.5119128  
   0.532973400     0.5832080    0.4254200  
   0.534973300     0.6422074    0.3302663  
   0.536973200     0.6872220    0.2278133  
   0.538973100     0.7169678    0.1203842  
   0.540973000     0.7316970    0.0103743  
   0.542972900     0.7303948   -0.1015436  
   0.544972800     0.7126933   -0.2125173  
   0.546972700     0.6785040   -0.3205663  
   0.548972600     0.6282983   -0.4231535  
   0.550972500     0.5632030   -0.5177396  
   0.552972400     0.4835758   -0.6018558  
   0.554972300     0.3916166   -0.6731853  
   0.556972200     0.2895799   -0.7298214  
   0.558972100     0.1798672   -0.7703786  
   0.560972000     0.0656157   -0.7936454  
   0.562971900    -0.0504928   -0.7991948  
   0.564971800    -0.1658219   -0.7868632  
   0.566971700    -0.2771393   -0.7579359  
   0.568971600    -0.3828872   -0.7130380  
   0.570971500    -0.4804264   -0.6531093  
   0.572971400    -0.5679843   -0.5796462  
   0.574971300    -0.6441281   -0.4938587  
   0.576971200    -0.7069231   -0.3980237  
   0.578971100    -0.7554954   -0.2939016  
   0.580971000    -0.7882234   -0.1841592  
   0.582970900    -0.8047359   -0.0709536  
   0.584970800    -0.8046426    0.0432465  
   0.586970700    -0.7883854    0.1561855  
   0.588970600    -0.7562338    0.2657563  
   0.590970500    -0.7083690    0.3698105  
   0.592970400    -0.6458133    0.4666049  
   0.594970300    -0.5696241    0.5539479  
   0.596970200    -0.4810405    0.6296701  
   0.598970100    -0.3816871    0.6921183  
   0.600970000    -0.2731355    0.7396975  
   0.602969900    -0.1573870    0.7710749  
   0.604969800    -0.0371112    0.7850134  
   0.606969700     0.0851009    0.7802842  
   0.608969600     0.2067555    0.7562765  
   0.610969500     0.3241356    0.7133131  
   0.612969400     0.4343411    0.6520904  
   0.614969300     0.5340847    0.5735207  
   0.616969200     0.6201031    0.4799593  
   0.618969100     0.6902174    0.3734640  
   0.620969000     0.7425434    0.2572844  
   0.622968900     0.7755353    0.1337254  
   0.624968800     0.7880957    0.0058951  
   0.626968700     0.7795832   -0.1226963  
   0.628968600     0.7505127   -0.2480307  
   0.630968500     0.7016636   -0.3668855  
   0.632968400     0.6341903   -0.4756568  
   0.634968300     0.5504379   -0.5714214  
   0.636968200     0.4528799   -0.6524221  
   0.638968100     0.3448858   -0.7156771  
   0.640968000     0.2288772   -0.7610942  
   0.642967900     0.1085236   -0.7871944  
   0.644967800    -0.0127956   -0.7939758  
   0.646967700    -0.1327415   -0.7821905  
   0.648967600    -0.2477179   -0.7525236  
   0.650967500    -0.3554429   -0.7067862  
   0.652967400    -0.4540035   -0.6458188  
   0.654967300    -0.5418098   -0.5721718  
   0.656967200    -0.6171029   -0.4869893  
   0.658967100    -0.6788868   -0.3928884  
   0.660967000    -0.7263283   -0.2909020  
   0.662966900    -0.7586971   -0.1832311  
   0.664966800    -0.7751582   -0.0718670  
   0.666966700    -0.7754518    0.0404958  
   0.668966600    -0.7596254    0.1520411  
   0.670966500    -0.7279965    0.2606638  
   0.672966400    -0.6813661    0.3638755  
   0.674966300    -0.6197086    0.4591426  
   0.676966200    -0.5443034    0.5446131  
   0.678966100    -0.4569708    0.6185908  
   0.680966000    -0.3590887    0.6791958  
   0.682965900    -0.2523565    0.7251152  
   0.684965800    -0.1391462    0.7551816  
   0.686965700    -0.0214210    0.7673964  
   0.688965600     0.0978843    0.7619243  
   0.690965500     0.2157166    0.7367312  
   0.692965400     0.3292009    0.6943001  
   0.694965300     0.4354531    0.6343935  
   0.696965200     0.5317097    0.5576583  
   0.698965100     0.6151227    0.4660059  
   0.700965000     0.6828665    0.3616917  
   0.702964900     0.7335564    0.2473658  
   0.704964800     0.7649468    0.1260945  
   0.706964700     0.7763563    0.0011559  
   0.708964600     0.7675931   -0.1242214  
   0.710964500     0.7391596   -0.2461568  
   0.712964400     0.6912090   -0.3608883  
   0.714964300     0.6256593   -0.4657163  
   0.716964200     0.5453333   -0.5574287  
   0.718964100     0.4532060   -0.6338725  
   0.720964000     0.3518501   -0.6944841  
   0.722963900     0.2439857   -0.7382184  
   0.724963800     0.1326995   -0.7653356  
   0.726963700     0.0195980   -0.7754279  
   0.728963600    -0.0923508   -0.7694433  
   0.730963500    -0.2007510   -0.7464936  
   0.732963400    -0.3039996   -0.7102962  
   0.734963300    -0.4006332   -0.6596472  
   0.736963200    -0.5013925   -0.5850064  
   0.738963100    -0.5882195   -0.4947954  
   0.740963000    -0.6596109   -0.3920102  
   0.742962900    -0.7127962   -0.2788366  
   0.744962800    -0.7468423   -0.1579524  
   0.746962700    -0.7602198   -0.0328983  
   0.748962600    -0.7529781    0.0937245  
   0.750962500    -0.7724091   -0.0222336  
   0.752962400    -0.7624921    0.1055197  
   0.754962300    -0.7311734    0.2301631  
   0.756962200    -0.6790128    0.3483134  
   0.758962100    -0.6067283    0.4564423  
   0.760962000    -0.5165944    0.5505548  
   0.762961900    -0.4165760    0.6250289  
   0.764961800    -0.3163941    0.6775380  
   0.766961700    -0.2094430    0.7137879  
   0.768961600    -0.0973360    0.7336020  
   0.770961500     0.0158090    0.7365862  
   0.772961400     0.1283961    0.7221753  
   0.774961300     0.2371774    0.6912082  
   0.776961200     0.3403440    0.6437607  
   0.778961100     0.4354663    0.5816780  
   0.780961000     0.5206775    0.5051873  
   0.782960900     0.5936741    0.4161336  
   0.784960800     0.6529659    0.3166707  
   0.786960700     0.6962921    0.2088119  
   0.788960600     0.7227748    0.0950914  
   0.790960500     0.7314095   -0.0215554  
   0.792960400     0.7220407   -0.1381920  
   0.794960300     0.6946063   -0.2520137  
   0.796960200     0.6496747   -0.3604477  
   0.798960100     0.5887939   -0.4604666  
   0.800960000     0.5131503   -0.5496827  
   0.802959900     0.4247335   -0.6259317  
   0.804959800     0.3257031   -0.6877681  
   0.806959700     0.2188216   -0.7336124  
   0.808959600     0.1060410   -0.7624980  
   0.810959500    -0.0091583   -0.7736424  
   0.812959400    -0.1246807   -0.7670447  
   0.814959300    -0.2373281   -0.7430757  
   0.816959200    -0.3448112   -0.7027091  
   0.818959100    -0.4444781   -0.6467116  
   0.820959000    -0.5343400   -0.5768327  
   0.822958900    -0.6127667   -0.4945197  
   0.824958800    -0.6775322   -0.4017701  
   0.826958700    -0.7278280   -0.3010484  
   0.828958600    -0.7625186   -0.1940425  
   0.830958500    -0.7813295   -0.0838164  
   0.832958400    -0.7837774    0.0277466  
   0.834958300    -0.7703451    0.1380256  
   0.836958200    -0.7410870    0.2451522  
   0.838958100    -0.6966481    0.3464632  
   0.840958000    -0.6381760    0.4407617  
   0.842957900    -0.5664825    0.5262306  
   0.844957800    -0.4827606    0.6004269  
   0.846957700    -0.3888536    0.6621134  
   0.848957600    -0.2864511    0.7098830  
   0.850957500    -0.1775663    0.7422115  
   0.852957400    -0.0643296    0.7581876  
   0.854957300     0.0509193    0.7572778  
   0.856957200     0.1655853    0.7386479  
   0.858957100     0.2764468    0.7030545  
   0.860957000     0.3811538    0.6507804  
   0.862956900     0.4764317    0.5826178  
   0.864956800     0.5608485    0.5007537  
   0.866956700     0.6317228    0.4065394  
   0.868956600     0.6869532    0.3015022  
   0.870956500     0.7259775    0.1887564  
   0.872956400     0.7473018    0.0701709  
   0.874956300     0.7490369   -0.0510122  
   0.876956200     0.7316829   -0.1718286  
   0.878956100     0.6948600   -0.2885264  
   0.880956000     0.6395273   -0.3977254  
   0.882955900     0.5673413   -0.4970267  
   0.884955800     0.4802833   -0.5829191  
   0.886955700     0.3804410   -0.6533136  
   0.888955600     0.2712619   -0.7066173  
   0.890955500     0.1556733   -0.7411095  
   0.892955400     0.0367719   -0.7569023  
   0.894955300    -0.0818919   -0.7534314  
