! MS46122B
! 2250307/22442219
! 7/23/2025 8:00:24 AM
! C:\USERS\SPARKY\DOCUMENTS\VNA_DATA\JULY23_2025\3K\ECAL_LOAD_B_REPEAT1.S1P
! CHANNEL.1
! TR.MEASUREMENT
! RAW.DATA
# GHZ S RI R 50.0
! FREQ.GHZ         S11RE         S11IM         
!; PortSelection: Port_1
   0.001000000     1.0455100   -0.0723691  
   0.002999900     0.9524195   -0.1944679  
   0.004999800     0.8772041   -0.2786759  
   0.006999700     0.7924119   -0.3676059  
   0.008999600     0.7017828   -0.4068154  
   0.010999500     0.6250510   -0.4333816  
   0.012999400     0.5579314   -0.4489560  
   0.014999300     0.5000969   -0.4565999  
   0.016999200     0.4501355   -0.4582428  
   0.018999100     0.4076120   -0.4549620  
   0.020999000     0.3722212   -0.4488554  
   0.022998900     0.3418915   -0.4412954  
   0.024998800     0.3110869   -0.4111503  
   0.026998700     0.2934250   -0.4228326  
   0.028998600     0.2735886   -0.4129150  
   0.030998500     0.2557800   -0.4029552  
   0.032998400     0.2361403   -0.3756962  
   0.034998300     0.2238534   -0.3833721  
   0.036998200     0.2099906   -0.3741018  
   0.038998100     0.1969754   -0.3652216  
   0.040998000     0.1847099   -0.3566666  
   0.042997900     0.1730905   -0.3484702  
   0.044997800     0.1607900   -0.3265694  
   0.046997700     0.1506803   -0.3334233  
   0.048997600     0.1406228   -0.3262464  
   0.050997500     0.1311192   -0.3193011  
   0.052997400     0.1226996   -0.3122721  
   0.054997300     0.1136430   -0.3061745  
   0.056997200     0.1055862   -0.3001741  
   0.058997100     0.0980807   -0.2943643  
   0.060997000     0.0909415   -0.2888797  
   0.062996900     0.0841690   -0.2836385  
   0.064996800     0.0780014   -0.2785194  
   0.066996700     0.0721561   -0.2736147  
   0.068996600     0.0666448   -0.2688175  
   0.070996500     0.0614869   -0.2643532  
   0.072996400     0.0565634   -0.2597020  
   0.074996300     0.0518579   -0.2551160  
   0.076996200     0.0474280   -0.2505256  
   0.078996100     0.0431313   -0.2459663  
   0.080996000     0.0389611   -0.2414134  
   0.082995900     0.0348923   -0.2368859  
   0.084995800     0.0311350   -0.2321073  
   0.086995700     0.0272471   -0.2273866  
   0.088995600     0.0238348   -0.2227804  
   0.090995500     0.0206011   -0.2181935  
   0.092995400     0.0175570   -0.2138077  
   0.094995300     0.0146681   -0.2091925  
   0.096995200     0.0120510   -0.2046186  
   0.098995100     0.0095659   -0.2001153  
   0.100995000     0.0061558   -0.1964322  
   0.102994900     0.0040692   -0.1919960  
   0.104994800     0.0022080   -0.1876465  
   0.106994700     0.0006979   -0.1832857  
   0.108994600    -0.0005620   -0.1791836  
   0.110994500    -0.0016023   -0.1752366  
   0.112994400    -0.0024595   -0.1714415  
   0.114994300    -0.0030809   -0.1678390  
   0.116994200    -0.0035677   -0.1643865  
   0.118994100    -0.0038680   -0.1611549  
   0.120994000    -0.0038175   -0.1582450  
   0.122993900    -0.0039350   -0.1553499  
   0.124993800    -0.0040015   -0.1526937  
   0.126993700    -0.0039588   -0.1503261  
   0.128993600    -0.0039186   -0.1481427  
   0.130993500    -0.0038545   -0.1462126  
   0.132993400    -0.0038603   -0.1444563  
   0.134993300    -0.0039257   -0.1429457  
   0.136993200    -0.0041091   -0.1415867  
   0.138993100    -0.0043933   -0.1403933  
   0.140993000    -0.0048258   -0.1392819  
   0.142992900    -0.0054811   -0.1382620  
   0.144992800    -0.0062284   -0.1374408  
   0.146992700    -0.0071996   -0.1365456  
   0.148992600    -0.0083057   -0.1356317  
   0.150992500    -0.0095581   -0.1345720  
   0.152992400    -0.0110273   -0.1335113  
   0.154992300    -0.0126067   -0.1323749  
   0.156992200    -0.0143469   -0.1310554  
   0.158992100    -0.0161676   -0.1295677  
   0.160992000    -0.0180538   -0.1278769  
   0.162991900    -0.0199620   -0.1259621  
   0.164991800    -0.0218919   -0.1238181  
   0.166991700    -0.0237525   -0.1214160  
   0.168991600    -0.0255365   -0.1187633  
   0.170991500    -0.0272190   -0.1158390  
   0.172991400    -0.0286714   -0.1127133  
   0.174991300    -0.0298715   -0.1093568  
   0.176991200    -0.0308433   -0.1058233  
   0.178991100    -0.0315189   -0.1021070  
   0.180991000    -0.0318315   -0.0983013  
   0.182990900    -0.0317859   -0.0943572  
   0.184990800    -0.0313251   -0.0904096  
   0.186990700    -0.0304690   -0.0864125  
   0.188990600    -0.0273956   -0.0831699  
   0.190990500    -0.0272149   -0.0788391  
   0.192990400    -0.0253116   -0.0751752  
   0.194990300    -0.0227593   -0.0718686  
   0.196990200    -0.0198621   -0.0688977  
   0.198990100    -0.0166073   -0.0662777  
   0.200990000    -0.0130804   -0.0640741  
   0.202989900    -0.0092928   -0.0623164  
   0.204989800    -0.0053290   -0.0610784  
   0.206989700    -0.0012463   -0.0603647  
   0.208989600     0.0029053   -0.0601975  
   0.210989500     0.0070689   -0.0606002  
   0.212989400     0.0111391   -0.0615504  
   0.214989300     0.0150634   -0.0630743  
   0.216989200     0.0187503   -0.0651010  
   0.218989100     0.0221167   -0.0676340  
   0.220989000     0.0251196   -0.0706114  
   0.222988900     0.0276611   -0.0740395  
   0.224988800     0.0297035   -0.0778157  
   0.226988700     0.0312372   -0.0818712  
   0.228988600     0.0321853   -0.0861677  
   0.230988500     0.0326107   -0.0905605  
   0.232988400     0.0323826   -0.0949642  
   0.234988300     0.0315583   -0.0994298  
   0.236988200     0.0300961   -0.1037807  
   0.238988100     0.0281151   -0.1079739  
   0.240988000     0.0255744   -0.1118924  
   0.242987900     0.0225982   -0.1155249  
   0.244987800     0.0191633   -0.1187611  
   0.246987700     0.0152706   -0.1215401  
   0.248987600     0.0110288   -0.1238611  
   0.250987500     0.0065152   -0.1257146  
   0.252987400     0.0018861   -0.1269785  
   0.254987300    -0.0027718   -0.1277336  
   0.256987200    -0.0075088   -0.1280464  
   0.258987100    -0.0121705   -0.1276946  
   0.260987000    -0.0167337   -0.1267995  
   0.262986900    -0.0210920   -0.1253307  
   0.264986800    -0.0251696   -0.1234293  
   0.266986700    -0.0289768   -0.1211124  
   0.268986600    -0.0323326   -0.1184421  
   0.270986500    -0.0352224   -0.1155502  
   0.272986400    -0.0376236   -0.1124995  
   0.274986300    -0.0396125   -0.1093512  
   0.276986200    -0.0411191   -0.1061596  
   0.278986100    -0.0422081   -0.1029506  
   0.280986000    -0.0427729   -0.0998146  
   0.282985900    -0.0429242   -0.0968382  
   0.284985800    -0.0426799   -0.0941441  
   0.286985700    -0.0420898   -0.0917839  
   0.288985600    -0.0411551   -0.0898337  
   0.290985500    -0.0399677   -0.0884102  
   0.292985400    -0.0386910   -0.0874782  
   0.294985300    -0.0373841   -0.0870361  
   0.296985200    -0.0361964   -0.0871299  
   0.298985100    -0.0352677   -0.0875940  
   0.300985000    -0.0346334   -0.0885837  
   0.302984900    -0.0344249   -0.0900711  
   0.304984800    -0.0347121   -0.0919640  
   0.306984700    -0.0355743   -0.0941740  
   0.308984600    -0.0371154   -0.0967075  
   0.310984500    -0.0394306   -0.0992419  
   0.312984400    -0.0426174   -0.1016849  
   0.314984300    -0.0467772   -0.1037946  
   0.316984200    -0.0519560   -0.1053646  
   0.318984100    -0.0581453   -0.1059074  
   0.320984000    -0.0652145   -0.1050479  
   0.322983900    -0.0726973   -0.1025205  
   0.324983800    -0.0801071   -0.0979767  
   0.326983700    -0.0866838   -0.0914735  
   0.328983600    -0.0916955   -0.0832943  
   0.330983500    -0.0944273   -0.0741818  
   0.332983400    -0.0946640   -0.0651590  
   0.334983300    -0.0927888   -0.0570878  
   0.336983200    -0.0895205   -0.0506505  
   0.338983100    -0.0857673   -0.0458608  
   0.340983000    -0.0822034   -0.0425422  
   0.342982900    -0.0791687   -0.0402102  
   0.344982800    -0.0768583   -0.0383271  
   0.346982700    -0.0751914   -0.0363962  
   0.348982600    -0.0738312   -0.0344113  
   0.350982500    -0.0729250   -0.0321182  
   0.352982400    -0.0721256   -0.0296347  
   0.354982300    -0.0715260   -0.0264243  
   0.356982200    -0.0708150   -0.0218171  
   0.358982100    -0.0695753   -0.0172035  
   0.360982000    -0.0677724   -0.0126940  
   0.362981900    -0.0654298   -0.0083832  
   0.364981800    -0.0624769   -0.0043627  
   0.366981700    -0.0589620   -0.0007573  
   0.368981600    -0.0549746    0.0023895  
   0.370981500    -0.0505926    0.0049309  
   0.372981400    -0.0460607    0.0067285  
   0.374981300    -0.0413754    0.0078510  
   0.376981200    -0.0399392   -0.0025800  
   0.378981100    -0.0354778   -0.0014136  
   0.380981000    -0.0310574   -0.0010127  
   0.382980900    -0.0268191   -0.0017178  
   0.384980800    -0.0228413   -0.0031629  
   0.386980700    -0.0192307   -0.0051184  
   0.388980600    -0.0160080   -0.0075946  
   0.390980500    -0.0132127   -0.0105077  
   0.392980400    -0.0108964   -0.0138295  
   0.394980300    -0.0091418   -0.0174157  
   0.396980200    -0.0079889   -0.0211980  
   0.398980100    -0.0074571   -0.0250148  
   0.400980000    -0.0075520   -0.0288147  
   0.402979900    -0.0082784   -0.0324844  
   0.404979800    -0.0095445   -0.0359471  
   0.406979700    -0.0113712   -0.0390850  
   0.408979600    -0.0136574   -0.0418218  
   0.410979500    -0.0164296   -0.0440603  
   0.412979400    -0.0196330   -0.0457833  
   0.414979300    -0.0231239   -0.0468504  
   0.416979200    -0.0268030   -0.0472326  
   0.418979100    -0.0304855   -0.0469968  
   0.420979000    -0.0341469   -0.0461011  
   0.422978900    -0.0376857   -0.0445071  
   0.424978800    -0.0410257   -0.0422711  
   0.426978700    -0.0440647   -0.0394750  
   0.428978600    -0.0465926   -0.0360466  
   0.430978500    -0.0485605   -0.0321680  
   0.432978400    -0.0498608   -0.0279139  
   0.434978300    -0.0505108   -0.0235217  
   0.436978200    -0.0504405   -0.0189056  
   0.438978100    -0.0496394   -0.0142235  
   0.440978000    -0.0481063   -0.0095984  
   0.442977900    -0.0458010   -0.0051256  
   0.444977800    -0.0427805   -0.0009425  
   0.446977700    -0.0390599    0.0028745  
   0.448977600    -0.0347176    0.0061758  
   0.450977500    -0.0298253    0.0088668  
   0.452977400    -0.0244572    0.0109179  
   0.454977300    -0.0187572    0.0122089  
   0.456977200    -0.0128183    0.0126706  
   0.458977100    -0.0067674    0.0122351  
   0.460977000    -0.0006478    0.0109227  
   0.462976900     0.0052821    0.0086807  
   0.464976800     0.0109230    0.0055411  
   0.466976700     0.0161392    0.0015337  
   0.468976600     0.0208377   -0.0032493  
   0.470976500     0.0248282   -0.0087623  
   0.472976400     0.0280622   -0.0149022  
   0.474976300     0.0304384   -0.0215323  
   0.476976200     0.0318982   -0.0285341  
   0.478976100     0.0324689   -0.0359425  
   0.480976000     0.0320199   -0.0431902  
   0.482975900     0.0306059   -0.0503810  
   0.484975800     0.0281859   -0.0573649  
   0.486975700     0.0247327   -0.0640121  
   0.488975600     0.0203121   -0.0703388  
   0.490975500     0.0150266   -0.0759700  
   0.492975400     0.0090381   -0.0807877  
   0.494975300     0.0023277   -0.0847567  
   0.496975200    -0.0050142   -0.0878022  
   0.498975100    -0.0126332   -0.0897519  
   0.500975000    -0.0205838   -0.0906570  
   0.502974900    -0.0285749   -0.0904141  
   0.504974800    -0.0365803   -0.0890610  
   0.506974700    -0.0443657   -0.0865348  
   0.508974600    -0.0520721   -0.0828606  
   0.510974500    -0.0593201   -0.0781974  
   0.512974400    -0.0656075   -0.0725667  
   0.514974300    -0.0709431   -0.0660113  
   0.516974200    -0.0752444   -0.0588466  
   0.518974100    -0.0783331   -0.0510818  
   0.520974000    -0.0802662   -0.0427563  
   0.522973900    -0.0809346   -0.0345364  
   0.524973800    -0.0803835   -0.0263934  
   0.526973700    -0.0786474   -0.0184720  
   0.528973600    -0.0757542   -0.0110073  
   0.530973500    -0.0718329   -0.0040974  
   0.532973400    -0.0669479    0.0020567  
   0.534973300    -0.0612720    0.0073467  
   0.536973200    -0.0549291    0.0116691  
   0.538973100    -0.0480064    0.0149952  
   0.540973000    -0.0407967    0.0172445  
   0.542972900    -0.0334180    0.0183755  
   0.544972800    -0.0259785    0.0184252  
   0.546972700    -0.0187313    0.0173530  
   0.548972600    -0.0117359    0.0151533  
   0.550972500    -0.0051927    0.0119337  
   0.552972400     0.0007568    0.0077122  
   0.554972300     0.0059920    0.0025585  
   0.556972200     0.0103525   -0.0033706  
   0.558972100     0.0139098   -0.0099363  
   0.560972000     0.0164255   -0.0169855  
   0.562971900     0.0177859   -0.0244074  
   0.564971800     0.0180516   -0.0320026  
   0.566971700     0.0170788   -0.0394774  
   0.568971600     0.0149575   -0.0467806  
   0.570971500     0.0116856   -0.0537490  
   0.572971400     0.0072538   -0.0602471  
   0.574971300     0.0017049   -0.0661707  
   0.576971200    -0.0047330   -0.0713271  
   0.578971100    -0.0119408   -0.0756076  
   0.580971000    -0.0197958   -0.0788442  
   0.582970900    -0.0281017   -0.0808970  
   0.584970800    -0.0366970   -0.0816397  
   0.586970700    -0.0455125   -0.0810035  
   0.588970600    -0.0542759   -0.0790842  
   0.590970500    -0.0627381   -0.0759204  
   0.592970400    -0.0707558   -0.0716675  
   0.594970300    -0.0782663   -0.0662854  
   0.596970200    -0.0849988   -0.0598004  
   0.598970100    -0.0908241   -0.0523861  
   0.600970000    -0.0956596   -0.0441223  
   0.602969900    -0.0993578   -0.0351930  
   0.604969800    -0.1018600   -0.0257264  
   0.606969700    -0.1030859   -0.0159067  
   0.608969600    -0.1029710   -0.0059175  
   0.610969500    -0.1014284    0.0040833  
   0.612969400    -0.0985339    0.0137646  
   0.614969300    -0.0943402    0.0230203  
   0.616969200    -0.0889516    0.0316085  
   0.618969100    -0.0824440    0.0394623  
   0.620969000    -0.0749644    0.0463519  
   0.622968900    -0.0666283    0.0522153  
   0.624968800    -0.0575905    0.0569027  
   0.626968700    -0.0479487    0.0602591  
   0.628968600    -0.0379793    0.0623994  
   0.630968500    -0.0277064    0.0632502  
   0.632968400    -0.0176046    0.0624360  
   0.634968300    -0.0076465    0.0603948  
   0.636968200     0.0017738    0.0568307  
   0.638968100     0.0108454    0.0520480  
   0.640968000     0.0190304    0.0460578  
   0.642967900     0.0261644    0.0391197  
   0.644967800     0.0321695    0.0313038  
   0.646967700     0.0369880    0.0227975  
   0.648967600     0.0404814    0.0137965  
   0.650967500     0.0426101    0.0045431  
   0.652967400     0.0433709   -0.0047882  
   0.654967300     0.0428865   -0.0142055  
   0.656967200     0.0410329   -0.0232184  
   0.658967100     0.0377626   -0.0319325  
   0.660967000     0.0333628   -0.0398563  
   0.662966900     0.0279226   -0.0470527  
   0.664966800     0.0214792   -0.0533825  
   0.666966700     0.0142640   -0.0586940  
   0.668966600     0.0062050   -0.0628547  
   0.670966500    -0.0022582   -0.0657496  
   0.672966400    -0.0106527   -0.0674271  
   0.674966300    -0.0192235   -0.0676344  
   0.676966200    -0.0276214   -0.0665119  
   0.678966100    -0.0356712   -0.0641054  
   0.680966000    -0.0432235   -0.0605082  
   0.682965900    -0.0500402   -0.0558731  
   0.684965800    -0.0560591   -0.0502379  
   0.686965700    -0.0611228   -0.0437569  
   0.688965600    -0.0650885   -0.0366881  
   0.690965500    -0.0679389   -0.0292097  
   0.692965400    -0.0695150   -0.0214107  
   0.694965300    -0.0698993   -0.0134809  
   0.696965200    -0.0690447   -0.0056683  
   0.698965100    -0.0669775    0.0019214  
   0.700965000    -0.0637093    0.0090242  
   0.702964900    -0.0594325    0.0156459  
   0.704964800    -0.0542021    0.0214578  
   0.706964700    -0.0480114    0.0263687  
   0.708964600    -0.0410442    0.0301361  
   0.710964500    -0.0336893    0.0329481  
   0.712964400    -0.0260239    0.0343767  
   0.714964300    -0.0181598    0.0345518  
   0.716964200    -0.0104562    0.0335455  
   0.718964100    -0.0030573    0.0313494  
   0.720964000     0.0038442    0.0280526  
   0.722963900     0.0101905    0.0235969  
   0.724963800     0.0158291    0.0183983  
   0.726963700     0.0205893    0.0124736  
   0.728963600     0.0242112    0.0058273  
   0.730963500     0.0267004   -0.0014932  
   0.732963400     0.0281314   -0.0089431  
   0.734963300     0.0284955   -0.0166196  
   0.736963200     0.0281454   -0.0254333  
   0.738963100     0.0262986   -0.0338945  
   0.740963000     0.0229293   -0.0420585  
   0.742962900     0.0182445   -0.0492794  
   0.744962800     0.0123845   -0.0555303  
   0.746962700     0.0056888   -0.0605464  
   0.748962600    -0.0017464   -0.0643632  
   0.750962500    -0.0037779   -0.0630391  
   0.752962400    -0.0113609   -0.0665360  
   0.754962300    -0.0195000   -0.0685882  
   0.756962200    -0.0279404   -0.0691484  
   0.758962100    -0.0364250   -0.0681917  
   0.760962000    -0.0447397   -0.0657238  
   0.762961900    -0.0524083   -0.0621379  
   0.764961800    -0.0592960   -0.0579522  
   0.766961700    -0.0655525   -0.0528478  
   0.768961600    -0.0710368   -0.0468835  
   0.770961500    -0.0756552   -0.0401906  
   0.772961400    -0.0793566   -0.0329320  
   0.774961300    -0.0821345   -0.0251340  
   0.776961200    -0.0837740   -0.0168897  
   0.778961100    -0.0840983   -0.0087656  
   0.780961000    -0.0832578   -0.0007009  
   0.782960900    -0.0811685    0.0071810  
   0.784960800    -0.0778465    0.0147020  
   0.786960700    -0.0733896    0.0216381  
   0.788960600    -0.0679417    0.0279481  
   0.790960500    -0.0616045    0.0334057  
   0.792960400    -0.0545945    0.0377222  
   0.794960300    -0.0469919    0.0409713  
   0.796960200    -0.0391605    0.0429993  
   0.798960100    -0.0310471    0.0437762  
   0.800960000    -0.0230309    0.0433469  
   0.802959900    -0.0152117    0.0416767  
   0.804959800    -0.0078744    0.0388469  
   0.806959700    -0.0012354    0.0349171  
   0.808959600     0.0047851    0.0299346  
   0.810959500     0.0098969    0.0240862  
   0.812959400     0.0141024    0.0174778  
   0.814959300     0.0171300    0.0102298  
   0.816959200     0.0190900    0.0025240  
   0.818959100     0.0198140   -0.0054559  
   0.820959000     0.0191966   -0.0133730  
   0.822958900     0.0173255   -0.0211701  
   0.824958800     0.0142174   -0.0288059  
   0.826958700     0.0099474   -0.0356763  
   0.828958600     0.0045839   -0.0418752  
   0.830958500    -0.0017355   -0.0471784  
   0.832958400    -0.0089009   -0.0514532  
   0.834958300    -0.0167277   -0.0546348  
   0.836958200    -0.0250443   -0.0565714  
   0.838958100    -0.0336316   -0.0572495  
   0.840958000    -0.0423294   -0.0566479  
   0.842957900    -0.0509278   -0.0546585  
   0.844957800    -0.0593087   -0.0512763  
   0.846957700    -0.0670168   -0.0467536  
   0.848957600    -0.0740327   -0.0410559  
   0.850957500    -0.0802727   -0.0343375  
   0.852957400    -0.0855365   -0.0265129  
   0.854957300    -0.0895284   -0.0181101  
   0.856957200    -0.0922864   -0.0091634  
   0.858957100    -0.0937595    0.0001225  
   0.860957000    -0.0938137    0.0095658  
   0.862956900    -0.0926753    0.0188642  
   0.864956800    -0.0904092    0.0278254  
   0.866956700    -0.0869321    0.0363045  
   0.868956600    -0.0822889    0.0440743  
   0.870956500    -0.0765382    0.0513007  
   0.872956400    -0.0698532    0.0575819  
   0.874956300    -0.0623432    0.0628168  
   0.876956200    -0.0540471    0.0669979  
   0.878956100    -0.0452319    0.0699295  
   0.880956000    -0.0361005    0.0715665  
   0.882955900    -0.0268923    0.0718432  
   0.884955800    -0.0176860    0.0708691  
   0.886955700    -0.0085670    0.0685575  
   0.888955600    -0.0002465    0.0650241  
   0.890955500     0.0074124    0.0603179  
   0.892955400     0.0141828    0.0546027  
   0.894955300     0.0199191    0.0479869  
