! MS46122B
! 2250307/22442219
! 7/25/2025 1:32:19 PM
! C:\USERS\SPARKY\DOCUMENTS\VNA_DATA\JULY25_2025\3K\ECAL_SHORT_D.S1P
! CHANNEL.1
! TR.MEASUREMENT
! RAW.DATA
# GHZ S RI R 50.0
! FREQ.GHZ         S11RE         S11IM         
!; PortSelection: Port_1
   0.001000000     1.0451220   -0.0714980  
   0.002999900     0.9637011   -0.1941101  
   0.004999800     0.9041519   -0.2992058  
   0.006999700     0.8375034   -0.3969173  
   0.008999600     0.7602603   -0.4923964  
   0.010999500     0.6695390   -0.5837145  
   0.012999400     0.5601012   -0.6684780  
   0.014999300     0.4267318   -0.7417713  
   0.016999200     0.2625204   -0.7932730  
   0.018999100     0.0625984   -0.8064809  
   0.020999000    -0.1701716   -0.7534438  
   0.022998900    -0.4131019   -0.5963866  
   0.024998800    -0.5787475   -0.3042891  
   0.026998700    -0.6362808    0.0948092  
   0.028998600    -0.4504087    0.4796693  
   0.030998500    -0.1051131    0.7072073  
   0.032998400     0.2369677    0.7187861  
   0.034998300     0.5537599    0.6352940  
   0.036998200     0.7517342    0.4695597  
   0.038998100     0.8701972    0.2881399  
   0.040998000     0.9290591    0.1134480  
   0.042997900     0.9473025   -0.0459604  
   0.044997800     0.9066201   -0.1650058  
   0.046997700     0.9042169   -0.3126703  
   0.048997600     0.8587757   -0.4220198  
   0.050997500     0.8025803   -0.5168339  
   0.052997400     0.7386345   -0.5988339  
   0.054997300     0.6697723   -0.6688581  
   0.056997200     0.5938796   -0.7308503  
   0.058997100     0.5156216   -0.7819640  
   0.060997000     0.4338486   -0.8240898  
   0.062996900     0.3491334   -0.8578307  
   0.064996800     0.2620178   -0.8824994  
   0.066996700     0.1722747   -0.8981698  
   0.068996600     0.0806083   -0.9050784  
   0.070996500    -0.0123571   -0.9030543  
   0.072996400    -0.1062428   -0.8900613  
   0.074996300    -0.2007497   -0.8661834  
   0.076996200    -0.2946272   -0.8308394  
   0.078996100    -0.3864705   -0.7834482  
   0.080996000    -0.4751445   -0.7231550  
   0.082995900    -0.5587760   -0.6491900  
   0.084995800    -0.6346763   -0.5603862  
   0.086995700    -0.7013766   -0.4585526  
   0.088995600    -0.7556424   -0.3424477  
   0.090995500    -0.7933609   -0.2136672  
   0.092995400    -0.8121491   -0.0733866  
   0.094995300    -0.8059562    0.0749978  
   0.096995200    -0.7724334    0.2276907  
   0.098995100    -0.7081618    0.3778979  
   0.100995000    -0.6114904    0.5200825  
   0.102994900    -0.4848169    0.6424844  
   0.104994800    -0.3311906    0.7384036  
   0.106994700    -0.1571308    0.7999284  
   0.108994600     0.0273485    0.8234497  
   0.110994500     0.2125722    0.8066239  
   0.112994400     0.3880858    0.7503137  
   0.114994300     0.5446657    0.6602125  
   0.116994200     0.6754729    0.5426612  
   0.118994100     0.7763098    0.4055060  
   0.120994000     0.8479204    0.2575629  
   0.122993900     0.8868224    0.1048584  
   0.124993800     0.8972730   -0.0456437  
   0.126993700     0.8823223   -0.1895779  
   0.128993600     0.8442640   -0.3220960  
   0.130993500     0.7894106   -0.4426521  
   0.132993400     0.7198309   -0.5495771  
   0.134993300     0.6386819   -0.6413431  
   0.136993200     0.5481691   -0.7184757  
   0.138993100     0.4510871   -0.7805167  
   0.140993000     0.3493574   -0.8279338  
   0.142992900     0.2445927   -0.8612511  
   0.144992800     0.1385342   -0.8816238  
   0.146992700     0.0319765   -0.8877546  
   0.148992600    -0.0731976   -0.8805277  
   0.150992500    -0.1763307   -0.8596045  
   0.152992400    -0.2762299   -0.8275707  
   0.154992300    -0.3711006   -0.7831865  
   0.156992200    -0.4614435   -0.7275315  
   0.158992100    -0.5442996   -0.6605311  
   0.160992000    -0.6195016   -0.5827044  
   0.162991900    -0.6852798   -0.4947008  
   0.164991800    -0.7403221   -0.3969751  
   0.166991700    -0.7830077   -0.2906971  
   0.168991600    -0.8111836   -0.1768706  
   0.170991500    -0.8242941   -0.0571257  
   0.172991400    -0.8202332    0.0664315  
   0.174991300    -0.7973472    0.1914259  
   0.176991200    -0.7550063    0.3154144  
   0.178991100    -0.6921479    0.4347685  
   0.180991000    -0.6098927    0.5462329  
   0.182990900    -0.5072334    0.6447292  
   0.184990800    -0.3862087    0.7267713  
   0.186990700    -0.2498718    0.7885212  
   0.188990600    -0.1267594    0.8222856  
   0.190990500     0.0474528    0.8361695  
   0.192990400     0.2059172    0.8187960  
   0.194990300     0.3564487    0.7738230  
   0.196990200     0.4958004    0.7026564  
   0.198990100     0.6196932    0.6074047  
   0.200990000     0.7236987    0.4920851  
   0.202989900     0.8048992    0.3613453  
   0.204989800     0.8609425    0.2206346  
   0.206989700     0.8919992    0.0758564  
   0.208989600     0.8969820   -0.0686134  
   0.210989500     0.8781370   -0.2097150  
   0.212989400     0.8376862   -0.3422327  
   0.214989300     0.7782894   -0.4639464  
   0.216989200     0.7031534   -0.5718318  
   0.218989100     0.6150818   -0.6643415  
   0.220989000     0.5163118   -0.7418343  
   0.222988900     0.4093975   -0.8030325  
   0.224988800     0.2973746   -0.8475966  
   0.226988700     0.1822717   -0.8758527  
   0.228988600     0.0670504   -0.8878112  
   0.230988500    -0.0472723   -0.8838442  
   0.232988400    -0.1591407   -0.8641793  
   0.234988300    -0.2673833   -0.8311215  
   0.236988200    -0.3698423   -0.7841642  
   0.238988100    -0.4649401   -0.7241868  
   0.240988000    -0.5512622   -0.6523584  
   0.242987900    -0.6274439   -0.5696367  
   0.244987800    -0.6922883   -0.4768723  
   0.246987700    -0.7447792   -0.3748049  
   0.248987600    -0.7835295   -0.2646671  
   0.250987500    -0.8066375   -0.1480583  
   0.252987400    -0.8131905   -0.0278623  
   0.254987300    -0.8021669    0.0935990  
   0.256987200    -0.7729268    0.2143736  
   0.258987100    -0.7258896    0.3326383  
   0.260987000    -0.6585516    0.4444966  
   0.262986900    -0.5718279    0.5466678  
   0.264986800    -0.4676044    0.6356388  
   0.266986700    -0.3470844    0.7076974  
   0.268986600    -0.2143377    0.7586371  
   0.270986500    -0.0726742    0.7864206  
   0.272986400     0.0735560    0.7892003  
   0.274986300     0.2194031    0.7656996  
   0.276986200     0.3600418    0.7157500  
   0.278986100     0.4903196    0.6406708  
   0.280986000     0.6049246    0.5431654  
   0.282985900     0.6993919    0.4269102  
   0.284985800     0.7707057    0.2963762  
   0.286985700     0.8167126    0.1575509  
   0.288985600     0.8372809    0.0154345  
   0.290985500     0.8326733   -0.1246750  
   0.292985400     0.8055083   -0.2592906  
   0.294985300     0.7576669   -0.3844799  
   0.296985200     0.6912246   -0.4976572  
   0.298985100     0.6093262   -0.5970847  
   0.300985000     0.5156903   -0.6805694  
   0.302984900     0.4130596   -0.7469581  
   0.304984800     0.3046559   -0.7960373  
   0.306984700     0.1936278   -0.8279909  
   0.308984600     0.0827549   -0.8440846  
   0.310984500    -0.0263858   -0.8448056  
   0.312984400    -0.1321508   -0.8314800  
   0.314984300    -0.2332243   -0.8052529  
   0.316984200    -0.3287381   -0.7671955  
   0.318984100    -0.4185455   -0.7182503  
   0.320984000    -0.5011058   -0.6593930  
   0.322983900    -0.5762394   -0.5912048  
   0.324983800    -0.6433002   -0.5154678  
   0.326983700    -0.7014294   -0.4319766  
   0.328983600    -0.7509695   -0.3405924  
   0.330983500    -0.7898635   -0.2414670  
   0.332983400    -0.8162940   -0.1352492  
   0.334983300    -0.8271810   -0.0233022  
   0.336983200    -0.8206388    0.0921650  
   0.338983100    -0.7964175    0.2065111  
   0.340983000    -0.7543465    0.3167263  
   0.342982900    -0.6958504    0.4202841  
   0.344982800    -0.6221100    0.5149126  
   0.346982700    -0.5340109    0.5992860  
   0.348982600    -0.4326655    0.6692280  
   0.350982500    -0.3219961    0.7247803  
   0.352982400    -0.2025575    0.7637506  
   0.354982300    -0.0719866    0.7847472  
   0.356982200     0.0750828    0.7827618  
   0.358982100     0.2203829    0.7542293  
   0.360982000     0.3586493    0.6993629  
   0.362981900     0.4857195    0.6201236  
   0.364981800     0.5968767    0.5182814  
   0.366981700     0.6878741    0.3964638  
   0.368981600     0.7550450    0.2590762  
   0.370981500     0.7955655    0.1108451  
   0.372981400     0.8074774   -0.0427323  
   0.374981300     0.7901289   -0.1966715  
   0.376981200     0.8083848   -0.0881371  
   0.378981100     0.7815065   -0.2398323  
   0.380981000     0.7267159   -0.3826502  
   0.382980900     0.6548252   -0.5013714  
   0.384980800     0.5686892   -0.6007105  
   0.386980700     0.4688836   -0.6838884  
   0.388980600     0.3580061   -0.7490378  
   0.390980500     0.2409306   -0.7955677  
   0.392980400     0.1199351   -0.8226458  
   0.394980300    -0.0014778   -0.8311487  
   0.396980200    -0.1213232   -0.8214098  
   0.398980100    -0.2367895   -0.7947954  
   0.400980000    -0.3457294   -0.7518521  
   0.402979900    -0.4468527   -0.6940809  
   0.404979800    -0.5372451   -0.6237250  
   0.406979700    -0.6167418   -0.5418077  
   0.408979600    -0.6831340   -0.4504709  
   0.410979500    -0.7364463   -0.3502489  
   0.412979400    -0.7755725   -0.2428263  
   0.414979300    -0.7977684   -0.1312651  
   0.416979200    -0.8060939   -0.0170700  
   0.418979100    -0.7980880    0.0968413  
   0.420979000    -0.7740115    0.2093871  
   0.422978900    -0.7338796    0.3185332  
   0.424978800    -0.6779336    0.4214747  
   0.426978700    -0.6073942    0.5166149  
   0.428978600    -0.5228468    0.6014032  
   0.430978500    -0.4260729    0.6731329  
   0.432978400    -0.3189297    0.7303420  
   0.434978300    -0.2037378    0.7729249  
   0.436978200    -0.0815635    0.7965164  
   0.438978100     0.0440006    0.8014943  
   0.440978000     0.1704054    0.7869563  
   0.442977900     0.2943452    0.7523471  
   0.444977800     0.4121250    0.6986120  
   0.446977700     0.5209708    0.6263732  
   0.448977600     0.6174095    0.5370045  
   0.450977500     0.6984588    0.4329348  
   0.452977400     0.7622234    0.3164894  
   0.454977300     0.8063305    0.1904039  
   0.456977200     0.8294715    0.0586191  
   0.458977100     0.8307599   -0.0750476  
   0.460977000     0.8101745   -0.2063819  
   0.462976900     0.7694374   -0.3317522  
   0.464976800     0.7093180   -0.4477799  
   0.466976700     0.6325887   -0.5525396  
   0.468976600     0.5410176   -0.6420938  
   0.470976500     0.4376614   -0.7159140  
   0.472976400     0.3259210   -0.7719811  
   0.474976300     0.2081175   -0.8098826  
   0.476976200     0.0878262   -0.8295327  
   0.478976100    -0.0320171   -0.8309792  
   0.480976000    -0.1488558   -0.8152177  
   0.482975900    -0.2603937   -0.7832589  
   0.484975800    -0.3653907   -0.7363245  
   0.486975700    -0.4620182   -0.6754299  
   0.488975600    -0.5488666   -0.6022080  
   0.490975500    -0.6243480   -0.5177453  
   0.492975400    -0.6869770   -0.4239529  
   0.494975300    -0.7362192   -0.3221180  
   0.496975200    -0.7709119   -0.2138938  
   0.498975100    -0.7896433   -0.1023826  
   0.500975000    -0.7927489    0.0117943  
   0.502974900    -0.7792084    0.1258470  
   0.504974800    -0.7488157    0.2376277  
   0.506974700    -0.7018332    0.3452940  
   0.508974600    -0.6377496    0.4460526  
   0.510974500    -0.5582305    0.5363338  
   0.512974400    -0.4647833    0.6133144  
   0.514974300    -0.3596180    0.6736318  
   0.516974200    -0.2463490    0.7170504  
   0.518974100    -0.1280409    0.7414399  
   0.520974000    -0.0078514    0.7461051  
   0.522973900     0.1105728    0.7319239  
   0.524973800     0.2238692    0.6994987  
   0.526973700     0.3293992    0.6507545  
   0.528973600     0.4252263    0.5874004  
   0.530973500     0.5103391    0.5115019  
   0.532973400     0.5826669    0.4251740  
   0.534973300     0.6415583    0.3300284  
   0.536973200     0.6864732    0.2276946  
   0.538973100     0.7163705    0.1203093  
   0.540973000     0.7311123    0.0103490  
   0.542972900     0.7298064   -0.1014027  
   0.544972800     0.7120299   -0.2124141  
   0.546972700     0.6779580   -0.3202249  
   0.548972600     0.6277861   -0.4226784  
   0.550972500     0.5627808   -0.5171877  
   0.552972400     0.4832487   -0.6013121  
   0.554972300     0.3914836   -0.6725985  
   0.556972200     0.2894543   -0.7292331  
   0.558972100     0.1798202   -0.7697976  
   0.560972000     0.0656147   -0.7930732  
   0.562971900    -0.0503141   -0.7984939  
   0.564971800    -0.1654719   -0.7862785  
   0.566971700    -0.2768604   -0.7574190  
   0.568971600    -0.3825038   -0.7125794  
   0.570971500    -0.4800028   -0.6527036  
   0.572971400    -0.5675036   -0.5793024  
   0.574971300    -0.6436218   -0.4935663  
   0.576971200    -0.7063716   -0.3978404  
   0.578971100    -0.7549233   -0.2937802  
   0.580971000    -0.7876319   -0.1839571  
   0.582970900    -0.8041148   -0.0710055  
   0.584970800    -0.8040890    0.0431395  
   0.586970700    -0.7878412    0.1559779  
   0.588970600    -0.7557024    0.2654907  
   0.590970500    -0.7078927    0.3694535  
   0.592970400    -0.6453773    0.4661866  
   0.594970300    -0.5692712    0.5534506  
   0.596970200    -0.4807715    0.6290851  
   0.598970100    -0.3815033    0.6915612  
   0.600970000    -0.2728935    0.7391352  
   0.602969900    -0.1573750    0.7704269  
   0.604969800    -0.0371790    0.7844044  
   0.606969700     0.0849715    0.7796547  
   0.608969600     0.2066337    0.7556555  
   0.610969500     0.3237150    0.7128149  
   0.612969400     0.4338753    0.6515962  
   0.614969300     0.5334704    0.5731867  
   0.616969200     0.6195274    0.4796169  
   0.618969100     0.6895757    0.3732753  
   0.620969000     0.7419342    0.2571684  
   0.622968900     0.7748879    0.1336479  
   0.624968800     0.7874328    0.0060046  
   0.626968700     0.7788258   -0.1222694  
   0.628968600     0.7498975   -0.2476994  
   0.630968500     0.7011248   -0.3664803  
   0.632968400     0.6337174   -0.4751455  
   0.634968300     0.5500546   -0.5708509  
   0.636968200     0.4525575   -0.6516321  
   0.638968100     0.3448010   -0.7150319  
   0.640968000     0.2287899   -0.7604231  
   0.642967900     0.1085652   -0.7865334  
   0.644967800    -0.0127891   -0.7933303  
   0.646967700    -0.1325352   -0.7815925  
   0.648967600    -0.2474302   -0.7519711  
   0.650967500    -0.3551803   -0.7063220  
   0.652967400    -0.4535663   -0.6454948  
   0.654967300    -0.5412826   -0.5718231  
   0.656967200    -0.6165701   -0.4868098  
   0.658967100    -0.6783156   -0.3926657  
   0.660967000    -0.7257282   -0.2906676  
   0.662966900    -0.7581415   -0.1832266  
   0.664966800    -0.7745704   -0.0718829  
   0.666966700    -0.7749568    0.0403932  
   0.668966600    -0.7590581    0.1518333  
   0.670966500    -0.7274444    0.2603748  
   0.672966400    -0.6808801    0.3636513  
   0.674966300    -0.6191465    0.4586851  
   0.676966200    -0.5439502    0.5441180  
   0.678966100    -0.4566480    0.6180425  
   0.680966000    -0.3590105    0.6785865  
   0.682965900    -0.2522355    0.7245291  
   0.684965800    -0.1391578    0.7545680  
   0.686965700    -0.0215203    0.7667887  
   0.688965600     0.0976065    0.7613187  
   0.690965500     0.2154254    0.7361733  
   0.692965400     0.3289168    0.6937649  
   0.694965300     0.4352468    0.6338342  
   0.696965200     0.5312952    0.5572543  
   0.698965100     0.6145332    0.4657561  
   0.700965000     0.6822933    0.3615659  
   0.702964900     0.7329049    0.2472558  
   0.704964800     0.7642323    0.1259986  
   0.706964700     0.7757221    0.0011903  
   0.708964600     0.7669175   -0.1239796  
   0.710964500     0.7386268   -0.2458254  
   0.712964400     0.6907350   -0.3605062  
   0.714964300     0.6253031   -0.4651197  
   0.716964200     0.5449834   -0.5569533  
   0.718964100     0.4529813   -0.6333414  
   0.720964000     0.3517003   -0.6939253  
   0.722963900     0.2438464   -0.7376767  
   0.724963800     0.1326739   -0.7647161  
   0.726963700     0.0197768   -0.7748075  
   0.728963600    -0.0921999   -0.7688791  
   0.730963500    -0.2004365   -0.7460262  
   0.732963400    -0.3037024   -0.7098067  
   0.734963300    -0.4004439   -0.6592414  
   0.736963200    -0.5009805   -0.5846466  
   0.738963100    -0.5877694   -0.4945285  
   0.740963000    -0.6590344   -0.3918488  
   0.742962900    -0.7122368   -0.2787393  
   0.744962800    -0.7462832   -0.1580812  
   0.746962700    -0.7596596   -0.0328651  
   0.748962600    -0.7524219    0.0935796  
   0.750962500    -0.7718442   -0.0223083  
   0.752962400    -0.7619584    0.1053843  
   0.754962300    -0.7306373    0.2298812  
   0.756962200    -0.6785087    0.3479831  
   0.758962100    -0.6063249    0.4559763  
   0.760962000    -0.5161363    0.5501639  
   0.762961900    -0.4163356    0.6244302  
   0.764961800    -0.3162322    0.6768910  
   0.766961700    -0.2093292    0.7131900  
   0.768961600    -0.0973533    0.7330256  
   0.770961500     0.0156856    0.7359806  
   0.772961400     0.1281781    0.7214708  
   0.774961300     0.2366902    0.6906585  
   0.776961200     0.3399488    0.6432111  
   0.778961100     0.4349887    0.5812682  
   0.780961000     0.5201501    0.5048063  
   0.782960900     0.5931289    0.4158212  
   0.784960800     0.6522248    0.3165324  
   0.786960700     0.6956954    0.2087293  
   0.788960600     0.7221279    0.0951303  
   0.790960500     0.7307941   -0.0214493  
   0.792960400     0.7214608   -0.1380123  
   0.794960300     0.6940578   -0.2517108  
   0.796960200     0.6491653   -0.3600630  
   0.798960100     0.5883620   -0.4600303  
   0.800960000     0.5128235   -0.5491317  
   0.802959900     0.4244375   -0.6253513  
   0.804959800     0.3254930   -0.6871325  
   0.806959700     0.2187334   -0.7328540  
   0.808959600     0.1060188   -0.7618434  
   0.810959500    -0.0090314   -0.7730275  
   0.812959400    -0.1244823   -0.7664850  
   0.814959300    -0.2370712   -0.7425067  
   0.816959200    -0.3444435   -0.7022153  
   0.818959100    -0.4439971   -0.6463405  
   0.820959000    -0.5338912   -0.5763508  
   0.822958900    -0.6122512   -0.4942380  
   0.824958800    -0.6769524   -0.4016173  
   0.826958700    -0.7272634   -0.3008955  
   0.828958600    -0.7619240   -0.1940753  
   0.830958500    -0.7807513   -0.0839343  
   0.832958400    -0.7833068    0.0276718  
   0.834958300    -0.7697468    0.1379242  
   0.836958200    -0.7405574    0.2448409  
   0.838958100    -0.6961647    0.3461753  
   0.840958000    -0.6377445    0.4404403  
   0.842957900    -0.5661401    0.5257765  
   0.844957800    -0.4826317    0.5998189  
   0.846957700    -0.3887154    0.6616010  
   0.848957600    -0.2864196    0.7093076  
   0.850957500    -0.1774956    0.7415937  
   0.852957400    -0.0643578    0.7576038  
   0.854957300     0.0509690    0.7566431  
   0.856957200     0.1653628    0.7380602  
   0.858957100     0.2761039    0.7025134  
   0.860957000     0.3807613    0.6502615  
   0.862956900     0.4760110    0.5821981  
   0.864956800     0.5603036    0.5004169  
   0.866956700     0.6310735    0.4063284  
   0.868956600     0.6863112    0.3013112  
   0.870956500     0.7254254    0.1886746  
   0.872956400     0.7466422    0.0702200  
   0.874956300     0.7485382   -0.0508262  
   0.876956200     0.7311281   -0.1716487  
   0.878956100     0.6942521   -0.2881441  
   0.880956000     0.6391295   -0.3972906  
   0.882955900     0.5669241   -0.4965031  
   0.884955800     0.4799684   -0.5823551  
   0.886955700     0.3802395   -0.6527230  
   0.888955600     0.2710555   -0.7060164  
   0.890955500     0.1555009   -0.7404952  
   0.892955400     0.0368154   -0.7563028  
   0.894955300    -0.0816810   -0.7528350  
