! MS46122B
! 2250307/22442219
! 7/23/2025 7:48:38 AM
! C:\USERS\SPARKY\DOCUMENTS\VNA_DATA\JULY23_2025\3K\ECAL_SHORT_B.S1P
! CHANNEL.1
! TR.MEASUREMENT
! RAW.DATA
# GHZ S RI R 50.0
! FREQ.GHZ         S11RE         S11IM         
!; PortSelection: Port_1
   0.001000000     1.0459430   -0.0713644  
   0.002999900     0.9649118   -0.1939933  
   0.004999800     0.9051933   -0.2992863  
   0.006999700     0.8386571   -0.3972503  
   0.008999600     0.7614547   -0.4930816  
   0.010999500     0.6707354   -0.5847262  
   0.012999400     0.5611475   -0.6700143  
   0.014999300     0.4275763   -0.7438298  
   0.016999200     0.2628974   -0.7959560  
   0.018999100     0.0620297   -0.8098491  
   0.020999000    -0.1722509   -0.7569615  
   0.022998900    -0.4169381   -0.5995899  
   0.024998800    -0.5839943   -0.3057288  
   0.026998700    -0.6420459    0.0965089  
   0.028998600    -0.4541728    0.4838196  
   0.030998500    -0.1061022    0.7114723  
   0.032998400     0.2375401    0.7222363  
   0.034998300     0.5551691    0.6377082  
   0.036998200     0.7533447    0.4709847  
   0.038998100     0.8717554    0.2889788  
   0.040998000     0.9306003    0.1138179  
   0.042997900     0.9486680   -0.0458117  
   0.044997800     0.9080569   -0.1649612  
   0.046997700     0.9056212   -0.3130227  
   0.048997600     0.8602605   -0.4225999  
   0.050997500     0.8041243   -0.5176373  
   0.052997400     0.7415164   -0.5978910  
   0.054997300     0.6704192   -0.6712337  
   0.056997200     0.5953205   -0.7326230  
   0.058997100     0.5169455   -0.7840387  
   0.060997000     0.4350879   -0.8264765  
   0.062996900     0.3501103   -0.8604833  
   0.064996800     0.2627645   -0.8855205  
   0.066996700     0.1727625   -0.9014568  
   0.068996600     0.0807713   -0.9086152  
   0.070996500    -0.0125297   -0.9069011  
   0.072996400    -0.1068692   -0.8940622  
   0.074996300    -0.2019299   -0.8703645  
   0.076996200    -0.2963426   -0.8351122  
   0.078996100    -0.3888346   -0.7877223  
   0.080996000    -0.4781322   -0.7272528  
   0.082995900    -0.5623954   -0.6530027  
   0.084995800    -0.6389862   -0.5639538  
   0.086995700    -0.7062306   -0.4616201  
   0.088995600    -0.7610358   -0.3448173  
   0.090995500    -0.7992114   -0.2153310  
   0.092995400    -0.8182958   -0.0740351  
   0.094995300    -0.8121412    0.0754167  
   0.096995200    -0.7785266    0.2291918  
   0.098995100    -0.7136701    0.3804345  
   0.100995000    -0.6161768    0.5233802  
   0.102994900    -0.4886031    0.6463431  
   0.104994800    -0.3337412    0.7427570  
   0.106994700    -0.1585217    0.8043122  
   0.108994600     0.0270229    0.8274379  
   0.110994500     0.2130913    0.8100711  
   0.112994400     0.3892134    0.7530512  
   0.114994300     0.5461758    0.6622499  
   0.116994200     0.6770237    0.5441051  
   0.118994100     0.7778624    0.4063441  
   0.120994000     0.8494247    0.2579861  
   0.122993900     0.8882189    0.1049706  
   0.124993800     0.8985704   -0.0457422  
   0.126993700     0.8835708   -0.1899356  
   0.128993600     0.8454172   -0.3227091  
   0.130993500     0.7906055   -0.4434794  
   0.132993400     0.7209209   -0.5503288  
   0.134993300     0.6399183   -0.6427578  
   0.136993200     0.5494441   -0.7200063  
   0.138993100     0.4523283   -0.7823765  
   0.140993000     0.3505339   -0.8302568  
   0.142992900     0.2455076   -0.8638895  
   0.144992800     0.1394443   -0.8845789  
   0.146992700     0.0326009   -0.8911140  
   0.148992600    -0.0733943   -0.8842374  
   0.150992500    -0.1767806   -0.8635584  
   0.152992400    -0.2772577   -0.8316984  
   0.154992300    -0.3728824   -0.7873738  
   0.156992200    -0.4636270   -0.7318195  
   0.158992100    -0.5471810   -0.6647429  
   0.160992000    -0.6230608   -0.5866986  
   0.162991900    -0.6895091   -0.4983518  
   0.164991800    -0.7452148   -0.4000163  
   0.166991700    -0.7883759   -0.2931983  
   0.168991600    -0.8170081   -0.1786535  
   0.170991500    -0.8303404   -0.0578458  
   0.172991400    -0.8264345    0.0664241  
   0.174991300    -0.8035073    0.1923422  
   0.176991200    -0.7611343    0.3173180  
   0.178991100    -0.6974592    0.4375404  
   0.180991000    -0.6146685    0.5497755  
   0.182990900    -0.5111752    0.6489016  
   0.184990800    -0.3891908    0.7313169  
   0.186990700    -0.2519109    0.7932872  
   0.188990600    -0.1278547    0.8268787  
   0.190990500     0.0473176    0.8405125  
   0.192990400     0.2065154    0.8226646  
   0.194990300     0.3575947    0.7771468  
   0.196990200     0.4973992    0.7052872  
   0.198990100     0.6214452    0.6094323  
   0.200990000     0.7254626    0.4937241  
   0.202989900     0.8066151    0.3624449  
   0.204989800     0.8624814    0.2216440  
   0.206989700     0.8937005    0.0764977  
   0.208989600     0.8986902   -0.0685669  
   0.210989500     0.8798493   -0.2095476  
   0.212989400     0.8393810   -0.3424907  
   0.214989300     0.7800695   -0.4643845  
   0.216989200     0.7049407   -0.5726401  
   0.218989100     0.6169178   -0.6655117  
   0.220989000     0.5180588   -0.7434337  
   0.222988900     0.4112442   -0.8049705  
   0.224988800     0.2988938   -0.8500046  
   0.226988700     0.1836196   -0.8786891  
   0.228988600     0.0680707   -0.8910261  
   0.230988500    -0.0467455   -0.8874788  
   0.232988400    -0.1593984   -0.8681043  
   0.234988300    -0.2680335   -0.8352920  
   0.236988200    -0.3710926   -0.7884967  
   0.238988100    -0.4670708   -0.7285471  
   0.240988000    -0.5540176   -0.6565645  
   0.242987900    -0.6309028   -0.5735763  
   0.244987800    -0.6964743   -0.4803123  
   0.246987700    -0.7496216   -0.3776776  
   0.248987600    -0.7888846   -0.2669004  
   0.250987500    -0.8124746   -0.1494644  
   0.252987400    -0.8191612   -0.0284737  
   0.254987300    -0.8082146    0.0939574  
   0.256987200    -0.7787877    0.2157150  
   0.258987100    -0.7314519    0.3349056  
   0.260987000    -0.6635311    0.4476793  
   0.262986900    -0.5761395    0.5505603  
   0.264986800    -0.4711301    0.6402230  
   0.266986700    -0.3498114    0.7122963  
   0.268986600    -0.2161115    0.7633267  
   0.270986500    -0.0736630    0.7910506  
   0.272986400     0.0735638    0.7935611  
   0.274986300     0.2200963    0.7696356  
   0.276986200     0.3610402    0.7191993  
   0.278986100     0.4917638    0.6435899  
   0.280986000     0.6065570    0.5456756  
   0.282985900     0.7012364    0.4287987  
   0.284985800     0.7724620    0.2980372  
   0.286985700     0.8185307    0.1586324  
   0.288985600     0.8391849    0.0162190  
   0.290985500     0.8347321   -0.1243646  
   0.292985400     0.8074498   -0.2590799  
   0.294985300     0.7595161   -0.3846052  
   0.296985200     0.6932075   -0.4982068  
   0.298985100     0.6113156   -0.5978428  
   0.300985000     0.5175341   -0.6818660  
   0.302984900     0.4148614   -0.7485601  
   0.304984800     0.3063053   -0.7981527  
   0.306984700     0.1949129   -0.8305419  
   0.308984600     0.0836034   -0.8470784  
   0.310984500    -0.0258570   -0.8480648  
   0.312984400    -0.1323732   -0.8350250  
   0.314984300    -0.2340234   -0.8090180  
   0.316984200    -0.3301181   -0.7710580  
   0.318984100    -0.4205030   -0.7220988  
   0.320984000    -0.5037484   -0.6630915  
   0.322983900    -0.5795035   -0.5948747  
   0.324983800    -0.6471422   -0.5185991  
   0.326983700    -0.7060895   -0.4347650  
   0.328983600    -0.7559494   -0.3427863  
   0.330983500    -0.7953877   -0.2431353  
   0.332983400    -0.8222028   -0.1361903  
   0.334983300    -0.8332058   -0.0234049  
   0.336983200    -0.8267511    0.0927256  
   0.338983100    -0.8023656    0.2081205  
   0.340983000    -0.7600746    0.3189591  
   0.342982900    -0.7010484    0.4234779  
   0.344982800    -0.6269123    0.5185618  
   0.346982700    -0.5381188    0.6034914  
   0.348982600    -0.4362536    0.6736682  
   0.350982500    -0.3247491    0.7295265  
   0.352982400    -0.2046101    0.7686092  
   0.354982300    -0.0732060    0.7895914  
   0.356982200     0.0747211    0.7874589  
   0.358982100     0.2205782    0.7586262  
   0.360982000     0.3593167    0.7033741  
   0.362981900     0.4868892    0.6237285  
   0.364981800     0.5985197    0.5213091  
   0.366981700     0.6898024    0.3991437  
   0.368981600     0.7570316    0.2611260  
   0.370981500     0.7976234    0.1124430  
   0.372981400     0.8095472   -0.0414387  
   0.374981300     0.7921590   -0.1957293  
   0.376981200     0.8101472   -0.0870358  
   0.378981100     0.7832465   -0.2390109  
   0.380981000     0.7285845   -0.3822806  
   0.382980900     0.6566548   -0.5014115  
   0.384980800     0.5704385   -0.6010314  
   0.386980700     0.4705575   -0.6847896  
   0.388980600     0.3594088   -0.7503909  
   0.390980500     0.2419549   -0.7974797  
   0.392980400     0.1206634   -0.8248897  
   0.394980300    -0.0012091   -0.8336332  
   0.396980200    -0.1215353   -0.8239439  
   0.398980100    -0.2377014   -0.7977859  
   0.400980000    -0.3472852   -0.7549703  
   0.402979900    -0.4490396   -0.6971260  
   0.404979800    -0.5402619   -0.6266556  
   0.406979700    -0.6202252   -0.5444312  
   0.408979600    -0.6873651   -0.4524774  
   0.410979500    -0.7411672   -0.3519095  
   0.412979400    -0.7806109   -0.2441979  
   0.414979300    -0.8032727   -0.1317338  
   0.416979200    -0.8117344   -0.0168543  
   0.418979100    -0.8038212    0.0978276  
   0.420979000    -0.7796915    0.2110754  
   0.422978900    -0.7393872    0.3208082  
   0.424978800    -0.6831772    0.4245623  
   0.426978700    -0.6121646    0.5203514  
   0.428978600    -0.5270649    0.6056884  
   0.430978500    -0.4295321    0.6780271  
   0.432978400    -0.3217928    0.7355249  
   0.434978300    -0.2056926    0.7781804  
   0.436978200    -0.0828402    0.8017563  
   0.438978100     0.0435420    0.8065804  
   0.440978000     0.1705899    0.7917514  
   0.442977900     0.2951591    0.7568140  
   0.444977800     0.4134602    0.7024627  
   0.446977700     0.5225321    0.6297624  
   0.448977600     0.6191726    0.5399159  
   0.450977500     0.7003873    0.4353429  
   0.452977400     0.7641586    0.3184586  
   0.454977300     0.8082528    0.1919947  
   0.456977200     0.8313240    0.0597634  
   0.458977100     0.8325192   -0.0742114  
   0.460977000     0.8117494   -0.2059030  
   0.462976900     0.7710943   -0.3315022  
   0.464976800     0.7108419   -0.4479198  
   0.466976700     0.6341033   -0.5528255  
   0.468976600     0.5424120   -0.6426575  
   0.470976500     0.4389894   -0.7168233  
   0.472976400     0.3269986   -0.7732847  
   0.474976300     0.2091478   -0.8114707  
   0.476976200     0.0883078   -0.8315253  
   0.478976100    -0.0319528   -0.8332777  
   0.480976000    -0.1493271   -0.8177034  
   0.482975900    -0.2614998   -0.7859591  
   0.484975800    -0.3670361   -0.7390645  
   0.486975700    -0.4642882   -0.6781652  
   0.488975600    -0.5517319   -0.6048357  
   0.490975500    -0.6278015   -0.5201706  
   0.492975400    -0.6909865   -0.4259909  
   0.494975300    -0.7407671   -0.3237009  
   0.496975200    -0.7759292   -0.2149292  
   0.498975100    -0.7949380   -0.1026592  
   0.500975000    -0.7982265    0.0120806  
   0.502974900    -0.7847969    0.1269702  
   0.504974800    -0.7543363    0.2394191  
   0.506974700    -0.7070974    0.3479124  
   0.508974600    -0.6427658    0.4492189  
   0.510974500    -0.5627297    0.5402187  
   0.512974400    -0.4687239    0.6176832  
   0.514974300    -0.3628137    0.6783326  
   0.516974200    -0.2488481    0.7220237  
   0.518974100    -0.1298210    0.7464046  
   0.520974000    -0.0088635    0.7510039  
   0.522973900     0.1102006    0.7365371  
   0.524973800     0.2240807    0.7038205  
   0.526973700     0.3300786    0.6545530  
   0.528973600     0.4263260    0.5907857  
   0.530973500     0.5115444    0.5144684  
   0.532973400     0.5840315    0.4276839  
   0.534973300     0.6430570    0.3321085  
   0.536973200     0.6880524    0.2293591  
   0.538973100     0.7177155    0.1216011  
   0.540973000     0.7324591    0.0112907  
   0.542972900     0.7310526   -0.1008588  
   0.544972800     0.7132461   -0.2120326  
   0.546972700     0.6789765   -0.3202720  
   0.548972600     0.6287518   -0.4230224  
   0.550972500     0.5635878   -0.5177132  
   0.552972400     0.4839562   -0.6020540  
   0.554972300     0.3919953   -0.6735848  
   0.556972200     0.2898847   -0.7304929  
   0.558972100     0.1800428   -0.7713057  
   0.560972000     0.0655283   -0.7949623  
   0.562971900    -0.0508079   -0.8005927  
   0.564971800    -0.1663785   -0.7886298  
   0.566971700    -0.2781502   -0.7599054  
   0.568971600    -0.3843563   -0.7151579  
   0.570971500    -0.4823600   -0.6553200  
   0.572971400    -0.5704294   -0.5818744  
   0.574971300    -0.6471383   -0.4959397  
   0.576971200    -0.7104264   -0.3999217  
   0.578971100    -0.7595028   -0.2954305  
   0.580971000    -0.7926844   -0.1852768  
   0.582970900    -0.8095044   -0.0714421  
   0.584970800    -0.8096495    0.0433772  
   0.586970700    -0.7935037    0.1569870  
   0.588970600    -0.7613088    0.2672077  
   0.590970500    -0.7133062    0.3719564  
   0.592970400    -0.6504467    0.4694054  
   0.594970300    -0.5738558    0.5572795  
   0.596970200    -0.4847485    0.6335376  
   0.598970100    -0.3848104    0.6962985  
   0.600970000    -0.2755957    0.7441601  
   0.602969900    -0.1592020    0.7756333  
   0.604969800    -0.0382816    0.7894822  
   0.606969700     0.0845968    0.7845626  
   0.608969600     0.2066701    0.7603247  
   0.610969500     0.3245221    0.7169917  
   0.612969400     0.4350816    0.6553549  
   0.614969300     0.5351638    0.5762709  
   0.616969200     0.6213359    0.4822024  
   0.618969100     0.6916258    0.3752243  
   0.620969000     0.7440018    0.2585373  
   0.622968900     0.7767980    0.1345746  
   0.624968800     0.7892227    0.0063876  
   0.626968700     0.7804919   -0.1222352  
   0.628968600     0.7513034   -0.2480541  
   0.630968500     0.7023240   -0.3670835  
   0.632968400     0.6347084   -0.4760311  
   0.634968300     0.5509086   -0.5719898  
   0.636968200     0.4530983   -0.6531004  
   0.638968100     0.3449398   -0.7166828  
   0.640968000     0.2288187   -0.7621553  
   0.642967900     0.1082606   -0.7884662  
   0.644967800    -0.0132781   -0.7954909  
   0.646967700    -0.1336285   -0.7838452  
   0.648967600    -0.2490471   -0.7544191  
   0.650967500    -0.3571910   -0.7086050  
   0.652967400    -0.4560956   -0.6476326  
   0.654967300    -0.5443131   -0.5739121  
   0.656967200    -0.6200085   -0.4885835  
   0.658967100    -0.6822724   -0.3941872  
   0.660967000    -0.7301288   -0.2920124  
   0.662966900    -0.7628231   -0.1839487  
   0.664966800    -0.7794644   -0.0721821  
   0.666966700    -0.7800449    0.0408236  
   0.668966600    -0.7642524    0.1528813  
   0.670966500    -0.7326428    0.2620489  
   0.672966400    -0.6858920    0.3660221  
   0.674966300    -0.6239709    0.4617348  
   0.676966200    -0.5483103    0.5477549  
   0.678966100    -0.4604938    0.6222013  
   0.680966000    -0.3621697    0.6831694  
   0.682965900    -0.2547589    0.7293114  
   0.684965800    -0.1409971    0.7594936  
   0.686965700    -0.0226674    0.7718030  
   0.688965600     0.0973032    0.7662259  
   0.690965500     0.2156515    0.7408299  
   0.692965400     0.3296698    0.6981097  
   0.694965300     0.4363329    0.6378637  
   0.696965200     0.5328923    0.5607479  
   0.698965100     0.6165513    0.4687723  
   0.700965000     0.6845214    0.3641664  
   0.702964900     0.7352520    0.2492593  
   0.704964800     0.7667140    0.1276436  
   0.706964700     0.7782430    0.0023147  
   0.708964600     0.7694004   -0.1234216  
   0.710964500     0.7409710   -0.2456429  
   0.712964400     0.6928475   -0.3606398  
   0.714964300     0.6271937   -0.4657863  
   0.716964200     0.5466856   -0.5578685  
   0.718964100     0.4543320   -0.6346412  
   0.720964000     0.3527360   -0.6955318  
   0.722963900     0.2445086   -0.7395467  
   0.724963800     0.1329843   -0.7668246  
   0.726963700     0.0197359   -0.7772623  
   0.728963600    -0.0927489   -0.7712177  
   0.730963500    -0.2014240   -0.7484144  
   0.732963400    -0.3051119   -0.7122011  
   0.734963300    -0.4022757   -0.6615913  
   0.736963200    -0.5033421   -0.5868353  
   0.738963100    -0.5905847   -0.4963356  
   0.740963000    -0.6624483   -0.3933476  
   0.742962900    -0.7159370   -0.2798241  
   0.744962800    -0.7503171   -0.1584669  
   0.746962700    -0.7639268   -0.0329181  
   0.748962600    -0.7568392    0.0942825  
   0.750962500    -0.7764670   -0.0223640  
   0.752962400    -0.7667059    0.1060231  
   0.754962300    -0.7354014    0.2313726  
   0.756962200    -0.6830341    0.3502088  
   0.758962100    -0.6104600    0.4589033  
   0.760962000    -0.5199537    0.5536606  
   0.762961900    -0.4194646    0.6284899  
   0.764961800    -0.3187373    0.6814353  
   0.766961700    -0.2112166    0.7178890  
   0.768961600    -0.0984986    0.7377863  
   0.770961500     0.0153421    0.7409182  
   0.772961400     0.1284000    0.7261868  
   0.774961300     0.2377684    0.6949469  
   0.776961200     0.3412762    0.6473181  
   0.778961100     0.4367848    0.5848698  
   0.780961000     0.5222557    0.5078958  
   0.782960900     0.5954478    0.4184597  
   0.784960800     0.6548523    0.3185630  
   0.786960700     0.6982465    0.2103263  
   0.788960600     0.7246933    0.0962714  
   0.790960500     0.7332296   -0.0207724  
   0.792960400     0.7236999   -0.1377997  
   0.794960300     0.6961516   -0.2518509  
   0.796960200     0.6510052   -0.3605695  
   0.798960100     0.5899496   -0.4607383  
   0.800960000     0.5141270   -0.5500978  
   0.802959900     0.4254867   -0.6265832  
   0.804959800     0.3262058   -0.6885206  
   0.806959700     0.2191765   -0.7344961  
   0.808959600     0.1061600   -0.7634991  
   0.810959500    -0.0091282   -0.7746327  
   0.812959400    -0.1249962   -0.7682347  
   0.814959300    -0.2379772   -0.7442748  
   0.816959200    -0.3457704   -0.7040053  
   0.818959100    -0.4457519   -0.6480266  
   0.820959000    -0.5359702   -0.5783024  
   0.822958900    -0.6145965   -0.4959503  
   0.824958800    -0.6798335   -0.4029536  
   0.826958700    -0.7305479   -0.3019722  
   0.828958600    -0.7656069   -0.1947975  
   0.830958500    -0.7847528   -0.0839875  
   0.832958400    -0.7875329    0.0278217  
   0.834958300    -0.7741842    0.1387263  
   0.836958200    -0.7450718    0.2463263  
   0.838958100    -0.7006622    0.3483530  
   0.840958000    -0.6421129    0.4431303  
   0.842957900    -0.5702620    0.5291358  
   0.844957800    -0.4862253    0.6038114  
   0.846957700    -0.3920173    0.6660682  
   0.848957600    -0.2891472    0.7141824  
   0.850957500    -0.1797351    0.7467304  
   0.852957400    -0.0659520    0.7629771  
   0.854957300     0.0498499    0.7621584  
   0.856957200     0.1652008    0.7435468  
   0.858957100     0.2767152    0.7079642  
   0.860957000     0.3819585    0.6553653  
   0.862956900     0.4779127    0.5866758  
   0.864956800     0.5628258    0.5043116  
   0.866956700     0.6340130    0.4095143  
   0.868956600     0.6894595    0.3038970  
   0.870956500     0.7286450    0.1904744  
   0.872956400     0.7497039    0.0715155  
   0.874956300     0.7513475   -0.0500743  
   0.876956200     0.7337900   -0.1712510  
   0.878956100     0.6967641   -0.2881694  
   0.880956000     0.6411144   -0.3976626  
   0.882955900     0.5686223   -0.4971347  
   0.884955800     0.4813563   -0.5831630  
   0.886955700     0.3813613   -0.6535916  
   0.888955600     0.2719857   -0.7069949  
   0.890955500     0.1562203   -0.7415785  
   0.892955400     0.0371370   -0.7574871  
   0.894955300    -0.0817223   -0.7541085  
