! MS46122B
! 2250307/22442219
! 7/28/2025 1:58:06 PM
! C:\USERS\SPARKY\DOCUMENTS\VNA_DATA\JULY28_2025\3K\ECAL_SHORT_F.S1P
! CHANNEL.1
! TR.MEASUREMENT
! RAW.DATA
# GHZ S RI R 50.0
! FREQ.GHZ         S11RE         S11IM         
!; PortSelection: Port_1
   0.001000000     1.0462740   -0.0720938  
   0.002999900     0.9648693   -0.1943291  
   0.004999800     0.9053228   -0.2991589  
   0.006999700     0.8390235   -0.3967971  
   0.008999600     0.7621412   -0.4922587  
   0.010999500     0.6718995   -0.5835456  
   0.012999400     0.5630207   -0.6686081  
   0.014999300     0.4302491   -0.7422516  
   0.016999200     0.2666579   -0.7945931  
   0.018999100     0.0671819   -0.8091449  
   0.020999000    -0.1659592   -0.7580853  
   0.022998900    -0.4103913   -0.6031161  
   0.024998800    -0.5790392   -0.3118291  
   0.026998700    -0.6404461    0.0883852  
   0.028998600    -0.4562608    0.4769646  
   0.030998500    -0.1097540    0.7077664  
   0.032998400     0.2346491    0.7204500  
   0.034998300     0.5530083    0.6369794  
   0.036998200     0.7519483    0.4706070  
   0.038998100     0.8707666    0.2886498  
   0.040998000     0.9298452    0.1135866  
   0.042997900     0.9481698   -0.0460065  
   0.044997800     0.9074564   -0.1652798  
   0.046997700     0.9053186   -0.3130043  
   0.048997600     0.8601199   -0.4224381  
   0.050997500     0.8039852   -0.5174183  
   0.052997400     0.7401556   -0.5995218  
   0.054997300     0.6714769   -0.6699660  
   0.056997200     0.5957358   -0.7321118  
   0.058997100     0.5175856   -0.7835579  
   0.060997000     0.4358827   -0.8260954  
   0.062996900     0.3511825   -0.8601629  
   0.064996800     0.2640412   -0.8852893  
   0.066996700     0.1741978   -0.9013268  
   0.068996600     0.0823294   -0.9087648  
   0.070996500    -0.0108201   -0.9072407  
   0.072996400    -0.1050916   -0.8946396  
   0.074996300    -0.2001438   -0.8712366  
   0.076996200    -0.2945312   -0.8362696  
   0.078996100    -0.3870965   -0.7891618  
   0.080996000    -0.4765178   -0.7290496  
   0.082995900    -0.5609734   -0.6551611  
   0.084995800    -0.6378728   -0.5662361  
   0.086995700    -0.7054501   -0.4640446  
   0.088995600    -0.7606715   -0.3474024  
   0.090995500    -0.7992278   -0.2179065  
   0.092995400    -0.8187695   -0.0765516  
   0.094995300    -0.8130506    0.0730637  
   0.096995200    -0.7796801    0.2271361  
   0.098995100    -0.7153230    0.3786741  
   0.100995000    -0.6179067    0.5220319  
   0.102994900    -0.4902888    0.6455024  
   0.104994800    -0.3355052    0.7421607  
   0.106994700    -0.1600130    0.8040590  
   0.108994600     0.0256891    0.8274201  
   0.110994500     0.2119634    0.8101491  
   0.112994400     0.3883337    0.7532636  
   0.114994300     0.5454363    0.6624438  
   0.116994200     0.6763756    0.5442029  
   0.118994100     0.7772763    0.4064755  
   0.120994000     0.8487006    0.2581136  
   0.122993900     0.8876805    0.1051370  
   0.124993800     0.8980244   -0.0454087  
   0.126993700     0.8831450   -0.1896330  
   0.128993600     0.8450890   -0.3223475  
   0.130993500     0.7903996   -0.4430653  
   0.132993400     0.7210912   -0.5500425  
   0.134993300     0.6401010   -0.6420398  
   0.136993200     0.5496712   -0.7196263  
   0.138993100     0.4527209   -0.7820610  
   0.140993000     0.3510533   -0.8300121  
   0.142992900     0.2461991   -0.8638596  
   0.144992800     0.1402276   -0.8846953  
   0.146992700     0.0333845   -0.8913586  
   0.148992600    -0.0723764   -0.8847420  
   0.150992500    -0.1759191   -0.8642711  
   0.152992400    -0.2761487   -0.8325914  
   0.154992300    -0.3719701   -0.7885581  
   0.156992200    -0.4630690   -0.7331243  
   0.158992100    -0.5467395   -0.6662576  
   0.160992000    -0.6228427   -0.5883814  
   0.162991900    -0.6894680   -0.5002080  
   0.164991800    -0.7454700   -0.4018742  
   0.166991700    -0.7888416   -0.2949890  
   0.168991600    -0.8178101   -0.1805839  
   0.170991500    -0.8314684   -0.0597283  
   0.172991400    -0.8278406    0.0646998  
   0.174991300    -0.8053347    0.1906881  
   0.176991200    -0.7628008    0.3159452  
   0.178991100    -0.6995679    0.4364993  
   0.180991000    -0.6167644    0.5490128  
   0.182990900    -0.5133163    0.6483981  
   0.184990800    -0.3912732    0.7311582  
   0.186990700    -0.2538312    0.7933609  
   0.188990600    -0.1296426    0.8271529  
   0.190990500     0.0457223    0.8409881  
   0.192990400     0.2051905    0.8232216  
   0.194990300     0.3564728    0.7777193  
   0.196990200     0.4963306    0.7059397  
   0.198990100     0.6205398    0.6099817  
   0.200990000     0.7248696    0.4939773  
   0.202989900     0.8059658    0.3628154  
   0.204989800     0.8619731    0.2216565  
   0.206989700     0.8930238    0.0766469  
   0.208989600     0.8979907   -0.0684484  
   0.210989500     0.8791669   -0.2094587  
   0.212989400     0.8386813   -0.3424334  
   0.214989300     0.7793627   -0.4642358  
   0.216989200     0.7042026   -0.5724369  
   0.218989100     0.6163400   -0.6652401  
   0.220989000     0.5175789   -0.7432005  
   0.222988900     0.4108054   -0.8047362  
   0.224988800     0.2987330   -0.8497426  
   0.226988700     0.1834162   -0.8785834  
   0.228988600     0.0679902   -0.8910238  
   0.230988500    -0.0468762   -0.8876793  
   0.232988400    -0.1593162   -0.8683841  
   0.234988300    -0.2679574   -0.8357207  
   0.236988200    -0.3711201   -0.7891224  
   0.238988100    -0.4671067   -0.7293081  
   0.240988000    -0.5541303   -0.6574725  
   0.242987900    -0.6311005   -0.5747471  
   0.244987800    -0.6968732   -0.4816101  
   0.246987700    -0.7502159   -0.3790684  
   0.248987600    -0.7897301   -0.2683305  
   0.250987500    -0.8134493   -0.1509261  
   0.252987400    -0.8205026   -0.0298492  
   0.254987300    -0.8097606    0.0926609  
   0.256987200    -0.7806048    0.2145129  
   0.258987100    -0.7334604    0.3338967  
   0.260987000    -0.6657137    0.4468803  
   0.262986900    -0.5783626    0.5500371  
   0.264986800    -0.4733817    0.6401089  
   0.266986700    -0.3519911    0.7123595  
   0.268986600    -0.2182070    0.7636737  
   0.270986500    -0.0754672    0.7916262  
   0.272986400     0.0715410    0.7942793  
   0.274986300     0.2184932    0.7704166  
   0.276986200     0.3596988    0.7200933  
   0.278986100     0.4904940    0.6445671  
   0.280986000     0.6055107    0.5466023  
   0.282985900     0.7003998    0.4296938  
   0.284985800     0.7718831    0.2987287  
   0.286985700     0.8179786    0.1595197  
   0.288985600     0.8386893    0.0171962  
   0.290985500     0.8346484   -0.1235959  
   0.292985400     0.8072028   -0.2583019  
   0.294985300     0.7596284   -0.3839284  
   0.296985200     0.6934433   -0.4976239  
   0.298985100     0.6116304   -0.5974829  
   0.300985000     0.5179729   -0.6817400  
   0.302984900     0.4154018   -0.7487159  
   0.304984800     0.3068747   -0.7985287  
   0.306984700     0.1954615   -0.8311894  
   0.308984600     0.0841651   -0.8479502  
   0.310984500    -0.0256118   -0.8493199  
   0.312984400    -0.1321232   -0.8365415  
   0.314984300    -0.2340539   -0.8106934  
   0.316984200    -0.3304968   -0.7728485  
   0.318984100    -0.4212438   -0.7239049  
   0.320984000    -0.5048342   -0.6647894  
   0.322983900    -0.5808048   -0.5962681  
   0.324983800    -0.6486551   -0.5200520  
   0.326983700    -0.7076281   -0.4358251  
   0.328983600    -0.7574424   -0.3437203  
   0.330983500    -0.7968314   -0.2440297  
   0.332983400    -0.8235278   -0.1372361  
   0.334983300    -0.8348166   -0.0244368  
   0.336983200    -0.8285531    0.0917229  
   0.338983100    -0.8043361    0.2072289  
   0.340983000    -0.7621582    0.3183329  
   0.342982900    -0.7030808    0.4231399  
   0.344982800    -0.6288803    0.5183802  
   0.346982700    -0.5399973    0.6035067  
   0.348982600    -0.4381092    0.6737491  
   0.350982500    -0.3264865    0.7298017  
   0.352982400    -0.2062289    0.7689286  
   0.354982300    -0.0746703    0.7899688  
   0.356982200     0.0733128    0.7878990  
   0.358982100     0.2191919    0.7591042  
   0.360982000     0.3581650    0.7039050  
   0.362981900     0.4857505    0.6242671  
   0.364981800     0.5974311    0.5218570  
   0.366981700     0.6887692    0.3997779  
   0.368981600     0.7560117    0.2617797  
   0.370981500     0.7966821    0.1131777  
   0.372981400     0.8086483   -0.0406700  
   0.374981300     0.7913449   -0.1949160  
   0.376981200     0.8092282   -0.0864036  
   0.378981100     0.7824269   -0.2383683  
   0.380981000     0.7279716   -0.3815093  
   0.382980900     0.6562763   -0.5005680  
   0.384980800     0.5702478   -0.6001901  
   0.386980700     0.4706499   -0.6840218  
   0.388980600     0.3597402   -0.7497529  
   0.390980500     0.2424608   -0.7970425  
   0.392980400     0.1213917   -0.8246377  
   0.394980300    -0.0005249   -0.8337740  
   0.396980200    -0.1205376   -0.8246467  
   0.398980100    -0.2368527   -0.7985402  
   0.400980000    -0.3466526   -0.7560449  
   0.402979900    -0.4486164   -0.6984636  
   0.404979800    -0.5400313   -0.6281649  
   0.406979700    -0.6202990   -0.5461604  
   0.408979600    -0.6876103   -0.4545491  
   0.410979500    -0.7419094   -0.3537411  
   0.412979400    -0.7816328   -0.2460371  
   0.414979300    -0.8045332   -0.1335063  
   0.416979200    -0.8133308   -0.0183620  
   0.418979100    -0.8056904    0.0966729  
   0.420979000    -0.7817263    0.2101074  
   0.422978900    -0.7414876    0.3203843  
   0.424978800    -0.6852559    0.4244742  
   0.426978700    -0.6141677    0.5205184  
   0.428978600    -0.5289376    0.6061208  
   0.430978500    -0.4312211    0.6786630  
   0.432978400    -0.3232843    0.7363040  
   0.434978300    -0.2069849    0.7790924  
   0.436978200    -0.0839931    0.8027602  
   0.438978100     0.0426978    0.8075903  
   0.440978000     0.1699458    0.7926970  
   0.442977900     0.2946759    0.7576702  
   0.444977800     0.4131112    0.7032481  
   0.446977700     0.5222772    0.6304893  
   0.448977600     0.6189588    0.5405143  
   0.450977500     0.7001644    0.4358922  
   0.452977400     0.7640082    0.3188742  
   0.454977300     0.8081152    0.1923943  
   0.456977200     0.8312536    0.0603369  
   0.458977100     0.8323876   -0.0738204  
   0.460977000     0.8118974   -0.2053314  
   0.462976900     0.7712128   -0.3309300  
   0.464976800     0.7111655   -0.4473046  
   0.466976700     0.6345147   -0.5523751  
   0.468976600     0.5429978   -0.6423131  
   0.470976500     0.4398770   -0.7164790  
   0.472976400     0.3278398   -0.7732411  
   0.474976300     0.2101414   -0.8116929  
   0.476976200     0.0893665   -0.8319783  
   0.478976100    -0.0306672   -0.8340128  
   0.480976000    -0.1482405   -0.8187144  
   0.482975900    -0.2604471   -0.7873091  
   0.484975800    -0.3662054   -0.7407067  
   0.486975700    -0.4637029   -0.6800109  
   0.488975600    -0.5514231   -0.6068488  
   0.490975500    -0.6277761   -0.5223506  
   0.492975400    -0.6913351   -0.4281393  
   0.494975300    -0.7414645   -0.3258446  
   0.496975200    -0.7769403   -0.2169745  
   0.498975100    -0.7965548   -0.1045491  
   0.500975000    -0.7998247    0.0103947  
   0.502974900    -0.7866244    0.1254894  
   0.504974800    -0.7564409    0.2382592  
   0.506974700    -0.7091718    0.3472092  
   0.508974600    -0.6449026    0.4488403  
   0.510974500    -0.5647955    0.5401657  
   0.512974400    -0.4705902    0.6180650  
   0.514974300    -0.3644142    0.6790270  
   0.516974200    -0.2501584    0.7229263  
   0.518974100    -0.1306853    0.7474391  
   0.520974000    -0.0092935    0.7519566  
   0.522973900     0.1101283    0.7373117  
   0.524973800     0.2241746    0.7042598  
   0.526973700     0.3303522    0.6546056  
   0.528973600     0.4265918    0.5904031  
   0.530973500     0.5114969    0.5137975  
   0.532973400     0.5836205    0.4267544  
   0.534973300     0.6422756    0.3312569  
   0.536973200     0.6867779    0.2286657  
   0.538973100     0.7164267    0.1212959  
   0.540973000     0.7309444    0.0112717  
   0.542972900     0.7294907   -0.1003759  
   0.544972800     0.7118591   -0.2111547  
   0.546972700     0.6778387   -0.3189988  
   0.548972600     0.6281003   -0.4213868  
   0.550972500     0.5632349   -0.5160500  
   0.552972400     0.4840264   -0.6003584  
   0.554972300     0.3924075   -0.6721142  
   0.556972200     0.2907175   -0.7291706  
   0.558972100     0.1813934   -0.7702938  
   0.560972000     0.0670218   -0.7942112  
   0.562971900    -0.0488145   -0.8002734  
   0.564971800    -0.1646958   -0.7887776  
   0.566971700    -0.2764539   -0.7604722  
   0.568971600    -0.3827685   -0.7161139  
   0.570971500    -0.4809616   -0.6567187  
   0.572971400    -0.5693454   -0.5835916  
   0.574971300    -0.6463844   -0.4979452  
   0.576971200    -0.7101169   -0.4020919  
   0.578971100    -0.7596061   -0.2976755  
   0.580971000    -0.7932062   -0.1875297  
   0.582970900    -0.8105066   -0.0736489  
   0.584970800    -0.8110712    0.0413454  
   0.586970700    -0.7952896    0.1552028  
   0.588970600    -0.7634435    0.2657068  
   0.590970500    -0.7156281    0.3708346  
   0.592970400    -0.6529607    0.4686564  
   0.594970300    -0.5764656    0.5569682  
   0.596970200    -0.4873317    0.6336035  
   0.598970100    -0.3872899    0.6967568  
   0.600970000    -0.2778310    0.7449560  
   0.602969900    -0.1613148    0.7767028  
   0.604969800    -0.0401058    0.7908568  
   0.606969700     0.0830325    0.7861142  
   0.608969600     0.2054946    0.7619311  
   0.610969500     0.3236937    0.7186085  
   0.612969400     0.4345557    0.6569483  
   0.614969300     0.5346920    0.5779576  
   0.616969200     0.6212060    0.4836166  
   0.618969100     0.6915573    0.3765425  
   0.620969000     0.7438658    0.2597960  
   0.622968900     0.7768589    0.1358287  
   0.624968800     0.7893847    0.0075322  
   0.626968700     0.7807299   -0.1212342  
   0.628968600     0.7516350   -0.2468732  
   0.630968500     0.7027462   -0.3660454  
   0.632968400     0.6352314   -0.4750386  
   0.634968300     0.5514849   -0.5714393  
   0.636968200     0.4539796   -0.6523824  
   0.638968100     0.3459512   -0.7158214  
   0.640968000     0.2298510   -0.7615816  
   0.642967900     0.1094319   -0.7880836  
   0.644967800    -0.0122989   -0.7954170  
   0.646967700    -0.1322824   -0.7840382  
   0.648967600    -0.2476586   -0.7548762  
   0.650967500    -0.3558358   -0.7094414  
   0.652967400    -0.4549583   -0.6488426  
   0.654967300    -0.5434110   -0.5754020  
   0.656967200    -0.6194247   -0.4903284  
   0.658967100    -0.6820422   -0.3961811  
   0.660967000    -0.7302565   -0.2940024  
   0.662966900    -0.7634267   -0.1860583  
   0.664966800    -0.7805469   -0.0741881  
   0.666966700    -0.7816328    0.0388865  
   0.668966600    -0.7661638    0.1511282  
   0.670966500    -0.7348377    0.2603219  
   0.672966400    -0.6884621    0.3648508  
   0.674966300    -0.6268605    0.4609309  
   0.676966200    -0.5512249    0.5474628  
   0.678966100    -0.4634675    0.6223637  
   0.680966000    -0.3650331    0.6838286  
   0.682965900    -0.2575901    0.7304062  
   0.684965800    -0.1435633    0.7609628  
   0.686965700    -0.0249290    0.7735602  
   0.688965600     0.0953562    0.7682827  
   0.690965500     0.2140414    0.7430303  
   0.692965400     0.3284723    0.7004065  
   0.694965300     0.4357219    0.6400552  
   0.696965200     0.5325196    0.5629417  
   0.698965100     0.6164218    0.4707921  
   0.700965000     0.6845585    0.3658472  
   0.702964900     0.7355475    0.2507603  
   0.704964800     0.7671439    0.1288589  
   0.706964700     0.7785721    0.0032337  
   0.708964600     0.7698710   -0.1227755  
   0.710964500     0.7412624   -0.2452622  
   0.712964400     0.6931418   -0.3604626  
   0.714964300     0.6272994   -0.4658154  
   0.716964200     0.5467089   -0.5579046  
   0.718964100     0.4542880   -0.6346996  
   0.720964000     0.3526095   -0.6955814  
   0.722963900     0.2442139   -0.7396647  
   0.724963800     0.1325996   -0.7669626  
   0.726963700     0.0191337   -0.7772641  
   0.728963600    -0.0932138   -0.7713369  
   0.730963500    -0.2019174   -0.7485392  
   0.732963400    -0.3056276   -0.7123403  
   0.734963300    -0.4026858   -0.6617537  
   0.736963200    -0.5039394   -0.5870170  
   0.738963100    -0.5912772   -0.4966117  
   0.740963000    -0.6632320   -0.3937239  
   0.742962900    -0.7168372   -0.2802316  
   0.744962800    -0.7513987   -0.1589971  
   0.746962700    -0.7652165   -0.0334492  
   0.748962600    -0.7583883    0.0937716  
   0.750962500    -0.7781405   -0.0232851  
   0.752962400    -0.7687523    0.1052358  
   0.754962300    -0.7376407    0.2307311  
   0.756962200    -0.6856080    0.3498925  
   0.758962100    -0.6132960    0.4589598  
   0.760962000    -0.5227631    0.5541692  
   0.762961900    -0.4223576    0.6294501  
   0.764961800    -0.3217945    0.6825500  
   0.766961700    -0.2139508    0.7194269  
   0.768961600    -0.1010803    0.7396441  
   0.770961500     0.0129984    0.7428777  
   0.772961400     0.1263276    0.7283375  
   0.774961300     0.2357405    0.6973086  
   0.776961200     0.3397583    0.6495393  
   0.778961100     0.4354594    0.5870976  
   0.780961000     0.5211082    0.5100855  
   0.782960900     0.5944545    0.4206185  
   0.784960800     0.6539427    0.3206539  
   0.786960700     0.6974325    0.2123740  
   0.788960600     0.7239100    0.0982619  
   0.790960500     0.7326033   -0.0187449  
   0.792960400     0.7231677   -0.1357142  
   0.794960300     0.6957584   -0.2497674  
   0.796960200     0.6508088   -0.3584358  
   0.798960100     0.5899375   -0.4586748  
   0.800960000     0.5144132   -0.5480803  
   0.802959900     0.4259585   -0.6246048  
   0.804959800     0.3270226   -0.6867300  
   0.806959700     0.2201220   -0.7327920  
   0.808959600     0.1073668   -0.7622334  
   0.810959500    -0.0078943   -0.7738205  
   0.812959400    -0.1235970   -0.7677181  
   0.814959300    -0.2364880   -0.7442343  
   0.816959200    -0.3444141   -0.7043603  
   0.818959100    -0.4445950   -0.6488517  
   0.820959000    -0.5350989   -0.5792987  
   0.822958900    -0.6141381   -0.4973715  
   0.824958800    -0.6797736   -0.4046628  
   0.826958700    -0.7309437   -0.3038546  
   0.828958600    -0.7664351   -0.1966480  
   0.830958500    -0.7860959   -0.0858649  
   0.832958400    -0.7893239    0.0262763  
   0.834958300    -0.7764205    0.1373372  
   0.836958200    -0.7475837    0.2451435  
   0.838958100    -0.7035389    0.3475654  
   0.840958000    -0.6450126    0.4428983  
   0.842957900    -0.5732614    0.5291734  
   0.844957800    -0.4892220    0.6043174  
   0.846957700    -0.3948395    0.6669746  
   0.848957600    -0.2918174    0.7154267  
   0.850957500    -0.1821149    0.7483287  
   0.852957400    -0.0679824    0.7647831  
   0.854957300     0.0481970    0.7641345  
   0.856957200     0.1638406    0.7455690  
   0.858957100     0.2755984    0.7099487  
   0.860957000     0.3811360    0.6573420  
   0.862956900     0.4772348    0.5886303  
   0.864956800     0.5622363    0.5061945  
   0.866956700     0.6335424    0.4113849  
   0.868956600     0.6890126    0.3056759  
   0.870956500     0.7285100    0.1922410  
   0.872956400     0.7495772    0.0731732  
   0.874956300     0.7513017   -0.0484895  
   0.876956200     0.7338366   -0.1697437  
   0.878956100     0.6968358   -0.2866468  
   0.880956000     0.6415628   -0.3962260  
   0.882955900     0.5691759   -0.4958535  
   0.884955800     0.4820484   -0.5819931  
   0.886955700     0.3821507   -0.6526732  
   0.888955600     0.2729094   -0.7062960  
   0.890955500     0.1572866   -0.7411821  
   0.892955400     0.0383005   -0.7574090  
   0.894955300    -0.0805984   -0.7543932  
