! MS46122B
! 2250307/22442219
! 7/22/2025 7:53:02 AM
! C:\USERS\SPARKY\DOCUMENTS\VNA_DATA\JULY22_2025\3K\ECAL_LOAD_A_REPEAT1.S1P
! CHANNEL.1
! TR.MEASUREMENT
! RAW.DATA
# GHZ S RI R 50.0
! FREQ.GHZ         S11RE         S11IM         
!; PortSelection: Port_1
   0.001000000     1.0454140   -0.0722798  
   0.002999900     0.9525445   -0.1944939  
   0.004999800     0.8773553   -0.2786953  
   0.006999700     0.7925466   -0.3676278  
   0.008999600     0.7018690   -0.4067921  
   0.010999500     0.6251239   -0.4332792  
   0.012999400     0.5581422   -0.4488725  
   0.014999300     0.5005831   -0.4567762  
   0.016999200     0.4504444   -0.4581967  
   0.018999100     0.4080719   -0.4550532  
   0.020999000     0.3727064   -0.4491363  
   0.022998900     0.3423933   -0.4415893  
   0.024998800     0.3114491   -0.4117531  
   0.026998700     0.2937349   -0.4235095  
   0.028998600     0.2737827   -0.4136395  
   0.030998500     0.2557679   -0.4037812  
   0.032998400     0.2360086   -0.3765547  
   0.034998300     0.2235444   -0.3841652  
   0.036998200     0.2094659   -0.3748924  
   0.038998100     0.1963491   -0.3659242  
   0.040998000     0.1839333   -0.3572908  
   0.042997900     0.1723319   -0.3489625  
   0.044997800     0.1597958   -0.3269226  
   0.046997700     0.1495981   -0.3336032  
   0.048997600     0.1395012   -0.3262540  
   0.050997500     0.1299706   -0.3191432  
   0.052997400     0.1210754   -0.3122767  
   0.054997300     0.1128153   -0.3055206  
   0.056997200     0.1045871   -0.2995067  
   0.058997100     0.0971883   -0.2935839  
   0.060997000     0.0901846   -0.2879903  
   0.062996900     0.0835297   -0.2826370  
   0.064996800     0.0774677   -0.2774671  
   0.066996700     0.0717911   -0.2724839  
   0.068996600     0.0664604   -0.2676355  
   0.070996500     0.0614242   -0.2631824  
   0.072996400     0.0566617   -0.2585556  
   0.074996300     0.0521311   -0.2540164  
   0.076996200     0.0478384   -0.2495171  
   0.078996100     0.0436751   -0.2450273  
   0.080996000     0.0395804   -0.2406187  
   0.082995900     0.0356076   -0.2362017  
   0.084995800     0.0318138   -0.2315418  
   0.086995700     0.0280667   -0.2270030  
   0.088995600     0.0246490   -0.2225259  
   0.090995500     0.0213994   -0.2180895  
   0.092995400     0.0183074   -0.2138311  
   0.094995300     0.0153742   -0.2093968  
   0.096995200     0.0126445   -0.2049394  
   0.098995100     0.0101103   -0.2005480  
   0.100995000     0.0065425   -0.1969741  
   0.102994900     0.0043235   -0.1926147  
   0.104994800     0.0023031   -0.1882858  
   0.106994700     0.0006618   -0.1839465  
   0.108994600    -0.0007697   -0.1798465  
   0.110994500    -0.0019783   -0.1758721  
   0.112994400    -0.0029499   -0.1720427  
   0.114994300    -0.0037241   -0.1683592  
   0.116994200    -0.0043144   -0.1648399  
   0.118994100    -0.0047357   -0.1614918  
   0.120994000    -0.0047951   -0.1584123  
   0.122993900    -0.0049903   -0.1553837  
   0.124993800    -0.0050611   -0.1525967  
   0.126993700    -0.0050549   -0.1500704  
   0.128993600    -0.0049971   -0.1477428  
   0.130993500    -0.0049178   -0.1456245  
   0.132993400    -0.0048872   -0.1437364  
   0.134993300    -0.0048767   -0.1421035  
   0.136993200    -0.0049470   -0.1406252  
   0.138993100    -0.0051620   -0.1392832  
   0.140993000    -0.0054809   -0.1380741  
   0.142992900    -0.0059610   -0.1370372  
   0.144992800    -0.0065642   -0.1361816  
   0.146992700    -0.0073739   -0.1352710  
   0.148992600    -0.0083412   -0.1343642  
   0.150992500    -0.0094326   -0.1333149  
   0.152992400    -0.0107671   -0.1323162  
   0.154992300    -0.0122126   -0.1312433  
   0.156992200    -0.0138123   -0.1300149  
   0.158992100    -0.0155278   -0.1286427  
   0.160992000    -0.0173315   -0.1270811  
   0.162991900    -0.0191856   -0.1252940  
   0.164991800    -0.0210566   -0.1233098  
   0.166991700    -0.0228921   -0.1210616  
   0.168991600    -0.0246695   -0.1185542  
   0.170991500    -0.0263879   -0.1157907  
   0.172991400    -0.0278729   -0.1128107  
   0.174991300    -0.0291730   -0.1096031  
   0.176991200    -0.0302159   -0.1062026  
   0.178991100    -0.0309730   -0.1026014  
   0.180991000    -0.0314355   -0.0988919  
   0.182990900    -0.0315317   -0.0950333  
   0.184990800    -0.0312098   -0.0911164  
   0.186990700    -0.0304995   -0.0871933  
   0.188990600    -0.0275852   -0.0839547  
   0.190990500    -0.0275875   -0.0796031  
   0.192990400    -0.0258411   -0.0759119  
   0.194990300    -0.0234563   -0.0725315  
   0.196990200    -0.0206674   -0.0694785  
   0.198990100    -0.0175528   -0.0667799  
   0.200990000    -0.0141148   -0.0644454  
   0.202989900    -0.0104187   -0.0625573  
   0.204989800    -0.0065088   -0.0611650  
   0.206989700    -0.0024896   -0.0603047  
   0.208989600     0.0016577   -0.0599963  
   0.210989500     0.0058090   -0.0602363  
   0.212989400     0.0099229   -0.0610517  
   0.214989300     0.0138924   -0.0624159  
   0.216989200     0.0176449   -0.0643149  
   0.218989100     0.0211259   -0.0667272  
   0.220989000     0.0242304   -0.0696213  
   0.222988900     0.0269094   -0.0729521  
   0.224988800     0.0291002   -0.0766608  
   0.226988700     0.0307673   -0.0806797  
   0.228988600     0.0318822   -0.0849480  
   0.230988500     0.0324461   -0.0893735  
   0.232988400     0.0323604   -0.0937912  
   0.234988300     0.0316890   -0.0983431  
   0.236988200     0.0303735   -0.1027577  
   0.238988100     0.0284818   -0.1070509  
   0.240988000     0.0260407   -0.1110785  
   0.242987900     0.0231480   -0.1148458  
   0.244987800     0.0197685   -0.1182121  
   0.246987700     0.0159474   -0.1211525  
   0.248987600     0.0117055   -0.1236256  
   0.250987500     0.0071870   -0.1256207  
   0.252987400     0.0025285   -0.1270299  
   0.254987300    -0.0021810   -0.1279600  
   0.256987200    -0.0069855   -0.1283832  
   0.258987100    -0.0117343   -0.1281840  
   0.260987000    -0.0163823   -0.1273630  
   0.262986900    -0.0208926   -0.1259939  
   0.264986800    -0.0251298   -0.1241562  
   0.266986700    -0.0290454   -0.1218837  
   0.268986600    -0.0325631   -0.1192585  
   0.270986500    -0.0355960   -0.1163634  
   0.272986400    -0.0381564   -0.1133066  
   0.274986300    -0.0403151   -0.1101369  
   0.276986200    -0.0419644   -0.1068664  
   0.278986100    -0.0431490   -0.1035760  
   0.280986000    -0.0438388   -0.1003194  
   0.282985900    -0.0440864   -0.0972135  
   0.284985800    -0.0439254   -0.0943712  
   0.286985700    -0.0433858   -0.0918808  
   0.288985600    -0.0424718   -0.0898095  
   0.290985500    -0.0413127   -0.0882017  
   0.292985400    -0.0399917   -0.0871389  
   0.294985300    -0.0386270   -0.0865245  
   0.296985200    -0.0373916   -0.0864328  
   0.298985100    -0.0363776   -0.0868220  
   0.300985000    -0.0356496   -0.0876837  
   0.302984900    -0.0353097   -0.0890679  
   0.304984800    -0.0354466   -0.0908837  
   0.306984700    -0.0361705   -0.0930278  
   0.308984600    -0.0375323   -0.0955052  
   0.310984500    -0.0396916   -0.0980740  
   0.312984400    -0.0427341   -0.1005387  
   0.314984300    -0.0467521   -0.1026932  
   0.316984200    -0.0517859   -0.1043448  
   0.318984100    -0.0578578   -0.1049584  
   0.320984000    -0.0648099   -0.1042255  
   0.322983900    -0.0722051   -0.1018220  
   0.324983800    -0.0795419   -0.0973795  
   0.326983700    -0.0860894   -0.0909731  
   0.328983600    -0.0910527   -0.0829541  
   0.330983500    -0.0937609   -0.0739373  
   0.332983400    -0.0939899   -0.0650356  
   0.334983300    -0.0920846   -0.0570938  
   0.336983200    -0.0888720   -0.0507361  
   0.338983100    -0.0851101   -0.0461012  
   0.340983000    -0.0815872   -0.0429074  
   0.342982900    -0.0785993   -0.0407040  
   0.344982800    -0.0763198   -0.0389158  
   0.346982700    -0.0748199   -0.0371186  
   0.348982600    -0.0735477   -0.0351973  
   0.350982500    -0.0727901   -0.0330151  
   0.352982400    -0.0721295   -0.0305571  
   0.354982300    -0.0716576   -0.0273656  
   0.356982200    -0.0711371   -0.0227524  
   0.358982100    -0.0700544   -0.0180934  
   0.360982000    -0.0684262   -0.0135268  
   0.362981900    -0.0662140   -0.0091219  
   0.364981800    -0.0633422   -0.0049701  
   0.366981700    -0.0599608   -0.0012329  
   0.368981600    -0.0560271    0.0020738  
   0.370981500    -0.0517107    0.0047871  
   0.372981400    -0.0471797    0.0067383  
   0.374981300    -0.0424739    0.0080697  
   0.376981200    -0.0410538   -0.0025635  
   0.378981100    -0.0365883   -0.0011973  
   0.380981000    -0.0320958   -0.0006493  
   0.382980900    -0.0278021   -0.0012076  
   0.384980800    -0.0237200   -0.0025269  
   0.386980700    -0.0199799   -0.0044021  
   0.388980600    -0.0166280   -0.0067685  
   0.390980500    -0.0136876   -0.0096158  
   0.392980400    -0.0112353   -0.0128921  
   0.394980300    -0.0093260   -0.0164660  
   0.396980200    -0.0080048   -0.0202526  
   0.398980100    -0.0073345   -0.0241039  
   0.400980000    -0.0072726   -0.0279406  
   0.402979900    -0.0078542   -0.0316728  
   0.404979800    -0.0090186   -0.0352258  
   0.406979700    -0.0107142   -0.0384742  
   0.408979600    -0.0129220   -0.0413402  
   0.410979500    -0.0156165   -0.0437014  
   0.412979400    -0.0187225   -0.0455246  
   0.414979300    -0.0222119   -0.0467859  
   0.416979200    -0.0258790   -0.0473125  
   0.418979100    -0.0295854   -0.0472233  
   0.420979000    -0.0332816   -0.0464753  
   0.422978900    -0.0368752   -0.0450111  
   0.424978800    -0.0402872   -0.0428924  
   0.426978700    -0.0434215   -0.0402018  
   0.428978600    -0.0460797   -0.0369013  
   0.430978500    -0.0481606   -0.0330960  
   0.432978400    -0.0496053   -0.0288753  
   0.434978300    -0.0503613   -0.0245453  
   0.436978200    -0.0504399   -0.0199219  
   0.438978100    -0.0497989   -0.0152506  
   0.440978000    -0.0483775   -0.0105797  
   0.442977900    -0.0462252   -0.0060498  
   0.444977800    -0.0433383   -0.0017885  
   0.446977700    -0.0397324    0.0021059  
   0.448977600    -0.0354752    0.0055279  
   0.450977500    -0.0306493    0.0083357  
   0.452977400    -0.0253478    0.0105150  
   0.454977300    -0.0196825    0.0119568  
   0.456977200    -0.0137519    0.0125650  
   0.458977100    -0.0077033    0.0122929  
   0.460977000    -0.0015510    0.0111097  
   0.462976900     0.0044388    0.0090132  
   0.464976800     0.0101428    0.0060186  
   0.466976700     0.0154511    0.0021254  
   0.468976600     0.0202428   -0.0025490  
   0.470976500     0.0243800   -0.0079727  
   0.472976400     0.0277458   -0.0140602  
   0.474976300     0.0302653   -0.0206209  
   0.476976200     0.0318580   -0.0276069  
   0.478976100     0.0325797   -0.0349755  
   0.480976000     0.0323013   -0.0422883  
   0.482975900     0.0310314   -0.0494978  
   0.484975800     0.0287487   -0.0565429  
   0.486975700     0.0254249   -0.0632881  
   0.488975600     0.0211271   -0.0696956  
   0.490975500     0.0159201   -0.0754743  
   0.492975400     0.0100236   -0.0803965  
   0.494975300     0.0033534   -0.0845080  
   0.496975200    -0.0039656   -0.0876892  
   0.498975100    -0.0115622   -0.0897859  
   0.500975000    -0.0195467   -0.0908378  
   0.502974900    -0.0275555   -0.0907187  
   0.504974800    -0.0356052   -0.0894828  
   0.506974700    -0.0434894   -0.0870752  
   0.508974600    -0.0513022   -0.0835063  
   0.510974500    -0.0586323   -0.0789378  
   0.512974400    -0.0650423   -0.0733604  
   0.514974300    -0.0704829   -0.0668570  
   0.516974200    -0.0749161   -0.0597114  
   0.518974100    -0.0781357   -0.0519779  
   0.520974000    -0.0801913   -0.0436637  
   0.522973900    -0.0809970   -0.0353860  
   0.524973800    -0.0805564   -0.0272332  
   0.526973700    -0.0789427   -0.0192184  
   0.528973600    -0.0761410   -0.0116917  
   0.530973500    -0.0723209   -0.0046916  
   0.532973400    -0.0675185    0.0015490  
   0.534973300    -0.0619093    0.0069440  
   0.536973200    -0.0556241    0.0114150  
   0.538973100    -0.0487498    0.0148659  
   0.540973000    -0.0415514    0.0172256  
   0.542972900    -0.0341730    0.0185250  
   0.544972800    -0.0267124    0.0186984  
   0.546972700    -0.0193965    0.0177734  
   0.548972600    -0.0123639    0.0157107  
   0.550972500    -0.0057287    0.0126096  
   0.552972400     0.0003275    0.0084701  
   0.554972300     0.0056621    0.0034187  
   0.556972200     0.0101757   -0.0024236  
   0.558972100     0.0138513   -0.0089551  
   0.560972000     0.0165131   -0.0159587  
   0.562971900     0.0180129   -0.0233617  
   0.564971800     0.0184265   -0.0309842  
   0.566971700     0.0175718   -0.0385026  
   0.568971600     0.0156015   -0.0458477  
   0.570971500     0.0124442   -0.0529075  
   0.572971400     0.0081609   -0.0594923  
   0.574971300     0.0027113   -0.0655046  
   0.576971200    -0.0036790   -0.0707998  
   0.578971100    -0.0108318   -0.0752343  
   0.580971000    -0.0186703   -0.0786068  
   0.582970900    -0.0269729   -0.0807815  
   0.584970800    -0.0355777   -0.0816696  
   0.586970700    -0.0443985   -0.0812149  
   0.588970600    -0.0532524   -0.0793852  
   0.590970500    -0.0617959   -0.0763591  
   0.592970400    -0.0698942   -0.0722076  
   0.594970300    -0.0775237   -0.0669145  
   0.596970200    -0.0843715   -0.0605036  
   0.598970100    -0.0903167   -0.0531410  
   0.600970000    -0.0953034   -0.0449213  
   0.602969900    -0.0991427   -0.0360001  
   0.604969800    -0.1017928   -0.0265327  
   0.606969700    -0.1031677   -0.0167003  
   0.608969600    -0.1031794   -0.0066522  
   0.610969500    -0.1018059    0.0034187  
   0.612969400    -0.0990125    0.0132049  
   0.614969300    -0.0949030    0.0225496  
   0.616969200    -0.0895977    0.0312745  
   0.618969100    -0.0831760    0.0392562  
   0.620969000    -0.0757709    0.0462890  
   0.622968900    -0.0674059    0.0522914  
   0.624968800    -0.0584068    0.0571335  
   0.626968700    -0.0487607    0.0606250  
   0.628968600    -0.0387868    0.0628842  
   0.630968500    -0.0284314    0.0638755  
   0.632968400    -0.0182729    0.0632243  
   0.634968300    -0.0082332    0.0612904  
   0.636968200     0.0013591    0.0578636  
   0.638968100     0.0105101    0.0531527  
   0.640968000     0.0188342    0.0472031  
   0.642967900     0.0260934    0.0403030  
   0.644967800     0.0322593    0.0324929  
   0.646967700     0.0372136    0.0239824  
   0.648967600     0.0408578    0.0149478  
   0.650967500     0.0431336    0.0056681  
   0.652967400     0.0440009   -0.0037343  
   0.654967300     0.0436450   -0.0132195  
   0.656967200     0.0418572   -0.0223526  
   0.658967100     0.0386569   -0.0312046  
   0.660967000     0.0343299   -0.0392506  
   0.662966900     0.0289135   -0.0466009  
   0.664966800     0.0224935   -0.0530861  
   0.666966700     0.0152734   -0.0585485  
   0.668966600     0.0071634   -0.0628331  
   0.670966500    -0.0013492   -0.0658975  
   0.672966400    -0.0097913   -0.0676866  
   0.674966300    -0.0184695   -0.0680186  
   0.676966200    -0.0269752   -0.0669874  
   0.678966100    -0.0351629   -0.0646773  
   0.680966000    -0.0428331   -0.0611540  
   0.682965900    -0.0498063   -0.0565532  
   0.684965800    -0.0559618   -0.0509379  
   0.686965700    -0.0612096   -0.0444410  
   0.688965600    -0.0653110   -0.0373717  
   0.690965500    -0.0682941   -0.0298512  
   0.692965400    -0.0700280   -0.0219792  
   0.694965300    -0.0705224   -0.0139787  
   0.696965200    -0.0697939   -0.0060418  
   0.698965100    -0.0678267    0.0016692  
   0.700965000    -0.0646538    0.0088649  
   0.702964900    -0.0604330    0.0156353  
   0.704964800    -0.0552363    0.0215919  
   0.706964700    -0.0490960    0.0266198  
   0.708964600    -0.0421049    0.0305785  
   0.710964500    -0.0347206    0.0335278  
   0.712964400    -0.0270160    0.0351029  
   0.714964300    -0.0190920    0.0354158  
   0.716964200    -0.0113026    0.0345357  
   0.718964100    -0.0038384    0.0324678  
   0.720964000     0.0031712    0.0292794  
   0.722963900     0.0096317    0.0249107  
   0.724963800     0.0154026    0.0197595  
   0.726963700     0.0203071    0.0138155  
   0.728963600     0.0241029    0.0071917  
   0.730963500     0.0267106   -0.0001182  
   0.732963400     0.0282706   -0.0075955  
   0.734963300     0.0287896   -0.0153379  
   0.736963200     0.0285869   -0.0242268  
   0.738963100     0.0268621   -0.0328212  
   0.740963000     0.0236282   -0.0410392  
   0.742962900     0.0190126   -0.0484698  
   0.744962800     0.0132144   -0.0548456  
   0.746962700     0.0065172   -0.0600236  
   0.748962600    -0.0008542   -0.0639997  
   0.750962500    -0.0030389   -0.0625785  
   0.752962400    -0.0106215   -0.0662215  
   0.754962300    -0.0187703   -0.0684233  
   0.756962200    -0.0272497   -0.0691444  
   0.758962100    -0.0358236   -0.0683147  
   0.760962000    -0.0442452   -0.0659647  
   0.762961900    -0.0520084   -0.0624665  
   0.764961800    -0.0590265   -0.0583692  
   0.766961700    -0.0654099   -0.0532906  
   0.768961600    -0.0710462   -0.0473640  
   0.770961500    -0.0757889   -0.0406974  
   0.772961400    -0.0796301   -0.0334057  
   0.774961300    -0.0825321   -0.0256163  
   0.776961200    -0.0843001   -0.0172932  
   0.778961100    -0.0847331   -0.0091031  
   0.780961000    -0.0839950   -0.0009478  
   0.782960900    -0.0820113    0.0070209  
   0.784960800    -0.0787588    0.0146584  
   0.786960700    -0.0743799    0.0217142  
   0.788960600    -0.0689684    0.0281558  
   0.790960500    -0.0626488    0.0337356  
   0.792960400    -0.0556296    0.0382134  
   0.794960300    -0.0480094    0.0415584  
   0.796960200    -0.0401451    0.0437382  
   0.798960100    -0.0319561    0.0446335  
   0.800960000    -0.0238675    0.0443255  
   0.802959900    -0.0159433    0.0427569  
   0.804959800    -0.0084981    0.0399899  
   0.806959700    -0.0017641    0.0361018  
   0.808959600     0.0044321    0.0312052  
   0.810959500     0.0096691    0.0253645  
   0.812959400     0.0140413    0.0187715  
   0.814959300     0.0172233    0.0115085  
   0.816959200     0.0192953    0.0037433  
   0.818959100     0.0201439   -0.0042962  
   0.820959000     0.0196469   -0.0123027  
   0.822958900     0.0178567   -0.0201691  
   0.824958800     0.0148683   -0.0279342  
   0.826958700     0.0106814   -0.0349492  
   0.828958600     0.0053590   -0.0412650  
   0.830958500    -0.0009168   -0.0467067  
   0.832958400    -0.0080551   -0.0511368  
   0.834958300    -0.0158874   -0.0544732  
   0.836958200    -0.0242369   -0.0565615  
   0.838958100    -0.0328669   -0.0573813  
   0.840958000    -0.0416510   -0.0568982  
   0.842957900    -0.0502857   -0.0550464  
   0.844957800    -0.0588184   -0.0517841  
   0.846957700    -0.0666264   -0.0473067  
   0.848957600    -0.0737492   -0.0416971  
   0.850957500    -0.0801265   -0.0350464  
   0.852957400    -0.0855236   -0.0272229  
   0.854957300    -0.0896615   -0.0188505  
   0.856957200    -0.0925566   -0.0098900  
   0.858957100    -0.0940652   -0.0005522  
   0.860957000    -0.0943696    0.0089037  
   0.862956900    -0.0933365    0.0182587  
   0.864956800    -0.0911720    0.0272787  
   0.866956700    -0.0877930    0.0358632  
   0.868956600    -0.0832040    0.0437540  
   0.870956500    -0.0775631    0.0510584  
   0.872956400    -0.0708989    0.0575189  
   0.874956300    -0.0634311    0.0628323  
   0.876956200    -0.0551421    0.0671301  
   0.878956100    -0.0463291    0.0701722  
   0.880956000    -0.0371471    0.0719401  
   0.882955900    -0.0278285    0.0723834  
   0.884955800    -0.0186152    0.0714200  
   0.886955700    -0.0093903    0.0692459  
   0.888955600    -0.0009279    0.0657776  
   0.890955500     0.0068307    0.0611466  
   0.892955400     0.0137396    0.0554779  
   0.894955300     0.0195885    0.0488799  
