! MS46122B
! 2250307/22442219
! 7/24/2025 7:44:25 AM
! C:\USERS\SPARKY\DOCUMENTS\VNA_DATA\JULY24_2025\3K\ECAL_LOAD_C_REPEAT1.S1P
! CHANNEL.1
! TR.MEASUREMENT
! RAW.DATA
# GHZ S RI R 50.0
! FREQ.GHZ         S11RE         S11IM         
!; PortSelection: Port_1
   0.001000000     1.0450990   -0.0726784  
   0.002999900     0.9520332   -0.1947140  
   0.004999800     0.8768547   -0.2787655  
   0.006999700     0.7921239   -0.3678492  
   0.008999600     0.7014057   -0.4066390  
   0.010999500     0.6249079   -0.4329389  
   0.012999400     0.5579063   -0.4485728  
   0.014999300     0.5003687   -0.4563320  
   0.016999200     0.4504128   -0.4578275  
   0.018999100     0.4081730   -0.4547225  
   0.020999000     0.3728468   -0.4488636  
   0.022998900     0.3424604   -0.4415550  
   0.024998800     0.3116224   -0.4115736  
   0.026998700     0.2939095   -0.4234023  
   0.028998600     0.2739274   -0.4136076  
   0.030998500     0.2558971   -0.4037887  
   0.032998400     0.2360757   -0.3765614  
   0.034998300     0.2235973   -0.3842308  
   0.036998200     0.2094976   -0.3749690  
   0.038998100     0.1963665   -0.3659898  
   0.040998000     0.1838640   -0.3573307  
   0.042997900     0.1720753   -0.3489815  
   0.044997800     0.1596785   -0.3269384  
   0.046997700     0.1494640   -0.3335831  
   0.048997600     0.1393384   -0.3261778  
   0.050997500     0.1298166   -0.3190165  
   0.052997400     0.1209403   -0.3120756  
   0.054997300     0.1126856   -0.3053290  
   0.056997200     0.1044551   -0.2992557  
   0.058997100     0.0970685   -0.2932721  
   0.060997000     0.0900499   -0.2876302  
   0.062996900     0.0835236   -0.2822371  
   0.064996800     0.0775128   -0.2770520  
   0.066996700     0.0718707   -0.2720661  
   0.068996600     0.0666071   -0.2672275  
   0.070996500     0.0616549   -0.2627510  
   0.072996400     0.0569241   -0.2581424  
   0.074996300     0.0524455   -0.2536415  
   0.076996200     0.0481761   -0.2491356  
   0.078996100     0.0440677   -0.2447041  
   0.080996000     0.0400598   -0.2403325  
   0.082995900     0.0361065   -0.2359741  
   0.084995800     0.0324139   -0.2313752  
   0.086995700     0.0286231   -0.2268680  
   0.088995600     0.0251901   -0.2224623  
   0.090995500     0.0219425   -0.2180720  
   0.092995400     0.0188313   -0.2138619  
   0.094995300     0.0159260   -0.2094649  
   0.096995200     0.0131635   -0.2050786  
   0.098995100     0.0106075   -0.2007514  
   0.100995000     0.0070133   -0.1971760  
   0.102994900     0.0047791   -0.1928570  
   0.104994800     0.0026860   -0.1885583  
   0.106994700     0.0009899   -0.1842322  
   0.108994600    -0.0004984   -0.1801718  
   0.110994500    -0.0017495   -0.1761823  
   0.112994400    -0.0027832   -0.1723607  
   0.114994300    -0.0036233   -0.1686520  
   0.116994200    -0.0042626   -0.1651127  
   0.118994100    -0.0047133   -0.1617364  
   0.120994000    -0.0048096   -0.1586580  
   0.122993900    -0.0050164   -0.1555879  
   0.124993800    -0.0051280   -0.1527506  
   0.126993700    -0.0051513   -0.1501766  
   0.128993600    -0.0051067   -0.1477853  
   0.130993500    -0.0050360   -0.1456218  
   0.132993400    -0.0049871   -0.1436830  
   0.134993300    -0.0049706   -0.1419948  
   0.136993200    -0.0050256   -0.1404411  
   0.138993100    -0.0051749   -0.1390788  
   0.140993000    -0.0054751   -0.1378421  
   0.142992900    -0.0059138   -0.1367677  
   0.144992800    -0.0064724   -0.1358936  
   0.146992700    -0.0072234   -0.1349544  
   0.148992600    -0.0081527   -0.1340397  
   0.150992500    -0.0091902   -0.1329881  
   0.152992400    -0.0104565   -0.1320122  
   0.154992300    -0.0118692   -0.1309380  
   0.156992200    -0.0134275   -0.1297409  
   0.158992100    -0.0150827   -0.1284052  
   0.160992000    -0.0168405   -0.1268631  
   0.162991900    -0.0186644   -0.1251401  
   0.164991800    -0.0205024   -0.1231799  
   0.166991700    -0.0222994   -0.1209764  
   0.168991600    -0.0240779   -0.1185369  
   0.170991500    -0.0257778   -0.1158197  
   0.172991400    -0.0272729   -0.1129018  
   0.174991300    -0.0285670   -0.1097583  
   0.176991200    -0.0296317   -0.1063952  
   0.178991100    -0.0304382   -0.1028542  
   0.180991000    -0.0309187   -0.0991830  
   0.182990900    -0.0310595   -0.0953581  
   0.184990800    -0.0307862   -0.0914748  
   0.186990700    -0.0301140   -0.0875877  
   0.188990600    -0.0272285   -0.0843620  
   0.190990500    -0.0272980   -0.0800462  
   0.192990400    -0.0256143   -0.0763469  
   0.194990300    -0.0232811   -0.0729626  
   0.196990200    -0.0205405   -0.0698796  
   0.198990100    -0.0174763   -0.0671699  
   0.200990000    -0.0140875   -0.0647998  
   0.202989900    -0.0104264   -0.0628822  
   0.204989800    -0.0065684   -0.0614507  
   0.206989700    -0.0025739   -0.0605467  
   0.208989600     0.0015486   -0.0601929  
   0.210989500     0.0056874   -0.0603705  
   0.212989400     0.0098000   -0.0611232  
   0.214989300     0.0137708   -0.0624338  
   0.216989200     0.0175409   -0.0642922  
   0.218989100     0.0210270   -0.0666488  
   0.220989000     0.0241655   -0.0694959  
   0.222988900     0.0268712   -0.0727817  
   0.224988800     0.0291169   -0.0764588  
   0.226988700     0.0308310   -0.0804340  
   0.228988600     0.0319891   -0.0846909  
   0.230988500     0.0325935   -0.0890880  
   0.232988400     0.0325802   -0.0935179  
   0.234988300     0.0319586   -0.0980396  
   0.236988200     0.0306937   -0.1024817  
   0.238988100     0.0288584   -0.1067865  
   0.240988000     0.0264767   -0.1108372  
   0.242987900     0.0236269   -0.1146070  
   0.244987800     0.0202912   -0.1180323  
   0.246987700     0.0165278   -0.1210216  
   0.248987600     0.0122991   -0.1235203  
   0.250987500     0.0077950   -0.1255880  
   0.252987400     0.0031372   -0.1270657  
   0.254987300    -0.0015550   -0.1280177  
   0.256987200    -0.0063564   -0.1285085  
   0.258987100    -0.0111243   -0.1283410  
   0.260987000    -0.0158186   -0.1276168  
   0.262986900    -0.0203195   -0.1262626  
   0.264986800    -0.0246033   -0.1244585  
   0.266986700    -0.0285434   -0.1222297  
   0.268986600    -0.0321109   -0.1196493  
   0.270986500    -0.0352080   -0.1167776  
   0.272986400    -0.0377978   -0.1137098  
   0.274986300    -0.0400136   -0.1105430  
   0.276986200    -0.0417079   -0.1072858  
   0.278986100    -0.0429449   -0.1039769  
   0.280986000    -0.0436675   -0.1007361  
   0.282985900    -0.0439702   -0.0976085  
   0.284985800    -0.0438560   -0.0947298  
   0.286985700    -0.0433579   -0.0922108  
   0.288985600    -0.0424770   -0.0900938  
   0.290985500    -0.0413355   -0.0884422  
   0.292985400    -0.0400220   -0.0873333  
   0.294985300    -0.0387014   -0.0867148  
   0.296985200    -0.0374529   -0.0865282  
   0.298985100    -0.0364664   -0.0869069  
   0.300985000    -0.0357007   -0.0876698  
   0.302984900    -0.0353548   -0.0890242  
   0.304984800    -0.0354546   -0.0907742  
   0.306984700    -0.0361681   -0.0928745  
   0.308984600    -0.0375238   -0.0953607  
   0.310984500    -0.0396150   -0.0978888  
   0.312984400    -0.0426342   -0.1003228  
   0.314984300    -0.0465956   -0.1024755  
   0.316984200    -0.0516072   -0.1040708  
   0.318984100    -0.0576804   -0.1046659  
   0.320984000    -0.0645543   -0.1039072  
   0.322983900    -0.0718636   -0.1014732  
   0.324983800    -0.0791593   -0.0969651  
   0.326983700    -0.0855988   -0.0906075  
   0.328983600    -0.0904648   -0.0825842  
   0.330983500    -0.0930757   -0.0736407  
   0.332983400    -0.0931808   -0.0648293  
   0.334983300    -0.0912515   -0.0569963  
   0.336983200    -0.0879927   -0.0507830  
   0.338983100    -0.0842862   -0.0462427  
   0.340983000    -0.0807543   -0.0431534  
   0.342982900    -0.0778633   -0.0410089  
   0.344982800    -0.0756401   -0.0393042  
   0.346982700    -0.0741848   -0.0375833  
   0.348982600    -0.0729723   -0.0356446  
   0.350982500    -0.0722610   -0.0335500  
   0.352982400    -0.0716655   -0.0310754  
   0.354982300    -0.0712472   -0.0278821  
   0.356982200    -0.0707812   -0.0232878  
   0.358982100    -0.0698058   -0.0186299  
   0.360982000    -0.0682154   -0.0140566  
   0.362981900    -0.0660772   -0.0096589  
   0.364981800    -0.0632762   -0.0054648  
   0.366981700    -0.0599566   -0.0016931  
   0.368981600    -0.0560946    0.0016679  
   0.370981500    -0.0517782    0.0043979  
   0.372981400    -0.0472772    0.0064478  
   0.374981300    -0.0425906    0.0078000  
   0.376981200    -0.0411286   -0.0028115  
   0.378981100    -0.0366621   -0.0013940  
   0.380981000    -0.0321700   -0.0007774  
   0.382980900    -0.0278545   -0.0012962  
   0.384980800    -0.0237800   -0.0025587  
   0.386980700    -0.0200097   -0.0043908  
   0.388980600    -0.0166223   -0.0067240  
   0.390980500    -0.0136511   -0.0095353  
   0.392980400    -0.0111784   -0.0127883  
   0.394980300    -0.0092320   -0.0163263  
   0.396980200    -0.0078663   -0.0201070  
   0.398980100    -0.0071399   -0.0239365  
   0.400980000    -0.0070325   -0.0277796  
   0.402979900    -0.0075691   -0.0315311  
   0.404979800    -0.0086771   -0.0350831  
   0.406979700    -0.0103350   -0.0383587  
   0.408979600    -0.0124935   -0.0412456  
   0.410979500    -0.0151721   -0.0436402  
   0.412979400    -0.0182481   -0.0455011  
   0.414979300    -0.0217452   -0.0467981  
   0.416979200    -0.0253608   -0.0473813  
   0.418979100    -0.0290727   -0.0473395  
   0.420979000    -0.0327714   -0.0466356  
   0.422978900    -0.0363771   -0.0452389  
   0.424978800    -0.0397881   -0.0431735  
   0.426978700    -0.0429640   -0.0405213  
   0.428978600    -0.0456563   -0.0372955  
   0.430978500    -0.0477588   -0.0334993  
   0.432978400    -0.0492315   -0.0293110  
   0.434978300    -0.0500557   -0.0249952  
   0.436978200    -0.0501926   -0.0204344  
   0.438978100    -0.0495685   -0.0157295  
   0.440978000    -0.0482268   -0.0110754  
   0.442977900    -0.0461049   -0.0065387  
   0.444977800    -0.0432581   -0.0022611  
   0.446977700    -0.0397148    0.0016379  
   0.448977600    -0.0355173    0.0050797  
   0.450977500    -0.0307396    0.0079445  
   0.452977400    -0.0254721    0.0101522  
   0.454977300    -0.0198496    0.0116384  
   0.456977200    -0.0139430    0.0122892  
   0.458977100    -0.0079143    0.0120850  
   0.460977000    -0.0017858    0.0109419  
   0.462976900     0.0041858    0.0088953  
   0.464976800     0.0099010    0.0059489  
   0.466976700     0.0152351    0.0021214  
   0.468976600     0.0200398   -0.0024976  
   0.470976500     0.0242047   -0.0078820  
   0.472976400     0.0276099   -0.0139170  
   0.474976300     0.0301608   -0.0204643  
   0.476976200     0.0318036   -0.0274067  
   0.478976100     0.0325709   -0.0347630  
   0.480976000     0.0323287   -0.0420785  
   0.482975900     0.0311076   -0.0492533  
   0.484975800     0.0288497   -0.0563069  
   0.486975700     0.0256058   -0.0630389  
   0.488975600     0.0213258   -0.0694666  
   0.490975500     0.0161832   -0.0752262  
   0.492975400     0.0103226   -0.0802182  
   0.494975300     0.0036884   -0.0843517  
   0.496975200    -0.0035993   -0.0875611  
   0.498975100    -0.0111817   -0.0897017  
   0.500975000    -0.0191075   -0.0907726  
   0.502974900    -0.0271493   -0.0907312  
   0.504974800    -0.0351912   -0.0895397  
   0.506974700    -0.0430720   -0.0871561  
   0.508974600    -0.0508696   -0.0836315  
   0.510974500    -0.0581968   -0.0790712  
   0.512974400    -0.0646515   -0.0735679  
   0.514974300    -0.0701273   -0.0670734  
   0.516974200    -0.0745753   -0.0599788  
   0.518974100    -0.0778530   -0.0523007  
   0.520974000    -0.0799216   -0.0440164  
   0.522973900    -0.0807390   -0.0357251  
   0.524973800    -0.0803563   -0.0275612  
   0.526973700    -0.0787732   -0.0195862  
   0.528973600    -0.0760275   -0.0120392  
   0.530973500    -0.0722431   -0.0050526  
   0.532973400    -0.0674897    0.0012164  
   0.534973300    -0.0618893    0.0066184  
   0.536973200    -0.0556426    0.0110963  
   0.538973100    -0.0487987    0.0145656  
   0.540973000    -0.0416203    0.0169802  
   0.542972900    -0.0342633    0.0182994  
   0.544972800    -0.0268129    0.0185312  
   0.546972700    -0.0195122    0.0176166  
   0.548972600    -0.0124855    0.0156002  
   0.550972500    -0.0058290    0.0125421  
   0.552972400     0.0002337    0.0084348  
   0.554972300     0.0055814    0.0034317  
   0.556972200     0.0101206   -0.0023861  
   0.558972100     0.0138142   -0.0088970  
   0.560972000     0.0165117   -0.0158847  
   0.562971900     0.0180488   -0.0232642  
   0.564971800     0.0185092   -0.0308705  
   0.566971700     0.0177083   -0.0383838  
   0.568971600     0.0157688   -0.0457448  
   0.570971500     0.0126854   -0.0528026  
   0.572971400     0.0084269   -0.0594066  
   0.574971300     0.0029551   -0.0654656  
   0.576971200    -0.0033963   -0.0707552  
   0.578971100    -0.0105275   -0.0752555  
   0.580971000    -0.0183466   -0.0786093  
   0.582970900    -0.0266215   -0.0808537  
   0.584970800    -0.0352396   -0.0817792  
   0.586970700    -0.0440447   -0.0813659  
   0.588970600    -0.0528867   -0.0796136  
   0.590970500    -0.0614268   -0.0766009  
   0.592970400    -0.0695728   -0.0724619  
   0.594970300    -0.0772051   -0.0671857  
   0.596970200    -0.0840888   -0.0608177  
   0.598970100    -0.0900778   -0.0534873  
   0.600970000    -0.0950800   -0.0452697  
   0.602969900    -0.0989486   -0.0363837  
   0.604969800    -0.1016382   -0.0269239  
   0.606969700    -0.1030579   -0.0170773  
   0.608969600    -0.1030953   -0.0070490  
   0.610969500    -0.1017578    0.0030232  
   0.612969400    -0.0989998    0.0128286  
   0.614969300    -0.0949250    0.0222089  
   0.616969200    -0.0896255    0.0309528  
   0.618969100    -0.0832386    0.0389618  
   0.620969000    -0.0758535    0.0460391  
   0.622968900    -0.0675212    0.0520598  
   0.624968800    -0.0585064    0.0569285  
   0.626968700    -0.0488631    0.0604662  
   0.628968600    -0.0388644    0.0627925  
   0.630968500    -0.0285229    0.0638270  
   0.632968400    -0.0183179    0.0632187  
   0.634968300    -0.0082966    0.0612798  
   0.636968200     0.0013838    0.0579028  
   0.638968100     0.0105386    0.0531741  
   0.640968000     0.0188967    0.0472413  
   0.642967900     0.0262178    0.0403525  
   0.644967800     0.0324056    0.0325412  
   0.646967700     0.0374123    0.0240333  
   0.648967600     0.0410816    0.0150194  
   0.650967500     0.0433967    0.0057046  
   0.652967400     0.0443111   -0.0037123  
   0.654967300     0.0439693   -0.0132427  
   0.656967200     0.0422727   -0.0223859  
   0.658967100     0.0390859   -0.0312397  
   0.660967000     0.0347731   -0.0393569  
   0.662966900     0.0293615   -0.0467618  
   0.664966800     0.0229705   -0.0532915  
   0.666966700     0.0157536   -0.0588106  
   0.668966600     0.0076813   -0.0631602  
   0.670966500    -0.0008736   -0.0662511  
   0.672966400    -0.0093654   -0.0681227  
   0.674966300    -0.0180498   -0.0684618  
   0.676966200    -0.0265989   -0.0675003  
   0.678966100    -0.0348194   -0.0652085  
   0.680966000    -0.0425269   -0.0617152  
   0.682965900    -0.0495366   -0.0571318  
   0.684965800    -0.0557263   -0.0515388  
   0.686965700    -0.0610119   -0.0450609  
   0.688965600    -0.0651676   -0.0379914  
   0.690965500    -0.0682122   -0.0304615  
   0.692965400    -0.0699847   -0.0225853  
   0.694965300    -0.0705371   -0.0145628  
   0.696965200    -0.0698366   -0.0066097  
   0.698965100    -0.0679077    0.0011182  
   0.700965000    -0.0647639    0.0083622  
   0.702964900    -0.0605622    0.0151541  
   0.704964800    -0.0553981    0.0211578  
   0.706964700    -0.0492515    0.0262484  
   0.708964600    -0.0422708    0.0302453  
   0.710964500    -0.0348898    0.0332360  
   0.712964400    -0.0271804    0.0348696  
   0.714964300    -0.0192369    0.0352072  
   0.716964200    -0.0114236    0.0343733  
   0.718964100    -0.0038982    0.0323197  
   0.720964000     0.0030998    0.0291586  
   0.722963900     0.0096115    0.0248436  
   0.724963800     0.0154351    0.0196944  
   0.726963700     0.0203991    0.0137802  
   0.728963600     0.0242246    0.0071489  
   0.730963500     0.0268617   -0.0001705  
   0.732963400     0.0284655   -0.0076680  
   0.734963300     0.0290248   -0.0154090  
   0.736963200     0.0288441   -0.0243429  
   0.738963100     0.0271603   -0.0329396  
   0.740963000     0.0239557   -0.0412120  
   0.742962900     0.0193451   -0.0486954  
   0.744962800     0.0135725   -0.0551326  
   0.746962700     0.0068620   -0.0603502  
   0.748962600    -0.0005391   -0.0643887  
   0.750962500    -0.0026056   -0.0628806  
   0.752962400    -0.0101888   -0.0665839  
   0.754962300    -0.0183549   -0.0688526  
   0.756962200    -0.0268794   -0.0696090  
   0.758962100    -0.0354664   -0.0688321  
   0.760962000    -0.0439221   -0.0665217  
   0.762961900    -0.0517448   -0.0630691  
   0.764961800    -0.0587823   -0.0589876  
   0.766961700    -0.0652199   -0.0539253  
   0.768961600    -0.0708946   -0.0480000  
   0.770961500    -0.0756939   -0.0413212  
   0.772961400    -0.0795808   -0.0340492  
   0.774961300    -0.0825035   -0.0262474  
   0.776961200    -0.0843310   -0.0179063  
   0.778961100    -0.0847966   -0.0096862  
   0.780961000    -0.0840947   -0.0015000  
   0.782960900    -0.0821360    0.0065061  
   0.784960800    -0.0789434    0.0141598  
   0.786960700    -0.0745390    0.0212738  
   0.788960600    -0.0691680    0.0277095  
   0.790960500    -0.0628251    0.0333865  
   0.792960400    -0.0558056    0.0379000  
   0.794960300    -0.0481951    0.0413038  
   0.796960200    -0.0403263    0.0435554  
   0.798960100    -0.0321133    0.0444855  
   0.800960000    -0.0239624    0.0441828  
   0.802959900    -0.0160238    0.0426335  
   0.804959800    -0.0085399    0.0398900  
   0.806959700    -0.0017467    0.0360485  
   0.808959600     0.0044595    0.0311263  
   0.810959500     0.0097533    0.0253227  
   0.812959400     0.0141677    0.0187219  
   0.814959300     0.0173850    0.0114561  
   0.816959200     0.0194799    0.0037087  
   0.818959100     0.0204111   -0.0043932  
   0.820959000     0.0199349   -0.0124240  
   0.822958900     0.0182069   -0.0203163  
   0.824958800     0.0152391   -0.0281332  
   0.826958700     0.0110649   -0.0351742  
   0.828958600     0.0057655   -0.0415492  
   0.830958500    -0.0005096   -0.0470547  
   0.832958400    -0.0076441   -0.0515313  
   0.834958300    -0.0154815   -0.0549071  
   0.836958200    -0.0238607   -0.0570447  
   0.838958100    -0.0325132   -0.0578974  
   0.840958000    -0.0413152   -0.0574557  
   0.842957900    -0.0499917   -0.0556475  
   0.844957800    -0.0585377   -0.0523990  
   0.846957700    -0.0664150   -0.0479539  
   0.848957600    -0.0735883   -0.0423652  
   0.850957500    -0.0800256   -0.0357218  
   0.852957400    -0.0854803   -0.0278971  
   0.854957300    -0.0896561   -0.0195077  
   0.856957200    -0.0926152   -0.0105314  
   0.858957100    -0.0942439   -0.0012204  
   0.860957000    -0.0944901    0.0083105  
   0.862956900    -0.0935321    0.0177010  
   0.864956800    -0.0914158    0.0267565  
   0.866956700    -0.0880613    0.0353730  
   0.868956600    -0.0834895    0.0433210  
   0.870956500    -0.0778682    0.0506702  
   0.872956400    -0.0712071    0.0571866  
   0.874956300    -0.0637339    0.0625652  
   0.876956200    -0.0554335    0.0669143  
   0.878956100    -0.0466154    0.0700259  
   0.880956000    -0.0373815    0.0718636  
   0.882955900    -0.0280287    0.0723329  
   0.884955800    -0.0187530    0.0714610  
   0.886955700    -0.0095262    0.0692699  
   0.888955600    -0.0010393    0.0658322  
   0.890955500     0.0067978    0.0612243  
   0.892955400     0.0137443    0.0555659  
   0.894955300     0.0196635    0.0489755  
