! MS46122B
! 2250307/22442219
! 7/22/2025 7:42:51 AM
! C:\USERS\SPARKY\DOCUMENTS\VNA_DATA\JULY22_2025\3K\ECAL_SHORT_A.S1P
! CHANNEL.1
! TR.MEASUREMENT
! RAW.DATA
# GHZ S RI R 50.0
! FREQ.GHZ         S11RE         S11IM         
!; PortSelection: Port_1
   0.001000000     1.0458870   -0.0715418  
   0.002999900     0.9645470   -0.1941454  
   0.004999800     0.9050264   -0.2992117  
   0.006999700     0.8383774   -0.3968916  
   0.008999600     0.7614938   -0.4924172  
   0.010999500     0.6709826   -0.5837451  
   0.012999400     0.5617001   -0.6687571  
   0.014999300     0.4286410   -0.7423230  
   0.016999200     0.2646388   -0.7942902  
   0.018999100     0.0646969   -0.8082309  
   0.020999000    -0.1683756   -0.7560570  
   0.022998900    -0.4122131   -0.5997407  
   0.024998800    -0.5791699   -0.3076270  
   0.026998700    -0.6380680    0.0921674  
   0.028998600    -0.4524571    0.4784088  
   0.030998500    -0.1065834    0.7068510  
   0.032998400     0.2362495    0.7185804  
   0.034998300     0.5533006    0.6349176  
   0.036998200     0.7513484    0.4691761  
   0.038998100     0.8697398    0.2877649  
   0.040998000     0.9287166    0.1131058  
   0.042997900     0.9470599   -0.0461411  
   0.044997800     0.9065089   -0.1652600  
   0.046997700     0.9041063   -0.3128440  
   0.048997600     0.8589696   -0.4221163  
   0.050997500     0.8028786   -0.5169910  
   0.052997400     0.7391427   -0.5989687  
   0.054997300     0.6702703   -0.6693968  
   0.056997200     0.5946278   -0.7314037  
   0.058997100     0.5164274   -0.7827005  
   0.060997000     0.4347720   -0.8250994  
   0.062996900     0.3500360   -0.8590286  
   0.064996800     0.2629232   -0.8840200  
   0.066996700     0.1730223   -0.9000033  
   0.068996600     0.0813715   -0.9071347  
   0.070996500    -0.0116831   -0.9054318  
   0.072996400    -0.1057831   -0.8926696  
   0.074996300    -0.2006436   -0.8690077  
   0.076996200    -0.2948219   -0.8339283  
   0.078996100    -0.3870800   -0.7866876  
   0.080996000    -0.4762416   -0.7264369  
   0.082995900    -0.5603487   -0.6524576  
   0.084995800    -0.6367903   -0.5636073  
   0.086995700    -0.7039592   -0.4615369  
   0.088995600    -0.7587493   -0.3450994  
   0.090995500    -0.7968582   -0.2158374  
   0.092995400    -0.8160294   -0.0749780  
   0.094995300    -0.8100264    0.0740993  
   0.096995200    -0.7764981    0.2275131  
   0.098995100    -0.7120242    0.3785014  
   0.100995000    -0.6148433    0.5212218  
   0.102994900    -0.4875905    0.6440719  
   0.104994800    -0.3332757    0.7402725  
   0.106994700    -0.1584863    0.8018084  
   0.108994600     0.0265296    0.8250185  
   0.110994500     0.2121469    0.8079110  
   0.112994400     0.3880215    0.7512319  
   0.114994300     0.5447377    0.6606809  
   0.116994200     0.6754201    0.5428329  
   0.118994100     0.7761271    0.4053990  
   0.120994000     0.8475247    0.2573796  
   0.122993900     0.8864026    0.1046882  
   0.124993800     0.8967532   -0.0457569  
   0.126993700     0.8819025   -0.1896638  
   0.128993600     0.8438628   -0.3222288  
   0.130993500     0.7891645   -0.4427840  
   0.132993400     0.7198856   -0.5496768  
   0.134993300     0.6388823   -0.6413860  
   0.136993200     0.5484477   -0.7188068  
   0.138993100     0.4515188   -0.7810739  
   0.140993000     0.3499308   -0.8288679  
   0.142992900     0.2451018   -0.8624302  
   0.144992800     0.1392284   -0.8830947  
   0.146992700     0.0323252   -0.8895916  
   0.148992600    -0.0730043   -0.8827213  
   0.150992500    -0.1763771   -0.8620809  
   0.152992400    -0.2766584   -0.8302893  
   0.154992300    -0.3719234   -0.7860167  
   0.156992200    -0.4626711   -0.7305440  
   0.158992100    -0.5460016   -0.6636242  
   0.160992000    -0.6217588   -0.5857155  
   0.162991900    -0.6879931   -0.4975958  
   0.164991800    -0.7436268   -0.3994865  
   0.166991700    -0.7866648   -0.2929240  
   0.168991600    -0.8152454   -0.1788385  
   0.170991500    -0.8285249   -0.0581157  
   0.172991400    -0.8247450    0.0657911  
   0.174991300    -0.8020259    0.1913274  
   0.176991200    -0.7595704    0.3160554  
   0.178991100    -0.6963424    0.4360905  
   0.180991000    -0.6137287    0.5480887  
   0.182990900    -0.5105317    0.6470352  
   0.184990800    -0.3888568    0.7294145  
   0.186990700    -0.2518585    0.7912928  
   0.188990600    -0.1281449    0.8249633  
   0.190990500     0.0466342    0.8387042  
   0.192990400     0.2056709    0.8209503  
   0.194990300     0.3564339    0.7756986  
   0.196990200     0.4961545    0.7038136  
   0.198990100     0.6200048    0.6083337  
   0.200990000     0.7239818    0.4926844  
   0.202989900     0.8050713    0.3616778  
   0.204989800     0.8610245    0.2208457  
   0.206989700     0.8919957    0.0759236  
   0.208989600     0.8969026   -0.0686736  
   0.210989500     0.8780377   -0.2095608  
   0.212989400     0.8375873   -0.3422169  
   0.214989300     0.7782672   -0.4640235  
   0.216989200     0.7033601   -0.5718677  
   0.218989100     0.6152487   -0.6647252  
   0.220989000     0.5165855   -0.7423418  
   0.222988900     0.4099610   -0.8037434  
   0.224988800     0.2979188   -0.8485050  
   0.226988700     0.1826914   -0.8771401  
   0.228988600     0.0674594   -0.8893932  
   0.230988500    -0.0472057   -0.8857940  
   0.232988400    -0.1594709   -0.8664153  
   0.234988300    -0.2678387   -0.8336107  
   0.236988200    -0.3707202   -0.7868794  
   0.238988100    -0.4663766   -0.7270260  
   0.240988000    -0.5530587   -0.6552178  
   0.242987900    -0.6296809   -0.5725051  
   0.244987800    -0.6951104   -0.4795173  
   0.246987700    -0.7480809   -0.3771360  
   0.248987600    -0.7872963   -0.2666481  
   0.250987500    -0.8107888   -0.1495562  
   0.252987400    -0.8175728   -0.0288392  
   0.254987300    -0.8066916    0.0931999  
   0.256987200    -0.7774757    0.2146252  
   0.258987100    -0.7303399    0.3335291  
   0.260987000    -0.6627070    0.4461203  
   0.262986900    -0.5755900    0.5488058  
   0.264986800    -0.4710462    0.6382018  
   0.266986700    -0.3498782    0.7103476  
   0.268986600    -0.2165579    0.7614691  
   0.270986500    -0.0741896    0.7892264  
   0.272986400     0.0724128    0.7919327  
   0.274986300     0.2190917    0.7680724  
   0.276986200     0.3597214    0.7179387  
   0.278986100     0.4902071    0.6425330  
   0.280986000     0.6050243    0.5447817  
   0.282985900     0.6996088    0.4281295  
   0.284985800     0.7709079    0.2974504  
   0.286985700     0.8169149    0.1583185  
   0.288985600     0.8375208    0.0161596  
   0.290985500     0.8331051   -0.1241483  
   0.292985400     0.8058042   -0.2588516  
   0.294985300     0.7581720   -0.3841709  
   0.296985200     0.6916540   -0.4975764  
   0.298985100     0.6100542   -0.5972086  
   0.300985000     0.5163740   -0.6810967  
   0.302984900     0.4138931   -0.7477558  
   0.304984800     0.3054057   -0.7972645  
   0.306984700     0.1942225   -0.8296350  
   0.308984600     0.0830623   -0.8461848  
   0.310984500    -0.0262989   -0.8471615  
   0.312984400    -0.1324874   -0.8341356  
   0.314984300    -0.2340310   -0.8081383  
   0.316984200    -0.3300536   -0.7702243  
   0.318984100    -0.4203672   -0.7213006  
   0.320984000    -0.5034913   -0.6623729  
   0.322983900    -0.5791119   -0.5939465  
   0.324983800    -0.6466354   -0.5179658  
   0.326983700    -0.7053466   -0.4339871  
   0.328983600    -0.7549714   -0.3422117  
   0.330983500    -0.7942198   -0.2427050  
   0.332983400    -0.8206902   -0.1362462  
   0.334983300    -0.8318068   -0.0236939  
   0.336983200    -0.8254073    0.0921721  
   0.338983100    -0.8011698    0.2070698  
   0.340983000    -0.7590102    0.3178484  
   0.342982900    -0.7002719    0.4219484  
   0.344982800    -0.6260917    0.5171496  
   0.346982700    -0.5377139    0.6017522  
   0.348982600    -0.4359577    0.6719367  
   0.350982500    -0.3246433    0.7277700  
   0.352982400    -0.2048844    0.7667150  
   0.354982300    -0.0735894    0.7877409  
   0.356982200     0.0739001    0.7856586  
   0.358982100     0.2196281    0.7569508  
   0.360982000     0.3582826    0.7018868  
   0.362981900     0.4855127    0.6223614  
   0.364981800     0.5969040    0.5201758  
   0.366981700     0.6880894    0.3982258  
   0.368981600     0.7551833    0.2604367  
   0.370981500     0.7956921    0.1119929  
   0.372981400     0.8075962   -0.0416526  
   0.374981300     0.7902192   -0.1957201  
   0.376981200     0.8081936   -0.0873078  
   0.378981100     0.7812966   -0.2390999  
   0.380981000     0.7267203   -0.3819436  
   0.382980900     0.6549035   -0.5007994  
   0.384980800     0.5688190   -0.6001959  
   0.386980700     0.4691527   -0.6837216  
   0.388980600     0.3582697   -0.7491596  
   0.390980500     0.2411472   -0.7958683  
   0.392980400     0.1200542   -0.8233886  
   0.394980300    -0.0014104   -0.8321592  
   0.396980200    -0.1212784   -0.8227209  
   0.398980100    -0.2373090   -0.7964443  
   0.400980000    -0.3466248   -0.7537209  
   0.402979900    -0.4482071   -0.6960843  
   0.404979800    -0.5391922   -0.6257561  
   0.406979700    -0.6190805   -0.5437348  
   0.408979600    -0.6859910   -0.4521787  
   0.410979500    -0.7396715   -0.3518606  
   0.412979400    -0.7792338   -0.2440402  
   0.414979300    -0.8017360   -0.1319948  
   0.416979200    -0.8102975   -0.0173072  
   0.418979100    -0.8025081    0.0970615  
   0.420979000    -0.7784011    0.2100955  
   0.422978900    -0.7382171    0.3199827  
   0.424978800    -0.6820169    0.4235089  
   0.426978700    -0.6112070    0.5190636  
   0.428978600    -0.5261788    0.6043471  
   0.430978500    -0.4288684    0.6764562  
   0.432978400    -0.3212429    0.7338662  
   0.434978300    -0.2054327    0.7765001  
   0.436978200    -0.0827600    0.8000877  
   0.438978100     0.0433591    0.8048632  
   0.440978000     0.1701993    0.7900741  
   0.442977900     0.2945542    0.7551054  
   0.444977800     0.4126434    0.7009701  
   0.446977700     0.5215408    0.6284059  
   0.448977600     0.6179956    0.5386803  
   0.450977500     0.6990828    0.4342449  
   0.452977400     0.7627642    0.3175445  
   0.454977300     0.8067648    0.1912930  
   0.456977200     0.8297746    0.0591830  
   0.458977100     0.8310627   -0.0743904  
   0.460977000     0.8103332   -0.2060538  
   0.462976900     0.7696723   -0.3311998  
   0.464976800     0.7095618   -0.4476975  
   0.466976700     0.6328787   -0.5521631  
   0.468976600     0.5413443   -0.6418488  
   0.470976500     0.4382314   -0.7157602  
   0.472976400     0.3264054   -0.7721930  
   0.474976300     0.2085180   -0.8103951  
   0.476976200     0.0881692   -0.8303316  
   0.478976100    -0.0317935   -0.8320758  
   0.480976000    -0.1489442   -0.8166263  
   0.482975900    -0.2608280   -0.7848266  
   0.484975800    -0.3661541   -0.7381302  
   0.486975700    -0.4634637   -0.6772138  
   0.488975600    -0.5505489   -0.6041747  
   0.490975500    -0.6264770   -0.5196964  
   0.492975400    -0.6895573   -0.4256799  
   0.494975300    -0.7392524   -0.3235920  
   0.496975200    -0.7743555   -0.2150234  
   0.498975100    -0.7934939   -0.1030780  
   0.500975000    -0.7966517    0.0115334  
   0.502974900    -0.7832916    0.1262200  
   0.504974800    -0.7528786    0.2385157  
   0.506974700    -0.7059070    0.3466501  
   0.508974600    -0.6416163    0.4479140  
   0.510974500    -0.5616310    0.5387891  
   0.512974400    -0.4677617    0.6162134  
   0.514974300    -0.3620565    0.6767509  
   0.516974200    -0.2481674    0.7203937  
   0.518974100    -0.1292443    0.7446982  
   0.520974000    -0.0084499    0.7492608  
   0.522973900     0.1104433    0.7347471  
   0.524973800     0.2240271    0.7019427  
   0.526973700     0.3299094    0.6526521  
   0.528973600     0.4258044    0.5888099  
   0.530973500     0.5107464    0.5124792  
   0.532973400     0.5829426    0.4256577  
   0.534973300     0.6415136    0.3303166  
   0.536973200     0.6861433    0.2279430  
   0.538973100     0.7157586    0.1205693  
   0.540973000     0.7303187    0.0106938  
   0.542972900     0.7289122   -0.1010002  
   0.544972800     0.7111846   -0.2117754  
   0.546972700     0.6770476   -0.3196046  
   0.548972600     0.6269677   -0.4220307  
   0.550972500     0.5621321   -0.5164371  
   0.552972400     0.4827139   -0.6004861  
   0.554972300     0.3909670   -0.6720676  
   0.556972200     0.2892590   -0.7287369  
   0.558972100     0.1798454   -0.7695603  
   0.560972000     0.0656455   -0.7929638  
   0.562971900    -0.0504242   -0.7988692  
   0.564971800    -0.1658188   -0.7869291  
   0.566971700    -0.2773140   -0.7582943  
   0.568971600    -0.3832484   -0.7137328  
   0.570971500    -0.4810701   -0.6540549  
   0.572971400    -0.5689892   -0.5807536  
   0.574971300    -0.6455508   -0.4950408  
   0.576971200    -0.7087724   -0.3991884  
   0.578971100    -0.7577585   -0.2948969  
   0.580971000    -0.7908453   -0.1847808  
   0.582970900    -0.8076901   -0.0714776  
   0.584970800    -0.8078670    0.0431283  
   0.586970700    -0.7917981    0.1565185  
   0.588970600    -0.7597350    0.2664909  
   0.590970500    -0.7118278    0.3710110  
   0.592970400    -0.6491584    0.4682882  
   0.594970300    -0.5726559    0.5560786  
   0.596970200    -0.4838540    0.6321555  
   0.598970100    -0.3841907    0.6948202  
   0.600970000    -0.2750639    0.7426141  
   0.602969900    -0.1591270    0.7740701  
   0.604969800    -0.0382488    0.7879589  
   0.606969700     0.0843544    0.7830479  
   0.608969600     0.2065169    0.7588239  
   0.610969500     0.3239876    0.7157027  
   0.612969400     0.4345810    0.6540104  
   0.614969300     0.5341676    0.5753496  
   0.616969200     0.6203667    0.4811491  
   0.618969100     0.6903409    0.3745386  
   0.620969000     0.7426729    0.2581074  
   0.622968900     0.7754494    0.1343801  
   0.624968800     0.7878456    0.0064401  
   0.626968700     0.7790890   -0.1220740  
   0.628968600     0.7499888   -0.2474566  
   0.630968500     0.7010288   -0.3663422  
   0.632968400     0.6335590   -0.4750260  
   0.634968300     0.5498675   -0.5710318  
   0.636968200     0.4522889   -0.6517659  
   0.638968100     0.3444004   -0.7150151  
   0.640968000     0.2283737   -0.7605376  
   0.642967900     0.1081102   -0.7867664  
   0.644967800    -0.0133986   -0.7937055  
   0.646967700    -0.1332073   -0.7821346  
   0.648967600    -0.2483025   -0.7526544  
   0.650967500    -0.3561512   -0.7070950  
   0.652967400    -0.4549604   -0.6463068  
   0.654967300    -0.5429493   -0.5727566  
   0.656967200    -0.6185946   -0.4877024  
   0.658967100    -0.6806927   -0.3934949  
   0.660967000    -0.7284783   -0.2915326  
   0.662966900    -0.7611722   -0.1836242  
   0.664966800    -0.7778624   -0.0720979  
   0.666966700    -0.7784846    0.0406710  
   0.668966600    -0.7627698    0.1525701  
   0.670966500    -0.7311712    0.2614644  
   0.672966400    -0.6846728    0.3652858  
   0.674966300    -0.6228150    0.4609174  
   0.676966200    -0.5474021    0.5467422  
   0.678966100    -0.4597634    0.6210606  
   0.680966000    -0.3616355    0.6819673  
   0.682965900    -0.2544501    0.7280824  
   0.684965800    -0.1408994    0.7582890  
   0.686965700    -0.0227569    0.7705718  
   0.688965600     0.0968981    0.7650541  
   0.690965500     0.2151950    0.7396917  
   0.692965400     0.3290642    0.6970701  
   0.694965300     0.4357462    0.6368411  
   0.696965200     0.5321029    0.5599253  
   0.698965100     0.6155355    0.4680485  
   0.700965000     0.6833463    0.3634734  
   0.702964900     0.7340623    0.2487573  
   0.704964800     0.7654551    0.1272987  
   0.706964700     0.7767671    0.0019961  
   0.708964600     0.7678505   -0.1234166  
   0.710964500     0.7393695   -0.2455088  
   0.712964400     0.6913508   -0.3604058  
   0.714964300     0.6257680   -0.4652279  
   0.716964200     0.5452277   -0.5571162  
   0.718964100     0.4529170   -0.6337871  
   0.720964000     0.3514941   -0.6944299  
   0.722963900     0.2434700   -0.7383139  
   0.724963800     0.1320256   -0.7654901  
   0.726963700     0.0188956   -0.7755734  
   0.728963600    -0.0931395   -0.7696330  
   0.730963500    -0.2017610   -0.7467669  
   0.732963400    -0.3051490   -0.7105836  
   0.734963300    -0.4021045   -0.6599405  
   0.736963200    -0.5029349   -0.5853341  
   0.738963100    -0.5900028   -0.4949904  
   0.740963000    -0.6614764   -0.3921787  
   0.742962900    -0.7148888   -0.2787578  
   0.744962800    -0.7491214   -0.1578414  
   0.746962700    -0.7627004   -0.0324052  
   0.748962600    -0.7555510    0.0945621  
   0.750962500    -0.7752997   -0.0220182  
   0.752962400    -0.7656032    0.1061203  
   0.754962300    -0.7342848    0.2311645  
   0.756962200    -0.6820540    0.3497942  
   0.758962100    -0.6096944    0.4582970  
   0.760962000    -0.5192049    0.5529558  
   0.762961900    -0.4190646    0.6276267  
   0.764961800    -0.3185394    0.6804067  
   0.766961700    -0.2112094    0.7168022  
   0.768961600    -0.0988164    0.7366391  
   0.770961500     0.0149802    0.7396661  
   0.772961400     0.1277351    0.7250880  
   0.774961300     0.2367357    0.6939442  
   0.776961200     0.3402871    0.6462183  
   0.778961100     0.4355392    0.5839099  
   0.780961000     0.5208423    0.5071015  
   0.782960900     0.5939014    0.4177416  
   0.784960800     0.6530691    0.3180571  
   0.786960700     0.6963524    0.2099977  
   0.788960600     0.7226338    0.0961516  
   0.790960500     0.7311584   -0.0206103  
   0.792960400     0.7216456   -0.1372557  
   0.794960300     0.6941052   -0.2510720  
   0.796960200     0.6490697   -0.3594494  
   0.798960100     0.5881476   -0.4594184  
   0.800960000     0.5126300   -0.5485244  
   0.802959900     0.4240088   -0.6247327  
   0.804959800     0.3250987   -0.6865845  
   0.806959700     0.2183648   -0.7325202  
   0.808959600     0.1056618   -0.7614577  
   0.810959500    -0.0093783   -0.7726708  
   0.812959400    -0.1249638   -0.7663164  
   0.814959300    -0.2376346   -0.7424873  
   0.816959200    -0.3451591   -0.7023690  
   0.818959100    -0.4450663   -0.6465114  
   0.820959000    -0.5350612   -0.5768878  
   0.822958900    -0.6137333   -0.4946575  
   0.824958800    -0.6787647   -0.4021168  
   0.826958700    -0.7295366   -0.3012170  
   0.828958600    -0.7644802   -0.1942199  
   0.830958500    -0.7836212   -0.0836936  
   0.832958400    -0.7864545    0.0280653  
   0.834958300    -0.7731207    0.1387539  
   0.836958200    -0.7439771    0.2461859  
   0.838958100    -0.6996117    0.3477569  
   0.840958000    -0.6411319    0.4426591  
   0.842957900    -0.5693612    0.5284867  
   0.844957800    -0.4853801    0.6030339  
   0.846957700    -0.3912455    0.6650617  
   0.848957600    -0.2884855    0.7131118  
   0.850957500    -0.1791930    0.7455690  
   0.852957400    -0.0654612    0.7616556  
   0.854957300     0.0503067    0.7606923  
   0.856957200     0.1652710    0.7420148  
   0.858957100     0.2764859    0.7062407  
   0.860957000     0.3814898    0.6537392  
   0.862956900     0.4770749    0.5851704  
   0.864956800     0.5616269    0.5029879  
   0.866956700     0.6325315    0.4084212  
   0.868956600     0.6876740    0.3030623  
   0.870956500     0.7266284    0.1901386  
   0.872956400     0.7477879    0.0712682  
   0.874956300     0.7494634   -0.0499729  
   0.876956200     0.7318622   -0.1709929  
   0.878956100     0.6948033   -0.2877011  
   0.880956000     0.6394746   -0.3968212  
   0.882955900     0.5671514   -0.4960787  
   0.884955800     0.4800211   -0.5819545  
   0.886955700     0.3801291   -0.6523693  
   0.888955600     0.2710484   -0.7056398  
   0.890955500     0.1555526   -0.7401905  
   0.892955400     0.0367734   -0.7560707  
   0.894955300    -0.0818988   -0.7527303  
