! MS46122B
! 2250307/22442219
! 7/27/2025 9:14:15 AM
! C:\USERS\SPARKY\DOCUMENTS\VNA_DATA\JULY27_2025\3K\ECAL_OPEN_E.S1P
! CHANNEL.1
! TR.MEASUREMENT
! RAW.DATA
# GHZ S RI R 50.0
! FREQ.GHZ         S11RE         S11IM         
!; PortSelection: Port_1
   0.001000000     1.0456850   -0.0730211  
   0.002999900     0.9479530   -0.2223131  
   0.004999800     0.8084982   -0.0887215  
   0.006999700     0.5282692   -0.4046914  
   0.008999600     0.9405792   -0.0009591  
   0.010999500     0.9263515   -0.2277260  
   0.012999400     0.8868408   -0.3363077  
   0.014999300     0.8471295   -0.4182126  
   0.016999200     0.8071793   -0.4889327  
   0.018999100     0.7646070   -0.5545117  
   0.020999000     0.7181268   -0.6156557  
   0.022998900     0.6664621   -0.6716861  
   0.024998800     0.6008109   -0.6878434  
   0.026998700     0.5472780   -0.7702627  
   0.028998600     0.4780631   -0.8119832  
   0.030998500     0.4021462   -0.8474531  
   0.032998400     0.3219742   -0.8413583  
   0.034998300     0.2287284   -0.8958751  
   0.036998200     0.1319093   -0.9058867  
   0.038998100     0.0289563   -0.9045397  
   0.040998000    -0.0791589   -0.8891436  
   0.042997900    -0.1911312   -0.8587194  
   0.044997800    -0.2821617   -0.7885159  
   0.046997700    -0.4177633   -0.7405331  
   0.048997600    -0.5257838   -0.6492962  
   0.050997500    -0.6244484   -0.5330406  
   0.052997400    -0.7061307   -0.3910955  
   0.054997300    -0.7632411   -0.2241561  
   0.056997200    -0.7852508   -0.0342430  
   0.058997100    -0.7615791    0.1678852  
   0.060997000    -0.6852662    0.3690844  
   0.062996900    -0.5543736    0.5522604  
   0.064996800    -0.3741363    0.6974388  
   0.066996700    -0.1592565    0.7894303  
   0.068996600     0.0694588    0.8193688  
   0.070996500     0.2923602    0.7893533  
   0.072996400     0.4915135    0.7066300  
   0.074996300     0.6550385    0.5850712  
   0.076996200     0.7782346    0.4387115  
   0.078996100     0.8617617    0.2808681  
   0.080996000     0.9082657    0.1203068  
   0.082995900     0.9234112   -0.0349326  
   0.084995800     0.9110483   -0.1799899  
   0.086995700     0.8783566   -0.3129624  
   0.088995600     0.8281407   -0.4325132  
   0.090995500     0.7648988   -0.5377058  
   0.092995400     0.6920415   -0.6301070  
   0.094995300     0.6097361   -0.7080250  
   0.096995200     0.5215864   -0.7725808  
   0.098995100     0.4281253   -0.8248706  
   0.100995000     0.3317413   -0.8644249  
   0.102994900     0.2328356   -0.8920029  
   0.104994800     0.1326639   -0.9081143  
   0.106994700     0.0311614   -0.9120721  
   0.108994600    -0.0698208   -0.9055612  
   0.110994500    -0.1698472   -0.8873268  
   0.112994400    -0.2679672   -0.8574774  
   0.114994300    -0.3633091   -0.8159491  
   0.116994200    -0.4545852   -0.7624662  
   0.118994100    -0.5403869   -0.6969072  
   0.120994000    -0.6209519   -0.6208612  
   0.122993900    -0.6920565   -0.5314974  
   0.124993800    -0.7527878   -0.4306364  
   0.126993700    -0.8010811   -0.3186730  
   0.128993600    -0.8328531   -0.1967325  
   0.130993500    -0.8485888   -0.0669319  
   0.132993400    -0.8448802    0.0689481  
   0.134993300    -0.8185503    0.2078916  
   0.136993200    -0.7685663    0.3456806  
   0.138993100    -0.6931019    0.4779685  
   0.140993000    -0.5924101    0.5990318  
   0.142992900    -0.4677315    0.7032236  
   0.144992800    -0.3226542    0.7856682  
   0.146992700    -0.1605353    0.8388172  
   0.148992600     0.0115946    0.8593838  
   0.150992500     0.1848882    0.8447970  
   0.152992400     0.3533359    0.7972936  
   0.154992300     0.5077254    0.7178477  
   0.156992200     0.6422063    0.6107669  
   0.158992100     0.7516566    0.4823579  
   0.160992000     0.8326437    0.3384996  
   0.162991900     0.8844932    0.1862770  
   0.164991800     0.9078540    0.0317468  
   0.166991700     0.9037475   -0.1190704  
   0.168991600     0.8749691   -0.2624389  
   0.170991500     0.8248053   -0.3950519  
   0.172991400     0.7566946   -0.5136709  
   0.174991300     0.6741261   -0.6166928  
   0.176991200     0.5795975   -0.7044602  
   0.178991100     0.4762245   -0.7750952  
   0.180991000     0.3675911   -0.8303142  
   0.182990900     0.2541592   -0.8676078  
   0.184990800     0.1388312   -0.8894631  
   0.186990700     0.0229589   -0.8956741  
   0.188990600    -0.0658393   -0.8877748  
   0.190990500    -0.1976564   -0.8629265  
   0.192990400    -0.3075274   -0.8241060  
   0.194990300    -0.4080442   -0.7729226  
   0.196990200    -0.5008638   -0.7093055  
   0.198990100    -0.5848421   -0.6338676  
   0.200990000    -0.6590598   -0.5471296  
   0.202989900    -0.7220222   -0.4498529  
   0.204989800    -0.7721647   -0.3436567  
   0.206989700    -0.8091505   -0.2305912  
   0.208989600    -0.8289343   -0.1110713  
   0.210989500    -0.8315902    0.0131188  
   0.212989400    -0.8161051    0.1393745  
   0.214989300    -0.7813470    0.2649057  
   0.216989200    -0.7264704    0.3859578  
   0.218989100    -0.6522221    0.4995104  
   0.220989000    -0.5581499    0.6026317  
   0.222988900    -0.4456503    0.6911272  
   0.224988800    -0.3174828    0.7610540  
   0.226988700    -0.1768931    0.8093634  
   0.228988600    -0.0283130    0.8325793  
   0.230988500     0.1242216    0.8294394  
   0.232988400     0.2743712    0.7977482  
   0.234988300     0.4183875    0.7410588  
   0.236988200     0.5498278    0.6593283  
   0.238988100     0.6641456    0.5559958  
   0.240988000     0.7575051    0.4352360  
   0.242987900     0.8273306    0.3020191  
   0.244987800     0.8724623    0.1605773  
   0.246987700     0.8930619    0.0160287  
   0.248987600     0.8888654   -0.1274525  
   0.250987500     0.8623580   -0.2658485  
   0.252987400     0.8148074   -0.3945532  
   0.254987300     0.7499727   -0.5113671  
   0.256987200     0.6700258   -0.6141880  
   0.258987100     0.5789129   -0.7033499  
   0.260987000     0.4770915   -0.7757552  
   0.262986900     0.3678215   -0.8322220  
   0.264986800     0.2537894   -0.8720692  
   0.266986700     0.1371834   -0.8953722  
   0.268986600     0.0205737   -0.9028271  
   0.270986500    -0.0936624   -0.8948629  
   0.272986400    -0.2048724   -0.8723716  
   0.274986300    -0.3113759   -0.8359634  
   0.276986200    -0.4119275   -0.7862162  
   0.278986100    -0.5057683   -0.7236586  
   0.280986000    -0.5907888   -0.6491863  
   0.282985900    -0.6660299   -0.5639802  
   0.284985800    -0.7297140   -0.4684274  
   0.286985700    -0.7804523   -0.3646788  
   0.288985600    -0.8170771   -0.2546584  
   0.290985500    -0.8386721   -0.1392968  
   0.292985400    -0.8440555   -0.0199923  
   0.294985300    -0.8322695    0.1012967  
   0.296985200    -0.8019700    0.2232250  
   0.298985100    -0.7524355    0.3425749  
   0.300985000    -0.6822802    0.4551646  
   0.302984900    -0.5932308    0.5574521  
   0.304984800    -0.4855855    0.6451707  
   0.306984700    -0.3615475    0.7140597  
   0.308984600    -0.2251772    0.7601799  
   0.310984500    -0.0808747    0.7799883  
   0.312984400     0.0661126    0.7711462  
   0.314984300     0.2086388    0.7331825  
   0.316984200     0.3389820    0.6670488  
   0.318984100     0.4505529    0.5762841  
   0.320984000     0.5368901    0.4683978  
   0.322983900     0.5952618    0.3517137  
   0.324983800     0.6258747    0.2361744  
   0.326983700     0.6352804    0.1298575  
   0.328983600     0.6308827    0.0358740  
   0.330983500     0.6208147   -0.0461596  
   0.332983400     0.6102409   -0.1209011  
   0.334983300     0.6001163   -0.1950854  
   0.336983200     0.5872794   -0.2734801  
   0.338983100     0.5668648   -0.3582439  
   0.340983000     0.5327414   -0.4473529  
   0.342982900     0.4819432   -0.5365203  
   0.344982800     0.4124625   -0.6207719  
   0.346982700     0.3249818   -0.6945873  
   0.348982600     0.2230495   -0.7522450  
   0.350982500     0.1104063   -0.7926418  
   0.352982400    -0.0084985   -0.8129618  
   0.354982300    -0.1354633   -0.8123333  
   0.356982200    -0.2741874   -0.7848109  
   0.358982100    -0.4051055   -0.7324020  
   0.360982000    -0.5232790   -0.6578979  
   0.362981900    -0.6257577   -0.5642622  
   0.364981800    -0.7106777   -0.4543393  
   0.366981700    -0.7751719   -0.3317971  
   0.368981600    -0.8173255   -0.2008229  
   0.370981500    -0.8367345   -0.0645413  
   0.372981400    -0.8333898    0.0724843  
   0.374981300    -0.8067852    0.2079270  
   0.376981200    -0.8375196    0.0734909  
   0.378981100    -0.8105264    0.2127813  
   0.380981000    -0.7598248    0.3469325  
   0.382980900    -0.6947232    0.4598709  
   0.384980800    -0.6164826    0.5578127  
   0.386980700    -0.5234745    0.6441785  
   0.388980600    -0.4169891    0.7163212  
   0.390980500    -0.3004140    0.7719340  
   0.392980400    -0.1755970    0.8091138  
   0.394980300    -0.0451374    0.8267347  
   0.396980200     0.0874556    0.8237103  
   0.398980100     0.2196073    0.7996883  
   0.400980000     0.3471703    0.7545589  
   0.402979900     0.4673513    0.6887937  
   0.404979800     0.5756031    0.6041899  
   0.406979700     0.6688867    0.5024829  
   0.408979600     0.7447916    0.3866406  
   0.410979500     0.8004510    0.2590719  
   0.412979400     0.8347599    0.1237466  
   0.414979300     0.8447362   -0.0150235  
   0.416979200     0.8328178   -0.1532119  
   0.418979100     0.7987266   -0.2863591  
   0.420979000     0.7434735   -0.4111632  
   0.422978900     0.6694565   -0.5246299  
   0.424978800     0.5786247   -0.6236711  
   0.426978700     0.4743441   -0.7059858  
   0.428978600     0.3598520   -0.7698402  
   0.430978500     0.2388248   -0.8144820  
   0.432978400     0.1143373   -0.8394282  
   0.434978300    -0.0107825   -0.8469346  
   0.436978200    -0.1340182   -0.8339236  
   0.438978100    -0.2528003   -0.8031985  
   0.440978000    -0.3644462   -0.7561399  
   0.442977900    -0.4675152   -0.6935285  
   0.444977800    -0.5591777   -0.6173884  
   0.446977700    -0.6390433   -0.5294598  
   0.448977600    -0.7048703   -0.4316280  
   0.450977500    -0.7562714   -0.3253078  
   0.452977400    -0.7919148   -0.2127931  
   0.454977300    -0.8110611   -0.0950444  
   0.456977200    -0.8133569    0.0246546  
   0.458977100    -0.7979822    0.1443963  
   0.460977000    -0.7652930    0.2607302  
   0.462976900    -0.7153470    0.3713814  
   0.464976800    -0.6488677    0.4747286  
   0.466976700    -0.5671409    0.5671971  
   0.468976600    -0.4716167    0.6475088  
   0.470976500    -0.3634315    0.7126985  
   0.472976400    -0.2457042    0.7606670  
   0.474976300    -0.1204372    0.7897440  
   0.476976200     0.0089148    0.7990071  
   0.478976100     0.1387014    0.7872174  
   0.480976000     0.2653787    0.7548482  
   0.482975900     0.3855976    0.7019869  
   0.484975800     0.4957535    0.6298571  
   0.486975700     0.5931327    0.5407200  
   0.488975600     0.6744645    0.4365918  
   0.490975500     0.7372163    0.3206072  
   0.492975400     0.7797815    0.1963263  
   0.494975300     0.8010633    0.0677025  
   0.496975200     0.8014522   -0.0615266  
   0.498975100     0.7805497   -0.1871108  
   0.500975000     0.7407180   -0.3060825  
   0.502974900     0.6838528   -0.4148121  
   0.504974800     0.6118792   -0.5116975  
   0.506974700     0.5274441   -0.5953159  
   0.508974600     0.4327819   -0.6645407  
   0.510974500     0.3311819   -0.7184203  
   0.512974400     0.2252942   -0.7564878  
   0.514974300     0.1177851   -0.7776051  
   0.516974200     0.0097952   -0.7858815  
   0.518974100    -0.0961429   -0.7801019  
   0.520974000    -0.1999424   -0.7613104  
   0.522973900    -0.2999678   -0.7296666  
   0.524973800    -0.3955251   -0.6854221  
   0.526973700    -0.4862049   -0.6288372  
   0.528973600    -0.5692087   -0.5599781  
   0.530973500    -0.6439347   -0.4789808  
   0.532973400    -0.7073758   -0.3867182  
   0.534973300    -0.7574968   -0.2844782  
   0.536973200    -0.7924368   -0.1739061  
   0.538973100    -0.8102711   -0.0586157  
   0.540973000    -0.8105527    0.0592554  
   0.542972900    -0.7925665    0.1767762  
   0.544972800    -0.7564000    0.2910445  
   0.546972700    -0.7025607    0.3994650  
   0.548972600    -0.6319354    0.4988768  
   0.550972500    -0.5467350    0.5866718  
   0.552972400    -0.4484056    0.6608492  
   0.554972300    -0.3391572    0.7190257  
   0.556972200    -0.2214456    0.7598561  
   0.558972100    -0.0986577    0.7822076  
   0.560972000     0.0266237    0.7853375  
   0.562971900     0.1511825    0.7687904  
   0.564971800     0.2720357    0.7329895  
   0.566971700     0.3858690    0.6788199  
   0.568971600     0.4903617    0.6071421  
   0.570971500     0.5825995    0.5197312  
   0.572971400     0.6602135    0.4182347  
   0.574971300     0.7208981    0.3052528  
   0.576971200     0.7628379    0.1829454  
   0.578971100     0.7846531    0.0550604  
   0.580971000     0.7856002   -0.0741955  
   0.582970900     0.7660378   -0.2018030  
   0.584970800     0.7262782   -0.3239615  
   0.586970700     0.6678128   -0.4374046  
   0.588970600     0.5926743   -0.5395178  
   0.590970500     0.5027378   -0.6280375  
   0.592970400     0.4009796   -0.7008981  
   0.594970300     0.2898375   -0.7566521  
   0.596970200     0.1722869   -0.7937247  
   0.598970100     0.0514464   -0.8128071  
   0.600970000    -0.0700721   -0.8133261  
   0.602969900    -0.1891667   -0.7955245  
   0.604969800    -0.3038724   -0.7605120  
   0.606969700    -0.4115275   -0.7090515  
   0.608969600    -0.5095971   -0.6428201  
   0.610969500    -0.5967617   -0.5633321  
   0.612969400    -0.6707148   -0.4725488  
   0.614969300    -0.7301870   -0.3728415  
   0.616969200    -0.7748189   -0.2664002  
   0.618969100    -0.8035992   -0.1555748  
   0.620969000    -0.8167821   -0.0423459  
   0.622968900    -0.8137724    0.0716585  
   0.624968800    -0.7947909    0.1844883  
   0.626968700    -0.7600558    0.2940169  
   0.628968600    -0.7099044    0.3982296  
   0.630968500    -0.6453571    0.4947179  
   0.632968400    -0.5667511    0.5816907  
   0.634968300    -0.4760146    0.6573002  
   0.636968200    -0.3743516    0.7192997  
   0.638968100    -0.2640157    0.7660863  
   0.640968000    -0.1466921    0.7963375  
   0.642967900    -0.0251178    0.8087521  
   0.644967800     0.0984548    0.8030394  
   0.646967700     0.2202196    0.7785466  
   0.648967600     0.3375662    0.7352229  
   0.650967500     0.4479134    0.6739818  
   0.652967400     0.5476781    0.5963712  
   0.654967300     0.6345256    0.5032172  
   0.656967200     0.7059774    0.3976380  
   0.658967100     0.7603741    0.2813755  
   0.660967000     0.7956905    0.1572905  
   0.662966900     0.8108947    0.0284126  
   0.664966800     0.8051941   -0.1017137  
   0.666966700     0.7787484   -0.2298468  
   0.668966600     0.7322248   -0.3513270  
   0.670966500     0.6669978   -0.4636800  
   0.672966400     0.5864138   -0.5644618  
   0.674966300     0.4906957   -0.6490338  
   0.676966200     0.3839794   -0.7169753  
   0.678966100     0.2691800   -0.7667230  
   0.680966000     0.1495902   -0.7977583  
   0.682965900     0.0280368   -0.8100311  
   0.684965800    -0.0928694   -0.8039755  
   0.686965700    -0.2099288   -0.7798045  
   0.688965600    -0.3212200   -0.7391542  
   0.690965500    -0.4234702   -0.6821203  
   0.692965400    -0.5161734   -0.6127305  
   0.694965300    -0.5971202   -0.5309256  
   0.696965200    -0.6649125   -0.4395407  
   0.698965100    -0.7188760   -0.3393310  
   0.700965000    -0.7576891   -0.2332303  
   0.702964900    -0.7809594   -0.1225611  
   0.704964800    -0.7883741   -0.0099608  
   0.706964700    -0.7795172    0.1032665  
   0.708964600    -0.7541788    0.2138007  
   0.710964500    -0.7134506    0.3210255  
   0.712964400    -0.6568059    0.4209437  
   0.714964300    -0.5853457    0.5119005  
   0.716964200    -0.5012226    0.5915200  
   0.718964100    -0.4054941    0.6581485  
   0.720964000    -0.3006303    0.7095528  
   0.722963900    -0.1889580    0.7447492  
   0.724963800    -0.0721717    0.7624529  
   0.726963700     0.0466209    0.7620988  
   0.728963600     0.1643699    0.7426862  
   0.730963500     0.2775228    0.7043738  
   0.732963400     0.3835515    0.6492148  
   0.734963300     0.4805248    0.5778555  
   0.736963200     0.5765856    0.4780343  
   0.738963100     0.6534246    0.3624227  
   0.740963000     0.7079111    0.2351602  
   0.742962900     0.7381145    0.1014785  
   0.744962800     0.7441282   -0.0345834  
   0.746962700     0.7258762   -0.1681115  
   0.748962600     0.6847264   -0.2951940  
   0.750962500     0.7101926   -0.1807096  
   0.752962400     0.6686726   -0.3055977  
   0.754962300     0.6066928   -0.4205150  
   0.756962200     0.5268154   -0.5228336  
   0.758962100     0.4313403   -0.6088572  
   0.760962000     0.3229670   -0.6778275  
   0.762961900     0.2108065   -0.7253503  
   0.764961800     0.1033461   -0.7527868  
   0.766961700    -0.0065697   -0.7649809  
   0.768961600    -0.1177010   -0.7609617  
   0.770961500    -0.2273404   -0.7409267  
   0.772961400    -0.3329773   -0.7047670  
   0.774961300    -0.4325270   -0.6541833  
   0.776961200    -0.5240334   -0.5890014  
   0.778961100    -0.6050439   -0.5103422  
   0.780961000    -0.6737672   -0.4202401  
   0.782960900    -0.7288253   -0.3202997  
   0.784960800    -0.7682245   -0.2126184  
   0.786960700    -0.7909996   -0.0996566  
   0.788960600    -0.7967960    0.0153880  
   0.790960500    -0.7850580    0.1305525  
   0.792960400    -0.7560915    0.2424873  
   0.794960300    -0.7105696    0.3488649  
   0.796960200    -0.6498502    0.4475481  
   0.798960100    -0.5751970    0.5358143  
   0.800960000    -0.4881256    0.6117701  
   0.802959900    -0.3902596    0.6743257  
   0.804959800    -0.2843551    0.7214341  
   0.806959700    -0.1723552    0.7523662  
   0.808959600    -0.0567945    0.7661583  
   0.810959500     0.0599241    0.7629420  
   0.812959400     0.1753700    0.7415938  
   0.814959300     0.2870075    0.7030306  
   0.816959200     0.3918878    0.6477124  
   0.818959100     0.4876468    0.5764704  
   0.820959000     0.5716478    0.4911324  
   0.822958900     0.6421391    0.3930285  
   0.824958800     0.6965403    0.2850423  
   0.826958700     0.7338946    0.1691447  
   0.828958600     0.7524527    0.0485221  
   0.830958500     0.7515242   -0.0740865  
   0.832958400     0.7314054   -0.1949912  
   0.834958300     0.6924809   -0.3110590  
   0.836958200     0.6353763   -0.4192150  
   0.838958100     0.5621566   -0.5170290  
   0.840958000     0.4744561   -0.6023374  
   0.842957900     0.3746223   -0.6725224  
   0.844957800     0.2654890   -0.7256453  
   0.846957700     0.1496790   -0.7608623  
   0.848957600     0.0302987   -0.7774767  
   0.850957500    -0.0894294   -0.7754746  
   0.852957400    -0.2068907   -0.7550430  
   0.854957300    -0.3190463   -0.7170426  
   0.856957200    -0.4232473   -0.6628779  
   0.858957100    -0.5172319   -0.5942495  
   0.860957000    -0.5993063   -0.5129116  
   0.862956900    -0.6674889   -0.4216498  
   0.864956800    -0.7212250   -0.3227806  
   0.866956700    -0.7598201   -0.2178054  
   0.868956600    -0.7824589   -0.1091429  
   0.870956500    -0.7896849    0.0009491  
   0.872956400    -0.7811742    0.1109216  
   0.874956300    -0.7570946    0.2178574  
   0.876956200    -0.7183299    0.3212891  
   0.878956100    -0.6653220    0.4181301  
   0.880956000    -0.5986694    0.5067893  
   0.882955900    -0.5202858    0.5855768  
   0.884955800    -0.4305302    0.6526033  
   0.886955700    -0.3318652    0.7066025  
   0.888955600    -0.2256416    0.7456719  
   0.890955500    -0.1142873    0.7694560  
   0.892955400     0.0001155    0.7766834  
   0.894955300     0.1152374    0.7668043  
