! MS46122B
! 2250307/22442219
! 7/25/2025 1:43:07 PM
! C:\USERS\SPARKY\DOCUMENTS\VNA_DATA\JULY25_2025\3K\ECAL_LOAD_D_REPEAT1.S1P
! CHANNEL.1
! TR.MEASUREMENT
! RAW.DATA
# GHZ S RI R 50.0
! FREQ.GHZ         S11RE         S11IM         
!; PortSelection: Port_1
   0.001000000     1.0445620   -0.0723484  
   0.002999900     0.9517133   -0.1944784  
   0.004999800     0.8764671   -0.2785746  
   0.006999700     0.7915382   -0.3675895  
   0.008999600     0.7008306   -0.4063551  
   0.010999500     0.6241015   -0.4326712  
   0.012999400     0.5572188   -0.4480800  
   0.014999300     0.4997061   -0.4557873  
   0.016999200     0.4496905   -0.4571334  
   0.018999100     0.4074464   -0.4539322  
   0.020999000     0.3722221   -0.4479398  
   0.022998900     0.3419555   -0.4404735  
   0.024998800     0.3111383   -0.4105107  
   0.026998700     0.2934719   -0.4222349  
   0.028998600     0.2736092   -0.4123991  
   0.030998500     0.2556334   -0.4025127  
   0.032998400     0.2359172   -0.3753398  
   0.034998300     0.2235000   -0.3828797  
   0.036998200     0.2095163   -0.3736350  
   0.038998100     0.1964193   -0.3646629  
   0.040998000     0.1840318   -0.3560199  
   0.042997900     0.1723413   -0.3476997  
   0.044997800     0.1600121   -0.3256497  
   0.046997700     0.1498949   -0.3322855  
   0.048997600     0.1398652   -0.3248833  
   0.050997500     0.1303896   -0.3177765  
   0.052997400     0.1215205   -0.3108977  
   0.054997300     0.1134515   -0.3041105  
   0.056997200     0.1051712   -0.2981096  
   0.058997100     0.0978341   -0.2922171  
   0.060997000     0.0908924   -0.2866061  
   0.062996900     0.0842855   -0.2812710  
   0.064996800     0.0782971   -0.2761188  
   0.066996700     0.0726922   -0.2711610  
   0.068996600     0.0674057   -0.2663860  
   0.070996500     0.0624776   -0.2619248  
   0.072996400     0.0577195   -0.2573504  
   0.074996300     0.0532439   -0.2528394  
   0.076996200     0.0489776   -0.2483905  
   0.078996100     0.0448423   -0.2439694  
   0.080996000     0.0408001   -0.2395842  
   0.082995900     0.0368400   -0.2352554  
   0.084995800     0.0331803   -0.2306748  
   0.086995700     0.0294257   -0.2261706  
   0.088995600     0.0259029   -0.2217168  
   0.090995500     0.0226423   -0.2173385  
   0.092995400     0.0195576   -0.2131226  
   0.094995300     0.0166357   -0.2087134  
   0.096995200     0.0138941   -0.2043032  
   0.098995100     0.0113379   -0.1999333  
   0.100995000     0.0077851   -0.1963823  
   0.102994900     0.0055818   -0.1920294  
   0.104994800     0.0035057   -0.1877464  
   0.106994700     0.0018103   -0.1834026  
   0.108994600     0.0003613   -0.1793075  
   0.110994500    -0.0008734   -0.1753370  
   0.112994400    -0.0018679   -0.1715005  
   0.114994300    -0.0026643   -0.1677964  
   0.116994200    -0.0032664   -0.1642494  
   0.118994100    -0.0036824   -0.1608914  
   0.120994000    -0.0037351   -0.1578096  
   0.122993900    -0.0039107   -0.1547408  
   0.124993800    -0.0039864   -0.1519198  
   0.126993700    -0.0039735   -0.1493893  
   0.128993600    -0.0039150   -0.1470184  
   0.130993500    -0.0038100   -0.1448981  
   0.132993400    -0.0037266   -0.1430191  
   0.134993300    -0.0036919   -0.1413618  
   0.136993200    -0.0037327   -0.1398454  
   0.138993100    -0.0038758   -0.1385235  
   0.140993000    -0.0041673   -0.1373283  
   0.142992900    -0.0045813   -0.1362978  
   0.144992800    -0.0051352   -0.1354548  
   0.146992700    -0.0059261   -0.1345682  
   0.148992600    -0.0068484   -0.1336860  
   0.150992500    -0.0078919   -0.1326657  
   0.152992400    -0.0091868   -0.1317143  
   0.154992300    -0.0105944   -0.1306887  
   0.156992200    -0.0122004   -0.1295026  
   0.158992100    -0.0138854   -0.1281990  
   0.160992000    -0.0156655   -0.1266686  
   0.162991900    -0.0175049   -0.1249660  
   0.164991800    -0.0193734   -0.1230160  
   0.166991700    -0.0212043   -0.1208162  
   0.168991600    -0.0229889   -0.1183752  
   0.170991500    -0.0247358   -0.1156767  
   0.172991400    -0.0262408   -0.1127298  
   0.174991300    -0.0275422   -0.1095921  
   0.176991200    -0.0286298   -0.1062074  
   0.178991100    -0.0294175   -0.1026622  
   0.180991000    -0.0299345   -0.0989759  
   0.182990900    -0.0300718   -0.0951432  
   0.184990800    -0.0297999   -0.0912374  
   0.186990700    -0.0291289   -0.0873483  
   0.188990600    -0.0262420   -0.0840777  
   0.190990500    -0.0263114   -0.0797427  
   0.192990400    -0.0246067   -0.0760611  
   0.194990300    -0.0222562   -0.0726572  
   0.196990200    -0.0195094   -0.0695797  
   0.198990100    -0.0164232   -0.0668719  
   0.200990000    -0.0130211   -0.0644942  
   0.202989900    -0.0093560   -0.0625717  
   0.204989800    -0.0054600   -0.0611511  
   0.206989700    -0.0014387   -0.0602573  
   0.208989600     0.0026882   -0.0599051  
   0.210989500     0.0068550   -0.0601083  
   0.212989400     0.0109615   -0.0608687  
   0.214989300     0.0149784   -0.0622131  
   0.216989200     0.0187512   -0.0640706  
   0.218989100     0.0222369   -0.0664530  
   0.220989000     0.0253755   -0.0693204  
   0.222988900     0.0280883   -0.0726275  
   0.224988800     0.0303218   -0.0763298  
   0.226988700     0.0320372   -0.0803321  
   0.228988600     0.0331925   -0.0845938  
   0.230988500     0.0337869   -0.0890161  
   0.232988400     0.0337398   -0.0934578  
   0.234988300     0.0331004   -0.0980064  
   0.236988200     0.0318232   -0.1024560  
   0.238988100     0.0299761   -0.1067743  
   0.240988000     0.0275784   -0.1108301  
   0.242987900     0.0247292   -0.1146247  
   0.244987800     0.0213775   -0.1180179  
   0.246987700     0.0175680   -0.1210200  
   0.248987600     0.0133198   -0.1235224  
   0.250987500     0.0088204   -0.1255595  
   0.252987400     0.0041746   -0.1270300  
   0.254987300    -0.0005483   -0.1279604  
   0.256987200    -0.0053463   -0.1284283  
   0.258987100    -0.0101062   -0.1282389  
   0.260987000    -0.0148164   -0.1275263  
   0.262986900    -0.0193154   -0.1261699  
   0.264986800    -0.0235780   -0.1243551  
   0.266986700    -0.0275379   -0.1221137  
   0.268986600    -0.0310798   -0.1194914  
   0.270986500    -0.0341531   -0.1166296  
   0.272986400    -0.0367318   -0.1135516  
   0.274986300    -0.0388794   -0.1103574  
   0.276986200    -0.0405674   -0.1071039  
   0.278986100    -0.0418007   -0.1038006  
   0.280986000    -0.0425345   -0.1005625  
   0.282985900    -0.0428092   -0.0974404  
   0.284985800    -0.0426530   -0.0945967  
   0.286985700    -0.0421571   -0.0920539  
   0.288985600    -0.0412376   -0.0899243  
   0.290985500    -0.0400986   -0.0883247  
   0.292985400    -0.0387816   -0.0872245  
   0.294985300    -0.0374359   -0.0865897  
   0.296985200    -0.0361900   -0.0864573  
   0.298985100    -0.0351526   -0.0868160  
   0.300985000    -0.0344352   -0.0876507  
   0.302984900    -0.0340597   -0.0889888  
   0.304984800    -0.0342048   -0.0908096  
   0.306984700    -0.0349106   -0.0929165  
   0.308984600    -0.0362601   -0.0953985  
   0.310984500    -0.0383967   -0.0979339  
   0.312984400    -0.0414353   -0.1003458  
   0.314984300    -0.0454216   -0.1024773  
   0.316984200    -0.0504366   -0.1040212  
   0.318984100    -0.0564697   -0.1045648  
   0.320984000    -0.0633982   -0.1037339  
   0.322983900    -0.0706930   -0.1012255  
   0.324983800    -0.0778740   -0.0966671  
   0.326983700    -0.0842057   -0.0902330  
   0.328983600    -0.0889155   -0.0822140  
   0.330983500    -0.0913506   -0.0733429  
   0.332983400    -0.0913284   -0.0646532  
   0.334983300    -0.0893239   -0.0570054  
   0.336983200    -0.0860656   -0.0509515  
   0.338983100    -0.0823973   -0.0465623  
   0.340983000    -0.0789540   -0.0435725  
   0.342982900    -0.0761095   -0.0415310  
   0.344982800    -0.0740042   -0.0398055  
   0.346982700    -0.0726076   -0.0380643  
   0.348982600    -0.0714700   -0.0361751  
   0.350982500    -0.0707939   -0.0339960  
   0.352982400    -0.0702294   -0.0315823  
   0.354982300    -0.0697851   -0.0283975  
   0.356982200    -0.0693149   -0.0238089  
   0.358982100    -0.0684294   -0.0191909  
   0.360982000    -0.0668603   -0.0146396  
   0.362981900    -0.0647345   -0.0102582  
   0.364981800    -0.0619095   -0.0061251  
   0.366981700    -0.0586366   -0.0023632  
   0.368981600    -0.0547741    0.0009541  
   0.370981500    -0.0504958    0.0036814  
   0.372981400    -0.0460163    0.0056479  
   0.374981300    -0.0413527    0.0069662  
   0.376981200    -0.0396724   -0.0032751  
   0.378981100    -0.0352165   -0.0019120  
   0.380981000    -0.0307753   -0.0013531  
   0.382980900    -0.0264521   -0.0019086  
   0.384980800    -0.0224043   -0.0032036  
   0.386980700    -0.0186396   -0.0050453  
   0.388980600    -0.0152726   -0.0074007  
   0.390980500    -0.0123346   -0.0102368  
   0.392980400    -0.0098416   -0.0135164  
   0.394980300    -0.0079422   -0.0170883  
   0.396980200    -0.0065945   -0.0208433  
   0.398980100    -0.0059191   -0.0246880  
   0.400980000    -0.0058271   -0.0285508  
   0.402979900    -0.0064146   -0.0322904  
   0.404979800    -0.0075234   -0.0358448  
   0.406979700    -0.0092035   -0.0390891  
   0.408979600    -0.0114021   -0.0419682  
   0.410979500    -0.0140910   -0.0443471  
   0.412979400    -0.0172292   -0.0462148  
   0.414979300    -0.0206688   -0.0475029  
   0.416979200    -0.0243296   -0.0480587  
   0.418979100    -0.0280684   -0.0479920  
   0.420979000    -0.0317639   -0.0472509  
   0.422978900    -0.0353857   -0.0458350  
   0.424978800    -0.0387904   -0.0437366  
   0.426978700    -0.0419280   -0.0410656  
   0.428978600    -0.0446426   -0.0378309  
   0.430978500    -0.0467340   -0.0340091  
   0.432978400    -0.0481933   -0.0298132  
   0.434978300    -0.0490035   -0.0254962  
   0.436978200    -0.0491065   -0.0209041  
   0.438978100    -0.0485075   -0.0162187  
   0.440978000    -0.0471078   -0.0115572  
   0.442977900    -0.0449863   -0.0070242  
   0.444977800    -0.0421103   -0.0027449  
   0.446977700    -0.0385585    0.0011542  
   0.448977600    -0.0343532    0.0045746  
   0.450977500    -0.0295624    0.0074312  
   0.452977400    -0.0242766    0.0096305  
   0.454977300    -0.0186539    0.0110869  
   0.456977200    -0.0127496    0.0117098  
   0.458977100    -0.0067056    0.0114694  
   0.460977000    -0.0005809    0.0103096  
   0.462976900     0.0053913    0.0082466  
   0.464976800     0.0110852    0.0052682  
   0.466976700     0.0163969    0.0014220  
   0.468976600     0.0211717   -0.0032284  
   0.470976500     0.0253250   -0.0086180  
   0.472976400     0.0286868   -0.0146721  
   0.474976300     0.0312097   -0.0212240  
   0.476976200     0.0328211   -0.0281748  
   0.478976100     0.0335686   -0.0355532  
   0.480976000     0.0333085   -0.0428536  
   0.482975900     0.0321054   -0.0500394  
   0.484975800     0.0297763   -0.0570362  
   0.486975700     0.0264640   -0.0637602  
   0.488975600     0.0221780   -0.0701491  
   0.490975500     0.0169844   -0.0759237  
   0.492975400     0.0111055   -0.0808239  
   0.494975300     0.0044457   -0.0849143  
   0.496975200    -0.0028290   -0.0880900  
   0.498975100    -0.0104209   -0.0901726  
   0.500975000    -0.0183908   -0.0912174  
   0.502974900    -0.0263828   -0.0910718  
   0.504974800    -0.0344141   -0.0898652  
   0.506974700    -0.0422566   -0.0874227  
   0.508974600    -0.0500002   -0.0838863  
   0.510974500    -0.0573314   -0.0792733  
   0.512974400    -0.0637081   -0.0737167  
   0.514974300    -0.0691237   -0.0672060  
   0.516974200    -0.0735252   -0.0600664  
   0.518974100    -0.0767147   -0.0523579  
   0.520974000    -0.0787027   -0.0440882  
   0.522973900    -0.0794876   -0.0358501  
   0.524973800    -0.0790065   -0.0277333  
   0.526973700    -0.0773952   -0.0197872  
   0.528973600    -0.0745883   -0.0122933  
   0.530973500    -0.0707655   -0.0053677  
   0.532973400    -0.0659802    0.0008527  
   0.534973300    -0.0603950    0.0062100  
   0.536973200    -0.0541326    0.0106131  
   0.538973100    -0.0472762    0.0140331  
   0.540973000    -0.0401148    0.0163914  
   0.542972900    -0.0327730    0.0176571  
   0.544972800    -0.0253503    0.0178417  
   0.546972700    -0.0180592    0.0168972  
   0.548972600    -0.0110459    0.0148467  
   0.550972500    -0.0044300    0.0117434  
   0.552972400     0.0016019    0.0076241  
   0.554972300     0.0069303    0.0025720  
   0.556972200     0.0113976   -0.0032778  
   0.558972100     0.0151215   -0.0097867  
   0.560972000     0.0177192   -0.0167935  
   0.562971900     0.0192798   -0.0241970  
   0.564971800     0.0196570   -0.0318088  
   0.566971700     0.0188170   -0.0393368  
   0.568971600     0.0168283   -0.0466573  
   0.570971500     0.0137111   -0.0537214  
   0.572971400     0.0094287   -0.0603158  
   0.574971300     0.0039587   -0.0663447  
   0.576971200    -0.0024632   -0.0716586  
   0.578971100    -0.0096380   -0.0760867  
   0.580971000    -0.0174507   -0.0794638  
   0.582970900    -0.0257917   -0.0816484  
   0.584970800    -0.0343871   -0.0825184  
   0.586970700    -0.0432101   -0.0820843  
   0.588970600    -0.0520529   -0.0802794  
   0.590970500    -0.0605981   -0.0772707  
   0.592970400    -0.0687411   -0.0730622  
   0.594970300    -0.0763625   -0.0677552  
   0.596970200    -0.0832180   -0.0613635  
   0.598970100    -0.0891743   -0.0539996  
   0.600970000    -0.0941615   -0.0457818  
   0.602969900    -0.0979940   -0.0368663  
   0.604969800    -0.1006439   -0.0273960  
   0.606969700    -0.1020271   -0.0175464  
   0.608969600    -0.1020426   -0.0075158  
   0.610969500    -0.1006561    0.0025470  
   0.612969400    -0.0978688    0.0123393  
   0.614969300    -0.0937755    0.0217020  
   0.616969200    -0.0884515    0.0304326  
   0.618969100    -0.0820216    0.0383968  
   0.620969000    -0.0746038    0.0454317  
   0.622968900    -0.0662845    0.0514397  
   0.624968800    -0.0572614    0.0562623  
   0.626968700    -0.0476007    0.0597671  
   0.628968600    -0.0375854    0.0620369  
   0.630968500    -0.0272676    0.0630392  
   0.632968400    -0.0170779    0.0623090  
   0.634968300    -0.0070334    0.0603999  
   0.636968200     0.0025861    0.0569389  
   0.638968100     0.0117641    0.0522254  
   0.640968000     0.0200456    0.0462730  
   0.642967900     0.0273063    0.0393651  
   0.644967800     0.0334697    0.0315382  
   0.646967700     0.0384153    0.0230152  
   0.648967600     0.0420515    0.0139690  
   0.650967500     0.0443296    0.0046781  
   0.652967400     0.0451904   -0.0047566  
   0.654967300     0.0448919   -0.0142968  
   0.656967200     0.0430820   -0.0234223  
   0.658967100     0.0398433   -0.0322741  
   0.660967000     0.0355024   -0.0403533  
   0.662966900     0.0300535   -0.0477297  
   0.664966800     0.0236370   -0.0542323  
   0.666966700     0.0163673   -0.0597158  
   0.668966600     0.0082785   -0.0640288  
   0.670966500    -0.0002904   -0.0670765  
   0.672966400    -0.0087782   -0.0688883  
   0.674966300    -0.0174790   -0.0692286  
   0.676966200    -0.0260175   -0.0681995  
   0.678966100    -0.0342272   -0.0658732  
   0.680966000    -0.0419044   -0.0623502  
   0.682965900    -0.0488924   -0.0577235  
   0.684965800    -0.0550795   -0.0521127  
   0.686965700    -0.0603162   -0.0456084  
   0.688965600    -0.0644394   -0.0385199  
   0.690965500    -0.0674347   -0.0309836  
   0.692965400    -0.0691770   -0.0230963  
   0.694965300    -0.0696895   -0.0150581  
   0.696965200    -0.0689770   -0.0071081  
   0.698965100    -0.0670036    0.0006057  
   0.700965000    -0.0638275    0.0078381  
   0.702964900    -0.0596028    0.0146072  
   0.704964800    -0.0544154    0.0205993  
   0.706964700    -0.0482383    0.0256525  
   0.708964600    -0.0412528    0.0296157  
   0.710964500    -0.0338715    0.0325843  
   0.712964400    -0.0261302    0.0341582  
   0.714964300    -0.0182063    0.0344731  
   0.716964200    -0.0104082    0.0336001  
   0.718964100    -0.0028693    0.0315333  
   0.720964000     0.0041394    0.0283307  
   0.722963900     0.0106454    0.0239485  
   0.724963800     0.0164372    0.0188146  
   0.726963700     0.0213215    0.0129275  
   0.728963600     0.0251502    0.0062639  
   0.730963500     0.0277847   -0.0010633  
   0.732963400     0.0293658   -0.0085520  
   0.734963300     0.0298931   -0.0163266  
   0.736963200     0.0297046   -0.0252624  
   0.738963100     0.0279654   -0.0338952  
   0.740963000     0.0247174   -0.0421983  
   0.742962900     0.0200852   -0.0496694  
   0.744962800     0.0142690   -0.0561152  
   0.746962700     0.0075435   -0.0613600  
   0.748962600     0.0001074   -0.0654071  
   0.750962500    -0.0016764   -0.0636574  
   0.752962400    -0.0093128   -0.0673760  
   0.754962300    -0.0175031   -0.0696610  
   0.756962200    -0.0260352   -0.0704266  
   0.758962100    -0.0346613   -0.0696633  
   0.760962000    -0.0431299   -0.0673585  
   0.762961900    -0.0509703   -0.0639085  
   0.764961800    -0.0580168   -0.0598202  
   0.766961700    -0.0644536   -0.0547472  
   0.768961600    -0.0701125   -0.0488192  
   0.770961500    -0.0748883   -0.0421254  
   0.772961400    -0.0787607   -0.0348332  
   0.774961300    -0.0816577   -0.0270164  
   0.776961200    -0.0834526   -0.0186922  
   0.778961100    -0.0839098   -0.0104692  
   0.780961000    -0.0831545   -0.0022889  
   0.782960900    -0.0811772    0.0057058  
   0.784960800    -0.0779291    0.0133611  
   0.786960700    -0.0735323    0.0204164  
   0.788960600    -0.0681122    0.0268933  
   0.790960500    -0.0617789    0.0324849  
   0.792960400    -0.0547407    0.0369484  
   0.794960300    -0.0470997    0.0403136  
   0.796960200    -0.0392372    0.0425136  
   0.798960100    -0.0309865    0.0433859  
   0.800960000    -0.0228948    0.0430448  
   0.802959900    -0.0149636    0.0414662  
   0.804959800    -0.0074850    0.0386889  
   0.806959700    -0.0007255    0.0347967  
   0.808959600     0.0054641    0.0298516  
   0.810959500     0.0107245    0.0239893  
   0.812959400     0.0150983    0.0173558  
   0.814959300     0.0182681    0.0100456  
   0.816959200     0.0203769    0.0022582  
   0.818959100     0.0212259   -0.0058039  
   0.820959000     0.0207051   -0.0138482  
   0.822958900     0.0189145   -0.0218095  
   0.824958800     0.0158828   -0.0295771  
   0.826958700     0.0116987   -0.0366059  
   0.828958600     0.0063369   -0.0429660  
   0.830958500     0.0000383   -0.0484484  
   0.832958400    -0.0071326   -0.0529017  
   0.834958300    -0.0150182   -0.0562324  
   0.836958200    -0.0233933   -0.0583420  
   0.838958100    -0.0320741   -0.0591660  
   0.840958000    -0.0408859   -0.0586782  
   0.842957900    -0.0495627   -0.0568378  
   0.844957800    -0.0581388   -0.0535418  
   0.846957700    -0.0659813   -0.0490835  
   0.848957600    -0.0731364   -0.0434456  
   0.850957500    -0.0795455   -0.0367870  
   0.852957400    -0.0849045   -0.0288857  
   0.854957300    -0.0891083   -0.0204989  
   0.856957200    -0.0920473   -0.0115060  
   0.858957100    -0.0936071   -0.0021585  
   0.860957000    -0.0938538    0.0073403  
   0.862956900    -0.0928572    0.0167090  
   0.864956800    -0.0906910    0.0257567  
   0.866956700    -0.0872933    0.0343560  
   0.868956600    -0.0827224    0.0422630  
   0.870956500    -0.0770454    0.0495616  
   0.872956400    -0.0703598    0.0560461  
   0.874956300    -0.0628648    0.0614234  
   0.876956200    -0.0545513    0.0657534  
   0.878956100    -0.0457138    0.0687842  
   0.880956000    -0.0364771    0.0705841  
   0.882955900    -0.0271232    0.0710106  
   0.884955800    -0.0178429    0.0701066  
   0.886955700    -0.0086006    0.0678627  
   0.888955600    -0.0001331    0.0643781  
   0.890955500     0.0076498    0.0597257  
   0.892955400     0.0145368    0.0540025  
   0.894955300     0.0204435    0.0474028  
