! MS46122B
! 2250307/22442219
! 7/28/2025 2:06:48 PM
! C:\USERS\SPARKY\DOCUMENTS\VNA_DATA\JULY28_2025\3K\ECAL_LOAD_F_REPEAT1.S1P
! CHANNEL.1
! TR.MEASUREMENT
! RAW.DATA
# GHZ S RI R 50.0
! FREQ.GHZ         S11RE         S11IM         
!; PortSelection: Port_1
   0.001000000     1.0457390   -0.0728581  
   0.002999900     0.9529798   -0.1948643  
   0.004999800     0.8777682   -0.2789665  
   0.006999700     0.7932981   -0.3677076  
   0.008999600     0.7026694   -0.4069173  
   0.010999500     0.6261050   -0.4333833  
   0.012999400     0.5593136   -0.4491030  
   0.014999300     0.5018077   -0.4571163  
   0.016999200     0.4517002   -0.4587391  
   0.018999100     0.4093789   -0.4557687  
   0.020999000     0.3739990   -0.4499992  
   0.022998900     0.3435747   -0.4426236  
   0.024998800     0.3125290   -0.4127770  
   0.026998700     0.2947394   -0.4247055  
   0.028998600     0.2746074   -0.4149495  
   0.030998500     0.2565028   -0.4051289  
   0.032998400     0.2365283   -0.3778911  
   0.034998300     0.2239875   -0.3856320  
   0.036998200     0.2097984   -0.3762882  
   0.038998100     0.1965325   -0.3672609  
   0.040998000     0.1840119   -0.3585984  
   0.042997900     0.1722364   -0.3502115  
   0.044997800     0.1596926   -0.3280922  
   0.046997700     0.1493936   -0.3347052  
   0.048997600     0.1392490   -0.3272894  
   0.050997500     0.1296949   -0.3200677  
   0.052997400     0.1208294   -0.3131169  
   0.054997300     0.1125598   -0.3063220  
   0.056997200     0.1042948   -0.3001734  
   0.058997100     0.0969266   -0.2941933  
   0.060997000     0.0899133   -0.2885145  
   0.062996900     0.0833490   -0.2831109  
   0.064996800     0.0773501   -0.2778931  
   0.066996700     0.0717109   -0.2729054  
   0.068996600     0.0664298   -0.2680610  
   0.070996500     0.0615001   -0.2636170  
   0.072996400     0.0567678   -0.2589854  
   0.074996300     0.0522801   -0.2544852  
   0.076996200     0.0480033   -0.2500094  
   0.078996100     0.0438920   -0.2455697  
   0.080996000     0.0398412   -0.2412040  
   0.082995900     0.0358493   -0.2368650  
   0.084995800     0.0321546   -0.2322493  
   0.086995700     0.0283547   -0.2277741  
   0.088995600     0.0248656   -0.2233638  
   0.090995500     0.0215909   -0.2189639  
   0.092995400     0.0184699   -0.2147584  
   0.094995300     0.0154796   -0.2103745  
   0.096995200     0.0126998   -0.2059640  
   0.098995100     0.0100932   -0.2016120  
   0.100995000     0.0064529   -0.1980382  
   0.102994900     0.0041753   -0.1936887  
   0.104994800     0.0020559   -0.1893761  
   0.106994700     0.0003229   -0.1850417  
   0.108994600    -0.0011809   -0.1809094  
   0.110994500    -0.0024582   -0.1769157  
   0.112994400    -0.0035083   -0.1730286  
   0.114994300    -0.0043566   -0.1692918  
   0.116994200    -0.0049863   -0.1657137  
   0.118994100    -0.0054606   -0.1623102  
   0.120994000    -0.0055685   -0.1591724  
   0.122993900    -0.0057784   -0.1560712  
   0.124993800    -0.0058650   -0.1531881  
   0.126993700    -0.0058695   -0.1505786  
   0.128993600    -0.0058163   -0.1481553  
   0.130993500    -0.0057184   -0.1459862  
   0.132993400    -0.0056280   -0.1440168  
   0.134993300    -0.0055817   -0.1423140  
   0.136993200    -0.0056174   -0.1407607  
   0.138993100    -0.0057418   -0.1393850  
   0.140993000    -0.0060134   -0.1381582  
   0.142992900    -0.0064522   -0.1370796  
   0.144992800    -0.0069771   -0.1362198  
   0.146992700    -0.0077098   -0.1352899  
   0.148992600    -0.0086035   -0.1343935  
   0.150992500    -0.0096332   -0.1333652  
   0.152992400    -0.0108890   -0.1324089  
   0.154992300    -0.0123050   -0.1313868  
   0.156992200    -0.0138639   -0.1302110  
   0.158992100    -0.0155373   -0.1288988  
   0.160992000    -0.0173238   -0.1274041  
   0.162991900    -0.0191483   -0.1257028  
   0.164991800    -0.0210307   -0.1237724  
   0.166991700    -0.0228669   -0.1216087  
   0.168991600    -0.0246614   -0.1191766  
   0.170991500    -0.0264388   -0.1164766  
   0.172991400    -0.0279621   -0.1135608  
   0.174991300    -0.0293154   -0.1104242  
   0.176991200    -0.0304273   -0.1070543  
   0.178991100    -0.0312763   -0.1035039  
   0.180991000    -0.0318087   -0.0998146  
   0.182990900    -0.0319869   -0.0959776  
   0.184990800    -0.0317671   -0.0920605  
   0.186990700    -0.0311519   -0.0881408  
   0.188990600    -0.0282829   -0.0848977  
   0.190990500    -0.0284204   -0.0804989  
   0.192990400    -0.0267539   -0.0767477  
   0.194990300    -0.0244404   -0.0733078  
   0.196990200    -0.0217241   -0.0701897  
   0.198990100    -0.0186566   -0.0673957  
   0.200990000    -0.0152823   -0.0649775  
   0.202989900    -0.0116072   -0.0630075  
   0.204989800    -0.0077325   -0.0615194  
   0.206989700    -0.0037234   -0.0605601  
   0.208989600     0.0004224   -0.0601443  
   0.210989500     0.0045980   -0.0602837  
   0.212989400     0.0087392   -0.0610064  
   0.214989300     0.0127422   -0.0622779  
   0.216989200     0.0165742   -0.0641135  
   0.218989100     0.0201212   -0.0664435  
   0.220989000     0.0233030   -0.0692854  
   0.222988900     0.0260698   -0.0725656  
   0.224988800     0.0283509   -0.0762386  
   0.226988700     0.0301153   -0.0802409  
   0.228988600     0.0313238   -0.0845043  
   0.230988500     0.0319681   -0.0889311  
   0.232988400     0.0319770   -0.0933904  
   0.234988300     0.0313895   -0.0979485  
   0.236988200     0.0301354   -0.1024444  
   0.238988100     0.0283254   -0.1067710  
   0.240988000     0.0259674   -0.1108719  
   0.242987900     0.0230990   -0.1147098  
   0.244987800     0.0197605   -0.1181562  
   0.246987700     0.0159335   -0.1211774  
   0.248987600     0.0117310   -0.1237392  
   0.250987500     0.0071980   -0.1258272  
   0.252987400     0.0025148   -0.1273530  
   0.254987300    -0.0022240   -0.1283171  
   0.256987200    -0.0070777   -0.1288495  
   0.258987100    -0.0118992   -0.1287241  
   0.260987000    -0.0166214   -0.1279601  
   0.262986900    -0.0211917   -0.1266153  
   0.264986800    -0.0254899   -0.1248185  
   0.266986700    -0.0295067   -0.1225663  
   0.268986600    -0.0331169   -0.1199407  
   0.270986500    -0.0362431   -0.1170452  
   0.272986400    -0.0388882   -0.1139653  
   0.274986300    -0.0411283   -0.1107658  
   0.276986200    -0.0428846   -0.1074636  
   0.278986100    -0.0441266   -0.1040957  
   0.280986000    -0.0448656   -0.1007859  
   0.282985900    -0.0451618   -0.0976206  
   0.284985800    -0.0450533   -0.0946850  
   0.286985700    -0.0445250   -0.0921154  
   0.288985600    -0.0436505   -0.0899278  
   0.290985500    -0.0424508   -0.0882426  
   0.292985400    -0.0411360   -0.0870830  
   0.294985300    -0.0397671   -0.0863917  
   0.296985200    -0.0384853   -0.0862137  
   0.298985100    -0.0373783   -0.0864888  
   0.300985000    -0.0365965   -0.0872821  
   0.302984900    -0.0361556   -0.0885756  
   0.304984800    -0.0361952   -0.0903920  
   0.306984700    -0.0368228   -0.0924884  
   0.308984600    -0.0380699   -0.0949825  
   0.310984500    -0.0401115   -0.0975728  
   0.312984400    -0.0430290   -0.1000887  
   0.314984300    -0.0469018   -0.1023408  
   0.316984200    -0.0518597   -0.1040695  
   0.318984100    -0.0578697   -0.1048298  
   0.320984000    -0.0647824   -0.1042544  
   0.322983900    -0.0721752   -0.1020277  
   0.324983800    -0.0795960   -0.0977688  
   0.326983700    -0.0863055   -0.0915455  
   0.328983600    -0.0914828   -0.0835906  
   0.330983500    -0.0944650   -0.0745736  
   0.332983400    -0.0948299   -0.0655731  
   0.334983300    -0.0930566   -0.0574304  
   0.336983200    -0.0898327   -0.0509232  
   0.338983100    -0.0860498   -0.0461234  
   0.340983000    -0.0824228   -0.0428394  
   0.342982900    -0.0793399   -0.0406039  
   0.344982800    -0.0770087   -0.0388609  
   0.346982700    -0.0754320   -0.0370837  
   0.348982600    -0.0741292   -0.0352149  
   0.350982500    -0.0733607   -0.0330571  
   0.352982400    -0.0727150   -0.0306812  
   0.354982300    -0.0722866   -0.0275103  
   0.356982200    -0.0717912   -0.0229015  
   0.358982100    -0.0707906   -0.0182314  
   0.360982000    -0.0692050   -0.0136386  
   0.362981900    -0.0670528   -0.0092148  
   0.364981800    -0.0642673   -0.0050092  
   0.366981700    -0.0609168   -0.0011833  
   0.368981600    -0.0569970    0.0021926  
   0.370981500    -0.0526861    0.0050000  
   0.372981400    -0.0481624    0.0070580  
   0.374981300    -0.0434487    0.0084176  
   0.376981200    -0.0421181   -0.0024287  
   0.378981100    -0.0376166   -0.0009695  
   0.380981000    -0.0330972   -0.0003152  
   0.382980900    -0.0287529   -0.0008177  
   0.384980800    -0.0246359   -0.0020853  
   0.386980700    -0.0208409   -0.0038864  
   0.388980600    -0.0174247   -0.0062162  
   0.390980500    -0.0144227   -0.0090491  
   0.392980400    -0.0119108   -0.0122691  
   0.394980300    -0.0099513   -0.0158520  
   0.396980200    -0.0085361   -0.0196223  
   0.398980100    -0.0078115   -0.0234805  
   0.400980000    -0.0076619   -0.0273631  
   0.402979900    -0.0081825   -0.0311325  
   0.404979800    -0.0092710   -0.0347201  
   0.406979700    -0.0109159   -0.0380034  
   0.408979600    -0.0130698   -0.0409240  
   0.410979500    -0.0157092   -0.0433583  
   0.412979400    -0.0188219   -0.0452166  
   0.414979300    -0.0222784   -0.0465708  
   0.416979200    -0.0259195   -0.0471700  
   0.418979100    -0.0296409   -0.0471473  
   0.420979000    -0.0333510   -0.0464553  
   0.422978900    -0.0369696   -0.0450713  
   0.424978800    -0.0403999   -0.0429943  
   0.426978700    -0.0435943   -0.0403945  
   0.428978600    -0.0462889   -0.0371009  
   0.430978500    -0.0484140   -0.0333241  
   0.432978400    -0.0499068   -0.0291446  
   0.434978300    -0.0507583   -0.0248283  
   0.436978200    -0.0508732   -0.0202276  
   0.438978100    -0.0503024   -0.0155485  
   0.440978000    -0.0489202   -0.0108572  
   0.442977900    -0.0468403   -0.0063228  
   0.444977800    -0.0439720   -0.0020160  
   0.446977700    -0.0404285    0.0019074  
   0.448977600    -0.0362117    0.0053692  
   0.450977500    -0.0314073    0.0082312  
   0.452977400    -0.0261383    0.0104840  
   0.454977300    -0.0204845    0.0119690  
   0.456977200    -0.0145651    0.0126222  
   0.458977100    -0.0085042    0.0124116  
   0.460977000    -0.0023397    0.0112784  
   0.462976900     0.0036873    0.0092479  
   0.464976800     0.0094213    0.0062823  
   0.466976700     0.0147676    0.0024418  
   0.468976600     0.0196296   -0.0021947  
   0.470976500     0.0237995   -0.0076073  
   0.472976400     0.0272486   -0.0136493  
   0.474976300     0.0298245   -0.0202223  
   0.476976200     0.0314875   -0.0271945  
   0.478976100     0.0322481   -0.0345801  
   0.480976000     0.0320362   -0.0419427  
   0.482975900     0.0308223   -0.0491863  
   0.484975800     0.0285967   -0.0562593  
   0.486975700     0.0253128   -0.0630474  
   0.488975600     0.0210596   -0.0695093  
   0.490975500     0.0158859   -0.0753655  
   0.492975400     0.0100107   -0.0803421  
   0.494975300     0.0033549   -0.0845088  
   0.496975200    -0.0039532   -0.0877861  
   0.498975100    -0.0115806   -0.0899473  
   0.500975000    -0.0195340   -0.0910568  
   0.502974900    -0.0276035   -0.0910116  
   0.504974800    -0.0357316   -0.0898844  
   0.506974700    -0.0436468   -0.0875149  
   0.508974600    -0.0515127   -0.0840439  
   0.510974500    -0.0589411   -0.0794966  
   0.512974400    -0.0654272   -0.0739695  
   0.514974300    -0.0709808   -0.0674395  
   0.516974200    -0.0755072   -0.0602921  
   0.518974100    -0.0788573   -0.0525979  
   0.520974000    -0.0809932   -0.0442710  
   0.522973900    -0.0818682   -0.0358746  
   0.524973800    -0.0814896   -0.0276440  
   0.526973700    -0.0799482   -0.0195622  
   0.528973600    -0.0771954   -0.0119454  
   0.530973500    -0.0734049   -0.0048510  
   0.532973400    -0.0686290    0.0015029  
   0.534973300    -0.0629982    0.0069842  
   0.536973200    -0.0566969    0.0115336  
   0.538973100    -0.0498038    0.0150561  
   0.540973000    -0.0425429    0.0175230  
   0.542972900    -0.0351160    0.0188540  
   0.544972800    -0.0275677    0.0190939  
   0.546972700    -0.0202163    0.0182068  
   0.548972600    -0.0130921    0.0161892  
   0.550972500    -0.0063902    0.0131005  
   0.552972400    -0.0002666    0.0090041  
   0.554972300     0.0051703    0.0039396  
   0.556972200     0.0097281   -0.0019321  
   0.558972100     0.0134887   -0.0084764  
   0.560972000     0.0162065   -0.0154996  
   0.562971900     0.0177590   -0.0229273  
   0.564971800     0.0182203   -0.0306289  
   0.566971700     0.0174557   -0.0381947  
   0.568971600     0.0155154   -0.0456072  
   0.570971500     0.0124200   -0.0527298  
   0.572971400     0.0080979   -0.0593829  
   0.574971300     0.0026576   -0.0654761  
   0.576971200    -0.0037187   -0.0708622  
   0.578971100    -0.0108818   -0.0753355  
   0.580971000    -0.0187448   -0.0787770  
   0.582970900    -0.0270796   -0.0810511  
   0.584970800    -0.0357327   -0.0819987  
   0.586970700    -0.0446230   -0.0815961  
   0.588970600    -0.0535161   -0.0798513  
   0.590970500    -0.0621337   -0.0768258  
   0.592970400    -0.0703322   -0.0727129  
   0.594970300    -0.0780399   -0.0674163  
   0.596970200    -0.0849616   -0.0610168  
   0.598970100    -0.0910149   -0.0536571  
   0.600970000    -0.0960578   -0.0454114  
   0.602969900    -0.0999839   -0.0364506  
   0.604969800    -0.1027200   -0.0269493  
   0.606969700    -0.1041397   -0.0170365  
   0.608969600    -0.1042214   -0.0069332  
   0.610969500    -0.1028955    0.0031916  
   0.612969400    -0.1001500    0.0130725  
   0.614969300    -0.0960475    0.0225249  
   0.616969200    -0.0907554    0.0313411  
   0.618969100    -0.0843283    0.0393898  
   0.620969000    -0.0769087    0.0465292  
   0.622968900    -0.0685627    0.0526042  
   0.624968800    -0.0594934    0.0575256  
   0.626968700    -0.0498071    0.0610911  
   0.628968600    -0.0397495    0.0634252  
   0.630968500    -0.0293517    0.0645129  
   0.632968400    -0.0190723    0.0638677  
   0.634968300    -0.0089804    0.0619827  
   0.636968200     0.0006760    0.0585615  
   0.638968100     0.0099520    0.0538160  
   0.640968000     0.0183683    0.0478950  
   0.642967900     0.0257236    0.0409718  
   0.644967800     0.0319612    0.0331505  
   0.646967700     0.0369909    0.0245968  
   0.648967600     0.0406927    0.0155317  
   0.650967500     0.0430557    0.0061369  
   0.652967400     0.0439747   -0.0033340  
   0.654967300     0.0436331   -0.0129215  
   0.656967200     0.0419087   -0.0221141  
   0.658967100     0.0387140   -0.0310524  
   0.660967000     0.0343924   -0.0391870  
   0.662966900     0.0289470   -0.0466331  
   0.664966800     0.0225220   -0.0531982  
   0.666966700     0.0152547   -0.0587375  
   0.668966600     0.0071185   -0.0631301  
   0.670966500    -0.0014771   -0.0662423  
   0.672966400    -0.0100040   -0.0681151  
   0.674966300    -0.0187716   -0.0684875  
   0.676966200    -0.0273746   -0.0674879  
   0.678966100    -0.0356376   -0.0651996  
   0.680966000    -0.0434035   -0.0617031  
   0.682965900    -0.0504833   -0.0570867  
   0.684965800    -0.0567364   -0.0514634  
   0.686965700    -0.0620653   -0.0449483  
   0.688965600    -0.0662514   -0.0378150  
   0.690965500    -0.0693374   -0.0302331  
   0.692965400    -0.0711290   -0.0223045  
   0.694965300    -0.0717161   -0.0142031  
   0.696965200    -0.0710170   -0.0061997  
   0.698965100    -0.0691095    0.0016170  
   0.700965000    -0.0659478    0.0089058  
   0.702964900    -0.0617293    0.0157630  
   0.704964800    -0.0565430    0.0218071  
   0.706964700    -0.0503991    0.0269322  
   0.708964600    -0.0433709    0.0309854  
   0.710964500    -0.0359324    0.0340351  
   0.712964400    -0.0281965    0.0356843  
   0.714964300    -0.0201992    0.0360517  
   0.716964200    -0.0123505    0.0352383  
   0.718964100    -0.0047636    0.0331903  
   0.720964000     0.0022973    0.0300700  
   0.722963900     0.0088017    0.0257344  
   0.724963800     0.0147071    0.0205210  
   0.726963700     0.0196673    0.0146320  
   0.728963600     0.0235455    0.0079376  
   0.730963500     0.0262022    0.0005970  
   0.732963400     0.0278193   -0.0069269  
   0.734963300     0.0283882   -0.0147162  
   0.736963200     0.0282341   -0.0236394  
   0.738963100     0.0265405   -0.0322825  
   0.740963000     0.0233306   -0.0405737  
   0.742962900     0.0187125   -0.0480323  
   0.744962800     0.0129175   -0.0544865  
   0.746962700     0.0062463   -0.0596697  
   0.748962600    -0.0012100   -0.0636769  
   0.750962500    -0.0034879   -0.0624303  
   0.752962400    -0.0110956   -0.0660731  
   0.754962300    -0.0192798   -0.0683174  
   0.756962200    -0.0278064   -0.0690238  
   0.758962100    -0.0363989   -0.0681961  
   0.760962000    -0.0448827   -0.0658434  
   0.762961900    -0.0526944   -0.0623279  
   0.764961800    -0.0597473   -0.0582093  
   0.766961700    -0.0661826   -0.0531400  
   0.768961600    -0.0718592   -0.0471715  
   0.770961500    -0.0766494   -0.0404646  
   0.772961400    -0.0805274   -0.0331603  
   0.774961300    -0.0834660   -0.0253020  
   0.776961200    -0.0852739   -0.0169546  
   0.778961100    -0.0857335   -0.0087207  
   0.780961000    -0.0850093   -0.0004956  
   0.782960900    -0.0830405    0.0075450  
   0.784960800    -0.0797830    0.0152370  
   0.786960700    -0.0753778    0.0223733  
   0.788960600    -0.0699455    0.0288786  
   0.790960500    -0.0636084    0.0345459  
   0.792960400    -0.0565264    0.0390811  
   0.794960300    -0.0488503    0.0424849  
   0.796960200    -0.0409333    0.0447291  
   0.798960100    -0.0326861    0.0456780  
   0.800960000    -0.0244705    0.0453517  
   0.802959900    -0.0164722    0.0438093  
   0.804959800    -0.0089636    0.0410514  
   0.806959700    -0.0020999    0.0372044  
   0.808959600     0.0041355    0.0322486  
   0.810959500     0.0094677    0.0263632  
   0.812959400     0.0138996    0.0197225  
   0.814959300     0.0171470    0.0123959  
   0.816959200     0.0192617    0.0046209  
   0.818959100     0.0202065   -0.0035184  
   0.820959000     0.0197404   -0.0116085  
   0.822958900     0.0179789   -0.0195675  
   0.824958800     0.0150051   -0.0274315  
   0.826958700     0.0108164   -0.0345283  
   0.828958600     0.0054950   -0.0409423  
   0.830958500    -0.0008159   -0.0464826  
   0.832958400    -0.0079877   -0.0509790  
   0.834958300    -0.0158731   -0.0543963  
   0.836958200    -0.0242667   -0.0565639  
   0.838958100    -0.0330084   -0.0574304  
   0.840958000    -0.0418516   -0.0569909  
   0.842957900    -0.0505864   -0.0551847  
   0.844957800    -0.0591854   -0.0519321  
   0.846957700    -0.0670980   -0.0475039  
   0.848957600    -0.0743141   -0.0418718  
   0.850957500    -0.0807830   -0.0351953  
   0.852957400    -0.0862815   -0.0273496  
   0.854957300    -0.0904953   -0.0189487  
   0.856957200    -0.0934656   -0.0099105  
   0.858957100    -0.0951164   -0.0005463  
   0.860957000    -0.0954266    0.0090100  
   0.862956900    -0.0943994    0.0184710  
   0.864956800    -0.0922701    0.0275777  
   0.866956700    -0.0889090    0.0362632  
   0.868956600    -0.0843276    0.0442454  
   0.870956500    -0.0786587    0.0515839  
   0.872956400    -0.0719759    0.0581808  
   0.874956300    -0.0644728    0.0636026  
   0.876956200    -0.0561331    0.0679869  
   0.878956100    -0.0472530    0.0710797  
   0.880956000    -0.0379927    0.0729034  
   0.882955900    -0.0285895    0.0734011  
   0.884955800    -0.0192550    0.0725126  
   0.886955700    -0.0099709    0.0703010  
   0.888955600    -0.0014229    0.0668428  
   0.890955500     0.0064225    0.0621981  
   0.892955400     0.0134212    0.0564914  
   0.894955300     0.0193545    0.0498323  
