! MS46122B
! 2250307/22442219
! 7/24/2025 7:46:59 AM
! C:\USERS\SPARKY\DOCUMENTS\VNA_DATA\JULY24_2025\3K\PORT2_MOS6_REPEAT1.S1P
! CHANNEL.1
! TR.MEASUREMENT
! RAW.DATA
# GHZ S RI R 50.0
! FREQ.GHZ         S11RE         S11IM         
!; PortSelection: Port_1
   0.001000000     1.0454740   -0.0727105  
   0.002999900     0.9470864   -0.2225420  
   0.004999800     0.8210559   -0.0952018  
   0.006999700     0.5168370   -0.3841915  
   0.008999600     0.9353520   -0.0394730  
   0.010999500     0.9161790   -0.2457416  
   0.012999400     0.8759630   -0.3506718  
   0.014999300     0.8352929   -0.4314204  
   0.016999200     0.7935066   -0.5021200  
   0.018999100     0.7489612   -0.5674278  
   0.020999000     0.6997117   -0.6282195  
   0.022998900     0.6450552   -0.6841172  
   0.024998800     0.5768200   -0.6997671  
   0.026998700     0.5183439   -0.7812676  
   0.028998600     0.4442945   -0.8214499  
   0.030998500     0.3628578   -0.8546592  
   0.032998400     0.2783554   -0.8453645  
   0.034998300     0.1772864   -0.8944931  
   0.036998200     0.0731396   -0.8981052  
   0.038998100    -0.0366627   -0.8876929  
   0.040998000    -0.1515498   -0.8603562  
   0.042997900    -0.2695758   -0.8144571  
   0.044997800    -0.3632855   -0.7284396  
   0.046997700    -0.5011516   -0.6526799  
   0.048997600    -0.6043999   -0.5320020  
   0.050997500    -0.6896272   -0.3825087  
   0.052997400    -0.7461879   -0.2052301  
   0.054997300    -0.7623295   -0.0051262  
   0.056997200    -0.7261450    0.2089482  
   0.058997100    -0.6296049    0.4162583  
   0.060997000    -0.4733847    0.5964348  
   0.062996900    -0.2671911    0.7267918  
   0.064996800    -0.0327083    0.7920466  
   0.066996700     0.2054825    0.7877938  
   0.068996600     0.4237833    0.7208081  
   0.070996500     0.6070016    0.6060210  
   0.072996400     0.7462549    0.4593437  
   0.074996300     0.8409227    0.2968348  
   0.076996200     0.8943745    0.1307820  
   0.078996100     0.9129401   -0.0296987  
   0.080996000     0.9024803   -0.1802633  
   0.082995900     0.8685116   -0.3174807  
   0.084995800     0.8155517   -0.4392096  
   0.086995700     0.7495822   -0.5458913  
   0.088995600     0.6726189   -0.6375242  
   0.090995500     0.5873977   -0.7152063  
   0.092995400     0.4966473   -0.7792287  
   0.094995300     0.4002781   -0.8293281  
   0.096995200     0.3007855   -0.8664317  
   0.098995100     0.1990815   -0.8907394  
   0.100995000     0.0953007   -0.9027335  
   0.102994900    -0.0083614   -0.9026133  
   0.104994800    -0.1116119   -0.8900163  
   0.106994700    -0.2136183   -0.8645304  
   0.108994600    -0.3127730   -0.8272723  
   0.110994500    -0.4088900   -0.7772778  
   0.112994400    -0.4997342   -0.7147132  
   0.114994300    -0.5839291   -0.6388623  
   0.116994200    -0.6596125   -0.5497203  
   0.118994100    -0.7249278   -0.4481455  
   0.120994000    -0.7783651   -0.3352265  
   0.122993900    -0.8148466   -0.2098961  
   0.124993800    -0.8325158   -0.0753529  
   0.126993700    -0.8283727    0.0658268  
   0.128993600    -0.7983527    0.2100372  
   0.130993500    -0.7433267    0.3531109  
   0.132993400    -0.6604522    0.4892216  
   0.134993300    -0.5492711    0.6116793  
   0.136993200    -0.4128375    0.7136528  
   0.138993100    -0.2545188    0.7881437  
   0.140993000    -0.0812095    0.8297223  
   0.142992900     0.0994661    0.8346307  
   0.144992800     0.2782594    0.8028687  
   0.146992700     0.4454516    0.7331125  
   0.148992600     0.5931138    0.6311653  
   0.150992500     0.7132278    0.5032028  
   0.152992400     0.8042359    0.3576463  
   0.154992300     0.8630230    0.2016825  
   0.156992200     0.8903997    0.0425079  
   0.158992100     0.8882236   -0.1132400  
   0.160992000     0.8593432   -0.2609110  
   0.162991900     0.8075127   -0.3960380  
   0.164991800     0.7366225   -0.5166445  
   0.166991700     0.6502278   -0.6207364  
   0.168991600     0.5524293   -0.7071312  
   0.170991500     0.4455717   -0.7763369  
   0.172991400     0.3328852   -0.8274490  
   0.174991300     0.2168626   -0.8612736  
   0.176991200     0.0990837   -0.8783743  
   0.178991100    -0.0178856   -0.8789232  
   0.180991000    -0.1324092   -0.8646251  
   0.182990900    -0.2433199   -0.8344514  
   0.184990800    -0.3491328   -0.7896703  
   0.186990700    -0.4478179   -0.7311200  
   0.188990600    -0.5189667   -0.6742964  
   0.190990500    -0.6153652   -0.5780724  
   0.192990400    -0.6865617   -0.4805505  
   0.194990300    -0.7422114   -0.3750542  
   0.196990200    -0.7832758   -0.2618527  
   0.198990100    -0.8080984   -0.1415188  
   0.200990000    -0.8151844   -0.0157249  
   0.202989900    -0.8029725    0.1126767  
   0.204989800    -0.7707236    0.2408611  
   0.206989700    -0.7185822    0.3657416  
   0.208989600    -0.6439885    0.4826556  
   0.210989500    -0.5490276    0.5886742  
   0.212989400    -0.4338143    0.6791935  
   0.214989300    -0.3023202    0.7501639  
   0.216989200    -0.1579382    0.7975597  
   0.218989100    -0.0055389    0.8186188  
   0.220989000     0.1509223    0.8109555  
   0.222988900     0.3046652    0.7748399  
   0.224988800     0.4497480    0.7100479  
   0.226988700     0.5799570    0.6196855  
   0.228988600     0.6904626    0.5080699  
   0.230988500     0.7778319    0.3791264  
   0.232988400     0.8386361    0.2380045  
   0.234988300     0.8737930    0.0906260  
   0.236988200     0.8826447   -0.0578541  
   0.238988100     0.8660665   -0.2022225  
   0.240988000     0.8266295   -0.3385125  
   0.242987900     0.7666847   -0.4625873  
   0.244987800     0.6900809   -0.5732184  
   0.246987700     0.5989627   -0.6686302  
   0.248987600     0.4964570   -0.7474762  
   0.250987500     0.3853640   -0.8087864  
   0.252987400     0.2693768   -0.8522419  
   0.254987300     0.1511414   -0.8779079  
   0.256987200     0.0325996   -0.8866911  
   0.258987100    -0.0850339   -0.8803100  
   0.260987000    -0.1992580   -0.8568114  
   0.262986900    -0.3092063   -0.8177847  
   0.264986800    -0.4124250   -0.7644967  
   0.266986700    -0.5072330   -0.6974264  
   0.268986600    -0.5921175   -0.6183554  
   0.270986500    -0.6650971   -0.5283618  
   0.272986400    -0.7256631   -0.4284112  
   0.274986300    -0.7721186   -0.3197327  
   0.276986200    -0.8030979   -0.2038360  
   0.278986100    -0.8174667   -0.0820970  
   0.280986000    -0.8134399    0.0428302  
   0.282985900    -0.7897788    0.1687415  
   0.284985800    -0.7460809    0.2919788  
   0.286985700    -0.6814533    0.4090362  
   0.288985600    -0.5969342    0.5164621  
   0.290985500    -0.4938057    0.6092857  
   0.292985400    -0.3731395    0.6846690  
   0.294985300    -0.2377328    0.7383833  
   0.296985200    -0.0915511    0.7672853  
   0.298985100     0.0606817    0.7677777  
   0.300985000     0.2118474    0.7384563  
   0.302984900     0.3552870    0.6792644  
   0.304984800     0.4838282    0.5928898  
   0.306984700     0.5913272    0.4825943  
   0.308984600     0.6731806    0.3550783  
   0.310984500     0.7262886    0.2165662  
   0.312984400     0.7492986    0.0742909  
   0.314984300     0.7442577   -0.0646259  
   0.316984200     0.7134318   -0.1940956  
   0.318984100     0.6612701   -0.3098883  
   0.320984000     0.5929236   -0.4075155  
   0.322983900     0.5147940   -0.4862514  
   0.324983800     0.4328655   -0.5463218  
   0.326983700     0.3523135   -0.5906078  
   0.328983600     0.2752851   -0.6243612  
   0.330983500     0.2026250   -0.6518967  
   0.332983400     0.1310374   -0.6773805  
   0.334983300     0.0556711   -0.7015082  
   0.336983200    -0.0275387   -0.7218838  
   0.338983100    -0.1205743   -0.7333497  
   0.340983000    -0.2215817   -0.7305359  
   0.342982900    -0.3269622   -0.7091569  
   0.344982800    -0.4314323   -0.6678703  
   0.346982700    -0.5305941   -0.6066971  
   0.348982600    -0.6178871   -0.5270813  
   0.350982500    -0.6923890   -0.4337112  
   0.352982400    -0.7508150   -0.3282814  
   0.354982300    -0.7928471   -0.2087170  
   0.356982200    -0.8154791   -0.0688866  
   0.358982100    -0.8128707    0.0724216  
   0.360982000    -0.7848873    0.2104355  
   0.362981900    -0.7330329    0.3418103  
   0.364981800    -0.6587785    0.4622564  
   0.366981700    -0.5640628    0.5688351  
   0.368981600    -0.4514771    0.6572482  
   0.370981500    -0.3239350    0.7250538  
   0.372981400    -0.1849608    0.7695547  
   0.374981300    -0.0384914    0.7888157  
   0.376981200    -0.1463157    0.7842142  
   0.378981100     0.0072111    0.7961875  
   0.380981000     0.1616752    0.7791387  
   0.382980900     0.2996645    0.7376986  
   0.384980800     0.4241783    0.6752352  
   0.386980700     0.5371022    0.5916455  
   0.388980600     0.6346112    0.4891417  
   0.390980500     0.7127186    0.3714420  
   0.392980400     0.7688122    0.2426042  
   0.394980300     0.8020176    0.1063401  
   0.396980200     0.8111548   -0.0328109  
   0.398980100     0.7960062   -0.1707697  
   0.400980000     0.7582647   -0.3031398  
   0.402979900     0.6988772   -0.4257218  
   0.404979800     0.6210618   -0.5353793  
   0.406979700     0.5269887   -0.6291557  
   0.408979600     0.4208241   -0.7052184  
   0.410979500     0.3044327   -0.7627454  
   0.412979400     0.1814289   -0.8002890  
   0.414979300     0.0557037   -0.8163370  
   0.416979200    -0.0694147   -0.8135439  
   0.418979100    -0.1910097   -0.7920408  
   0.420979000    -0.3064996   -0.7522371  
   0.422978900    -0.4140553   -0.6960634  
   0.424978800    -0.5108135   -0.6246678  
   0.426978700    -0.5956856   -0.5399745  
   0.428978600    -0.6662722   -0.4441433  
   0.430978500    -0.7214630   -0.3398476  
   0.432978400    -0.7604464   -0.2291544  
   0.434978300    -0.7841825   -0.1147314  
   0.436978200    -0.7893829    0.0027642  
   0.438978100    -0.7775622    0.1201091  
   0.440978000    -0.7482914    0.2347321  
   0.442977900    -0.7019409    0.3448075  
   0.444977800    -0.6394078    0.4476872  
   0.446977700    -0.5610928    0.5400909  
   0.448977600    -0.4689994    0.6206598  
   0.450977500    -0.3645954    0.6870145  
   0.452977400    -0.2493193    0.7367933  
   0.454977300    -0.1258443    0.7682097  
   0.456977200     0.0031181    0.7795838  
   0.458977100     0.1334904    0.7698151  
   0.460977000     0.2613032    0.7385610  
   0.462976900     0.3831811    0.6862471  
   0.464976800     0.4952606    0.6136706  
   0.466976700     0.5940980    0.5227674  
   0.468976600     0.6763937    0.4164663  
   0.470976500     0.7399454    0.2974341  
   0.472976400     0.7820331    0.1696421  
   0.474976300     0.8016349    0.0367410  
   0.476976200     0.7989624   -0.0962952  
   0.478976100     0.7744158   -0.2258361  
   0.480976000     0.7293326   -0.3479967  
   0.482975900     0.6656631   -0.4595509  
   0.484975800     0.5863640   -0.5578635  
   0.486975700     0.4932398   -0.6412074  
   0.488975600     0.3893342   -0.7082821  
   0.490975500     0.2781609   -0.7575619  
   0.492975400     0.1622394   -0.7893152  
   0.494975300     0.0442555   -0.8027412  
   0.496975200    -0.0730677   -0.7982582  
   0.498975100    -0.1865963   -0.7773487  
   0.500975000    -0.2948041   -0.7403687  
   0.502974900    -0.3958632   -0.6887274  
   0.504974800    -0.4883191   -0.6238005  
   0.506974700    -0.5701467   -0.5461844  
   0.508974600    -0.6411216   -0.4571376  
   0.510974500    -0.6985486   -0.3586345  
   0.512974400    -0.7412336   -0.2528101  
   0.514974300    -0.7669034   -0.1411342  
   0.516974200    -0.7771143   -0.0263204  
   0.518974100    -0.7699167    0.0895363  
   0.520974000    -0.7449630    0.2041855  
   0.522973900    -0.7020209    0.3144062  
   0.524973800    -0.6414208    0.4173750  
   0.526973700    -0.5645787    0.5100141  
   0.528973600    -0.4733410    0.5893751  
   0.530973500    -0.3701397    0.6529756  
   0.532973400    -0.2578782    0.6989266  
   0.534973300    -0.1401639    0.7261008  
   0.536973200    -0.0195415    0.7344694  
   0.538973100     0.1000039    0.7236235  
   0.540973000     0.2157456    0.6943203  
   0.542972900     0.3253021    0.6476892  
   0.544972800     0.4265847    0.5847835  
   0.546972700     0.5169581    0.5063509  
   0.548972600     0.5944347    0.4146206  
   0.550972500     0.6562932    0.3116926  
   0.552972400     0.7021333    0.1994092  
   0.554972300     0.7290639    0.0811676  
   0.556972200     0.7366123   -0.0403649  
   0.558972100     0.7248231   -0.1618002  
   0.560972000     0.6934798   -0.2796979  
   0.562971900     0.6440465   -0.3905784  
   0.564971800     0.5777476   -0.4915929  
   0.566971700     0.4960759   -0.5805572  
   0.568971600     0.4021227   -0.6550857  
   0.570971500     0.2975969   -0.7135851  
   0.572971400     0.1858963   -0.7548441  
   0.574971300     0.0689230   -0.7778910  
   0.576971200    -0.0502654   -0.7824055  
   0.578971100    -0.1678474   -0.7685078  
   0.580971000    -0.2816861   -0.7367289  
   0.582970900    -0.3882754   -0.6884055  
   0.584970800    -0.4853650   -0.6248723  
   0.586970700    -0.5712261   -0.5478905  
   0.588970600    -0.6442249   -0.4596031  
   0.590970500    -0.7032646   -0.3617289  
   0.592970400    -0.7470460   -0.2566409  
   0.594970300    -0.7748502   -0.1463006  
   0.596970200    -0.7861894   -0.0333314  
   0.598970100    -0.7810237    0.0804556  
   0.600970000    -0.7591007    0.1923877  
   0.602969900    -0.7208351    0.3003347  
   0.604969800    -0.6668219    0.4020090  
   0.606969700    -0.5980684    0.4953107  
   0.608969600    -0.5151975    0.5779648  
   0.610969500    -0.4201684    0.6474594  
   0.612969400    -0.3149532    0.7025576  
   0.614969300    -0.2015515    0.7412311  
   0.616969200    -0.0829090    0.7619417  
   0.618969100     0.0377378    0.7638673  
   0.620969000     0.1581371    0.7472973  
   0.622968900     0.2756758    0.7113180  
   0.624968800     0.3871303    0.6568360  
   0.626968700     0.4891546    0.5839891  
   0.628968600     0.5789367    0.4950103  
   0.630968500     0.6534255    0.3914938  
   0.632968400     0.7102008    0.2767137  
   0.634968300     0.7469490    0.1536836  
   0.636968200     0.7627010    0.0258232  
   0.638968100     0.7568614   -0.1030201  
   0.640968000     0.7296178   -0.2289426  
   0.642967900     0.6814644   -0.3476695  
   0.644967800     0.6148547   -0.4563067  
   0.646967700     0.5313829   -0.5517170  
   0.648967600     0.4344768   -0.6308742  
   0.650967500     0.3271134   -0.6927689  
   0.652967400     0.2124789   -0.7356700  
   0.654967300     0.0939257   -0.7591840  
   0.656967200    -0.0254578   -0.7637782  
   0.658967100    -0.1430086   -0.7495609  
   0.660967000    -0.2557540   -0.7177065  
   0.662966900    -0.3619260   -0.6687518  
   0.664966800    -0.4586451   -0.6045209  
   0.666966700    -0.5437397   -0.5266334  
   0.668966600    -0.6152777   -0.4373829  
   0.670966500    -0.6724505   -0.3387010  
   0.672966400    -0.7146019   -0.2334613  
   0.674966300    -0.7392578   -0.1236420  
   0.676966200    -0.7469354   -0.0117084  
   0.678966100    -0.7384625    0.0997505  
   0.680966000    -0.7131853    0.2089073  
   0.682965900    -0.6716883    0.3129825  
   0.684965800    -0.6148140    0.4098186  
   0.686965700    -0.5439118    0.4978877  
   0.688965600    -0.4598157    0.5745901  
   0.690965500    -0.3638984    0.6366738  
   0.692965400    -0.2592882    0.6847997  
   0.694965300    -0.1475471    0.7160246  
   0.696965200    -0.0314072    0.7297357  
   0.698965100     0.0866094    0.7246445  
   0.700965000     0.2036421    0.7006118  
   0.702964900     0.3160807    0.6573859  
   0.704964800     0.4205503    0.5958051  
   0.706964700     0.5145330    0.5172893  
   0.708964600     0.5941737    0.4231804  
   0.710964500     0.6585389    0.3175268  
   0.712964400     0.7030175    0.2017047  
   0.714964300     0.7272850    0.0803147  
   0.716964200     0.7309126   -0.0427206  
   0.718964100     0.7138929   -0.1634160  
   0.720964000     0.6772596   -0.2777334  
   0.722963900     0.6231723   -0.3839339  
   0.724963800     0.5535497   -0.4784814  
   0.726963700     0.4708160   -0.5600485  
   0.728963600     0.3773836   -0.6265889  
   0.730963500     0.2753544   -0.6768554  
   0.732963400     0.1689126   -0.7108208  
   0.734963300     0.0594396   -0.7283525  
   0.736963200    -0.0662124   -0.7278501  
   0.738963100    -0.1892024   -0.7057610  
   0.740963000    -0.3057300   -0.6633947  
   0.742962900    -0.4126798   -0.6018658  
   0.744962800    -0.5075075   -0.5236389  
   0.746962700    -0.5875489   -0.4305802  
   0.748962600    -0.6505391   -0.3246596  
   0.750962500    -0.6094397   -0.4195527  
   0.752962400    -0.6708411   -0.3113158  
   0.754962300    -0.7126567   -0.1937887  
   0.756962200    -0.7337456   -0.0703036  
   0.758962100    -0.7328749    0.0553691  
   0.760962000    -0.7097530    0.1798443  
   0.762961900    -0.6678077    0.2935385  
   0.764961800    -0.6134056    0.3897185  
   0.766961700    -0.5445677    0.4767132  
   0.768961600    -0.4623464    0.5520817  
   0.770961500    -0.3696162    0.6136810  
   0.772961400    -0.2682461    0.6600387  
   0.774961300    -0.1607576    0.6893334  
   0.776961200    -0.0498624    0.7018859  
   0.778961100     0.0621275    0.6970102  
   0.780961000     0.1724522    0.6745772  
   0.782960900     0.2780836    0.6347775  
   0.784960800     0.3772719    0.5784204  
   0.786960700     0.4663432    0.5070401  
   0.788960600     0.5435888    0.4218529  
   0.790960500     0.6062511    0.3254993  
   0.792960400     0.6525574    0.2201638  
   0.794960300     0.6816316    0.1083263  
   0.796960200     0.6921866   -0.0063523  
   0.798960100     0.6841267   -0.1214740  
   0.800960000     0.6577714   -0.2337970  
   0.802959900     0.6136993   -0.3402542  
   0.804959800     0.5530208   -0.4384695  
   0.806959700     0.4777151   -0.5249296  
   0.808959600     0.3894082   -0.5986027  
   0.810959500     0.2905995   -0.6571814  
   0.812959400     0.1839286   -0.6993008  
   0.814959300     0.0719803   -0.7237188  
   0.816959200    -0.0418032   -0.7300993  
   0.818959100    -0.1549909   -0.7180325  
   0.820959000    -0.2644432   -0.6887212  
   0.822958900    -0.3673805   -0.6426436  
   0.824958800    -0.4615393   -0.5813091  
   0.826958700    -0.5445000   -0.5062717  
   0.828958600    -0.6148717   -0.4199310  
   0.830958500    -0.6706727   -0.3241941  
   0.832958400    -0.7113788   -0.2214282  
   0.834958300    -0.7356144   -0.1142812  
   0.836958200    -0.7433375   -0.0051058  
   0.838958100    -0.7347732    0.1036125  
   0.840958000    -0.7098668    0.2097959  
   0.842957900    -0.6689386    0.3110534  
   0.844957800    -0.6135094    0.4052444  
   0.846957700    -0.5444983    0.4904560  
   0.848957600    -0.4628786    0.5643866  
   0.850957500    -0.3706838    0.6256191  
   0.852957400    -0.2700842    0.6723571  
   0.854957300    -0.1626079    0.7030427  
   0.856957200    -0.0511232    0.7171737  
   0.858957100     0.0616074    0.7133552  
   0.860957000     0.1726590    0.6923327  
   0.862956900     0.2789523    0.6539751  
   0.864956800     0.3784163    0.5991259  
   0.866956700     0.4682151    0.5291312  
   0.868956600     0.5459022    0.4449404  
   0.870956500     0.6099433    0.3487886  
   0.872956400     0.6581175    0.2430742  
   0.874956300     0.6886701    0.1298813  
   0.876956200     0.7005242    0.0122984  
   0.878956100     0.6922484   -0.1060444  
   0.880956000     0.6643561   -0.2220514  
   0.882955900     0.6174678   -0.3315710  
   0.884955800     0.5527930   -0.4319026  
   0.886955700     0.4722113   -0.5193734  
   0.888955600     0.3784032   -0.5922632  
   0.890955500     0.2742519   -0.6478855  
   0.892955400     0.1630121   -0.6852204  
   0.894955300     0.0477799   -0.7032745  
