! MS46122B
! 2250307/22442219
! 7/22/2025 7:46:55 AM
! C:\USERS\SPARKY\DOCUMENTS\VNA_DATA\JULY22_2025\3K\PORT3_MOS3.S1P
! CHANNEL.1
! TR.MEASUREMENT
! RAW.DATA
# GHZ S RI R 50.0
! FREQ.GHZ         S11RE         S11IM         
!; PortSelection: Port_1
   0.001000000     1.0457250   -0.0717085  
   0.002999900     0.9642111   -0.1941457  
   0.004999800     0.9039938   -0.2990890  
   0.006999700     0.8367140   -0.3968346  
   0.008999600     0.7582788   -0.4921924  
   0.010999500     0.6653849   -0.5830041  
   0.012999400     0.5524052   -0.6666086  
   0.014999300     0.4135242   -0.7370498  
   0.016999200     0.2426573   -0.7817258  
   0.018999100     0.0345160   -0.7811384  
   0.020999000    -0.2026615   -0.7017753  
   0.022998900    -0.4326445   -0.5031851  
   0.024998800    -0.5498322   -0.1731667  
   0.026998700    -0.5127397    0.2311388  
   0.028998600    -0.2463216    0.5444334  
   0.030998500     0.1125371    0.6655313  
   0.032998400     0.4060799    0.6039084  
   0.034998300     0.6635451    0.4757436  
   0.036998200     0.8053808    0.3027151  
   0.038998100     0.8811861    0.1300518  
   0.040998000     0.9102629   -0.0298422  
   0.042997900     0.9064664   -0.1731180  
   0.044997800     0.8543935   -0.2739085  
   0.046997700     0.8373247   -0.4099414  
   0.048997600     0.7830859   -0.5060039  
   0.050997500     0.7200476   -0.5888563  
   0.052997400     0.6508018   -0.6599116  
   0.054997300     0.5765043   -0.7198445  
   0.056997200     0.4967741   -0.7713821  
   0.058997100     0.4142950   -0.8126178  
   0.060997000     0.3285248   -0.8451411  
   0.062996900     0.2402525   -0.8682401  
   0.064996800     0.1492895   -0.8816940  
   0.066996700     0.0561861   -0.8859672  
   0.068996600    -0.0381763   -0.8796843  
   0.070996500    -0.1336060   -0.8633851  
   0.072996400    -0.2289992   -0.8343720  
   0.074996300    -0.3233817   -0.7926754  
   0.076996200    -0.4152658   -0.7378942  
   0.078996100    -0.5022951   -0.6684548  
   0.080996000    -0.5829939   -0.5842425  
   0.082995900    -0.6540251   -0.4848437  
   0.084995800    -0.7114648   -0.3703568  
   0.086995700    -0.7533447   -0.2421861  
   0.088995600    -0.7739778   -0.1016387  
   0.090995500    -0.7699099    0.0478856  
   0.092995400    -0.7372100    0.2018524  
   0.094995300    -0.6714562    0.3530761  
   0.096995200    -0.5726038    0.4934841  
   0.098995100    -0.4413750    0.6136875  
   0.100995000    -0.2820840    0.7055528  
   0.102994900    -0.1048507    0.7592885  
   0.104994800     0.0810947    0.7717533  
   0.106994700     0.2635840    0.7406647  
   0.108994600     0.4320271    0.6716599  
   0.110994500     0.5777487    0.5696923  
   0.112994400     0.6944910    0.4428169  
   0.114994300     0.7791239    0.3003123  
   0.116994200     0.8316598    0.1503739  
   0.118994100     0.8536444    0.0001512  
   0.120994000     0.8499478   -0.1450143  
   0.122993900     0.8207657   -0.2811565  
   0.124993800     0.7716829   -0.4045442  
   0.126993700     0.7062423   -0.5143829  
   0.128993600     0.6273617   -0.6081189  
   0.130993500     0.5391807   -0.6878691  
   0.132993400     0.4437341   -0.7519516  
   0.134993300     0.3428046   -0.8009554  
   0.136993200     0.2387112   -0.8352081  
   0.138993100     0.1324899   -0.8554028  
   0.140993000     0.0266606   -0.8610721  
   0.142992900    -0.0790581   -0.8535796  
   0.144992800    -0.1824200   -0.8344314  
   0.146992700    -0.2823695   -0.8006708  
   0.148992600    -0.3776423   -0.7542491  
   0.150992500    -0.4657318   -0.6944328  
   0.152992400    -0.5480709   -0.6239579  
   0.154992300    -0.6210164   -0.5424349  
   0.156992200    -0.6837371   -0.4497593  
   0.158992100    -0.7345577   -0.3471792  
   0.160992000    -0.7714311   -0.2357593  
   0.162991900    -0.7924572   -0.1174052  
   0.164991800    -0.7960747    0.0067134  
   0.166991700    -0.7806300    0.1329640  
   0.168991600    -0.7443548    0.2593045  
   0.170991500    -0.6861869    0.3822966  
   0.172991400    -0.6067127    0.4966977  
   0.174991300    -0.5061525    0.5989679  
   0.176991200    -0.3856473    0.6840456  
   0.178991100    -0.2489873    0.7479550  
   0.180991000    -0.1004676    0.7870635  
   0.182990900     0.0552366    0.7968647  
   0.184990800     0.2120063    0.7768766  
   0.186990700     0.3626497    0.7272359  
   0.188990600     0.4810862    0.6634573  
   0.190990500     0.6179026    0.5503701  
   0.192990400     0.7180726    0.4264240  
   0.194990300     0.7906365    0.2908836  
   0.196990200     0.8361706    0.1477461  
   0.198990100     0.8547108    0.0017708  
   0.200990000     0.8474462   -0.1421019  
   0.202989900     0.8161336   -0.2792044  
   0.204989800     0.7640550   -0.4055863  
   0.206989700     0.6946711   -0.5190999  
   0.208989600     0.6099328   -0.6169069  
   0.210989500     0.5129982   -0.6983933  
   0.212989400     0.4071831   -0.7631288  
   0.214989300     0.2950287   -0.8102098  
   0.216989200     0.1799332   -0.8397526  
   0.218989100     0.0639143   -0.8524818  
   0.220989000    -0.0516532   -0.8486066  
   0.222988900    -0.1646552   -0.8285111  
   0.224988800    -0.2733991   -0.7929130  
   0.226988700    -0.3754301   -0.7430306  
   0.228988600    -0.4692753   -0.6798021  
   0.230988500    -0.5537177   -0.6037308  
   0.232988400    -0.6262013   -0.5152418  
   0.234988300    -0.6870341   -0.4166295  
   0.236988200    -0.7338640   -0.3090522  
   0.238988100    -0.7645654   -0.1939875  
   0.240988000    -0.7782314   -0.0742864  
   0.242987900    -0.7736124    0.0479877  
   0.244987800    -0.7495954    0.1708583  
   0.246987700    -0.7053795    0.2911586  
   0.248987600    -0.6405085    0.4055841  
   0.250987500    -0.5557383    0.5103331  
   0.252987400    -0.4523738    0.6004388  
   0.254987300    -0.3332641    0.6726972  
   0.256987200    -0.2008725    0.7235600  
   0.258987100    -0.0591525    0.7518280  
   0.260987000     0.0875660    0.7523772  
   0.262986900     0.2338410    0.7256607  
   0.264986800     0.3733385    0.6715594  
   0.266986700     0.5006762    0.5919650  
   0.268986600     0.6100689    0.4906113  
   0.270986500     0.6980125    0.3720652  
   0.272986400     0.7618883    0.2404936  
   0.274986300     0.8004965    0.1015447  
   0.276986200     0.8134278   -0.0397559  
   0.278986100     0.8014950   -0.1788012  
   0.280986000     0.7660369   -0.3108359  
   0.282985900     0.7104077   -0.4325021  
   0.284985800     0.6371728   -0.5410823  
   0.286985700     0.5498356   -0.6338907  
   0.288985600     0.4517383   -0.7096991  
   0.290985500     0.3461259   -0.7680539  
   0.292985400     0.2358327   -0.8093358  
   0.294985300     0.1225578   -0.8335684  
   0.296985200     0.0087684   -0.8415570  
   0.298985100    -0.1038929   -0.8334987  
   0.300985000    -0.2134856   -0.8099046  
   0.302984900    -0.3174827   -0.7722635  
   0.304984800    -0.4145977   -0.7209495  
   0.306984700    -0.5032634   -0.6578948  
   0.308984600    -0.5820170   -0.5842965  
   0.310984500    -0.6501992   -0.5007662  
   0.312984400    -0.7072979   -0.4088495  
   0.314984300    -0.7514870   -0.3087122  
   0.316984200    -0.7824124   -0.2021393  
   0.318984100    -0.7982060   -0.0895348  
   0.320984000    -0.7974057    0.0273549  
   0.322983900    -0.7779811    0.1452705  
   0.324983800    -0.7389427    0.2603519  
   0.326983700    -0.6802519    0.3683724  
   0.328983600    -0.6030661    0.4649261  
   0.330983500    -0.5116528    0.5459234  
   0.332983400    -0.4104454    0.6092145  
   0.334983300    -0.3032296    0.6558565  
   0.336983200    -0.1917943    0.6862087  
   0.338983100    -0.0778168    0.7013061  
   0.340983000     0.0378638    0.7005373  
   0.342982900     0.1541418    0.6825962  
   0.344982800     0.2688039    0.6473415  
   0.346982700     0.3792015    0.5928733  
   0.348982600     0.4799815    0.5188318  
   0.350982500     0.5695316    0.4283560  
   0.352982400     0.6426832    0.3225305  
   0.354982300     0.6986488    0.1997156  
   0.356982200     0.7326751    0.0550480  
   0.358982100     0.7373109   -0.0935461  
   0.360982000     0.7122409   -0.2400794  
   0.362981900     0.6590126   -0.3786777  
   0.364981800     0.5795390   -0.5038516  
   0.366981700     0.4775718   -0.6103727  
   0.368981600     0.3572893   -0.6948798  
   0.370981500     0.2241305   -0.7542860  
   0.372981400     0.0831374   -0.7867218  
   0.374981300    -0.0605674   -0.7920171  
   0.376981200     0.0596259   -0.7901487  
   0.378981100    -0.0817186   -0.7903408  
   0.380981000    -0.2200399   -0.7650983  
   0.382980900    -0.3383731   -0.7213257  
   0.384980800    -0.4420987   -0.6623625  
   0.386980700    -0.5351006   -0.5885220  
   0.388980600    -0.6153365   -0.5018442  
   0.390980500    -0.6811959   -0.4050607  
   0.392980400    -0.7312911   -0.3004034  
   0.394980300    -0.7649456   -0.1900421  
   0.396980200    -0.7825392   -0.0757487  
   0.398980100    -0.7826307    0.0398118  
   0.400980000    -0.7658094    0.1550823  
   0.402979900    -0.7320730    0.2675356  
   0.404979800    -0.6815125    0.3736590  
   0.406979700    -0.6150292    0.4723771  
   0.408979600    -0.5336778    0.5606588  
   0.410979500    -0.4383120    0.6369222  
   0.412979400    -0.3300858    0.6983782  
   0.414979300    -0.2121062    0.7413359  
   0.416979200    -0.0871642    0.7666251  
   0.418979100     0.0414101    0.7714322  
   0.420979000     0.1705934    0.7549458  
   0.422978900     0.2968266    0.7169240  
   0.424978800     0.4163402    0.6575342  
   0.426978700     0.5247995    0.5780771  
   0.428978600     0.6188709    0.4808900  
   0.430978500     0.6949030    0.3687207  
   0.432978400     0.7505020    0.2452981  
   0.434978300     0.7852789    0.1143088  
   0.436978200     0.7962198   -0.0202362  
   0.438978100     0.7838215   -0.1542264  
   0.440978000     0.7488819   -0.2833757  
   0.442977900     0.6933005   -0.4039072  
   0.444977800     0.6189727   -0.5122455  
   0.446977700     0.5283655   -0.6054861  
   0.448977600     0.4248983   -0.6825531  
   0.450977500     0.3118851   -0.7404591  
   0.452977400     0.1917316   -0.7787807  
   0.454977300     0.0675008   -0.7973549  
   0.456977200    -0.0567481   -0.7960019  
   0.458977100    -0.1783674   -0.7751703  
   0.460977000    -0.2941095   -0.7358308  
   0.462976900    -0.4005909   -0.6796352  
   0.464976800    -0.4967788   -0.6083410  
   0.466976700    -0.5805770   -0.5232248  
   0.468976600    -0.6499151   -0.4274408  
   0.470976500    -0.7036810   -0.3216707  
   0.472976400    -0.7404034   -0.2096495  
   0.474976300    -0.7598739   -0.0929429  
   0.476976200    -0.7608526    0.0253215  
   0.478976100    -0.7438834    0.1428141  
   0.480976000    -0.7086290    0.2560315  
   0.482975900    -0.6560408    0.3629572  
   0.484975800    -0.5867484    0.4611843  
   0.486975700    -0.5018415    0.5483093  
   0.488975600    -0.4030936    0.6207585  
   0.490975500    -0.2926095    0.6770782  
   0.492975400    -0.1727884    0.7146307  
   0.494975300    -0.0476917    0.7314325  
   0.496975200     0.0797612    0.7263369  
   0.498975100     0.2045361    0.6991647  
   0.500975000     0.3229319    0.6505026  
   0.502974900     0.4305345    0.5819932  
   0.504974800     0.5238767    0.4956328  
   0.506974700     0.6000271    0.3947721  
   0.508974600     0.6567665    0.2830351  
   0.510974500     0.6923501    0.1647814  
   0.512974400     0.7073998    0.0448119  
   0.514974300     0.7006094   -0.0722001  
   0.516974200     0.6774049   -0.1838555  
   0.518974100     0.6385145   -0.2877252  
   0.520974000     0.5860252   -0.3820100  
   0.522973900     0.5222319   -0.4662478  
   0.524973800     0.4489204   -0.5395588  
   0.526973700     0.3673125   -0.6023945  
   0.528973600     0.2783257   -0.6533660  
   0.530973500     0.1829091   -0.6926166  
   0.532973400     0.0819717   -0.7187797  
   0.534973300    -0.0227552   -0.7304423  
   0.536973200    -0.1300392   -0.7271147  
   0.538973100    -0.2368170   -0.7072032  
   0.540973000    -0.3403725   -0.6710899  
   0.542972900    -0.4387453   -0.6187943  
   0.544972800    -0.5289592   -0.5506017  
   0.546972700    -0.6082430   -0.4679869  
   0.548972600    -0.6740993   -0.3723844  
   0.550972500    -0.7241139   -0.2667848  
   0.552972400    -0.7567898   -0.1534934  
   0.554972300    -0.7708753   -0.0356060  
   0.556972200    -0.7658635    0.0836772  
   0.558972100    -0.7413955    0.2012372  
   0.560972000    -0.6983814    0.3134528  
   0.562971900    -0.6378658    0.4176536  
   0.564971800    -0.5612892    0.5111814  
   0.566971700    -0.4702490    0.5915444  
   0.568971600    -0.3672299    0.6565431  
   0.570971500    -0.2546026    0.7045766  
   0.572971400    -0.1345983    0.7340172  
   0.574971300    -0.0101964    0.7436071  
   0.576971200     0.1155326    0.7324685  
   0.578971100     0.2384814    0.7003416  
   0.580971000     0.3551473    0.6476917  
   0.582970900     0.4620837    0.5759450  
   0.584970800     0.5552486    0.4869334  
   0.586970700     0.6323246    0.3834193  
   0.588970600     0.6907320    0.2674805  
   0.590970500     0.7285107    0.1435416  
   0.592970400     0.7445893    0.0144197  
   0.594970300     0.7385620   -0.1148502  
   0.596970200     0.7103902   -0.2413905  
   0.598970100     0.6611896   -0.3608156  
   0.600970000     0.5927048   -0.4696177  
   0.602969900     0.5072168   -0.5646740  
   0.604969800     0.4074186   -0.6441783  
   0.606969700     0.2965942   -0.7046026  
   0.608969600     0.1778890   -0.7459073  
   0.610969500     0.0546663   -0.7671048  
   0.612969400    -0.0685071   -0.7678881  
   0.614969300    -0.1890520   -0.7486656  
   0.616969200    -0.3035527   -0.7109507  
   0.618969100    -0.4089371   -0.6566423  
   0.620969000    -0.5038024   -0.5874500  
   0.622968900    -0.5866524   -0.5049464  
   0.624968800    -0.6551877   -0.4114640  
   0.626968700    -0.7090845   -0.3087359  
   0.628968600    -0.7465069   -0.1994380  
   0.630968500    -0.7672906   -0.0859762  
   0.632968400    -0.7706599    0.0293345  
   0.634968300    -0.7566318    0.1438587  
   0.636968200    -0.7255900    0.2552522  
   0.638968100    -0.6780512    0.3611489  
   0.640968000    -0.6147719    0.4588921  
   0.642967900    -0.5370764    0.5466707  
   0.644967800    -0.4462395    0.6224502  
   0.646967700    -0.3443288    0.6833803  
   0.648967600    -0.2334074    0.7280598  
   0.650967500    -0.1162455    0.7555057  
   0.652967400     0.0047324    0.7642570  
   0.654967300     0.1263590    0.7540607  
   0.656967200     0.2458831    0.7241536  
   0.658967100     0.3603776    0.6749113  
   0.660967000     0.4661166    0.6072902  
   0.662966900     0.5609575    0.5220426  
   0.664966800     0.6410586    0.4213385  
   0.666966700     0.7038698    0.3072620  
   0.668966600     0.7466671    0.1840725  
   0.670966500     0.7684252    0.0546305  
   0.672966400     0.7690125   -0.0761081  
   0.674966300     0.7461480   -0.2047573  
   0.676966200     0.7019931   -0.3271678  
   0.678966100     0.6385796   -0.4393953  
   0.680966000     0.5577383   -0.5392368  
   0.682965900     0.4621806   -0.6232530  
   0.684965800     0.3556212   -0.6894804  
   0.686965700     0.2400335   -0.7372777  
   0.688965600     0.1195914   -0.7654510  
   0.690965500    -0.0020113   -0.7728342  
   0.692965400    -0.1220246   -0.7617101  
   0.694965300    -0.2373554   -0.7325287  
   0.696965200    -0.3455005   -0.6862899  
   0.698965100    -0.4442539   -0.6243336  
   0.700965000    -0.5321865   -0.5487198  
   0.702964900    -0.6068376   -0.4613451  
   0.704964800    -0.6670392   -0.3640016  
   0.706964700    -0.7115541   -0.2591687  
   0.708964600    -0.7400877   -0.1488109  
   0.710964500    -0.7520829   -0.0353099  
   0.712964400    -0.7461885    0.0783408  
   0.714964300    -0.7228689    0.1902128  
   0.716964200    -0.6829251    0.2970022  
   0.718964100    -0.6269826    0.3970602  
   0.720964000    -0.5562100    0.4870708  
   0.722963900    -0.4721434    0.5653806  
   0.724963800    -0.3764331    0.6303008  
   0.726963700    -0.2707478    0.6794118  
   0.728963600    -0.1578685    0.7111964  
   0.730963500    -0.0405994    0.7238545  
   0.732963400     0.0774356    0.7178327  
   0.734963300     0.1938134    0.6921034  
   0.736963200     0.3207315    0.6397545  
   0.738963100     0.4366616    0.5643222  
   0.740963000     0.5359930    0.4684557  
   0.742962900     0.6151303    0.3558782  
   0.744962800     0.6714685    0.2306207  
   0.746962700     0.7030995    0.0984156  
   0.748962600     0.7096325   -0.0370803  
   0.750962500     0.6933454    0.0716288  
   0.752962400     0.6957870   -0.0615887  
   0.754962300     0.6744063   -0.1919884  
   0.756962200     0.6299828   -0.3153550  
   0.758962100     0.5647525   -0.4278944  
   0.760962000     0.4806733   -0.5270430  
   0.762961900     0.3859219   -0.6054037  
   0.764961800     0.2887507   -0.6625494  
   0.766961700     0.1844261   -0.7039745  
   0.768961600     0.0746988   -0.7291235  
   0.770961500    -0.0375278   -0.7372452  
   0.772961400    -0.1498816   -0.7281864  
   0.774961300    -0.2595322   -0.7020072  
   0.776961200    -0.3646461   -0.6590857  
   0.778961100    -0.4617237   -0.5999861  
   0.780961000    -0.5488755   -0.5262329  
   0.782960900    -0.6238150   -0.4391826  
   0.784960800    -0.6845790   -0.3411428  
   0.786960700    -0.7288420   -0.2343268  
   0.788960600    -0.7560705   -0.1213627  
   0.790960500    -0.7651843   -0.0057969  
   0.792960400    -0.7557191    0.1100017  
   0.794960300    -0.7283127    0.2230568  
   0.796960200    -0.6836700    0.3299780  
   0.798960100    -0.6228631    0.4290541  
   0.800960000    -0.5471925    0.5168129  
   0.802959900    -0.4588385    0.5922057  
   0.804959800    -0.3597985    0.6530511  
   0.806959700    -0.2520403    0.6976723  
   0.808959600    -0.1385393    0.7248858  
   0.810959500    -0.0218174    0.7341740  
   0.812959400     0.0957596    0.7248870  
   0.814959300     0.2108026    0.6971462  
   0.816959200     0.3205850    0.6510713  
   0.818959100     0.4219838    0.5878174  
   0.820959000     0.5127460    0.5086328  
   0.822958900     0.5896999    0.4152939  
   0.824958800     0.6510215    0.3100428  
   0.826958700     0.6944628    0.1954792  
   0.828958600     0.7187075    0.0752341  
   0.830958500     0.7224377   -0.0481037  
   0.832958400     0.7057678   -0.1702330  
   0.834958300     0.6690750   -0.2880635  
   0.836958200     0.6132197   -0.3981117  
   0.838958100     0.5400522   -0.4972765  
   0.840958000     0.4515199   -0.5830194  
   0.842957900     0.3503018   -0.6528348  
   0.844957800     0.2393745   -0.7043544  
   0.846957700     0.1217533   -0.7370741  
   0.848957600     0.0011379   -0.7498236  
   0.850957500    -0.1194885   -0.7430484  
   0.852957400    -0.2363525   -0.7170388  
   0.854957300    -0.3467064   -0.6728233  
   0.856957200    -0.4481816   -0.6122201  
   0.858957100    -0.5379797   -0.5367778  
   0.860957000    -0.6143135   -0.4496004  
   0.862956900    -0.6754546   -0.3525245  
   0.864956800    -0.7206097   -0.2482333  
   0.866956700    -0.7494548   -0.1397591  
   0.868956600    -0.7610878   -0.0288974  
   0.870956500    -0.7565100    0.0824581  
   0.872956400    -0.7355868    0.1912854  
   0.874956300    -0.6985758    0.2958600  
   0.876956200    -0.6467056    0.3942089  
   0.878956100    -0.5804420    0.4842419  
   0.880956000    -0.5014635    0.5636545  
   0.882955900    -0.4108592    0.6309826  
   0.884955800    -0.3105314    0.6841355  
   0.886955700    -0.2028421    0.7217554  
   0.888955600    -0.0899671    0.7429802  
   0.890955500     0.0258184    0.7464672  
   0.892955400     0.1418094    0.7320685  
   0.894955300     0.2547367    0.6995322  
