! MS46122B
! 2250307/22442219
! 7/23/2025 7:56:17 AM
! C:\USERS\SPARKY\DOCUMENTS\VNA_DATA\JULY23_2025\3K\PORT5_MOS4.S1P
! CHANNEL.1
! TR.MEASUREMENT
! RAW.DATA
# GHZ S RI R 50.0
! FREQ.GHZ         S11RE         S11IM         
!; PortSelection: Port_1
   0.001000000     1.0459610   -0.0715810  
   0.002999900     0.9643721   -0.1941049  
   0.004999800     0.9040682   -0.2991668  
   0.006999700     0.8369452   -0.3969096  
   0.008999600     0.7583058   -0.4925106  
   0.010999500     0.6653125   -0.5835545  
   0.012999400     0.5522069   -0.6675697  
   0.014999300     0.4128666   -0.7384896  
   0.016999200     0.2409267   -0.7837259  
   0.018999100     0.0309560   -0.7834567  
   0.020999000    -0.2091559   -0.7031761  
   0.022998900    -0.4423468   -0.5009486  
   0.024998800    -0.5599824   -0.1640707  
   0.026998700    -0.5169960    0.2487249  
   0.028998600    -0.2394354    0.5636638  
   0.030998500     0.1279456    0.6783789  
   0.032998400     0.4232205    0.6082977  
   0.034998300     0.6798671    0.4733005  
   0.036998200     0.8185673    0.2961181  
   0.038998100     0.8910158    0.1211473  
   0.040998000     0.9167580   -0.0397743  
   0.042997900     0.9109229   -0.1833378  
   0.044997800     0.8569112   -0.2835016  
   0.046997700     0.8379640   -0.4199038  
   0.048997600     0.7822281   -0.5155110  
   0.050997500     0.7179716   -0.5977111  
   0.052997400     0.6490174   -0.6667764  
   0.054997300     0.5715709   -0.7284198  
   0.056997200     0.4916376   -0.7785826  
   0.058997100     0.4082802   -0.8191923  
   0.060997000     0.3217235   -0.8510247  
   0.062996900     0.2326003   -0.8733521  
   0.064996800     0.1408187   -0.8859996  
   0.066996700     0.0469531   -0.8892652  
   0.068996600    -0.0482139   -0.8818566  
   0.070996500    -0.1443487   -0.8643584  
   0.072996400    -0.2403698   -0.8339248  
   0.074996300    -0.3353691   -0.7906935  
   0.076996200    -0.4276932   -0.7339606  
   0.078996100    -0.5148744   -0.6625115  
   0.080996000    -0.5954481   -0.5756665  
   0.082995900    -0.6658444   -0.4735899  
   0.084995800    -0.7221507   -0.3561066  
   0.086995700    -0.7621536   -0.2249813  
   0.088995600    -0.7802699   -0.0812424  
   0.090995500    -0.7723345    0.0707648  
   0.092995400    -0.7350350    0.2269440  
   0.094995300    -0.6634824    0.3789108  
   0.096995200    -0.5582380    0.5187988  
   0.098995100    -0.4205859    0.6371968  
   0.100995000    -0.2552686    0.7239748  
   0.102994900    -0.0730325    0.7716636  
   0.104994800     0.1157637    0.7764446  
   0.106994700     0.2990861    0.7375669  
   0.108994600     0.4659536    0.6603662  
   0.110994500     0.6084905    0.5512249  
   0.112994400     0.7201630    0.4188237  
   0.114994300     0.7988355    0.2722677  
   0.116994200     0.8452414    0.1198251  
   0.118994100     0.8610429   -0.0314864  
   0.120994000     0.8514961   -0.1766474  
   0.122993900     0.8170559   -0.3115633  
   0.124993800     0.7632538   -0.4332290  
   0.126993700     0.6942460   -0.5404991  
   0.128993600     0.6115088   -0.6319221  
   0.130993500     0.5206915   -0.7083092  
   0.132993400     0.4227977   -0.7693260  
   0.134993300     0.3201364   -0.8150391  
   0.136993200     0.2146272   -0.8459758  
   0.138993100     0.1074196   -0.8629712  
   0.140993000     0.0005694   -0.8654731  
   0.142992900    -0.1053870   -0.8543881  
   0.144992800    -0.2089033   -0.8316026  
   0.146992700    -0.3084168   -0.7944224  
   0.148992600    -0.4032399   -0.7444921  
   0.150992500    -0.4904521   -0.6812853  
   0.152992400    -0.5711041   -0.6071861  
   0.154992300    -0.6423554   -0.5218266  
   0.156992200    -0.7027684   -0.4257486  
   0.158992100    -0.7504143   -0.3198074  
   0.160992000    -0.7837083   -0.2051324  
   0.162991900    -0.8004680   -0.0836763  
   0.164991800    -0.7988625    0.0426465  
   0.166991700    -0.7775629    0.1709895  
   0.168991600    -0.7348888    0.2979786  
   0.170991500    -0.6697077    0.4203250  
   0.172991400    -0.5826975    0.5333996  
   0.174991300    -0.4747817    0.6320363  
   0.176991200    -0.3472783    0.7122346  
   0.178991100    -0.2043914    0.7691786  
   0.180991000    -0.0509396    0.7999605  
   0.182990900     0.1078256    0.8002141  
   0.184990800     0.2655727    0.7700147  
   0.186990700     0.4148871    0.7100624  
   0.188990600     0.5303615    0.6372619  
   0.190990500     0.6605533    0.5143990  
   0.192990400     0.7528703    0.3828704  
   0.194990300     0.8166667    0.2419233  
   0.196990200     0.8527579    0.0950287  
   0.198990100     0.8614239   -0.0522721  
   0.200990000     0.8447556   -0.1958097  
   0.202989900     0.8045039   -0.3306693  
   0.204989800     0.7443232   -0.4535901  
   0.206989700     0.6678377   -0.5628833  
   0.208989600     0.5769249   -0.6553385  
   0.210989500     0.4752063   -0.7309066  
   0.212989400     0.3653844   -0.7890323  
   0.214989300     0.2501054   -0.8295503  
   0.216989200     0.1330075   -0.8522929  
   0.218989100     0.0158199   -0.8580988  
   0.220989000    -0.1000410   -0.8473710  
   0.222988900    -0.2123512   -0.8201685  
   0.224988800    -0.3197312   -0.7780311  
   0.226988700    -0.4197554   -0.7216640  
   0.228988600    -0.5106650   -0.6519439  
   0.230988500    -0.5912610   -0.5698199  
   0.232988400    -0.6590616   -0.4756230  
   0.234988300    -0.7145519   -0.3717150  
   0.236988200    -0.7548348   -0.2592776  
   0.238988100    -0.7782243   -0.1401784  
   0.240988000    -0.7838434   -0.0173246  
   0.242987900    -0.7701046    0.1072664  
   0.244987800    -0.7364598    0.2308043  
   0.246987700    -0.6820107    0.3500127  
   0.248987600    -0.6067825    0.4617190  
   0.250987500    -0.5115165    0.5613707  
   0.252987400    -0.3984200    0.6445664  
   0.254987300    -0.2705499    0.7074575  
   0.256987200    -0.1311144    0.7473549  
   0.258987100     0.0156554    0.7628936  
   0.260987000     0.1644021    0.7495002  
   0.262986900     0.3098662    0.7081881  
   0.264986800     0.4454116    0.6399199  
   0.266986700     0.5658144    0.5473147  
   0.268986600     0.6661060    0.4346683  
   0.270986500     0.7425317    0.3069696  
   0.272986400     0.7937129    0.1689708  
   0.274986300     0.8186288    0.0266805  
   0.276986200     0.8180386   -0.1155093  
   0.278986100     0.7931222   -0.2529558  
   0.280986000     0.7456526   -0.3812042  
   0.282985900     0.6793490   -0.4974610  
   0.284985800     0.5967352   -0.5987553  
   0.286985700     0.5015517   -0.6834366  
   0.288985600     0.3976217   -0.7506613  
   0.290985500     0.2875259   -0.7999955  
   0.292985400     0.1739125   -0.8319148  
   0.294985300     0.0591585   -0.8467971  
   0.296985200    -0.0554806   -0.8457426  
   0.298985100    -0.1676543   -0.8286216  
   0.300985000    -0.2757512   -0.7963562  
   0.302984900    -0.3771889   -0.7501006  
   0.304984800    -0.4706862   -0.6907988  
   0.306984700    -0.5553523   -0.6201760  
   0.308984600    -0.6290933   -0.5390891  
   0.310984500    -0.6914216   -0.4490059  
   0.312984400    -0.7414519   -0.3506384  
   0.314984300    -0.7779710   -0.2445333  
   0.316984200    -0.7996941   -0.1331261  
   0.318984100    -0.8054300   -0.0165273  
   0.320984000    -0.7925473    0.1028379  
   0.322983900    -0.7603508    0.2214772  
   0.324983800    -0.7076215    0.3346582  
   0.326983700    -0.6353376    0.4373995  
   0.328983600    -0.5457213    0.5259045  
   0.330983500    -0.4438980    0.5959289  
   0.332983400    -0.3358668    0.6468546  
   0.334983300    -0.2235871    0.6805732  
   0.336983200    -0.1096199    0.6984029  
   0.338983100     0.0053685    0.7010049  
   0.340983000     0.1208662    0.6877784  
   0.342982900     0.2351625    0.6577386  
   0.344982800     0.3462487    0.6095012  
   0.346982700     0.4508500    0.5426231  
   0.348982600     0.5437177    0.4570844  
   0.350982500     0.6228491    0.3556032  
   0.352982400     0.6841686    0.2406324  
   0.354982300     0.7255636    0.1105238  
   0.356982200     0.7419254   -0.0386387  
   0.358982100     0.7280222   -0.1881918  
   0.360982000     0.6847423   -0.3316342  
   0.362981900     0.6140753   -0.4637086  
   0.364981800     0.5188903   -0.5788825  
   0.366981700     0.4037651   -0.6726941  
   0.368981600     0.2731468   -0.7417971  
   0.370981500     0.1325381   -0.7841945  
   0.372981400    -0.0120129   -0.7990884  
   0.374981300    -0.1560300   -0.7864546  
   0.376981200    -0.0341934   -0.7993081  
   0.378981100    -0.1755187   -0.7824003  
   0.380981000    -0.3105202   -0.7403500  
   0.382980900    -0.4237112   -0.6820124  
   0.384980800    -0.5203339   -0.6103900  
   0.386980700    -0.6046044   -0.5252131  
   0.388980600    -0.6746336   -0.4284751  
   0.390980500    -0.7289373   -0.3234184  
   0.392980400    -0.7666216   -0.2122198  
   0.394980300    -0.7873917   -0.0963605  
   0.396980200    -0.7906293    0.0206448  
   0.398980100    -0.7763608    0.1379170  
   0.400980000    -0.7451208    0.2522936  
   0.402979900    -0.6960830    0.3616759  
   0.404979800    -0.6312001    0.4630225  
   0.406979700    -0.5505776    0.5542966  
   0.408979600    -0.4561553    0.6332475  
   0.410979500    -0.3487343    0.6975810  
   0.412979400    -0.2303164    0.7450304  
   0.414979300    -0.1040835    0.7718458  
   0.416979200     0.0261870    0.7792985  
   0.418979100     0.1573878    0.7651953  
   0.420979000     0.2861128    0.7291730  
   0.422978900     0.4081285    0.6714079  
   0.424978800     0.5196478    0.5926719  
   0.426978700     0.6169772    0.4954589  
   0.428978600     0.6962187    0.3822387  
   0.430978500     0.7545693    0.2573054  
   0.432978400     0.7903696    0.1242393  
   0.434978300     0.8039411   -0.0125645  
   0.436978200     0.7924569   -0.1489524  
   0.438978100     0.7580656   -0.2807047  
   0.440978000     0.7022190   -0.4034983  
   0.442977900     0.6270631   -0.5143214  
   0.444977800     0.5352076   -0.6098714  
   0.446977700     0.4300532   -0.6881186  
   0.448977600     0.3150656   -0.7470306  
   0.450977500     0.1936208   -0.7858509  
   0.452977400     0.0680290   -0.8045733  
   0.454977300    -0.0577967   -0.8029376  
   0.456977200    -0.1810302   -0.7818682  
   0.458977100    -0.2984263   -0.7415898  
   0.460977000    -0.4069776   -0.6838318  
   0.462976900    -0.5042688   -0.6111584  
   0.464976800    -0.5887034   -0.5244891  
   0.466976700    -0.6584099   -0.4264410  
   0.468976600    -0.7123194   -0.3192357  
   0.470976500    -0.7488310   -0.2050613  
   0.472976400    -0.7676423   -0.0863408  
   0.474976300    -0.7677712    0.0340617  
   0.476976200    -0.7490547    0.1533057  
   0.478976100    -0.7117692    0.2685398  
   0.480976000    -0.6568874    0.3767407  
   0.482975900    -0.5848982    0.4756659  
   0.484975800    -0.4977575    0.5627597  
   0.486975700    -0.3961194    0.6350378  
   0.488975600    -0.2830272    0.6903675  
   0.490975500    -0.1609394    0.7263904  
   0.492975400    -0.0332123    0.7415886  
   0.494975300     0.0961225    0.7342981  
   0.496975200     0.2229475    0.7043822  
   0.498975100     0.3427301    0.6526678  
   0.500975000     0.4514341    0.5805994  
   0.502974900     0.5449827    0.4906688  
   0.504974800     0.6205328    0.3863876  
   0.506974700     0.6761262    0.2714351  
   0.508974600     0.7102152    0.1494379  
   0.510974500     0.7223108    0.0259298  
   0.512974400     0.7135496   -0.0953419  
   0.514974300     0.6846641   -0.2092577  
   0.516974200     0.6406642   -0.3149993  
   0.518974100     0.5829231   -0.4101739  
   0.520974000     0.5136650   -0.4938220  
   0.522973900     0.4349215   -0.5654941  
   0.524973800     0.3491704   -0.6248610  
   0.526973700     0.2561255   -0.6725968  
   0.528973600     0.1580022   -0.7071260  
   0.530973500     0.0551865   -0.7288239  
   0.532973400    -0.0509043   -0.7361150  
   0.534973300    -0.1580524   -0.7281820  
   0.536973200    -0.2653435   -0.7040482  
   0.538973100    -0.3688641   -0.6632954  
   0.540973000    -0.4658192   -0.6067696  
   0.542972900    -0.5542145   -0.5342752  
   0.544972800    -0.6312032   -0.4480775  
   0.546972700    -0.6939183   -0.3490470  
   0.548972600    -0.7403979   -0.2399713  
   0.550972500    -0.7687855   -0.1238957  
   0.552972400    -0.7783602   -0.0038559  
   0.554972300    -0.7681406    0.1169183  
   0.556972200    -0.7381543    0.2352936  
   0.558972100    -0.6892329    0.3476091  
   0.560972000    -0.6226743    0.4510549  
   0.562971900    -0.5399986    0.5424480  
   0.564971800    -0.4432514    0.6197442  
   0.566971700    -0.3348720    0.6806668  
   0.568971600    -0.2177913    0.7233750  
   0.570971500    -0.0945863    0.7466096  
   0.572971400     0.0321274    0.7493480  
   0.574971300     0.1585242    0.7312580  
   0.576971200     0.2814036    0.6917049  
   0.578971100     0.3968147    0.6316715  
   0.580971000     0.5010930    0.5524122  
   0.582970900     0.5906566    0.4562738  
   0.584970800     0.6624426    0.3461678  
   0.586970700     0.7141324    0.2254804  
   0.588970600     0.7448012    0.0971950  
   0.590970500     0.7528139   -0.0341755  
   0.592970400     0.7384635   -0.1645957  
   0.594970300     0.7019575   -0.2905378  
   0.596970200     0.6445870   -0.4079632  
   0.598970100     0.5688077   -0.5128531  
   0.600970000     0.4764309   -0.6038159  
   0.602969900     0.3710654   -0.6770706  
   0.604969800     0.2557024   -0.7311766  
   0.606969700     0.1338875   -0.7651302  
   0.608969600     0.0087621   -0.7788262  
   0.610969500    -0.1154706   -0.7722337  
   0.612969400    -0.2362537   -0.7454407  
   0.614969300    -0.3497601   -0.7005506  
   0.616969200    -0.4533550   -0.6387749  
   0.618969100    -0.5449694   -0.5629349  
   0.620969000    -0.6231925   -0.4746433  
   0.622968900    -0.6868709   -0.3760383  
   0.624968800    -0.7345344   -0.2695953  
   0.626968700    -0.7657675   -0.1568757  
   0.628968600    -0.7798823   -0.0410036  
   0.630968500    -0.7762706    0.0758956  
   0.632968400    -0.7551062    0.1907185  
   0.634968300    -0.7170547    0.3016465  
   0.636968200    -0.6624503    0.4058011  
   0.638968100    -0.5922966    0.5015295  
   0.640968000    -0.5079123    0.5851883  
   0.642967900    -0.4108515    0.6563381  
   0.644967800    -0.3032829    0.7119499  
   0.646967700    -0.1873690    0.7502548  
   0.648967600    -0.0661659    0.7701670  
   0.650967500     0.0577412    0.7710013  
   0.652967400     0.1808629    0.7518189  
   0.654967300     0.3001487    0.7130624  
   0.656967200     0.4128570    0.6546750  
   0.658967100     0.5151962    0.5784989  
   0.660967000     0.6045163    0.4855389  
   0.662966900     0.6779405    0.3780214  
   0.664966800     0.7329085    0.2582417  
   0.666966700     0.7670335    0.1304965  
   0.668966600     0.7791541   -0.0015748  
   0.670966500     0.7689555   -0.1341734  
   0.672966400     0.7370925   -0.2626185  
   0.674966300     0.6832663   -0.3830959  
   0.676966200     0.6102307   -0.4919048  
   0.678966100     0.5213487   -0.5860382  
   0.680966000     0.4183164   -0.6635239  
   0.682965900     0.3053978   -0.7219226  
   0.684965800     0.1857731   -0.7610669  
   0.686965700     0.0624195   -0.7798911  
   0.688965600    -0.0610758   -0.7790866  
   0.690965500    -0.1807844   -0.7573389  
   0.692965400    -0.2947410   -0.7189447  
   0.694965300    -0.4000320   -0.6638818  
   0.696965200    -0.4947986   -0.5939993  
   0.698965100    -0.5769872   -0.5110293  
   0.700965000    -0.6453776   -0.4170727  
   0.702964900    -0.6983876   -0.3143549  
   0.704964800    -0.7353977   -0.2052254  
   0.706964700    -0.7551439   -0.0920310  
   0.708964600    -0.7578130    0.0232279  
   0.710964500    -0.7433851    0.1379998  
   0.712964400    -0.7108364    0.2493317  
   0.714964300    -0.6614485    0.3548346  
   0.716964200    -0.5962330    0.4514721  
   0.718964100    -0.5164630    0.5369181  
   0.720964000    -0.4239627    0.6094589  
   0.722963900    -0.3211035    0.6666633  
   0.724963800    -0.2096862    0.7069255  
   0.726963700    -0.0923691    0.7289154  
   0.728963600     0.0277411    0.7311405  
   0.730963500     0.1468347    0.7137226  
   0.732963400     0.2619482    0.6767970  
   0.734963300     0.3700121    0.6212993  
   0.736963200     0.4811077    0.5368424  
   0.738963100     0.5746889    0.4325630  
   0.740963000     0.6465102    0.3128527  
   0.742962900     0.6942454    0.1823135  
   0.744962800     0.7164381    0.0461872  
   0.746962700     0.7128564   -0.0905878  
   0.748962600     0.6843010   -0.2232288  
   0.750962500     0.6972152   -0.1157644  
   0.752962400     0.6657019   -0.2457350  
   0.754962300     0.6115066   -0.3668674  
   0.756962200     0.5371347   -0.4751639  
   0.758962100     0.4450187   -0.5683011  
   0.760962000     0.3383135   -0.6430947  
   0.762961900     0.2261574   -0.6957328  
   0.764961800     0.1171266   -0.7269437  
   0.766961700     0.0048573   -0.7413118  
   0.768961600    -0.1086425   -0.7383396  
   0.770961500    -0.2206806   -0.7180707  
   0.772961400    -0.3283018   -0.6807565  
   0.774961300    -0.4289088   -0.6274476  
   0.776961200    -0.5207912   -0.5587242  
   0.778961100    -0.6008607   -0.4763660  
   0.780961000    -0.6671739   -0.3818209  
   0.782960900    -0.7183774   -0.2779282  
   0.784960800    -0.7525476   -0.1663348  
   0.786960700    -0.7686045   -0.0504306  
   0.788960600    -0.7664104    0.0670339  
   0.790960500    -0.7453234    0.1825709  
   0.792960400    -0.7064505    0.2932700  
   0.794960300    -0.6505658    0.3969173  
   0.796960200    -0.5791671    0.4905336  
   0.798960100    -0.4937451    0.5714066  
   0.800960000    -0.3968611    0.6382942  
   0.802959900    -0.2903637    0.6890044  
   0.804959800    -0.1769478    0.7227432  
   0.806959700    -0.0595154    0.7380803  
   0.808959600     0.0592883    0.7346244  
   0.810959500     0.1765684    0.7126935  
   0.812959400     0.2892283    0.6719894  
   0.814959300     0.3947925    0.6132987  
   0.816959200     0.4899046    0.5384940  
   0.818959100     0.5720711    0.4486100  
   0.820959000     0.6391056    0.3457658  
   0.822958900     0.6885548    0.2331442  
   0.824958800     0.7190268    0.1130156  
   0.826958700     0.7295336   -0.0108313  
   0.828958600     0.7189420   -0.1347820  
   0.830958500     0.6880493   -0.2557248  
   0.832958400     0.6371669   -0.3696311  
   0.834958300     0.5684838   -0.4733123  
   0.836958200     0.4836041   -0.5643672  
   0.838958100     0.3852153   -0.6395679  
   0.840958000     0.2757241   -0.6972958  
   0.842957900     0.1589577   -0.7361540  
   0.844957800     0.0379238   -0.7550306  
   0.846957700    -0.0840298   -0.7542747  
   0.848957600    -0.2034903   -0.7336639  
   0.850957500    -0.3172996   -0.6944242  
   0.852957400    -0.4227550   -0.6380435  
   0.854957300    -0.5171252   -0.5660508  
   0.856957200    -0.5986794   -0.4807026  
   0.858957100    -0.6651434   -0.3845693  
   0.860957000    -0.7157018   -0.2804485  
   0.862956900    -0.7495345   -0.1705933  
   0.864956800    -0.7659718   -0.0582794  
   0.866956700    -0.7654182    0.0542785  
   0.868956600    -0.7482004    0.1652820  
   0.870956500    -0.7147814    0.2718123  
   0.872956400    -0.6662884    0.3728631  
   0.874956300    -0.6035928    0.4652521  
   0.876956200    -0.5269762    0.5481198  
   0.878956100    -0.4385508    0.6194404  
   0.880956000    -0.3401438    0.6766523  
   0.882955900    -0.2329020    0.7189565  
   0.884955800    -0.1199423    0.7447622  
   0.886955700    -0.0033970    0.7528635  
   0.888955600     0.1142011    0.7427425  
   0.890955500     0.2296210    0.7142427  
   0.892955400     0.3399683    0.6676456  
   0.894955300     0.4423413    0.6036913  
