! MS46122B
! 2250307/22442219
! 7/28/2025 2:08:13 PM
! C:\USERS\SPARKY\DOCUMENTS\VNA_DATA\JULY28_2025\3K\PORT2_MOS3_REPEAT1.S1P
! CHANNEL.1
! TR.MEASUREMENT
! RAW.DATA
# GHZ S RI R 50.0
! FREQ.GHZ         S11RE         S11IM         
!; PortSelection: Port_1
   0.001000000     1.0463130   -0.0723525  
   0.002999900     0.9646472   -0.1946198  
   0.004999800     0.9046285   -0.2994788  
   0.006999700     0.8376276   -0.3971705  
   0.008999600     0.7595041   -0.4926853  
   0.010999500     0.6670521   -0.5838450  
   0.012999400     0.5546299   -0.6682719  
   0.014999300     0.4160141   -0.7398180  
   0.016999200     0.2450331   -0.7863936  
   0.018999100     0.0357696   -0.7884694  
   0.020999000    -0.2049558   -0.7120826  
   0.022998900    -0.4418208   -0.5146841  
   0.024998800    -0.5671865   -0.1800173  
   0.026998700    -0.5351790    0.2365954  
   0.028998600    -0.2625874    0.5625867  
   0.030998500     0.1083751    0.6883676  
   0.032998400     0.4111770    0.6229079  
   0.034998300     0.6742864    0.4896433  
   0.036998200     0.8178392    0.3112836  
   0.038998100     0.8935451    0.1344810  
   0.040998000     0.9217585   -0.0283543  
   0.042997900     0.9168783   -0.1737074  
   0.044997800     0.8633940   -0.2757451  
   0.046997700     0.8455675   -0.4130173  
   0.048997600     0.7903633   -0.5098415  
   0.050997500     0.7264664   -0.5932668  
   0.052997400     0.6565422   -0.6648013  
   0.054997300     0.5814645   -0.7252955  
   0.056997200     0.5012177   -0.7770997  
   0.058997100     0.4181494   -0.8186267  
   0.060997000     0.3317962   -0.8515255  
   0.062996900     0.2429112   -0.8749672  
   0.064996800     0.1513048   -0.8887517  
   0.066996700     0.0575471   -0.8933541  
   0.068996600    -0.0375793   -0.8873544  
   0.070996500    -0.1336663   -0.8713466  
   0.072996400    -0.2300826   -0.8425702  
   0.074996300    -0.3255765   -0.8011274  
   0.076996200    -0.4185978   -0.7463092  
   0.078996100    -0.5069350   -0.6769372  
   0.080996000    -0.5890384   -0.5923132  
   0.082995900    -0.6614152   -0.4922401  
   0.084995800    -0.7204092   -0.3769048  
   0.086995700    -0.7637246   -0.2473361  
   0.088995600    -0.7857500   -0.1050828  
   0.090995500    -0.7827406    0.0466109  
   0.092995400    -0.7506477    0.2031705  
   0.094995300    -0.6851977    0.3571162  
   0.096995200    -0.5853291    0.5007036  
   0.098995100    -0.4524558    0.6239512  
   0.100995000    -0.2910220    0.7179357  
   0.102994900    -0.1106542    0.7734721  
   0.104994800     0.0787227    0.7868082  
   0.106994700     0.2647932    0.7556712  
   0.108994600     0.4363648    0.6855804  
   0.110994500     0.5847905    0.5819632  
   0.112994400     0.7034385    0.4529580  
   0.114994300     0.7895150    0.3079413  
   0.116994200     0.8428451    0.1556528  
   0.118994100     0.8650208    0.0031524  
   0.120994000     0.8611884   -0.1440812  
   0.122993900     0.8315827   -0.2820247  
   0.124993800     0.7819467   -0.4070796  
   0.126993700     0.7155748   -0.5182633  
   0.128993600     0.6357419   -0.6132736  
   0.130993500     0.5467830   -0.6934795  
   0.132993400     0.4502968   -0.7586191  
   0.134993300     0.3484451   -0.8083037  
   0.136993200     0.2432488   -0.8431762  
   0.138993100     0.1360914   -0.8639266  
   0.140993000     0.0290071   -0.8702191  
   0.142992900    -0.0777652   -0.8629696  
   0.144992800    -0.1820105   -0.8437192  
   0.146992700    -0.2829356   -0.8101092  
   0.148992600    -0.3797745   -0.7635589  
   0.150992500    -0.4688917   -0.7036446  
   0.152992400    -0.5524220   -0.6328914  
   0.154992300    -0.6266539   -0.5509356  
   0.156992200    -0.6905679   -0.4576703  
   0.158992100    -0.7425558   -0.3543079  
   0.160992000    -0.7806596   -0.2417952  
   0.162991900    -0.8027245   -0.1221949  
   0.164991800    -0.8072451    0.0033958  
   0.166991700    -0.7925313    0.1313629  
   0.168991600    -0.7565646    0.2595483  
   0.170991500    -0.6986235    0.3846838  
   0.172991400    -0.6186439    0.5011085  
   0.174991300    -0.5175608    0.6053864  
   0.176991200    -0.3956503    0.6927373  
   0.178991100    -0.2574472    0.7582448  
   0.180991000    -0.1067825    0.7987834  
   0.182990900     0.0512242    0.8095145  
   0.184990800     0.2104976    0.7899985  
   0.186990700     0.3637066    0.7402823  
   0.188990600     0.4842017    0.6759782  
   0.190990500     0.6234782    0.5617518  
   0.192990400     0.7256645    0.4363159  
   0.194990300     0.7996876    0.2989176  
   0.196990200     0.8464743    0.1536408  
   0.198990100     0.8654056    0.0059762  
   0.200990000     0.8583555   -0.1396605  
   0.202989900     0.8270571   -0.2790065  
   0.204989800     0.7746654   -0.4072435  
   0.206989700     0.7048575   -0.5221145  
   0.208989600     0.6193182   -0.6213666  
   0.210989500     0.5215554   -0.7041219  
   0.212989400     0.4145323   -0.7700997  
   0.214989300     0.3011935   -0.8181816  
   0.216989200     0.1849517   -0.8484696  
   0.218989100     0.0676819   -0.8618422  
   0.220989000    -0.0492020   -0.8584621  
   0.222988900    -0.1633913   -0.8386887  
   0.224988800    -0.2738556   -0.8032784  
   0.226988700    -0.3771585   -0.7533305  
   0.228988600    -0.4724566   -0.6898931  
   0.230988500    -0.5582668   -0.6134788  
   0.232988400    -0.6321821   -0.5244564  
   0.234988300    -0.6943417   -0.4251293  
   0.236988200    -0.7424543   -0.3165371  
   0.238988100    -0.7743870   -0.2003532  
   0.240988000    -0.7891564   -0.0791606  
   0.242987900    -0.7852806    0.0446798  
   0.244987800    -0.7618507    0.1693416  
   0.246987700    -0.7179887    0.2915151  
   0.248987600    -0.6531847    0.4080420  
   0.250987500    -0.5678990    0.5148215  
   0.252987400    -0.4636768    0.6069830  
   0.254987300    -0.3434950    0.6811034  
   0.256987200    -0.2094593    0.7336766  
   0.258987100    -0.0660413    0.7634225  
   0.260987000     0.0831535    0.7648499  
   0.262986900     0.2317188    0.7385391  
   0.264986800     0.3735112    0.6845551  
   0.266986700     0.5029676    0.6046810  
   0.268986600     0.6147082    0.5024629  
   0.270986500     0.7045288    0.3826339  
   0.272986400     0.7701159    0.2495721  
   0.274986300     0.8097821    0.1089058  
   0.276986200     0.8236371   -0.0344234  
   0.278986100     0.8122025   -0.1753408  
   0.280986000     0.7769852   -0.3091100  
   0.282985900     0.7211260   -0.4328101  
   0.284985800     0.6475146   -0.5431033  
   0.286985700     0.5595700   -0.6373848  
   0.288985600     0.4606950   -0.7147326  
   0.290985500     0.3540765   -0.7742839  
   0.292985400     0.2426843   -0.8165826  
   0.294985300     0.1282466   -0.8416591  
   0.296985200     0.0132073   -0.8504280  
   0.298985100    -0.1007651   -0.8428809  
   0.300985000    -0.2117438   -0.8196778  
   0.302984900    -0.3170481   -0.7822194  
   0.304984800    -0.4156090   -0.7311976  
   0.306984700    -0.5057093   -0.6678069  
   0.308984600    -0.5858216   -0.5938262  
   0.310984500    -0.6553015   -0.5100564  
   0.312984400    -0.7136768   -0.4171273  
   0.314984300    -0.7592303   -0.3163253  
   0.316984200    -0.7911622   -0.2086649  
   0.318984100    -0.8081453   -0.0948249  
   0.320984000    -0.8084074    0.0235128  
   0.322983900    -0.7894616    0.1431723  
   0.324983800    -0.7507241    0.2600162  
   0.326983700    -0.6919519    0.3702520  
   0.328983600    -0.6142823    0.4688000  
   0.330983500    -0.5218251    0.5514864  
   0.332983400    -0.4192196    0.6161858  
   0.334983300    -0.3106605    0.6637460  
   0.336983200    -0.1980771    0.6946880  
   0.338983100    -0.0826742    0.7103620  
   0.340983000     0.0342815    0.7099597  
   0.342982900     0.1518703    0.6924086  
   0.344982800     0.2678786    0.6573840  
   0.346982700     0.3796749    0.6030253  
   0.348982600     0.4820576    0.5287536  
   0.350982500     0.5731104    0.4379048  
   0.352982400     0.6478105    0.3314828  
   0.354982300     0.7052536    0.2076156  
   0.356982200     0.7407493    0.0615685  
   0.358982100     0.7464749   -0.0887247  
   0.360982000     0.7221628   -0.2371456  
   0.362981900     0.6693912   -0.3776097  
   0.364981800     0.5898718   -0.5048106  
   0.366981700     0.4875120   -0.6134863  
   0.368981600     0.3664957   -0.7000516  
   0.370981500     0.2321117   -0.7610644  
   0.372981400     0.0896649   -0.7948350  
   0.374981300    -0.0558320   -0.8012299  
   0.376981200     0.0659943   -0.7986634  
   0.378981100    -0.0773103   -0.7997456  
   0.380981000    -0.2174797   -0.7752016  
   0.382980900    -0.3376170   -0.7318239  
   0.384980800    -0.4429747   -0.6728830  
   0.386980700    -0.5376065   -0.5988418  
   0.388980600    -0.6195353   -0.5116884  
   0.390980500    -0.6868635   -0.4142676  
   0.392980400    -0.7383845   -0.3086095  
   0.394980300    -0.7733188   -0.1971081  
   0.396980200    -0.7918627   -0.0814559  
   0.398980100    -0.7929397    0.0353917  
   0.400980000    -0.7766278    0.1522972  
   0.402979900    -0.7432221    0.2663877  
   0.404979800    -0.6927223    0.3741907  
   0.406979700    -0.6261213    0.4746345  
   0.408979600    -0.5441976    0.5646847  
   0.410979500    -0.4482861    0.6423753  
   0.412979400    -0.3391224    0.7053118  
   0.414979300    -0.2199262    0.7495821  
   0.416979200    -0.0936432    0.7759585  
   0.418979100     0.0365119    0.7816481  
   0.420979000     0.1674014    0.7657652  
   0.422978900     0.2954131    0.7280334  
   0.424978800     0.4166748    0.6687310  
   0.426978700     0.5270332    0.5889248  
   0.428978600     0.6228033    0.4910962  
   0.430978500     0.7004455    0.3780313  
   0.432978400     0.7574052    0.2534413  
   0.434978300     0.7933630    0.1211179  
   0.436978200     0.8052577   -0.0147278  
   0.438978100     0.7935731   -0.1504770  
   0.440978000     0.7588982   -0.2814155  
   0.442977900     0.7034332   -0.4036340  
   0.444977800     0.6290544   -0.5136887  
   0.446977700     0.5379571   -0.6087779  
   0.448977600     0.4337943   -0.6871791  
   0.450977500     0.3197851   -0.7464306  
   0.452977400     0.1986425   -0.7860231  
   0.454977300     0.0730898   -0.8055704  
   0.456977200    -0.0525363   -0.8050374  
   0.458977100    -0.1758235   -0.7848321  
   0.460977000    -0.2930204   -0.7458166  
   0.462976900    -0.4011060   -0.6897147  
   0.464976800    -0.4989944   -0.6182593  
   0.466976700    -0.5841412   -0.5328074  
   0.468976600    -0.6551006   -0.4363227  
   0.470976500    -0.7101149   -0.3298874  
   0.472976400    -0.7481921   -0.2165618  
   0.474976300    -0.7686424   -0.0987119  
   0.476976200    -0.7705005    0.0210738  
   0.478976100    -0.7543117    0.1403009  
   0.480976000    -0.7191362    0.2550608  
   0.482975900    -0.6666206    0.3635947  
   0.484975800    -0.5970569    0.4635879  
   0.486975700    -0.5118018    0.5522307  
   0.488975600    -0.4121261    0.6263252  
   0.490975500    -0.3005390    0.6841486  
   0.492975400    -0.1794301    0.7227856  
   0.494975300    -0.0528017    0.7405183  
   0.496975200     0.0763102    0.7359881  
   0.498975100     0.2028742    0.7091433  
   0.500975000     0.3230446    0.6604319  
   0.502974900     0.4324069    0.5915277  
   0.504974800     0.5273728    0.5044170  
   0.506974700     0.6048376    0.4026129  
   0.508974600     0.6627684    0.2896027  
   0.510974500     0.6992974    0.1699659  
   0.512974400     0.7148737    0.0485098  
   0.514974300     0.7083107   -0.0699407  
   0.516974200     0.6849508   -0.1830479  
   0.518974100     0.6458733   -0.2882492  
   0.520974000     0.5928652   -0.3832006  
   0.522973900     0.5284973   -0.4687575  
   0.524973800     0.4545958   -0.5427797  
   0.526973700     0.3724159   -0.6063587  
   0.528973600     0.2828310   -0.6578717  
   0.530973500     0.1867875   -0.6975937  
   0.532973400     0.0852638   -0.7243506  
   0.534973300    -0.0201709   -0.7365176  
   0.536973200    -0.1283232   -0.7337747  
   0.538973100    -0.2359719   -0.7145031  
   0.540973000    -0.3405849   -0.6783641  
   0.542972900    -0.4402295   -0.6262125  
   0.544972800    -0.5314764   -0.5579956  
   0.546972700    -0.6121337   -0.4749480  
   0.548972600    -0.6792888   -0.3788445  
   0.550972500    -0.7303724   -0.2723886  
   0.552972400    -0.7639216   -0.1581684  
   0.554972300    -0.7789024   -0.0389654  
   0.556972200    -0.7743816    0.0816931  
   0.558972100    -0.7501647    0.2006952  
   0.560972000    -0.7071368    0.3143961  
   0.562971900    -0.6463600    0.4201103  
   0.564971800    -0.5691902    0.5150162  
   0.566971700    -0.4773468    0.5965882  
   0.568971600    -0.3734101    0.6626835  
   0.570971500    -0.2594154    0.7116970  
   0.572971400    -0.1381783    0.7416579  
   0.574971300    -0.0123091    0.7515913  
   0.576971200     0.1148436    0.7405576  
   0.578971100     0.2391783    0.7082832  
   0.580971000     0.3573479    0.6554432  
   0.582970900     0.4654834    0.5827675  
   0.584970800     0.5598015    0.4928415  
   0.586970700     0.6378421    0.3880745  
   0.588970600     0.6968059    0.2712637  
   0.590970500     0.7349998    0.1459761  
   0.592970400     0.7512237    0.0154900  
   0.594970300     0.7451193   -0.1151061  
   0.596970200     0.7166877   -0.2427486  
   0.598970100     0.6670370   -0.3633249  
   0.600970000     0.5979725   -0.4730549  
   0.602969900     0.5115830   -0.5690863  
   0.604969800     0.4112025   -0.6491008  
   0.606969700     0.2993282   -0.7101015  
   0.608969600     0.1794533   -0.7521485  
   0.610969500     0.0554365   -0.7731997  
   0.612969400    -0.0687989   -0.7741264  
   0.614969300    -0.1903485   -0.7549032  
   0.616969200    -0.3058828   -0.7171058  
   0.618969100    -0.4122431   -0.6621998  
   0.620969000    -0.5079843   -0.5924936  
   0.622968900    -0.5916759   -0.5093387  
   0.624968800    -0.6608634   -0.4149925  
   0.626968700    -0.7152614   -0.3114174  
   0.628968600    -0.7530501   -0.2011299  
   0.630968500    -0.7740622   -0.0865903  
   0.632968400    -0.7775224    0.0297390  
   0.634968300    -0.7634056    0.1452766  
   0.636968200    -0.7319970    0.2576952  
   0.638968100    -0.6841921    0.3644386  
   0.640968000    -0.6201121    0.4632367  
   0.642967900    -0.5417221    0.5518612  
   0.644967800    -0.4500391    0.6284187  
   0.646967700    -0.3469616    0.6898781  
   0.648967600    -0.2348326    0.7349427  
   0.650967500    -0.1164446    0.7624940  
   0.652967400     0.0057766    0.7712851  
   0.654967300     0.1287749    0.7604689  
   0.656967200     0.2493953    0.7299120  
   0.658967100     0.3648910    0.6798289  
   0.660967000     0.4717875    0.6110137  
   0.662966900     0.5669647    0.5246570  
   0.664966800     0.6474069    0.4227004  
   0.666966700     0.7103073    0.3073682  
   0.668966600     0.7529069    0.1827824  
   0.670966500     0.7742420    0.0520563  
   0.672966400     0.7743628   -0.0798910  
   0.674966300     0.7504386   -0.2093950  
   0.676966200     0.7053214   -0.3326328  
   0.678966100     0.6407521   -0.4453704  
   0.680966000     0.5588228   -0.5454831  
   0.682965900     0.4620067   -0.6295852  
   0.684965800     0.3542037   -0.6957232  
   0.686965700     0.2376753   -0.7432405  
   0.688965600     0.1163104   -0.7708882  
   0.690965500    -0.0061131   -0.7776685  
   0.692965400    -0.1268592   -0.7658957  
   0.694965300    -0.2427770   -0.7359589  
   0.696965200    -0.3513542   -0.6889092  
   0.698965100    -0.4504782   -0.6261323  
   0.700965000    -0.5386603   -0.5496636  
   0.702964900    -0.6134433   -0.4613788  
   0.704964800    -0.6736830   -0.3631153  
   0.706964700    -0.7180279   -0.2573510  
   0.708964600    -0.7463598   -0.1461128  
   0.710964500    -0.7579565   -0.0317291  
   0.712964400    -0.7515454    0.0829009  
   0.714964300    -0.7275013    0.1955477  
   0.716964200    -0.6866947    0.3031360  
   0.718964100    -0.6298940    0.4038020  
   0.720964000    -0.5579702    0.4941722  
   0.722963900    -0.4725693    0.5728226  
   0.724963800    -0.3756795    0.6377432  
   0.726963700    -0.2688093    0.6867057  
   0.728963600    -0.1545043    0.7179916  
   0.730963500    -0.0361796    0.7298541  
   0.732963400     0.0830321    0.7229637  
   0.734963300     0.2004874    0.6961529  
   0.736963200     0.3279407    0.6421917  
   0.738963100     0.4442295    0.5650594  
   0.740963000     0.5435903    0.4674277  
   0.742962900     0.6223473    0.3531077  
   0.744962800     0.6779017    0.2262228  
   0.746962700     0.7083572    0.0926391  
   0.748962600     0.7134506   -0.0439188  
   0.750962500     0.6979718    0.0652144  
   0.752962400     0.6989424   -0.0689247  
   0.754962300     0.6759545   -0.1999247  
   0.756962200     0.6298018   -0.3235551  
   0.758962100     0.5629181   -0.4359145  
   0.760962000     0.4772514   -0.5346405  
   0.762961900     0.3811518   -0.6123312  
   0.764961800     0.2828520   -0.6687050  
   0.766961700     0.1774878   -0.7091531  
   0.768961600     0.0668722   -0.7333198  
   0.770961500    -0.0459885   -0.7401891  
   0.772961400    -0.1587324   -0.7298483  
   0.774961300    -0.2686334   -0.7023529  
   0.776961200    -0.3738633   -0.6580552  
   0.778961100    -0.4708174   -0.5976864  
   0.780961000    -0.5578128   -0.5226026  
   0.782960900    -0.6321440   -0.4343042  
   0.784960800    -0.6921799   -0.3350953  
   0.786960700    -0.7356598   -0.2271304  
   0.788960600    -0.7617758   -0.1132531  
   0.790960500    -0.7697085    0.0031758  
   0.792960400    -0.7588918    0.1196837  
   0.794960300    -0.7300259    0.2332076  
   0.796960200    -0.6838001    0.3404430  
   0.798960100    -0.6213177    0.4394659  
   0.800960000    -0.5439941    0.5269642  
   0.802959900    -0.4540881    0.6019702  
   0.804959800    -0.3534229    0.6618662  
   0.806959700    -0.2443339    0.7054229  
   0.808959600    -0.1295225    0.7313625  
   0.810959500    -0.0116366    0.7391001  
   0.812959400     0.1067360    0.7279828  
   0.814959300     0.2223425    0.6983387  
   0.816959200     0.3323083    0.6501658  
   0.818959100     0.4335352    0.5847853  
   0.820959000     0.5237350    0.5034819  
   0.822958900     0.5998635    0.4080206  
   0.824958800     0.6596941    0.3009523  
   0.826958700     0.7013071    0.1848793  
   0.828958600     0.7236221    0.0634094  
   0.830958500     0.7251930   -0.0608070  
   0.832958400     0.7063985   -0.1833528  
   0.834958300     0.6670474   -0.3013576  
   0.836958200     0.6088799   -0.4108564  
   0.838958100     0.5336139   -0.5091124  
   0.840958000     0.4430908   -0.5937370  
   0.842957900     0.3401648   -0.6619722  
   0.844957800     0.2276846   -0.7118730  
   0.846957700     0.1088311   -0.7426016  
   0.848957600    -0.0125245   -0.7534550  
   0.850957500    -0.1334787   -0.7443605  
   0.852957400    -0.2504510   -0.7161599  
   0.854957300    -0.3606369   -0.6696395  
   0.856957200    -0.4614407   -0.6069958  
   0.858957100    -0.5502429   -0.5297173  
   0.860957000    -0.6254419   -0.4407507  
   0.862956900    -0.6852153   -0.3420646  
   0.864956800    -0.7288141   -0.2365662  
   0.866956700    -0.7558205   -0.1271522  
   0.868956600    -0.7657512   -0.0151682  
   0.870956500    -0.7592387    0.0967679  
   0.872956400    -0.7362362    0.2058165  
   0.874956300    -0.6971594    0.3104391  
   0.876956200    -0.6431630    0.4086913  
   0.878956100    -0.5747612    0.4979412  
   0.880956000    -0.4938529    0.5765890  
   0.882955900    -0.4010738    0.6426366  
   0.884955800    -0.2990299    0.6941918  
   0.886955700    -0.1895996    0.7300738  
   0.888955600    -0.0750893    0.7490476  
   0.890955500     0.0415467    0.7501321  
   0.892955400     0.1582282    0.7330014  
   0.894955300     0.2714798    0.6977217  
