! MS46122B
! 2250307/22442219
! 7/25/2025 1:39:42 PM
! C:\USERS\SPARKY\DOCUMENTS\VNA_DATA\JULY25_2025\3K\PORT5_MOS2.S1P
! CHANNEL.1
! TR.MEASUREMENT
! RAW.DATA
# GHZ S RI R 50.0
! FREQ.GHZ         S11RE         S11IM         
!; PortSelection: Port_1
   0.001000000     1.0451900   -0.0715381  
   0.002999900     0.9635384   -0.1941970  
   0.004999800     0.9032819   -0.2990976  
   0.006999700     0.8361050   -0.3967763  
   0.008999600     0.7574583   -0.4920960  
   0.010999500     0.6645473   -0.5827382  
   0.012999400     0.5517145   -0.6660992  
   0.014999300     0.4131230   -0.7363229  
   0.016999200     0.2428335   -0.7809938  
   0.018999100     0.0358193   -0.7807587  
   0.020999000    -0.2002194   -0.7026485  
   0.022998900    -0.4297910   -0.5071505  
   0.024998800    -0.5494279   -0.1809916  
   0.026998700    -0.5189296    0.2214008  
   0.028998600    -0.2591519    0.5388293  
   0.030998500     0.0977445    0.6670853  
   0.032998400     0.3940708    0.6109634  
   0.034998300     0.6553613    0.4863411  
   0.036998200     0.8009894    0.3141622  
   0.038998100     0.8797315    0.1411460  
   0.040998000     0.9108916   -0.0195829  
   0.042997900     0.9086689   -0.1638086  
   0.044997800     0.8574063   -0.2657393  
   0.046997700     0.8414147   -0.4024722  
   0.048997600     0.7877964   -0.4992781  
   0.050997500     0.7251938   -0.5828687  
   0.052997400     0.6563250   -0.6546426  
   0.054997300     0.5825803   -0.7150500  
   0.056997200     0.5031337   -0.7670971  
   0.058997100     0.4210000   -0.8088478  
   0.060997000     0.3356170   -0.8418266  
   0.062996900     0.2478119   -0.8655825  
   0.064996800     0.1572855   -0.8796275  
   0.066996700     0.0646423   -0.8846086  
   0.068996600    -0.0292346   -0.8790748  
   0.070996500    -0.1239476   -0.8638165  
   0.072996400    -0.2190492   -0.8358384  
   0.074996300    -0.3129851   -0.7954752  
   0.076996200    -0.4046391   -0.7423211  
   0.078996100    -0.4915748   -0.6747968  
   0.080996000    -0.5724474   -0.5927352  
   0.082995900    -0.6441861   -0.4957271  
   0.084995800    -0.7028650   -0.3839551  
   0.086995700    -0.7466405   -0.2581576  
   0.088995600    -0.7700456   -0.1201277  
   0.090995500    -0.7696605    0.0273163  
   0.092995400    -0.7414958    0.1798313  
   0.094995300    -0.6815629    0.3306841  
   0.096995200    -0.5882809    0.4725608  
   0.098995100    -0.4629039    0.5956162  
   0.100995000    -0.3086377    0.6926604  
   0.102994900    -0.1350110    0.7527333  
   0.104994800     0.0490701    0.7725710  
   0.106994700     0.2321787    0.7494146  
   0.108994600     0.4032560    0.6876409  
   0.110994500     0.5534262    0.5917502  
   0.112994400     0.6756050    0.4694772  
   0.114994300     0.7663919    0.3299392  
   0.116994200     0.8251129    0.1811514  
   0.118994100     0.8529971    0.0307540  
   0.120994000     0.8544982   -0.1157899  
   0.122993900     0.8298657   -0.2535506  
   0.124993800     0.7846990   -0.3795246  
   0.126993700     0.7222856   -0.4921976  
   0.128993600     0.6457351   -0.5892614  
   0.130993500     0.5595320   -0.6715516  
   0.132993400     0.4656119   -0.7389094  
   0.134993300     0.3656417   -0.7909697  
   0.136993200     0.2624421   -0.8281141  
   0.138993100     0.1571200   -0.8511540  
   0.140993000     0.0510438   -0.8599649  
   0.142992900    -0.0545039   -0.8550797  
   0.144992800    -0.1578410   -0.8386335  
   0.146992700    -0.2582427   -0.8078629  
   0.148992600    -0.3541638   -0.7643912  
   0.150992500    -0.4434132   -0.7075973  
   0.152992400    -0.5268042   -0.6401969  
   0.154992300    -0.6014791   -0.5617135  
   0.156992200    -0.6663586   -0.4721169  
   0.158992100    -0.7197551   -0.3726710  
   0.160992000    -0.7598153   -0.2644247  
   0.162991900    -0.7850087   -0.1482864  
   0.164991800    -0.7933450   -0.0265466  
   0.166991700    -0.7831029    0.0983773  
   0.168991600    -0.7529110    0.2240181  
   0.170991500    -0.7015496    0.3472605  
   0.172991400    -0.6286367    0.4635673  
   0.174991300    -0.5350437    0.5690194  
   0.176991200    -0.4209878    0.6589611  
   0.178991100    -0.2901649    0.7293040  
   0.180991000    -0.1458936    0.7763606  
   0.182990900     0.0071060    0.7952538  
   0.184990800     0.1632830    0.7852532  
   0.186990700     0.3157124    0.7453157  
   0.188990600     0.4373538    0.6898419  
   0.190990500     0.5805923    0.5860001  
   0.192990400     0.6884544    0.4689114  
   0.194990300     0.7694719    0.3381394  
   0.196990200     0.8240160    0.1977295  
   0.198990100     0.8522227    0.0527008  
   0.200990000     0.8538370   -0.0920551  
   0.202989900     0.8308567   -0.2315165  
   0.204989800     0.7858832   -0.3617024  
   0.206989700     0.7229964   -0.4796597  
   0.208989600     0.6434109   -0.5824389  
   0.210989500     0.5508400   -0.6701639  
   0.212989400     0.4479281   -0.7409658  
   0.214989300     0.3381373   -0.7942399  
   0.216989200     0.2245082   -0.8300349  
   0.218989100     0.1090890   -0.8489080  
   0.220989000    -0.0063704   -0.8510799  
   0.222988900    -0.1199890   -0.8371050  
   0.224988800    -0.2305150   -0.8074341  
   0.226988700    -0.3341665   -0.7632313  
   0.228988600    -0.4307734   -0.7055656  
   0.230988500    -0.5185480   -0.6349217  
   0.232988400    -0.5949262   -0.5512547  
   0.234988300    -0.6608139   -0.4574759  
   0.236988200    -0.7131950   -0.3541896  
   0.238988100    -0.7503443   -0.2428732  
   0.240988000    -0.7710519   -0.1261022  
   0.242987900    -0.7745097   -0.0054927  
   0.244987800    -0.7589442    0.1163491  
   0.246987700    -0.7239975    0.2373838  
   0.248987600    -0.6685195    0.3540396  
   0.250987500    -0.5933769    0.4626921  
   0.252987400    -0.4991688    0.5591148  
   0.254987300    -0.3880786    0.6393672  
   0.256987200    -0.2625460    0.6999027  
   0.258987100    -0.1257641    0.7398278  
   0.260987000     0.0184419    0.7529854  
   0.262986900     0.1650317    0.7393082  
   0.264986800     0.3075584    0.6987452  
   0.266986700     0.4403634    0.6316665  
   0.268986600     0.5585435    0.5412158  
   0.270986500     0.6569729    0.4313017  
   0.272986400     0.7327716    0.3061109  
   0.274986300     0.7838698    0.1707324  
   0.276986200     0.8093477    0.0305855  
   0.278986100     0.8097289   -0.1096817  
   0.280986000     0.7857511   -0.2452141  
   0.282985900     0.7400516   -0.3724506  
   0.284985800     0.6755455   -0.4874186  
   0.286985700     0.5949694   -0.5879045  
   0.288985600     0.5023820   -0.6714691  
   0.290985500     0.4008849   -0.7384943  
   0.292985400     0.2932704   -0.7881147  
   0.294985300     0.1817304   -0.8206793  
   0.296985200     0.0684099   -0.8367476  
   0.298985100    -0.0449873   -0.8368993  
   0.300985000    -0.1556902   -0.8210434  
   0.302984900    -0.2619376   -0.7907984  
   0.304984800    -0.3617319   -0.7468137  
   0.306984700    -0.4538346   -0.6902958  
   0.308984600    -0.5371057   -0.6231331  
   0.310984500    -0.6103044   -0.5459061  
   0.312984400    -0.6728190   -0.4593585  
   0.314984300    -0.7238871   -0.3647746  
   0.316984200    -0.7622805   -0.2628150  
   0.318984100    -0.7867140   -0.1541048  
   0.320984000    -0.7957800   -0.0403929  
   0.322983900    -0.7873822    0.0759981  
   0.324983800    -0.7605333    0.1924075  
   0.326983700    -0.7141441    0.3036759  
   0.328983600    -0.6488359    0.4065656  
   0.330983500    -0.5674207    0.4962504  
   0.332983400    -0.4740685    0.5699636  
   0.334983300    -0.3722716    0.6276569  
   0.336983200    -0.2643218    0.6698488  
   0.338983100    -0.1518816    0.6964238  
   0.340983000    -0.0364761    0.7071581  
   0.342982900     0.0810994    0.7012162  
   0.344982800     0.1986346    0.6772144  
   0.346982700     0.3135692    0.6341746  
   0.348982600     0.4211054    0.5711678  
   0.350982500     0.5191291    0.4910440  
   0.352982400     0.6030772    0.3936537  
   0.354982300     0.6717117    0.2780293  
   0.356982200     0.7211389    0.1383242  
   0.358982100     0.7422739   -0.0085815  
   0.360982000     0.7338156   -0.1568433  
   0.362981900     0.6962630   -0.3002915  
   0.364981800     0.6313931   -0.4338655  
   0.366981700     0.5419967   -0.5515296  
   0.368981600     0.4319901   -0.6491032  
   0.370981500     0.3058028   -0.7230403  
   0.372981400     0.1687360   -0.7712036  
   0.374981300     0.0261725   -0.7924911  
   0.376981200     0.1444184   -0.7770963  
   0.378981100     0.0037060   -0.7925588  
   0.380981000    -0.1362416   -0.7820335  
   0.382980900    -0.2586920   -0.7509227  
   0.384980800    -0.3680701   -0.7036032  
   0.386980700    -0.4679264   -0.6402473  
   0.388980600    -0.5566806   -0.5628778  
   0.390980500    -0.6317419   -0.4740568  
   0.392980400    -0.6922439   -0.3760359  
   0.394980300    -0.7373442   -0.2709024  
   0.396980200    -0.7662508   -0.1603912  
   0.398980100    -0.7790439   -0.0468565  
   0.400980000    -0.7749913    0.0679062  
   0.402979900    -0.7542262    0.1813654  
   0.404979800    -0.7165468    0.2909802  
   0.406979700    -0.6627977    0.3945762  
   0.408979600    -0.5937366    0.4899409  
   0.410979500    -0.5095738    0.5752651  
   0.412979400    -0.4120125    0.6481115  
   0.414979300    -0.3021583    0.7041771  
   0.416979200    -0.1838244    0.7440721  
   0.418979100    -0.0593960    0.7651010  
   0.420979000     0.0684231    0.7657421  
   0.422978900     0.1961361    0.7453791  
   0.424978800     0.3205457    0.7036802  
   0.426978700     0.4373274    0.6408302  
   0.428978600     0.5427194    0.5589432  
   0.430978500     0.6327771    0.4599345  
   0.432978400     0.7048690    0.3468170  
   0.434978300     0.7576837    0.2231302  
   0.436978200     0.7874991    0.0924805  
   0.438978100     0.7948672   -0.0415133  
   0.440978000     0.7793506   -0.1740848  
   0.442977900     0.7416978   -0.3011908  
   0.444977800     0.6835873   -0.4192312  
   0.446977700     0.6073363   -0.5249238  
   0.448977600     0.5158252   -0.6154682  
   0.450977500     0.4115654   -0.6896017  
   0.452977400     0.2978291   -0.7447403  
   0.454977300     0.1772789   -0.7805562  
   0.456977200     0.0535031   -0.7965405  
   0.458977100    -0.0700853   -0.7925985  
   0.460977000    -0.1899518   -0.7697268  
   0.462976900    -0.3032117   -0.7289489  
   0.464976800    -0.4079208   -0.6713997  
   0.466976700    -0.5021246   -0.5991100  
   0.468976600    -0.5835052   -0.5139967  
   0.470976500    -0.6507877   -0.4180600  
   0.472976400    -0.7025527   -0.3127258  
   0.474976300    -0.7376220   -0.2013521  
   0.476976200    -0.7553333   -0.0858586  
   0.478976100    -0.7551721    0.0305761  
   0.480976000    -0.7374075    0.1461386  
   0.482975900    -0.7017534    0.2571302  
   0.484975800    -0.6492309    0.3628310  
   0.486975700    -0.5799881    0.4597142  
   0.488975600    -0.4957009    0.5454633  
   0.490975500    -0.3975293    0.6169540  
   0.492975400    -0.2879713    0.6721119  
   0.494975300    -0.1694542    0.7087580  
   0.496975200    -0.0453454    0.7248593  
   0.498975100     0.0802667    0.7194552  
   0.500975000     0.2034118    0.6922211  
   0.502974900     0.3197061    0.6439945  
   0.504974800     0.4256736    0.5760096  
   0.506974700     0.5175608    0.4908054  
   0.508974600     0.5926146    0.3908922  
   0.510974500     0.6483365    0.2813610  
   0.512974400     0.6835938    0.1657689  
   0.514974300     0.6971638    0.0493629  
   0.516974200     0.6930007   -0.0649010  
   0.518974100     0.6719746   -0.1737456  
   0.520974000     0.6358685   -0.2756625  
   0.522973900     0.5868158   -0.3692144  
   0.524973800     0.5265106   -0.4534552  
   0.526973700     0.4559811   -0.5285607  
   0.528973600     0.3770621   -0.5930438  
   0.530973500     0.2893053   -0.6467705  
   0.532973400     0.1948852   -0.6882981  
   0.534973300     0.0943833   -0.7165863  
   0.536973200    -0.0112176   -0.7305822  
   0.538973100    -0.1183321   -0.7288401  
   0.540973000    -0.2251338   -0.7100957  
   0.542972900    -0.3292733   -0.6752431  
   0.544972800    -0.4281826   -0.6240310  
   0.546972700    -0.5190743   -0.5564951  
   0.548972600    -0.5990672   -0.4749877  
   0.550972500    -0.6652603   -0.3805571  
   0.552972400    -0.7161209   -0.2761771  
   0.554972300    -0.7497290   -0.1642671  
   0.556972200    -0.7651391   -0.0478201  
   0.558972100    -0.7618189    0.0700839  
   0.560972000    -0.7394934    0.1862411  
   0.562971900    -0.6990896    0.2974587  
   0.564971800    -0.6414248    0.4012917  
   0.566971700    -0.5679600    0.4949189  
   0.568971600    -0.4801719    0.5760432  
   0.570971500    -0.3800120    0.6426005  
   0.572971400    -0.2699865    0.6928301  
   0.574971300    -0.1519634    0.7250001  
   0.576971200    -0.0289400    0.7377239  
   0.578971100     0.0956203    0.7300581  
   0.580971000     0.2180039    0.7018045  
   0.582970900     0.3346577    0.6531678  
   0.584970800     0.4422012    0.5857275  
   0.586970700     0.5369144    0.5007637  
   0.588970600     0.6167023    0.4005762  
   0.590970500     0.6780506    0.2878882  
   0.592970400     0.7197362    0.1660569  
   0.594970300     0.7398701    0.0388785  
   0.596970200     0.7381881   -0.0897923  
   0.598970100     0.7144445   -0.2162143  
   0.600970000     0.6694402   -0.3367591  
   0.602969900     0.6049424   -0.4471081  
   0.604969800     0.5226411   -0.5447940  
   0.606969700     0.4259744   -0.6270061  
   0.608969600     0.3171992   -0.6909859  
   0.610969500     0.2002654   -0.7357766  
   0.612969400     0.0785860   -0.7601039  
   0.614969300    -0.0435276   -0.7644220  
   0.616969200    -0.1634975   -0.7489873  
   0.618969100    -0.2775460   -0.7150781  
   0.620969000    -0.3838588   -0.6645904  
   0.622968900    -0.4803524   -0.5984617  
   0.624968800    -0.5650464   -0.5190570  
   0.626968700    -0.6361290   -0.4279827  
   0.628968600    -0.6923243   -0.3277102  
   0.630968500    -0.7325311   -0.2203876  
   0.632968400    -0.7562823   -0.1086131  
   0.634968300    -0.7628240    0.0053986  
   0.636968200    -0.7523384    0.1190038  
   0.638968100    -0.7248850    0.2299211  
   0.640968000    -0.6809732    0.3360736  
   0.642967900    -0.6215621    0.4342476  
   0.644967800    -0.5475244    0.5233172  
   0.646967700    -0.4604185    0.6004779  
   0.648967600    -0.3620016    0.6639150  
   0.650967500    -0.2548589    0.7113774  
   0.652967400    -0.1406320    0.7424203  
   0.654967300    -0.0216956    0.7554510  
   0.656967200     0.0982813    0.7496367  
   0.658967100     0.2172240    0.7246201  
   0.660967000     0.3319344    0.6803562  
   0.662966900     0.4396431    0.6171896  
   0.664966800     0.5365848    0.5366298  
   0.666966700     0.6199837    0.4395859  
   0.668966600     0.6864066    0.3294621  
   0.670966500     0.7335031    0.2091462  
   0.672966400     0.7613108    0.0825703  
   0.674966300     0.7658985   -0.0467214  
   0.676966200     0.7483079   -0.1746422  
   0.678966100     0.7096069   -0.2972169  
   0.680966000     0.6514207   -0.4110582  
   0.682965900     0.5754164   -0.5131719  
   0.684965800     0.4845575   -0.6002753  
   0.686965700     0.3808206   -0.6705890  
   0.688965600     0.2683918   -0.7227646  
   0.690965500     0.1500098   -0.7543562  
   0.692965400     0.0300263   -0.7677163  
   0.694965300    -0.0894115   -0.7616473  
   0.696965200    -0.2049169   -0.7374116  
   0.698965100    -0.3139649   -0.6958138  
   0.700965000    -0.4146290   -0.6385074  
   0.702964900    -0.5047026   -0.5670188  
   0.704964800    -0.5822844   -0.4833540  
   0.706964700    -0.6457971   -0.3894387  
   0.708964600    -0.6944059   -0.2871108  
   0.710964500    -0.7273653   -0.1792950  
   0.712964400    -0.7430907   -0.0675980  
   0.714964300    -0.7418730    0.0451190  
   0.716964200    -0.7236993    0.1558724  
   0.718964100    -0.6889532    0.2626866  
   0.720964000    -0.6383649    0.3632725  
   0.722963900    -0.5729426    0.4551288  
   0.724963800    -0.4939919    0.5360055  
   0.726963700    -0.4026008    0.6042811  
   0.728963600    -0.3013195    0.6576487  
   0.730963500    -0.1915155    0.6938607  
   0.732963400    -0.0772132    0.7128212  
   0.734963300     0.0398144    0.7127482  
   0.736963200     0.1727984    0.6894881  
   0.738963100     0.3001193    0.6411656  
   0.740963000     0.4163652    0.5699785  
   0.742962900     0.5169047    0.4785508  
   0.744962800     0.5987061    0.3698294  
   0.746962700     0.6582316    0.2482344  
   0.748962600     0.6938265    0.1180861  
   0.750962500     0.6542837    0.2219943  
   0.752962400     0.6855276    0.0932763  
   0.754962300     0.6928255   -0.0383210  
   0.756962200     0.6761502   -0.1684605  
   0.758962100     0.6364506   -0.2921690  
   0.760962000     0.5756343   -0.4065393  
   0.762961900     0.4995272   -0.5032487  
   0.764961800     0.4171909   -0.5792589  
   0.766961700     0.3239208   -0.6415480  
   0.768961600     0.2222206   -0.6887384  
   0.770961500     0.1146531   -0.7198836  
   0.772961400     0.0036503   -0.7342085  
   0.774961300    -0.1085773   -0.7313686  
   0.776961200    -0.2192653   -0.7110956  
   0.778961100    -0.3259569   -0.6740491  
   0.780961000    -0.4260017   -0.6202517  
   0.782960900    -0.5163971   -0.5513125  
   0.784960800    -0.5955323   -0.4686269  
   0.786960700    -0.6606601   -0.3740829  
   0.788960600    -0.7102153   -0.2703699  
   0.790960500    -0.7427145   -0.1601808  
   0.792960400    -0.7576936   -0.0463826  
   0.794960300    -0.7545159    0.0686420  
   0.796960200    -0.7334327    0.1814904  
   0.798960100    -0.6950959    0.2893253  
   0.800960000    -0.6405285    0.3899197  
   0.802959900    -0.5710637    0.4811653  
   0.804959800    -0.4880858    0.5598748  
   0.806959700    -0.3939123    0.6257334  
   0.808959600    -0.2904821    0.6755077  
   0.810959500    -0.1804442    0.7091200  
   0.812959400    -0.0656756    0.7252920  
   0.814959300     0.0505315    0.7232167  
   0.816959200     0.1657051    0.7028501  
   0.818959100     0.2767571    0.6643428  
   0.820959000     0.3808106    0.6083452  
   0.822958900     0.4753630    0.5359789  
   0.824958800     0.5573249    0.4488750  
   0.826958700     0.6247613    0.3487816  
   0.828958600     0.6751340    0.2383190  
   0.830958500     0.7068119    0.1210084  
   0.832958400     0.7185609   -0.0006293  
   0.834958300     0.7100132   -0.1225144  
   0.836958200     0.6816237   -0.2411609  
   0.838958100     0.6335316   -0.3539411  
   0.840958000     0.5674008   -0.4573092  
   0.842957900     0.4850372   -0.5482005  
   0.844957800     0.3890691   -0.6240329  
   0.846957700     0.2819132   -0.6824131  
   0.848957600     0.1673583   -0.7223642  
   0.850957500     0.0482019   -0.7425728  
   0.852957400    -0.0720783   -0.7432984  
   0.854957300    -0.1901234   -0.7244054  
   0.856957200    -0.3023261   -0.6871462  
   0.858957100    -0.4064460   -0.6328059  
   0.860957000    -0.4996329   -0.5636336  
   0.862956900    -0.5801383   -0.4818890  
   0.864956800    -0.6463289   -0.3895455  
   0.866956700    -0.6970065   -0.2894745  
   0.868956600    -0.7314284   -0.1837963  
   0.870956500    -0.7502273   -0.0746997  
   0.872956400    -0.7520698    0.0355371  
   0.874956300    -0.7378031    0.1444491  
   0.876956200    -0.7073957    0.2503470  
   0.878956100    -0.6619158    0.3505893  
   0.880956000    -0.6018906    0.4433917  
   0.882955900    -0.5284095    0.5265191  
   0.884955800    -0.4430905    0.5980936  
   0.886955700    -0.3476409    0.6563615  
   0.888955600    -0.2439687    0.6999835  
   0.890955500    -0.1344561    0.7277254  
   0.892955400    -0.0210590    0.7383591  
   0.894955300     0.0936705    0.7315490  
