! MS46122B
! 2250307/22442219
! 7/23/2025 8:03:31 AM
! C:\USERS\SPARKY\DOCUMENTS\VNA_DATA\JULY23_2025\3K\PORT3_MOS2_REPEAT1.S1P
! CHANNEL.1
! TR.MEASUREMENT
! RAW.DATA
# GHZ S RI R 50.0
! FREQ.GHZ         S11RE         S11IM         
!; PortSelection: Port_1
   0.001000000     1.0456860   -0.0718298  
   0.002999900     0.9642867   -0.1941647  
   0.004999800     0.9040987   -0.2991476  
   0.006999700     0.8370274   -0.3968168  
   0.008999600     0.7586240   -0.4923032  
   0.010999500     0.6660087   -0.5833317  
   0.012999400     0.5535229   -0.6673237  
   0.014999300     0.4150924   -0.7385855  
   0.016999200     0.2445626   -0.7846178  
   0.018999100     0.0363350   -0.7863150  
   0.020999000    -0.2023914   -0.7102282  
   0.022998900    -0.4371415   -0.5150137  
   0.024998800    -0.5622080   -0.1849088  
   0.026998700    -0.5342919    0.2266741  
   0.028998600    -0.2691586    0.5523885  
   0.030998500     0.0966077    0.6830875  
   0.032998400     0.3988257    0.6234109  
   0.034998300     0.6636649    0.4947176  
   0.036998200     0.8099657    0.3188265  
   0.038998100     0.8882953    0.1429095  
   0.040998000     0.9183100   -0.0197396  
   0.042997900     0.9155844   -0.1652594  
   0.044997800     0.8634307   -0.2677217  
   0.046997700     0.8467472   -0.4054359  
   0.048997600     0.7924994   -0.5027071  
   0.050997500     0.7293198   -0.5866899  
   0.052997400     0.6608914   -0.6576759  
   0.054997300     0.5848837   -0.7203304  
   0.056997200     0.5058177   -0.7720271  
   0.058997100     0.4233236   -0.8139769  
   0.060997000     0.3374628   -0.8473459  
   0.062996900     0.2491800   -0.8713343  
   0.064996800     0.1580760   -0.8857246  
   0.066996700     0.0648812   -0.8909824  
   0.068996600    -0.0296745   -0.8856906  
   0.070996500    -0.1252170   -0.8706248  
   0.072996400    -0.2211082   -0.8429372  
   0.074996300    -0.3160426   -0.8026682  
   0.076996200    -0.4086380   -0.7493612  
   0.078996100    -0.4968088   -0.6817734  
   0.080996000    -0.5788699   -0.5991324  
   0.082995900    -0.6517290   -0.5012507  
   0.084995800    -0.7115546   -0.3883604  
   0.086995700    -0.7563779   -0.2612315  
   0.088995600    -0.7806448   -0.1214896  
   0.090995500    -0.7807266    0.0280500  
   0.092995400    -0.7525300    0.1827959  
   0.094995300    -0.6919067    0.3361029  
   0.096995200    -0.5973326    0.4802832  
   0.098995100    -0.4701242    0.6054456  
   0.100995000    -0.3131323    0.7036468  
   0.102994900    -0.1365256    0.7643773  
   0.104994800     0.0504668    0.7838728  
   0.106994700     0.2363365    0.7596498  
   0.108994600     0.4094753    0.6960886  
   0.110994500     0.5611536    0.5980100  
   0.112994400     0.6841303    0.4735674  
   0.114994300     0.7751641    0.3318997  
   0.116994200     0.8337073    0.1811442  
   0.118994100     0.8609942    0.0291213  
   0.120994000     0.8617787   -0.1188289  
   0.122993900     0.8362851   -0.2576813  
   0.124993800     0.7902219   -0.3845190  
   0.126993700     0.7269480   -0.4978522  
   0.128993600     0.6494823   -0.5953223  
   0.130993500     0.5625548   -0.6780567  
   0.132993400     0.4677247   -0.7457041  
   0.134993300     0.3671388   -0.7979064  
   0.136993200     0.2629942   -0.8353541  
   0.138993100     0.1568548   -0.8586345  
   0.140993000     0.0499968   -0.8675390  
   0.142992900    -0.0563864   -0.8624975  
   0.144992800    -0.1605796   -0.8461682  
   0.146992700    -0.2617802   -0.8152132  
   0.148992600    -0.3590752   -0.7713431  
   0.150992500    -0.4489476   -0.7141678  
   0.152992400    -0.5334018   -0.6462624  
   0.154992300    -0.6090756   -0.5671217  
   0.156992200    -0.6747460   -0.4766213  
   0.158992100    -0.7289824   -0.3761161  
   0.160992000    -0.7696658   -0.2665401  
   0.162991900    -0.7953585   -0.1490037  
   0.164991800    -0.8039145   -0.0255201  
   0.166991700    -0.7937844    0.1009951  
   0.168991600    -0.7630627    0.2284178  
   0.170991500    -0.7109684    0.3534110  
   0.172991400    -0.6367855    0.4713644  
   0.174991300    -0.5417985    0.5781659  
   0.176991200    -0.4256458    0.6692982  
   0.178991100    -0.2926127    0.7402845  
   0.180991000    -0.1460259    0.7874898  
   0.182990900     0.0092679    0.8060133  
   0.184990800     0.1675873    0.7950736  
   0.186990700     0.3219126    0.7537991  
   0.188990600     0.4448576    0.6965682  
   0.190990500     0.5892077    0.5908146  
   0.192990400     0.6975868    0.4716185  
   0.194990300     0.7786399    0.3389736  
   0.196990200     0.8329298    0.1966965  
   0.198990100     0.8605475    0.0499587  
   0.200990000     0.8612677   -0.0959627  
   0.202989900     0.8374431   -0.2366851  
   0.204989800     0.7914615   -0.3675031  
   0.206989700     0.7273495   -0.4866802  
   0.208989600     0.6467605   -0.5899163  
   0.210989500     0.5532076   -0.6778446  
   0.212989400     0.4493122   -0.7489395  
   0.214989300     0.3385238   -0.8023658  
   0.216989200     0.2236351   -0.8382799  
   0.218989100     0.1071170   -0.8570981  
   0.220989000    -0.0094110   -0.8592269  
   0.222988900    -0.1240087   -0.8448505  
   0.224988800    -0.2354364   -0.8146725  
   0.226988700    -0.3402816   -0.7700626  
   0.228988600    -0.4380243   -0.7116197  
   0.230988500    -0.5266122   -0.6402826  
   0.232988400    -0.6040186   -0.5555843  
   0.234988300    -0.6704444   -0.4605942  
   0.236988200    -0.7234100   -0.3558912  
   0.238988100    -0.7609841   -0.2431727  
   0.240988000    -0.7817240   -0.1247293  
   0.242987900    -0.7850249   -0.0024880  
   0.244987800    -0.7689936    0.1211032  
   0.246987700    -0.7332470    0.2437914  
   0.248987600    -0.6766444    0.3620032  
   0.250987500    -0.6000181    0.4720140  
   0.252987400    -0.5040103    0.5694308  
   0.254987300    -0.3907289    0.6503740  
   0.256987200    -0.2630458    0.7112647  
   0.258987100    -0.1242811    0.7508198  
   0.260987000     0.0222472    0.7633020  
   0.262986900     0.1706470    0.7485360  
   0.264986800     0.3147856    0.7063584  
   0.266986700     0.4490002    0.6373229  
   0.268986600     0.5678023    0.5449178  
   0.270986500     0.6664618    0.4330988  
   0.272986400     0.7422124    0.3059263  
   0.274986300     0.7927158    0.1689520  
   0.276986200     0.8174678    0.0271221  
   0.278986100     0.8169648   -0.1146252  
   0.280986000     0.7918672   -0.2511189  
   0.282985900     0.7450337   -0.3790266  
   0.284985800     0.6793543   -0.4946572  
   0.286985700     0.5976867   -0.5955187  
   0.288985600     0.5039266   -0.6793813  
   0.290985500     0.4013315   -0.7465472  
   0.292985400     0.2925630   -0.7962326  
   0.294985300     0.1801010   -0.8287688  
   0.296985200     0.0656965   -0.8445517  
   0.298985100    -0.0486289   -0.8444328  
   0.300985000    -0.1604022   -0.8281757  
   0.302984900    -0.2673647   -0.7974966  
   0.304984800    -0.3682623   -0.7528502  
   0.306984700    -0.4612426   -0.6955732  
   0.308984600    -0.5453870   -0.6275727  
   0.310984500    -0.6192179   -0.5492645  
   0.312984400    -0.6824129   -0.4616165  
   0.314984300    -0.7338081   -0.3657971  
   0.316984200    -0.7724473   -0.2625022  
   0.318984100    -0.7969663   -0.1524209  
   0.320984000    -0.8059669   -0.0371314  
   0.322983900    -0.7970369    0.0811976  
   0.324983800    -0.7692027    0.1988395  
   0.326983700    -0.7215723    0.3116753  
   0.328983600    -0.6546879    0.4155156  
   0.330983500    -0.5715197    0.5058430  
   0.332983400    -0.4760091    0.5799242  
   0.334983300    -0.3726346    0.6373117  
   0.336983200    -0.2630821    0.6789184  
   0.338983100    -0.1494282    0.7046947  
   0.340983000    -0.0328470    0.7145692  
   0.342982900     0.0856514    0.7076975  
   0.344982800     0.2039820    0.6828306  
   0.346982700     0.3195937    0.6385999  
   0.348982600     0.4276880    0.5743347  
   0.350982500     0.5260075    0.4928868  
   0.352982400     0.6101240    0.3944560  
   0.354982300     0.6786715    0.2771903  
   0.356982200     0.7278879    0.1359237  
   0.358982100     0.7481708   -0.0123586  
   0.360982000     0.7388772   -0.1618109  
   0.362981900     0.7000634   -0.3064426  
   0.364981800     0.6338761   -0.4406996  
   0.366981700     0.5430620   -0.5588725  
   0.368981600     0.4315611   -0.6566033  
   0.370981500     0.3040778   -0.7306472  
   0.372981400     0.1655499   -0.7783831  
   0.374981300     0.0216425   -0.7991185  
   0.376981200     0.1410294   -0.7845001  
   0.378981100    -0.0012138   -0.7994515  
   0.380981000    -0.1422947   -0.7881809  
   0.382980900    -0.2655439   -0.7563353  
   0.384980800    -0.3762161   -0.7081075  
   0.386980700    -0.4767548   -0.6437962  
   0.388980600    -0.5659699   -0.5651647  
   0.390980500    -0.6414207   -0.4751560  
   0.392980400    -0.7023118   -0.3757422  
   0.394980300    -0.7474327   -0.2692145  
   0.396980200    -0.7762365   -0.1574002  
   0.398980100    -0.7886887   -0.0424248  
   0.400980000    -0.7839399    0.0736550  
   0.402979900    -0.7624620    0.1883845  
   0.404979800    -0.7237417    0.2991373  
   0.406979700    -0.6687584    0.4037566  
   0.408979600    -0.5983190    0.4998775  
   0.410979500    -0.5126216    0.5856695  
   0.412979400    -0.4133937    0.6587958  
   0.414979300    -0.3018514    0.7147826  
   0.416979200    -0.1818186    0.7543634  
   0.418979100    -0.0557164    0.7747848  
   0.420979000     0.0735531    0.7745187  
   0.422978900     0.2026309    0.7530596  
   0.424978800     0.3280862    0.7097707  
   0.426978700     0.4456037    0.6453802  
   0.428978600     0.5514730    0.5615745  
   0.430978500     0.6416382    0.4607660  
   0.432978400     0.7134384    0.3458792  
   0.434978300     0.7657885    0.2205041  
   0.436978200     0.7949187    0.0883911  
   0.438978100     0.8011065   -0.0469000  
   0.440978000     0.7843583   -0.1805083  
   0.442977900     0.7453458   -0.3084661  
   0.444977800     0.6859206   -0.4269601  
   0.446977700     0.6082665   -0.5332121  
   0.448977600     0.5154307   -0.6235170  
   0.450977500     0.4099429   -0.6975205  
   0.452977400     0.2947436   -0.7524921  
   0.454977300     0.1731888   -0.7878061  
   0.456977200     0.0482980   -0.8032879  
   0.458977100    -0.0762894   -0.7986450  
   0.460977000    -0.1970316   -0.7749215  
   0.462976900    -0.3110728   -0.7332739  
   0.464976800    -0.4163972   -0.6747556  
   0.466976700    -0.5112776   -0.6013226  
   0.468976600    -0.5930661   -0.5149400  
   0.470976500    -0.6607168   -0.4175677  
   0.472976400    -0.7124048   -0.3110558  
   0.474976300    -0.7474567   -0.1983265  
   0.476976200    -0.7646317   -0.0815462  
   0.478976100    -0.7640336    0.0365120  
   0.480976000    -0.7453736    0.1531686  
   0.482975900    -0.7086185    0.2654629  
   0.484975800    -0.6548427    0.3719865  
   0.486975700    -0.5841300    0.4696600  
   0.488975600    -0.4982386    0.5558887  
   0.490975500    -0.3983831    0.6274943  
   0.492975400    -0.2869217    0.6827124  
   0.494975300    -0.1667199    0.7188033  
   0.496975200    -0.0410060    0.7341460  
   0.498975100     0.0861010    0.7275668  
   0.500975000     0.2105058    0.6989287  
   0.502974900     0.3277476    0.6491441  
   0.504974800     0.4343407    0.5795028  
   0.506974700     0.5265708    0.4922774  
   0.508974600     0.6014339    0.3906200  
   0.510974500     0.6566422    0.2792743  
   0.512974400     0.6911473    0.1620922  
   0.514974300     0.7036346    0.0443454  
   0.516974200     0.6982117   -0.0709534  
   0.518974100     0.6758904   -0.1809131  
   0.520974000     0.6382102   -0.2831464  
   0.522973900     0.5876753   -0.3769624  
   0.524973800     0.5260001   -0.4611499  
   0.526973700     0.4542599   -0.5359627  
   0.528973600     0.3743081   -0.5999451  
   0.530973500     0.2855785   -0.6532158  
   0.532973400     0.1903357   -0.6942168  
   0.534973300     0.0892441   -0.7218926  
   0.536973200    -0.0170157   -0.7353611  
   0.538973100    -0.1244649   -0.7329571  
   0.540973000    -0.2322232   -0.7136939  
   0.542972900    -0.3369589   -0.6780998  
   0.544972800    -0.4363316   -0.6262165  
   0.546972700    -0.5276597   -0.5577180  
   0.548972600    -0.6080478   -0.4752219  
   0.550972500    -0.6744019   -0.3798003  
   0.552972400    -0.7253529   -0.2741275  
   0.554972300    -0.7588100   -0.1609703  
   0.556972200    -0.7738679   -0.0432661  
   0.558972100    -0.7699521    0.0759102  
   0.560972000    -0.7467744    0.1932361  
   0.562971900    -0.7053266    0.3055281  
   0.564971800    -0.6464955    0.4100994  
   0.566971700    -0.5716413    0.5043886  
   0.568971600    -0.4822818    0.5858861  
   0.570971500    -0.3805718    0.6524804  
   0.572971400    -0.2688672    0.7026644  
   0.574971300    -0.1493566    0.7342095  
   0.576971200    -0.0248932    0.7460522  
   0.578971100     0.1009599    0.7374475  
   0.580971000     0.2243740    0.7078779  
   0.582970900     0.3417384    0.6577541  
   0.584970800     0.4498018    0.5887092  
   0.586970700     0.5448299    0.5019859  
   0.588970600     0.6242803    0.4004209  
   0.590970500     0.6853172    0.2860394  
   0.592970400     0.7262654    0.1630332  
   0.594970300     0.7454836    0.0344092  
   0.596970200     0.7426994   -0.0951519  
   0.598970100     0.7178624   -0.2221155  
   0.600970000     0.6715788   -0.3433272  
   0.602969900     0.6058950   -0.4538663  
   0.604969800     0.5225079   -0.5514551  
   0.606969700     0.4247312   -0.6336481  
   0.608969600     0.3149507   -0.6973304  
   0.610969500     0.1970258   -0.7416562  
   0.612969400     0.0747143   -0.7655451  
   0.614969300    -0.0484116   -0.7695135  
   0.616969200    -0.1690909   -0.7533931  
   0.618969100    -0.2838738   -0.7187688  
   0.620969000    -0.3906712   -0.6675888  
   0.622968900    -0.4875838   -0.6006791  
   0.624968800    -0.5727230   -0.5205029  
   0.626968700    -0.6438681   -0.4284085  
   0.628968600    -0.7003375   -0.3271680  
   0.630968500    -0.7406113   -0.2188167  
   0.632968400    -0.7642429   -0.1060233  
   0.634968300    -0.7704458    0.0090003  
   0.636968200    -0.7595893    0.1235788  
   0.638968100    -0.7314863    0.2354686  
   0.640968000    -0.6868299    0.3424234  
   0.642967900    -0.6265132    0.4413477  
   0.644967800    -0.5513927    0.5309612  
   0.646967700    -0.4632507    0.6085339  
   0.648967600    -0.3634565    0.6722168  
   0.650967500    -0.2550689    0.7197218  
   0.652967400    -0.1394662    0.7505403  
   0.654967300    -0.0193091    0.7630740  
   0.656967200     0.1018566    0.7565844  
   0.658967100     0.2217451    0.7306842  
   0.660967000     0.3371278    0.6853966  
   0.662966900     0.4453192    0.6211539  
   0.664966800     0.5428491    0.5390799  
   0.666966700     0.6262532    0.4410264  
   0.668966600     0.6925136    0.3296940  
   0.670966500     0.7393347    0.2082089  
   0.672966400     0.7665786    0.0807653  
   0.674966300     0.7705777   -0.0496589  
   0.676966200     0.7521837   -0.1783645  
   0.678966100     0.7126169   -0.3015062  
   0.680966000     0.6535051   -0.4157516  
   0.682965900     0.5766011   -0.5181631  
   0.684965800     0.4848750   -0.6054082  
   0.686965700     0.3802828   -0.6757165  
   0.688965600     0.2670244   -0.7277970  
   0.690965500     0.1479226   -0.7591090  
   0.692965400     0.0271334   -0.7722409  
   0.694965300    -0.0930074   -0.7657950  
   0.696965200    -0.2091306   -0.7411367  
   0.698965100    -0.3187808   -0.6990625  
   0.700965000    -0.4199608   -0.6411793  
   0.702964900    -0.5104440   -0.5690245  
   0.704964800    -0.5883721   -0.4846841  
   0.706964700    -0.6522331   -0.3900500  
   0.708964600    -0.7010325   -0.2869259  
   0.710964500    -0.7339930   -0.1782051  
   0.712964400    -0.7497223   -0.0656395  
   0.714964300    -0.7482435    0.0479090  
   0.716964200    -0.7297108    0.1595355  
   0.718964100    -0.6944612    0.2672099  
   0.720964000    -0.6432405    0.3685291  
   0.722963900    -0.5770524    0.4609507  
   0.724963800    -0.4971714    0.5423748  
   0.726963700    -0.4049950    0.6108801  
   0.728963600    -0.3025237    0.6644948  
   0.730963500    -0.1916176    0.7007791  
   0.732963400    -0.0763791    0.7194256  
   0.734963300     0.0416324    0.7190295  
   0.736963200     0.1754266    0.6949979  
   0.738963100     0.3035997    0.6459478  
   0.740963000     0.4208892    0.5737865  
   0.742962900     0.5218993    0.4810757  
   0.744962800     0.6037956    0.3712405  
   0.746962700     0.6632537    0.2483729  
   0.748962600     0.6983689    0.1173272  
   0.750962500     0.6586694    0.2216758  
   0.752962400     0.6893669    0.0920044  
   0.754962300     0.6960779   -0.0402863  
   0.756962200     0.6787346   -0.1709953  
   0.758962100     0.6383024   -0.2950777  
   0.760962000     0.5767210   -0.4096765  
   0.762961900     0.4999842   -0.5063165  
   0.764961800     0.4171033   -0.5823689  
   0.766961700     0.3233460   -0.6446424  
   0.768961600     0.2211974   -0.6917030  
   0.770961500     0.1133104   -0.7227485  
   0.772961400     0.0019127   -0.7370099  
   0.774961300    -0.1106487   -0.7340220  
   0.776961200    -0.2217311   -0.7136654  
   0.778961100    -0.3287995   -0.6764206  
   0.780961000    -0.4292744   -0.6224618  
   0.782960900    -0.5200707   -0.5533010  
   0.784960800    -0.5997084   -0.4702015  
   0.786960700    -0.6651680   -0.3753707  
   0.788960600    -0.7151178   -0.2712140  
   0.790960500    -0.7479630   -0.1604028  
   0.792960400    -0.7632971   -0.0459550  
   0.794960300    -0.7601113    0.0697344  
   0.796960200    -0.7390077    0.1834376  
   0.798960100    -0.7005523    0.2920345  
   0.800960000    -0.6457412    0.3933342  
   0.802959900    -0.5758134    0.4853276  
   0.804959800    -0.4923177    0.5648129  
   0.806959700    -0.3975615    0.6309719  
   0.808959600    -0.2932748    0.6814038  
   0.810959500    -0.1824767    0.7151622  
   0.812959400    -0.0668870    0.7314062  
   0.814959300     0.0502805    0.7293641  
   0.816959200     0.1661837    0.7089382  
   0.818959100     0.2781215    0.6700741  
   0.820959000     0.3827307    0.6135271  
   0.822958900     0.4778109    0.5407264  
   0.824958800     0.5603265    0.4528226  
   0.826958700     0.6280389    0.3520238  
   0.828958600     0.6786388    0.2409598  
   0.830958500     0.7104465    0.1229230  
   0.832958400     0.7221655    0.0005994  
   0.834958300     0.7134747   -0.1218493  
   0.836958200     0.6847102   -0.2412840  
   0.838958100     0.6364515   -0.3543295  
   0.840958000     0.5699692   -0.4580470  
   0.842957900     0.4873589   -0.5493047  
   0.844957800     0.3909881   -0.6254938  
   0.846957700     0.2836126   -0.6841187  
   0.848957600     0.1687173   -0.7242779  
   0.850957500     0.0489553   -0.7447101  
   0.852957400    -0.0715051   -0.7456588  
   0.854957300    -0.1900783   -0.7269581  
   0.856957200    -0.3027182   -0.6898717  
   0.858957100    -0.4074210   -0.6357024  
   0.860957000    -0.5011907   -0.5665598  
   0.862956900    -0.5824862   -0.4844418  
   0.864956800    -0.6492390   -0.3919458  
   0.866956700    -0.7005452   -0.2915494  
   0.868956600    -0.7354320   -0.1853662  
   0.870956500    -0.7546819   -0.0756195  
   0.872956400    -0.7569277    0.0351244  
   0.874956300    -0.7429531    0.1447574  
   0.876956200    -0.7127705    0.2513286  
   0.878956100    -0.6672595    0.3522800  
   0.880956000    -0.6071333    0.4458667  
   0.882955900    -0.5336198    0.5296432  
   0.884955800    -0.4482224    0.6020042  
   0.886955700    -0.3520744    0.6611307  
   0.888955600    -0.2478817    0.7051703  
   0.890955500    -0.1377237    0.7334388  
   0.892955400    -0.0236380    0.7445047  
   0.894955300     0.0919109    0.7379327  
