! MS46122B
! 2250307/22442219
! 7/27/2025 9:20:30 AM
! C:\USERS\SPARKY\DOCUMENTS\VNA_DATA\JULY27_2025\3K\PORT5_MOS1.S1P
! CHANNEL.1
! TR.MEASUREMENT
! RAW.DATA
# GHZ S RI R 50.0
! FREQ.GHZ         S11RE         S11IM         
!; PortSelection: Port_1
   0.001000000     1.0457480   -0.0721973  
   0.002999900     0.9643875   -0.1944782  
   0.004999800     0.9044275   -0.2994189  
   0.006999700     0.8372645   -0.3970246  
   0.008999600     0.7592754   -0.4924461  
   0.010999500     0.6669379   -0.5833659  
   0.012999400     0.5547974   -0.6673968  
   0.014999300     0.4170467   -0.7386431  
   0.016999200     0.2471984   -0.7851035  
   0.018999100     0.0399999   -0.7876303  
   0.020999000    -0.1976601   -0.7133341  
   0.022998900    -0.4319398   -0.5214278  
   0.024998800    -0.5591581   -0.1953476  
   0.026998700    -0.5373067    0.2129421  
   0.028998600    -0.2793568    0.5408207  
   0.030998500     0.0824382    0.6772389  
   0.032998400     0.3855029    0.6236483  
   0.034998300     0.6521895    0.4993069  
   0.036998200     0.8013407    0.3256230  
   0.038998100     0.8823794    0.1507355  
   0.040998000     0.9149236   -0.0116531  
   0.042997900     0.9137318   -0.1573294  
   0.044997800     0.8629502   -0.2605349  
   0.046997700     0.8477163   -0.3983794  
   0.048997600     0.7945858   -0.4962097  
   0.050997500     0.7323450   -0.5808241  
   0.052997400     0.6639050   -0.6534113  
   0.054997300     0.5900055   -0.7152867  
   0.056997200     0.5110812   -0.7681175  
   0.058997100     0.4291946   -0.8108680  
   0.060997000     0.3438626   -0.8450634  
   0.062996900     0.2560843   -0.8699157  
   0.064996800     0.1654133   -0.8852209  
   0.066996700     0.0725906   -0.8915097  
   0.068996600    -0.0216012   -0.8873849  
   0.070996500    -0.1168965   -0.8735272  
   0.072996400    -0.2128020   -0.8471129  
   0.074996300    -0.3077639   -0.8082951  
   0.076996200    -0.4005573   -0.7565513  
   0.078996100    -0.4892541   -0.6906835  
   0.080996000    -0.5719345   -0.6100195  
   0.082995900    -0.6459975   -0.5137277  
   0.084995800    -0.7073405   -0.4027679  
   0.086995700    -0.7541859   -0.2773284  
   0.088995600    -0.7809512   -0.1391163  
   0.090995500    -0.7841814    0.0091446  
   0.092995400    -0.7597581    0.1632600  
   0.094995300    -0.7033065    0.3167481  
   0.096995200    -0.6132335    0.4621359  
   0.098995100    -0.4902973    0.5896844  
   0.100995000    -0.3377107    0.6917272  
   0.102994900    -0.1639781    0.7574660  
   0.104994800     0.0213762    0.7829040  
   0.106994700     0.2071203    0.7649250  
   0.108994600     0.3819250    0.7072238  
   0.110994500     0.5366446    0.6145951  
   0.112994400     0.6637676    0.4943250  
   0.114994300     0.7595682    0.3557271  
   0.116994200     0.8231209    0.2068394  
   0.118994100     0.8555087    0.0554630  
   0.120994000     0.8611035   -0.0925817  
   0.122993900     0.8399802   -0.2327418  
   0.124993800     0.7977457   -0.3613728  
   0.126993700     0.7378296   -0.4767157  
   0.128993600     0.6632121   -0.5767304  
   0.130993500     0.5784319   -0.6622022  
   0.132993400     0.4854554   -0.7327930  
   0.134993300     0.3862297   -0.7879660  
   0.136993200     0.2831165   -0.8284060  
   0.138993100     0.1776745   -0.8546910  
   0.140993000     0.0711221   -0.8666256  
   0.142992900    -0.0351741   -0.8648806  
   0.144992800    -0.1396216   -0.8510819  
   0.146992700    -0.2417858   -0.8231447  
   0.148992600    -0.3396008   -0.7822757  
   0.150992500    -0.4312188   -0.7281424  
   0.152992400    -0.5169324   -0.6628129  
   0.154992300    -0.5946458   -0.5862564  
   0.156992200    -0.6627592   -0.4983054  
   0.158992100    -0.7197178   -0.4002089  
   0.160992000    -0.7636002   -0.2926627  
   0.162991900    -0.7930286   -0.1769973  
   0.164991800    -0.8057641   -0.0550971  
   0.166991700    -0.7999849    0.0707989  
   0.168991600    -0.7744137    0.1981129  
   0.170991500    -0.7276018    0.3239380  
   0.172991400    -0.6588825    0.4435833  
   0.174991300    -0.5691066    0.5531338  
   0.176991200    -0.4583777    0.6484207  
   0.178991100    -0.3295839    0.7245670  
   0.180991000    -0.1866389    0.7780663  
   0.182990900    -0.0337208    0.8039396  
   0.184990800     0.1239151    0.8006110  
   0.186990700     0.2791443    0.7674075  
   0.188990600     0.4041206    0.7168888  
   0.190990500     0.5531968    0.6190444  
   0.192990400     0.6674966    0.5063249  
   0.194990300     0.7554573    0.3782489  
   0.196990200     0.8173413    0.2391618  
   0.198990100     0.8523023    0.0942488  
   0.200990000     0.8608622   -0.0515311  
   0.202989900     0.8445205   -0.1938332  
   0.204989800     0.8052061   -0.3270519  
   0.206989700     0.7477308   -0.4494739  
   0.208989600     0.6721433   -0.5572367  
   0.210989500     0.5829639   -0.6500451  
   0.212989400     0.4826731   -0.7264357  
   0.214989300     0.3746039   -0.7854552  
   0.216989200     0.2616425   -0.8271894  
   0.218989100     0.1461756   -0.8517271  
   0.220989000     0.0297080   -0.8598065  
   0.222988900    -0.0855755   -0.8513644  
   0.224988800    -0.1981856   -0.8270093  
   0.226988700    -0.3050343   -0.7876629  
   0.228988600    -0.4052409   -0.7344188  
   0.230988500    -0.4970625   -0.6678979  
   0.232988400    -0.5782092   -0.5878134  
   0.234988300    -0.6493558   -0.4971585  
   0.236988200    -0.7072694   -0.3960987  
   0.238988100    -0.7509041   -0.2864977  
   0.240988000    -0.7780537   -0.1701875  
   0.242987900    -0.7882484   -0.0496026  
   0.244987800    -0.7798354    0.0735646  
   0.246987700    -0.7517635    0.1968417  
   0.248987600    -0.7033122    0.3171655  
   0.250987500    -0.6343973    0.4306422  
   0.252987400    -0.5460419    0.5329599  
   0.254987300    -0.4396887    0.6204231  
   0.256987200    -0.3177513    0.6894900  
   0.258987100    -0.1831983    0.7384396  
   0.260987000    -0.0394105    0.7612565  
   0.262986900     0.1082548    0.7575244  
   0.264986800     0.2542908    0.7264813  
   0.266986700     0.3927730    0.6684850  
   0.268986600     0.5177285    0.5856785  
   0.270986500     0.6244031    0.4818437  
   0.272986400     0.7097785    0.3611948  
   0.274986300     0.7705685    0.2285187  
   0.276986200     0.8063501    0.0886901  
   0.278986100     0.8166126   -0.0529862  
   0.280986000     0.8021288   -0.1918789  
   0.282985900     0.7643955   -0.3232510  
   0.284985800     0.7070496   -0.4436310  
   0.286985700     0.6326023   -0.5507057  
   0.288985600     0.5447387   -0.6417906  
   0.290985500     0.4466605   -0.7161278  
   0.292985400     0.3410136   -0.7732808  
   0.294985300     0.2304932   -0.8137727  
   0.296985200     0.1168284   -0.8372517  
   0.298985100     0.0026157   -0.8446622  
   0.300985000    -0.1103131   -0.8360071  
   0.302984900    -0.2191018   -0.8121849  
   0.304984800    -0.3225103   -0.7743355  
   0.306984700    -0.4189661   -0.7232488  
   0.308984600    -0.5068369   -0.6610327  
   0.310984500    -0.5852638   -0.5882615  
   0.312984400    -0.6536636   -0.5054483  
   0.314984300    -0.7111294   -0.4141266  
   0.316984200    -0.7564152   -0.3148143  
   0.318984100    -0.7883918   -0.2081649  
   0.320984000    -0.8056803   -0.0953022  
   0.322983900    -0.8062698    0.0214448  
   0.324983800    -0.7885211    0.1396498  
   0.326983700    -0.7512566    0.2546840  
   0.328983600    -0.6944811    0.3636225  
   0.330983500    -0.6202090    0.4608707  
   0.332983400    -0.5320707    0.5434269  
   0.334983300    -0.4336506    0.6101993  
   0.336983200    -0.3276246    0.6616645  
   0.338983100    -0.2160017    0.6970028  
   0.340983000    -0.1000762    0.7167373  
   0.342982900     0.0186408    0.7196017  
   0.344982800     0.1385559    0.7042701  
   0.346982700     0.2573311    0.6705397  
   0.348982600     0.3702748    0.6159738  
   0.350982500     0.4749066    0.5436535  
   0.352982400     0.5673937    0.4536481  
   0.354982300     0.6458983    0.3436246  
   0.356982200     0.7079300    0.2082462  
   0.358982100     0.7422642    0.0628888  
   0.360982000     0.7473856   -0.0862471  
   0.362981900     0.7230104   -0.2336104  
   0.364981800     0.6704940   -0.3732413  
   0.366981700     0.5919431   -0.4997459  
   0.368981600     0.4907511   -0.6078667  
   0.370981500     0.3711302   -0.6941515  
   0.372981400     0.2381312   -0.7556731  
   0.374981300     0.0968988   -0.7905021  
   0.376981200     0.2128063   -0.7653011  
   0.378981100     0.0729757   -0.7940834  
   0.380981000    -0.0689479   -0.7965668  
   0.382980900    -0.1950791   -0.7766398  
   0.384980800    -0.3096923   -0.7394461  
   0.386980700    -0.4157910   -0.6850504  
   0.388980600    -0.5124561   -0.6153577  
   0.390980500    -0.5961544   -0.5329978  
   0.392980400    -0.6661641   -0.4401789  
   0.394980300    -0.7211619   -0.3389067  
   0.396980200    -0.7606569   -0.2305950  
   0.398980100    -0.7839615   -0.1176919  
   0.400980000    -0.7905117   -0.0026096  
   0.402979900    -0.7800608    0.1131402  
   0.404979800    -0.7530079    0.2264539  
   0.406979700    -0.7088643    0.3350702  
   0.408979600    -0.6490340    0.4367467  
   0.410979500    -0.5731807    0.5300070  
   0.412979400    -0.4831663    0.6118145  
   0.414979300    -0.3792218    0.6785646  
   0.416979200    -0.2652355    0.7300808  
   0.418979100    -0.1436792    0.7634282  
   0.420979000    -0.0167122    0.7772737  
   0.422978900     0.1125282    0.7702563  
   0.424978800     0.2406119    0.7419569  
   0.426978700     0.3633555    0.6923255  
   0.428978600     0.4769374    0.6220357  
   0.430978500     0.5775974    0.5336566  
   0.432978400     0.6617770    0.4292140  
   0.434978300     0.7285008    0.3122581  
   0.436978200     0.7733599    0.1854693  
   0.438978100     0.7963431    0.0529115  
   0.440978000     0.7961996   -0.0811832  
   0.442977900     0.7737449   -0.2127002  
   0.444977800     0.7298686   -0.3375408  
   0.446977700     0.6662976   -0.4523930  
   0.448977600     0.5854066   -0.5543494  
   0.450977500     0.4903183   -0.6404250  
   0.452977400     0.3829290   -0.7095975  
   0.454977300     0.2661926   -0.7602919  
   0.456977200     0.1440069   -0.7912326  
   0.458977100     0.0198511   -0.8022137  
   0.460977000    -0.1032312   -0.7935717  
   0.462976900    -0.2218074   -0.7665525  
   0.464976800    -0.3338291   -0.7214414  
   0.466976700    -0.4369945   -0.6604058  
   0.468976600    -0.5285946   -0.5851133  
   0.470976500    -0.6076881   -0.4967309  
   0.472976400    -0.6724600   -0.3981295  
   0.474976300    -0.7209278   -0.2908494  
   0.476976200    -0.7527270   -0.1779506  
   0.478976100    -0.7670156   -0.0612105  
   0.480976000    -0.7633741    0.0555264  
   0.482975900    -0.7417250    0.1709563  
   0.484975800    -0.7028668    0.2824823  
   0.486975700    -0.6466095    0.3873356  
   0.488975600    -0.5737532    0.4831259  
   0.490975500    -0.4858446    0.5673068  
   0.492975400    -0.3841599    0.6366165  
   0.494975300    -0.2716397    0.6885422  
   0.496975200    -0.1507636    0.7214565  
   0.498975100    -0.0253180    0.7333242  
   0.500975000     0.1007483    0.7234224  
   0.502974900     0.2233197    0.6917823  
   0.504974800     0.3385056    0.6392919  
   0.506974700     0.4422316    0.5672604  
   0.508974600     0.5314934    0.4781767  
   0.510974500     0.6026042    0.3764221  
   0.512974400     0.6544598    0.2656412  
   0.514974300     0.6843073    0.1507327  
   0.516974200     0.6960835    0.0356011  
   0.518974100     0.6896037   -0.0767436  
   0.520974000     0.6671563   -0.1834790  
   0.522973900     0.6303551   -0.2841130  
   0.524973800     0.5811036   -0.3761877  
   0.526973700     0.5207628   -0.4598872  
   0.528973600     0.4504786   -0.5342563  
   0.530973500     0.3710034   -0.5991347  
   0.532973400     0.2827409   -0.6528563  
   0.534973300     0.1873109   -0.6945341  
   0.536973200     0.0855869   -0.7225829  
   0.538973100    -0.0203091   -0.7357494  
   0.540973000    -0.1282089   -0.7331528  
   0.542972900    -0.2363636   -0.7135829  
   0.544972800    -0.3412286   -0.6772665  
   0.546972700    -0.4407311   -0.6243626  
   0.548972600    -0.5317372   -0.5554441  
   0.550972500    -0.6116127   -0.4722947  
   0.552972400    -0.6774709   -0.3763114  
   0.554972300    -0.7276975   -0.2706579  
   0.556972200    -0.7605544   -0.1574671  
   0.558972100    -0.7751671   -0.0402603  
   0.560972000    -0.7708805    0.0781732  
   0.562971900    -0.7477593    0.1946891  
   0.564971800    -0.7064138    0.3063342  
   0.566971700    -0.6481509    0.4102353  
   0.568971600    -0.5738619    0.5040985  
   0.570971500    -0.4851759    0.5854291  
   0.572971400    -0.3839373    0.6523558  
   0.574971300    -0.2724878    0.7025958  
   0.576971200    -0.1531741    0.7345201  
   0.578971100    -0.0291159    0.7468098  
   0.580971000     0.0962418    0.7385969  
   0.582970900     0.2190313    0.7097232  
   0.584970800     0.3360619    0.6607483  
   0.586970700     0.4436087    0.5927501  
   0.588970600     0.5387095    0.5071420  
   0.590970500     0.6184188    0.4067463  
   0.592970400     0.6800162    0.2934725  
   0.594970300     0.7217730    0.1714258  
   0.596970200     0.7421037    0.0439846  
   0.598970100     0.7406157   -0.0849157  
   0.600970000     0.7170784   -0.2118905  
   0.602969900     0.6725105   -0.3327986  
   0.604969800     0.6081529   -0.4438236  
   0.606969700     0.5263561   -0.5420976  
   0.608969600     0.4295996   -0.6250890  
   0.610969500     0.3211098   -0.6897148  
   0.612969400     0.2044342   -0.7352048  
   0.614969300     0.0829753   -0.7605368  
   0.616969200    -0.0388260   -0.7658722  
   0.618969100    -0.1587695   -0.7514569  
   0.620969000    -0.2732010   -0.7191787  
   0.622968900    -0.3803019   -0.6695232  
   0.624968800    -0.4780073   -0.6043435  
   0.626968700    -0.5641171   -0.5256934  
   0.628968600    -0.6366674   -0.4348538  
   0.630968500    -0.6944403   -0.3346736  
   0.632968400    -0.7363229   -0.2273212  
   0.634968300    -0.7614491   -0.1147255  
   0.636968200    -0.7692240   -0.0004103  
   0.638968100    -0.7600649    0.1139368  
   0.640968000    -0.7335726    0.2262336  
   0.642967900    -0.6906929    0.3331331  
   0.644967800    -0.6318081    0.4327019  
   0.646967700    -0.5583287    0.5228549  
   0.648967600    -0.4716724    0.6014311  
   0.650967500    -0.3736738    0.6660837  
   0.652967400    -0.2666762    0.7149382  
   0.654967300    -0.1519732    0.7473751  
   0.656967200    -0.0329219    0.7617552  
   0.658967100     0.0878741    0.7571379  
   0.660967000     0.2077173    0.7332041  
   0.662966900     0.3239852    0.6896434  
   0.664966800     0.4329975    0.6271611  
   0.666966700     0.5314571    0.5468427  
   0.668966600     0.6159059    0.4506408  
   0.670966500     0.6834980    0.3408001  
   0.672966400     0.7331741    0.2215154  
   0.674966300     0.7611661    0.0948792  
   0.676966200     0.7672296   -0.0340930  
   0.678966100     0.7512371   -0.1617691  
   0.680966000     0.7145360   -0.2851194  
   0.682965900     0.6583003   -0.3996254  
   0.684965800     0.5842416   -0.5025494  
   0.686965700     0.4945354   -0.5914522  
   0.688965600     0.3924776   -0.6635560  
   0.690965500     0.2806023   -0.7166525  
   0.692965400     0.1635626   -0.7516760  
   0.694965300     0.0442271   -0.7674799  
   0.696965200    -0.0752716   -0.7640867  
   0.698965100    -0.1914482   -0.7424868  
   0.700965000    -0.3019440   -0.7033862  
   0.702964900    -0.4037800   -0.6484427  
   0.704964800    -0.4958572   -0.5789886  
   0.706964700    -0.5756431   -0.4969876  
   0.708964600    -0.6417220   -0.4041727  
   0.710964500    -0.6936511   -0.3029529  
   0.712964400    -0.7288341   -0.1955968  
   0.714964300    -0.7473060   -0.0838834  
   0.716964200    -0.7491918    0.0287365  
   0.718964100    -0.7339547    0.1402278  
   0.720964000    -0.7022156    0.2479169  
   0.722963900    -0.6541771    0.3501103  
   0.724963800    -0.5913743    0.4440475  
   0.726963700    -0.5141019    0.5277441  
   0.728963600    -0.4245345    0.5986505  
   0.730963500    -0.3237194    0.6546814  
   0.732963400    -0.2149804    0.6945330  
   0.734963300    -0.1003403    0.7166764  
   0.736963200     0.0347034    0.7191132  
   0.738963100     0.1689509    0.6961283  
   0.740963000     0.2973343    0.6483279  
   0.742962900     0.4141437    0.5770818  
   0.744962800     0.5154893    0.4857192  
   0.746962700     0.5977520    0.3772297  
   0.748962600     0.6580198    0.2554914  
   0.750962500     0.5972753    0.3511509  
   0.752962400     0.6528456    0.2297991  
   0.754962300     0.6851311    0.1014710  
   0.756962200     0.6935216   -0.0298986  
   0.758962100     0.6780242   -0.1597878  
   0.760962000     0.6396412   -0.2839084  
   0.762961900     0.5831990   -0.3935973  
   0.764961800     0.5158402   -0.4838662  
   0.766961700     0.4363580   -0.5625542  
   0.768961600     0.3453912   -0.6284000  
   0.770961500     0.2454768   -0.6791360  
   0.772961400     0.1392357   -0.7142290  
   0.774961300     0.0289578   -0.7327513  
   0.776961200    -0.0835932   -0.7339796  
   0.778961100    -0.1953917   -0.7181943  
   0.780961000    -0.3036605   -0.6848408  
   0.782960900    -0.4060297   -0.6348999  
   0.784960800    -0.4997547   -0.5691382  
   0.786960700    -0.5821978   -0.4891260  
   0.788960600    -0.6512175   -0.3969094  
   0.790960500    -0.7048790   -0.2950531  
   0.792960400    -0.7419379   -0.1858486  
   0.794960300    -0.7612315   -0.0722859  
   0.796960200    -0.7628708    0.0427412  
   0.798960100    -0.7463150    0.1567635  
   0.800960000    -0.7123474    0.2661130  
   0.802959900    -0.6617959    0.3697820  
   0.804959800    -0.5959225    0.4638499  
   0.806959700    -0.5161491    0.5466934  
   0.808959600    -0.4242820    0.6162739  
   0.810959500    -0.3226381    0.6707091  
   0.812959400    -0.2130186    0.7091329  
   0.814959300    -0.0990940    0.7300337  
   0.816959200     0.0177834    0.7327170  
   0.818959100     0.1343518    0.7173237  
   0.820959000     0.2472908    0.6832225  
   0.822958900     0.3542740    0.6313301  
   0.824958800     0.4520333    0.5628577  
   0.826958700     0.5379885    0.4787956  
   0.828958600     0.6097445    0.3813516  
   0.830958500     0.6647577    0.2731978  
   0.832958400     0.7015045    0.1568882  
   0.834958300     0.7185721    0.0359529  
   0.836958200     0.7153915   -0.0860505  
   0.838958100     0.6921957   -0.2061892  
   0.840958000     0.6492894   -0.3208533  
   0.842957900     0.5878646   -0.4272757  
   0.844957800     0.5098487   -0.5217811  
   0.846957700     0.4174262   -0.6020100  
   0.848957600     0.3130907   -0.6655221  
   0.850957500     0.2003389   -0.7109044  
   0.852957400     0.0820992   -0.7367403  
   0.854957300    -0.0378924   -0.7432162  
   0.856957200    -0.1566461   -0.7300400  
   0.858957100    -0.2706088   -0.6983052  
   0.860957000    -0.3771229   -0.6493071  
   0.862956900    -0.4736031   -0.5849783  
   0.864956800    -0.5581035   -0.5075800  
   0.866956700    -0.6287369   -0.4189222  
   0.868956600    -0.6843591   -0.3212985  
   0.870956500    -0.7247846   -0.2172184  
   0.872956400    -0.7491949   -0.1086150  
   0.874956300    -0.7566563    0.0015524  
   0.876956200    -0.7480565    0.1122767  
   0.878956100    -0.7226305    0.2199607  
   0.880956000    -0.6818904    0.3229610  
   0.882955900    -0.6262769    0.4190125  
   0.884955800    -0.5566141    0.5059750  
   0.886955700    -0.4746352    0.5820948  
   0.888955600    -0.3819213    0.6449990  
   0.890955500    -0.2800502    0.6938823  
   0.892955400    -0.1717116    0.7269950  
   0.894955300    -0.0588583    0.7431986  
