! MS46122B
! 2250307/22442219
! 7/24/2025 7:47:52 AM
! C:\USERS\SPARKY\DOCUMENTS\VNA_DATA\JULY24_2025\3K\PORT3_MOS1_REPEAT1.S1P
! CHANNEL.1
! TR.MEASUREMENT
! RAW.DATA
# GHZ S RI R 50.0
! FREQ.GHZ         S11RE         S11IM         
!; PortSelection: Port_1
   0.001000000     1.0454240   -0.0719549  
   0.002999900     0.9637527   -0.1943165  
   0.004999800     0.9037953   -0.2993479  
   0.006999700     0.8366867   -0.3969273  
   0.008999600     0.7583095   -0.4922939  
   0.010999500     0.6658021   -0.5831457  
   0.012999400     0.5534084   -0.6668743  
   0.014999300     0.4154217   -0.7377479  
   0.016999200     0.2454240   -0.7835933  
   0.018999100     0.0384074   -0.7851927  
   0.020999000    -0.1986750   -0.7099738  
   0.022998900    -0.4317100   -0.5173263  
   0.024998800    -0.5571157   -0.1914947  
   0.026998700    -0.5336806    0.2153363  
   0.028998600    -0.2756965    0.5412278  
   0.030998500     0.0851147    0.6764747  
   0.032998400     0.3870741    0.6225967  
   0.034998300     0.6531504    0.4982895  
   0.036998200     0.8019382    0.3247753  
   0.038998100     0.8826575    0.1499641  
   0.040998000     0.9147732   -0.0123188  
   0.042997900     0.9135846   -0.1578669  
   0.044997800     0.8626192   -0.2609869  
   0.046997700     0.8471930   -0.3986218  
   0.048997600     0.7939227   -0.4963802  
   0.050997500     0.7314401   -0.5807793  
   0.052997400     0.6628340   -0.6532855  
   0.054997300     0.5890060   -0.7146549  
   0.056997200     0.5098440   -0.7673530  
   0.058997100     0.4278857   -0.8097871  
   0.060997000     0.3425388   -0.8436907  
   0.062996900     0.2547067   -0.8681706  
   0.064996800     0.1642447   -0.8831142  
   0.066996700     0.0714687   -0.8890746  
   0.068996600    -0.0225462   -0.8844965  
   0.070996500    -0.1174620   -0.8703405  
   0.072996400    -0.2130798   -0.8435772  
   0.074996300    -0.3076228   -0.8043710  
   0.076996200    -0.3999976   -0.7524720  
   0.078996100    -0.4880055   -0.6863380  
   0.080996000    -0.5701581   -0.6054906  
   0.082995900    -0.6435126   -0.5094163  
   0.084995800    -0.7041832   -0.3987353  
   0.086995700    -0.7503505   -0.2736737  
   0.088995600    -0.7764987   -0.1359325  
   0.090995500    -0.7792045    0.0116295  
   0.092995400    -0.7543960    0.1650823  
   0.094995300    -0.6977938    0.3176258  
   0.096995200    -0.6078056    0.4621630  
   0.098995100    -0.4854214    0.5888986  
   0.100995000    -0.3327321    0.6902764  
   0.102994900    -0.1596978    0.7553675  
   0.104994800     0.0250663    0.7803633  
   0.106994700     0.2099367    0.7620112  
   0.108994600     0.3843954    0.7044377  
   0.110994500     0.5385984    0.6118152  
   0.112994400     0.6652369    0.4915699  
   0.114994300     0.7605684    0.3530509  
   0.116994200     0.8237408    0.2042069  
   0.118994100     0.8557450    0.0529450  
   0.120994000     0.8608698   -0.0948006  
   0.122993900     0.8393376   -0.2348649  
   0.124993800     0.7967122   -0.3631256  
   0.126993700     0.7364377   -0.4781997  
   0.128993600     0.6614958   -0.5779567  
   0.130993500     0.5764267   -0.6629550  
   0.132993400     0.4833499   -0.7329023  
   0.134993300     0.3839723   -0.7875921  
   0.136993200     0.2809262   -0.8273927  
   0.138993100     0.1755285   -0.8531265  
   0.140993000     0.0691271   -0.8644537  
   0.142992900    -0.0367676   -0.8619537  
   0.144992800    -0.1411247   -0.8478875  
   0.146992700    -0.2424704   -0.8195232  
   0.148992600    -0.3399658   -0.7782282  
   0.150992500    -0.4306162   -0.7235870  
   0.152992400    -0.5161454   -0.6581554  
   0.154992300    -0.5930642   -0.5815549  
   0.156992200    -0.6604531   -0.4936479  
   0.158992100    -0.7166805   -0.3956510  
   0.160992000    -0.7598640   -0.2883848  
   0.162991900    -0.7886067   -0.1731235  
   0.164991800    -0.8007321   -0.0517948  
   0.166991700    -0.7944658    0.0736024  
   0.168991600    -0.7685179    0.2001561  
   0.170991500    -0.7214249    0.3252121  
   0.172991400    -0.6525477    0.4440747  
   0.174991300    -0.5628929    0.5527732  
   0.176991200    -0.4523439    0.6472920  
   0.178991100    -0.3238693    0.7227190  
   0.180991000    -0.1815458    0.7755670  
   0.182990900    -0.0288887    0.8010065  
   0.184990800     0.1281920    0.7972608  
   0.186990700     0.2828968    0.7637491  
   0.188990600     0.4074820    0.7130547  
   0.190990500     0.5559111    0.6150535  
   0.192990400     0.6696044    0.5021756  
   0.194990300     0.7569081    0.3740374  
   0.196990200     0.8182898    0.2348584  
   0.198990100     0.8524664    0.0902526  
   0.200990000     0.8606295   -0.0557908  
   0.202989900     0.8434859   -0.1973929  
   0.204989800     0.8037633   -0.3308182  
   0.206989700     0.7456620   -0.4523924  
   0.208989600     0.6694402   -0.5598094  
   0.210989500     0.5798584   -0.6519277  
   0.212989400     0.4791707   -0.7276405  
   0.214989300     0.3709635   -0.7857432  
   0.216989200     0.2580346   -0.8266525  
   0.218989100     0.1425199   -0.8503554  
   0.220989000     0.0263391   -0.8576352  
   0.222988900    -0.0887082   -0.8484682  
   0.224988800    -0.2005307   -0.8231615  
   0.226988700    -0.3069168   -0.7834090  
   0.228988600    -0.4061522   -0.7296499  
   0.230988500    -0.4972382   -0.6626714  
   0.232988400    -0.5775071   -0.5822490  
   0.234988300    -0.6477094   -0.4916659  
   0.236988200    -0.7048042   -0.3905233  
   0.238988100    -0.7474653   -0.2809418  
   0.240988000    -0.7737324   -0.1651756  
   0.242987900    -0.7832112   -0.0450537  
   0.244987800    -0.7739546    0.0773589  
   0.246987700    -0.7452863    0.1998851  
   0.248987600    -0.6963567    0.3193462  
   0.250987500    -0.6270421    0.4319572  
   0.252987400    -0.5386680    0.5332543  
   0.254987300    -0.4323865    0.6197894  
   0.256987200    -0.3104302    0.6877711  
   0.258987100    -0.1763995    0.7359466  
   0.260987000    -0.0329603    0.7579979  
   0.262986900     0.1139935    0.7535675  
   0.264986800     0.2594705    0.7219085  
   0.266986700     0.3971472    0.6634765  
   0.268986600     0.5215075    0.5801616  
   0.270986500     0.6273391    0.4760426  
   0.272986400     0.7118998    0.3551425  
   0.274986300     0.7718833    0.2224651  
   0.276986200     0.8066148    0.0829774  
   0.278986100     0.8160363   -0.0587837  
   0.280986000     0.8006089   -0.1970392  
   0.282985900     0.7622149   -0.3282763  
   0.284985800     0.7039545   -0.4480114  
   0.286985700     0.6289536   -0.5542632  
   0.288985600     0.5406110   -0.6444390  
   0.290985500     0.4422078   -0.7178419  
   0.292985400     0.3363063   -0.7740512  
   0.294985300     0.2257656   -0.8135214  
   0.296985200     0.1122485   -0.8360438  
   0.298985100    -0.0016610   -0.8424723  
   0.300985000    -0.1140356   -0.8329619  
   0.302984900    -0.2223527   -0.8083292  
   0.304984800    -0.3250259   -0.7697670  
   0.306984700    -0.4206782   -0.7180269  
   0.308984600    -0.5076449   -0.6554351  
   0.310984500    -0.5850357   -0.5826510  
   0.312984400    -0.6525557   -0.4994337  
   0.314984300    -0.7090622   -0.4080968  
   0.316984200    -0.7533636   -0.3089350  
   0.318984100    -0.7844113   -0.2024320  
   0.320984000    -0.8007135   -0.0901988  
   0.322983900    -0.8004269    0.0262341  
   0.324983800    -0.7819840    0.1434322  
   0.326983700    -0.7439411    0.2578878  
   0.328983600    -0.6868541    0.3655088  
   0.330983500    -0.6122715    0.4616120  
   0.332983400    -0.5244259    0.5431374  
   0.334983300    -0.4258757    0.6091273  
   0.336983200    -0.3203182    0.6597004  
   0.338983100    -0.2088871    0.6943974  
   0.340983000    -0.0936397    0.7134219  
   0.342982900     0.0247547    0.7157083  
   0.344982800     0.1442751    0.6998225  
   0.346982700     0.2625478    0.6655229  
   0.348982600     0.3747580    0.6104430  
   0.350982500     0.4788431    0.5376582  
   0.352982400     0.5705345    0.4471619  
   0.354982300     0.6483797    0.3367966  
   0.356982200     0.7091003    0.2013765  
   0.358982100     0.7422928    0.0560238  
   0.360982000     0.7462526   -0.0929167  
   0.362981900     0.7207763   -0.2397704  
   0.364981800     0.6672654   -0.3789396  
   0.366981700     0.5876479   -0.5045410  
   0.368981600     0.4856449   -0.6115385  
   0.370981500     0.3654849   -0.6967266  
   0.372981400     0.2321615   -0.7568126  
   0.374981300     0.0908512   -0.7902333  
   0.376981200     0.2068065   -0.7654917  
   0.378981100     0.0671374   -0.7928504  
   0.380981000    -0.0744278   -0.7940897  
   0.382980900    -0.1997609   -0.7729213  
   0.384980800    -0.3134071   -0.7346502  
   0.386980700    -0.4187249   -0.6794366  
   0.388980600    -0.5143758   -0.6089858  
   0.390980500    -0.5967834   -0.5263250  
   0.392980400    -0.6655397   -0.4332196  
   0.394980300    -0.7192440   -0.3318584  
   0.396980200    -0.7574118   -0.2237595  
   0.398980100    -0.7796484   -0.1112793  
   0.400980000    -0.7850835    0.0030251  
   0.402979900    -0.7736799    0.1180819  
   0.404979800    -0.7459012    0.2304978  
   0.406979700    -0.7011160    0.3381058  
   0.408979600    -0.6406824    0.4389085  
   0.410979500    -0.5646099    0.5310401  
   0.412979400    -0.4744773    0.6117262  
   0.414979300    -0.3706800    0.6773109  
   0.416979200    -0.2568775    0.7278290  
   0.418979100    -0.1356293    0.7602772  
   0.420979000    -0.0091933    0.7730479  
   0.422978900     0.1194549    0.7652223  
   0.424978800     0.2468914    0.7361955  
   0.426978700     0.3688375    0.6859099  
   0.428978600     0.4816238    0.6150370  
   0.430978500     0.5813224    0.5262759  
   0.432978400     0.6645063    0.4215517  
   0.434978300     0.7302104    0.3042053  
   0.436978200     0.7740338    0.1775410  
   0.438978100     0.7959002    0.0450787  
   0.440978000     0.7946483   -0.0887440  
   0.442977900     0.7710544   -0.2198352  
   0.444977800     0.7262275   -0.3440316  
   0.446977700     0.6616551   -0.4581203  
   0.448977600     0.5799970   -0.5588720  
   0.450977500     0.4841050   -0.6443653  
   0.452977400     0.3762313   -0.7120315  
   0.454977300     0.2594120   -0.7613268  
   0.456977200     0.1372415   -0.7908263  
   0.458977100     0.0134885   -0.8004636  
   0.460977000    -0.1092488   -0.7904978  
   0.462976900    -0.2271085   -0.7622981  
   0.464976800    -0.3382658   -0.7160653  
   0.466976700    -0.4403344   -0.6541833  
   0.468976600    -0.5305547   -0.5782133  
   0.470976500    -0.6083056   -0.4894271  
   0.472976400    -0.6715837   -0.3906074  
   0.474976300    -0.7187856   -0.2833412  
   0.476976200    -0.7492388   -0.1706899  
   0.478976100    -0.7622367   -0.0545118  
   0.480976000    -0.7574526    0.0615259  
   0.482975900    -0.7348115    0.1760986  
   0.484975800    -0.6950108    0.2865305  
   0.486975700    -0.6380190    0.3903449  
   0.488975600    -0.5647767    0.4849784  
   0.490975500    -0.4765652    0.5677983  
   0.492975400    -0.3749352    0.6356775  
   0.494975300    -0.2623314    0.6864431  
   0.496975200    -0.1419720    0.7181747  
   0.498975100    -0.0169775    0.7288305  
   0.500975000     0.1082394    0.7180195  
   0.502974900     0.2299804    0.6854816  
   0.504974800     0.3441743    0.6323082  
   0.506974700     0.4468165    0.5597339  
   0.508974600     0.5349531    0.4704407  
   0.510974500     0.6050101    0.3684121  
   0.512974400     0.6557551    0.2577446  
   0.514974300     0.6846519    0.1431693  
   0.516974200     0.6953580    0.0283093  
   0.518974100     0.6880415   -0.0835376  
   0.520974000     0.6649727   -0.1900386  
   0.522973900     0.6274559   -0.2899059  
   0.524973800     0.5776382   -0.3815723  
   0.526973700     0.5167485   -0.4644069  
   0.528973600     0.4458991   -0.5379782  
   0.530973500     0.3660069   -0.6021756  
   0.532973400     0.2773248   -0.6550506  
   0.534973300     0.1815718   -0.6957800  
   0.536973200     0.0797529   -0.7227046  
   0.538973100    -0.0263270   -0.7346953  
   0.540973000    -0.1339630   -0.7308844  
   0.542972900    -0.2414191   -0.7100984  
   0.544972800    -0.3455671   -0.6726601  
   0.546972700    -0.4443037   -0.6186909  
   0.548972600    -0.5341663   -0.5491005  
   0.550972500    -0.6125259   -0.4653341  
   0.552972400    -0.6770056   -0.3689843  
   0.554972300    -0.7257528   -0.2631857  
   0.556972200    -0.7571461   -0.1502576  
   0.558972100    -0.7704663   -0.0334448  
   0.560972000    -0.7648352    0.0841773  
   0.562971900    -0.7405981    0.1997371  
   0.564971800    -0.6983227    0.3103260  
   0.566971700    -0.6394117    0.4131272  
   0.568971600    -0.5646750    0.5055712  
   0.570971500    -0.4757152    0.5855855  
   0.572971400    -0.3744765    0.6510279  
   0.574971300    -0.2632339    0.7001258  
   0.576971200    -0.1441339    0.7307091  
   0.578971100    -0.0207098    0.7420338  
   0.580971000     0.1038834    0.7328203  
   0.582970900     0.2259929    0.7029479  
   0.584970800     0.3417663    0.6532694  
   0.586970700     0.4485000    0.5846827  
   0.588970600     0.5426698    0.4987245  
   0.590970500     0.6211659    0.3977575  
   0.592970400     0.6814705    0.2845122  
   0.594970300     0.7220012    0.1625287  
   0.596970200     0.7411316    0.0352655  
   0.598970100     0.7384965   -0.0934766  
   0.600970000     0.7137393   -0.2199004  
   0.602969900     0.6680735   -0.3400422  
   0.604969800     0.6028342   -0.4499572  
   0.606969700     0.5203064   -0.5472410  
   0.608969600     0.4229479   -0.6287925  
   0.610969500     0.3138866   -0.6921847  
   0.612969400     0.1970548   -0.7362882  
   0.614969300     0.0758892   -0.7598986  
   0.616969200    -0.0455491   -0.7639631  
   0.618969100    -0.1648123   -0.7482386  
   0.620969000    -0.2784165   -0.7147911  
   0.622968900    -0.3846540   -0.6639676  
   0.624968800    -0.4809394   -0.5982162  
   0.626968700    -0.5658568   -0.5189027  
   0.628968600    -0.6369570   -0.4278378  
   0.630968500    -0.6933433   -0.3276041  
   0.632968400    -0.7339156   -0.2204320  
   0.634968300    -0.7576214   -0.1082063  
   0.636968200    -0.7642566    0.0056119  
   0.638968100    -0.7539926    0.1190426  
   0.640968000    -0.7266250    0.2303706  
   0.642967900    -0.6829254    0.3362103  
   0.644967800    -0.6235880    0.4348255  
   0.646967700    -0.5498815    0.5235918  
   0.648967600    -0.4631128    0.6010262  
   0.650967500    -0.3652214    0.6643469  
   0.652967400    -0.2583702    0.7121387  
   0.654967300    -0.1442132    0.7434261  
   0.656967200    -0.0258717    0.7568717  
   0.658967100     0.0943007    0.7514603  
   0.660967000     0.2134185    0.7267770  
   0.662966900     0.3286259    0.6827505  
   0.664966800     0.4369542    0.6196076  
   0.666966700     0.5344644    0.5389516  
   0.668966600     0.6178229    0.4425910  
   0.670966500     0.6845293    0.3325574  
   0.672966400     0.7331333    0.2134048  
   0.674966300     0.7600413    0.0871805  
   0.676966200     0.7651009   -0.0414385  
   0.678966100     0.7482026   -0.1686592  
   0.680966000     0.7107770   -0.2914907  
   0.682965900     0.6536391   -0.4049813  
   0.684965800     0.5789092   -0.5070881  
   0.686965700     0.4886848   -0.5949631  
   0.688965600     0.3862360   -0.6659365  
   0.690965500     0.2744211   -0.7178791  
   0.692965400     0.1573895   -0.7517508  
   0.694965300     0.0382823   -0.7663656  
   0.696965200    -0.0806180   -0.7618558  
   0.698965100    -0.1962807   -0.7392005  
   0.700965000    -0.3059822   -0.6992099  
   0.702964900    -0.4068874   -0.6435130  
   0.704964800    -0.4978418   -0.5734818  
   0.706964700    -0.5764638   -0.4910619  
   0.708964600    -0.6414120   -0.3979554  
   0.710964500    -0.6920102   -0.2968374  
   0.712964400    -0.7259588   -0.1897227  
   0.714964300    -0.7432700   -0.0784725  
   0.716964200    -0.7441283    0.0335296  
   0.718964100    -0.7279949    0.1440770  
   0.720964000    -0.6954544    0.2509031  
   0.722963900    -0.6470047    0.3519519  
   0.724963800    -0.5837218    0.4447890  
   0.726963700    -0.5064306    0.5271803  
   0.728963600    -0.4167018    0.5970002  
   0.730963500    -0.3162901    0.6519599  
   0.732963400    -0.2079303    0.6907859  
   0.734963300    -0.0939090    0.7120432  
   0.736963200     0.0402599    0.7135494  
   0.738963100     0.1737893    0.6898952  
   0.740963000     0.3008844    0.6415623  
   0.742962900     0.4164255    0.5699475  
   0.744962800     0.5166860    0.4786100  
   0.746962700     0.5980738    0.3701754  
   0.748962600     0.6574197    0.2485776  
   0.750962500     0.5979101    0.3446810  
   0.752962400     0.6526278    0.2234521  
   0.754962300     0.6841205    0.0954429  
   0.756962200     0.6917738   -0.0355163  
   0.758962100     0.6755793   -0.1649340  
   0.760962000     0.6366511   -0.2885003  
   0.762961900     0.5797154   -0.3975842  
   0.764961800     0.5120691   -0.4874142  
   0.766961700     0.4321570   -0.5653377  
   0.768961600     0.3409534   -0.6304514  
   0.770961500     0.2409182   -0.6803564  
   0.772961400     0.1346075   -0.7146643  
   0.774961300     0.0243680   -0.7323581  
   0.776961200    -0.0878494   -0.7326669  
   0.778961100    -0.1992854   -0.7159271  
   0.780961000    -0.3069482   -0.6818207  
   0.782960900    -0.4085438   -0.6311151  
   0.784960800    -0.5014685   -0.5646489  
   0.786960700    -0.5827955   -0.4842914  
   0.788960600    -0.6506383   -0.3919167  
   0.790960500    -0.7031851   -0.2899183  
   0.792960400    -0.7390980   -0.1811018  
   0.794960300    -0.7573018   -0.0679979  
   0.796960200    -0.7579411    0.0464763  
   0.798960100    -0.7405680    0.1597024  
   0.800960000    -0.7060402    0.2679074  
   0.802959900    -0.6550174    0.3705065  
   0.804959800    -0.5888637    0.4632596  
   0.806959700    -0.5092757    0.5451736  
   0.808959600    -0.4175887    0.6137290  
   0.810959500    -0.3164529    0.6671179  
   0.812959400    -0.2074116    0.7046718  
   0.814959300    -0.0940553    0.7248055  
   0.816959200     0.0218394    0.7270046  
   0.818959100     0.1375546    0.7112095  
   0.820959000     0.2494955    0.6767466  
   0.822958900     0.3557696    0.6249986  
   0.824958800     0.4527180    0.5565979  
   0.826958700     0.5379916    0.4727741  
   0.828958600     0.6090617    0.3755904  
   0.830958500     0.6634767    0.2677786  
   0.832958400     0.6996792    0.1519442  
   0.834958300     0.7164081    0.0314337  
   0.836958200     0.7128785   -0.0902340  
   0.838958100     0.6894184   -0.2097773  
   0.840958000     0.6461201   -0.3240755  
   0.842957900     0.5844663   -0.4299659  
   0.844957800     0.5062471   -0.5240576  
   0.846957700     0.4136438   -0.6035001  
   0.848957600     0.3092383   -0.6662795  
   0.850957500     0.1967631   -0.7108858  
   0.852957400     0.0787023   -0.7360086  
   0.854957300    -0.0412082   -0.7417739  
   0.856957200    -0.1593572   -0.7278665  
   0.858957100    -0.2728784   -0.6955612  
   0.860957000    -0.3785895   -0.6461282  
   0.862956900    -0.4741895   -0.5815631  
   0.864956800    -0.5577815   -0.5039900  
   0.866956700    -0.6275661   -0.4152542  
   0.868956600    -0.6823063   -0.3177825  
   0.870956500    -0.7218441   -0.2140324  
   0.872956400    -0.7454978   -0.1058651  
   0.874956300    -0.7522152    0.0037213  
   0.876956200    -0.7429851    0.1136488  
   0.878956100    -0.7172007    0.2204033  
   0.880956000    -0.6762702    0.3226314  
   0.882955900    -0.6204737    0.4177772  
   0.884955800    -0.5508156    0.5037580  
   0.886955700    -0.4690418    0.5789227  
   0.888955600    -0.3767978    0.6410369  
   0.890955500    -0.2756866    0.6892454  
   0.892955400    -0.1681295    0.7217769  
   0.894955300    -0.0561180    0.7376121  
