! MS46122B
! 2250307/22442219
! 7/28/2025 2:04:32 PM
! C:\USERS\SPARKY\DOCUMENTS\VNA_DATA\JULY28_2025\3K\PORT6_MOS1.S1P
! CHANNEL.1
! TR.MEASUREMENT
! RAW.DATA
# GHZ S RI R 50.0
! FREQ.GHZ         S11RE         S11IM         
!; PortSelection: Port_1
   0.001000000     1.0460590   -0.0722562  
   0.002999900     0.9646476   -0.1945298  
   0.004999800     0.9046682   -0.2993986  
   0.006999700     0.8375508   -0.3968889  
   0.008999600     0.7593885   -0.4921618  
   0.010999500     0.6669767   -0.5829375  
   0.012999400     0.5548119   -0.6666502  
   0.014999300     0.4171606   -0.7374627  
   0.016999200     0.2475756   -0.7834303  
   0.018999100     0.0411765   -0.7854561  
   0.020999000    -0.1955480   -0.7106367  
   0.022998900    -0.4281316   -0.5188484  
   0.024998800    -0.5536876   -0.1941933  
   0.026998700    -0.5310385    0.2111265  
   0.028998600    -0.2746610    0.5363531  
   0.030998500     0.0845100    0.6718416  
   0.032998400     0.3856025    0.6189255  
   0.034998300     0.6510306    0.4955867  
   0.036998200     0.7997094    0.3229436  
   0.038998100     0.8805668    0.1488076  
   0.040998000     0.9132417   -0.0129449  
   0.042997900     0.9120162   -0.1581730  
   0.044997800     0.8612871   -0.2611240  
   0.046997700     0.8461051   -0.3985429  
   0.048997600     0.7930859   -0.4961584  
   0.050997500     0.7309136   -0.5805625  
   0.052997400     0.6624515   -0.6529820  
   0.054997300     0.5887837   -0.7143557  
   0.056997200     0.5098565   -0.7671765  
   0.058997100     0.4279807   -0.8097258  
   0.060997000     0.3428081   -0.8436468  
   0.062996900     0.2551246   -0.8683653  
   0.064996800     0.1645702   -0.8834248  
   0.066996700     0.0718818   -0.8894587  
   0.068996600    -0.0221157   -0.8850993  
   0.070996500    -0.1170961   -0.8710347  
   0.072996400    -0.2127297   -0.8444133  
   0.074996300    -0.3074521   -0.8053099  
   0.076996200    -0.3998920   -0.7534252  
   0.078996100    -0.4880955   -0.6872842  
   0.080996000    -0.5705000   -0.6063650  
   0.082995900    -0.6439115   -0.5103388  
   0.084995800    -0.7046559   -0.3994634  
   0.086995700    -0.7508756   -0.2742310  
   0.088995600    -0.7770494   -0.1362523  
   0.090995500    -0.7796326    0.0115553  
   0.092995400    -0.7546089    0.1650742  
   0.094995300    -0.6977330    0.3177938  
   0.096995200    -0.6073208    0.4622627  
   0.098995100    -0.4842813    0.5887657  
   0.100995000    -0.3317418    0.6898575  
   0.102994900    -0.1585470    0.7544923  
   0.104994800     0.0260922    0.7790351  
   0.106994700     0.2110608    0.7602236  
   0.108994600     0.3847758    0.7021388  
   0.110994500     0.5384586    0.6092699  
   0.112994400     0.6645560    0.4890541  
   0.114994300     0.7593724    0.3506874  
   0.116994200     0.8221258    0.2021583  
   0.118994100     0.8538247    0.0513057  
   0.120994000     0.8588075   -0.0961592  
   0.122993900     0.8372635   -0.2357087  
   0.124993800     0.7947428   -0.3636169  
   0.126993700     0.7346532   -0.4783278  
   0.128993600     0.6598513   -0.5778781  
   0.130993500     0.5750375   -0.6627519  
   0.132993400     0.4821847   -0.7326477  
   0.134993300     0.3830106   -0.7872887  
   0.136993200     0.2801194   -0.8271365  
   0.138993100     0.1749891   -0.8528603  
   0.140993000     0.0685861   -0.8643409  
   0.142992900    -0.0371481   -0.8620932  
   0.144992800    -0.1415760   -0.8480143  
   0.146992700    -0.2429697   -0.8197805  
   0.148992600    -0.3404153   -0.7786135  
   0.150992500    -0.4316391   -0.7241319  
   0.152992400    -0.5168822   -0.6585872  
   0.154992300    -0.5939310   -0.5819583  
   0.156992200    -0.6614588   -0.4939321  
   0.158992100    -0.7177981   -0.3957980  
   0.160992000    -0.7610492   -0.2885431  
   0.162991900    -0.7897132   -0.1729027  
   0.164991800    -0.8018056   -0.0513073  
   0.166991700    -0.7953024    0.0741519  
   0.168991600    -0.7692044    0.2010043  
   0.170991500    -0.7218559    0.3262026  
   0.172991400    -0.6525976    0.4450976  
   0.174991300    -0.5625217    0.5537456  
   0.176991200    -0.4517018    0.6481556  
   0.178991100    -0.3227239    0.7232503  
   0.180991000    -0.1799175    0.7757348  
   0.182990900    -0.0271961    0.8003453  
   0.184990800     0.1297724    0.7962723  
   0.186990700     0.2842743    0.7621341  
   0.188990600     0.4085687    0.7109548  
   0.190990500     0.5565056    0.6125178  
   0.192990400     0.6695696    0.4993246  
   0.194990300     0.7562459    0.3711408  
   0.196990200     0.8172136    0.2320800  
   0.198990100     0.8510032    0.0874105  
   0.200990000     0.8585659   -0.0580889  
   0.202989900     0.8410702   -0.1991945  
   0.204989800     0.8010576   -0.3320642  
   0.206989700     0.7428681   -0.4533845  
   0.208989600     0.6668430   -0.5602343  
   0.210989500     0.5772843   -0.6522374  
   0.212989400     0.4767361   -0.7275888  
   0.214989300     0.3685260   -0.7856414  
   0.216989200     0.2558825   -0.8263245  
   0.218989100     0.1404961   -0.8499482  
   0.220989000     0.0244870   -0.8571136  
   0.222988900    -0.0904428   -0.8479460  
   0.224988800    -0.2021059   -0.8225601  
   0.226988700    -0.3085883   -0.7828408  
   0.228988600    -0.4077373   -0.7289720  
   0.230988500    -0.4987472   -0.6620227  
   0.232988400    -0.5790581   -0.5814703  
   0.234988300    -0.6492285   -0.4906549  
   0.236988200    -0.7063113   -0.3894216  
   0.238988100    -0.7487494   -0.2797368  
   0.240988000    -0.7749153   -0.1636823  
   0.242987900    -0.7841636   -0.0434430  
   0.244987800    -0.7746506    0.0791635  
   0.246987700    -0.7456236    0.2018893  
   0.248987600    -0.6962915    0.3212256  
   0.250987500    -0.6265999    0.4339043  
   0.252987400    -0.5377508    0.5349705  
   0.254987300    -0.4309931    0.6212209  
   0.256987200    -0.3088104    0.6888443  
   0.258987100    -0.1743568    0.7364511  
   0.260987000    -0.0308773    0.7579157  
   0.262986900     0.1162535    0.7528494  
   0.264986800     0.2614212    0.7205195  
   0.266986700     0.3988131    0.6614870  
   0.268986600     0.5225959    0.5777764  
   0.270986500     0.6279685    0.4732930  
   0.272986400     0.7117968    0.3524119  
   0.274986300     0.7712010    0.2196077  
   0.276986200     0.8054407    0.0803424  
   0.278986100     0.8144288   -0.0611635  
   0.280986000     0.7986563   -0.1991020  
   0.282985900     0.7599401   -0.3298911  
   0.284985800     0.7016706   -0.4494491  
   0.286985700     0.6265963   -0.5552872  
   0.288985600     0.5381994   -0.6452172  
   0.290985500     0.4398969   -0.7183943  
   0.292985400     0.3340941   -0.7744625  
   0.294985300     0.2234284   -0.8138068  
   0.296985200     0.1101463   -0.8362604  
   0.298985100    -0.0037589   -0.8426278  
   0.300985000    -0.1162243   -0.8330131  
   0.302984900    -0.2245144   -0.8083113  
   0.304984800    -0.3271723   -0.7696319  
   0.306984700    -0.4230084   -0.7177849  
   0.308984600    -0.5100461   -0.6549947  
   0.310984500    -0.5876008   -0.5816745  
   0.312984400    -0.6550133   -0.4984436  
   0.314984300    -0.7115961   -0.4067886  
   0.316984200    -0.7556968   -0.3072786  
   0.318984100    -0.7865137   -0.2004688  
   0.320984000    -0.8024707   -0.0877637  
   0.322983900    -0.8018716    0.0290016  
   0.324983800    -0.7828836    0.1461660  
   0.326983700    -0.7442695    0.2608483  
   0.328983600    -0.6865804    0.3684336  
   0.330983500    -0.6112262    0.4643692  
   0.332983400    -0.5227082    0.5455270  
   0.334983300    -0.4238407    0.6108123  
   0.336983200    -0.3177925    0.6607971  
   0.338983100    -0.2063598    0.6947429  
   0.340983000    -0.0911093    0.7131258  
   0.342982900     0.0269741    0.7147894  
   0.344982800     0.1462940    0.6983430  
   0.346982700     0.2641012    0.6637200  
   0.348982600     0.3759873    0.6082888  
   0.350982500     0.4795082    0.5352083  
   0.352982400     0.5707126    0.4445354  
   0.354982300     0.6480769    0.3340820  
   0.356982200     0.7081843    0.1986978  
   0.358982100     0.7408452    0.0534697  
   0.360982000     0.7443328   -0.0951991  
   0.362981900     0.7184029   -0.2417886  
   0.364981800     0.6645510   -0.3804993  
   0.366981700     0.5847791   -0.5056211  
   0.368981600     0.4826702   -0.6122333  
   0.370981500     0.3624292   -0.6968796  
   0.372981400     0.2292036   -0.7566615  
   0.374981300     0.0878002   -0.7896879  
   0.376981200     0.2041273   -0.7657584  
   0.378981100     0.0643366   -0.7928046  
   0.380981000    -0.0771204   -0.7937618  
   0.382980900    -0.2025597   -0.7724459  
   0.384980800    -0.3162958   -0.7340625  
   0.386980700    -0.4215996   -0.6785881  
   0.388980600    -0.5170648   -0.6079201  
   0.390980500    -0.5994477   -0.5249975  
   0.392980400    -0.6680763   -0.4317166  
   0.394980300    -0.7218408   -0.3298216  
   0.396980200    -0.7596864   -0.2214653  
   0.398980100    -0.7818288   -0.1084922  
   0.400980000    -0.7868629    0.0061626  
   0.402979900    -0.7751551    0.1213852  
   0.404979800    -0.7469035    0.2340184  
   0.406979700    -0.7015296    0.3418293  
   0.408979600    -0.6405649    0.4426010  
   0.410979500    -0.5638787    0.5345984  
   0.412979400    -0.4728763    0.6152884  
   0.414979300    -0.3685575    0.6804180  
   0.416979200    -0.2541870    0.7304196  
   0.418979100    -0.1324671    0.7622343  
   0.420979000    -0.0056678    0.7743404  
   0.422978900     0.1231584    0.7656795  
   0.424978800     0.2506032    0.7357730  
   0.426978700     0.3724200    0.6846445  
   0.428978600     0.4847517    0.6130083  
   0.430978500     0.5839775    0.5235344  
   0.432978400     0.6665245    0.4182116  
   0.434978300     0.7314733    0.3005055  
   0.436978200     0.7745029    0.1736151  
   0.438978100     0.7955558    0.0411195  
   0.440978000     0.7935386   -0.0925575  
   0.442977900     0.7691025   -0.2234821  
   0.444977800     0.7238986   -0.3471878  
   0.446977700     0.6589153   -0.4608571  
   0.448977600     0.5767878   -0.5610321  
   0.450977500     0.4808160   -0.6461293  
   0.452977400     0.3727926   -0.7132858  
   0.454977300     0.2559291   -0.7621653  
   0.456977200     0.1336854   -0.7912939  
   0.458977100     0.0100147   -0.8005043  
   0.460977000    -0.1126067   -0.7902091  
   0.462976900    -0.2304043   -0.7617419  
   0.464976800    -0.3415868   -0.7151415  
   0.466976700    -0.4434830   -0.6530094  
   0.468976600    -0.5336761   -0.5766314  
   0.470976500    -0.6112658   -0.4875859  
   0.472976400    -0.6745493   -0.3882386  
   0.474976300    -0.7213494   -0.2807289  
   0.476976200    -0.7515135   -0.1677092  
   0.478976100    -0.7641221   -0.0511984  
   0.480976000    -0.7589167    0.0651924  
   0.482975900    -0.7357455    0.1800586  
   0.484975800    -0.6953031    0.2905902  
   0.486975700    -0.6376038    0.3944928  
   0.488975600    -0.5637342    0.4891421  
   0.490975500    -0.4747249    0.5716595  
   0.492975400    -0.3723797    0.6391417  
   0.494975300    -0.2592718    0.6893699  
   0.496975200    -0.1382439    0.7204050  
   0.498975100    -0.0129040    0.7302675  
   0.500975000     0.1126734    0.7185745  
   0.502974900     0.2344580    0.6851106  
   0.504974800     0.3485956    0.6309342  
   0.506974700     0.4508477    0.5576417  
   0.508974600     0.5384902    0.4673522  
   0.510974500     0.6080306    0.3646417  
   0.512974400     0.6578742    0.2533714  
   0.514974300     0.6859033    0.1384057  
   0.516974200     0.6957363    0.0232822  
   0.518974100     0.6873922   -0.0886177  
   0.520974000     0.6633530   -0.1949868  
   0.522973900     0.6249787   -0.2945153  
   0.524973800     0.5743650   -0.3853929  
   0.526973700     0.5129395   -0.4678364  
   0.528973600     0.4416391   -0.5407416  
   0.530973500     0.3615241   -0.6041376  
   0.532973400     0.2727530   -0.6563475  
   0.534973300     0.1769093   -0.6964353  
   0.536973200     0.0752730   -0.7227622  
   0.538973100    -0.0306434   -0.7342844  
   0.540973000    -0.1381757   -0.7300376  
   0.542972900    -0.2455035   -0.7089764  
   0.544972800    -0.3494254   -0.6711285  
   0.546972700    -0.4477265   -0.6169645  
   0.548972600    -0.5375918   -0.5468750  
   0.550972500    -0.6158017   -0.4628672  
   0.552972400    -0.6800422   -0.3661608  
   0.554972300    -0.7285298   -0.2599849  
   0.556972200    -0.7595466   -0.1466884  
   0.558972100    -0.7724167   -0.0295130  
   0.560972000    -0.7663102    0.0883840  
   0.562971900    -0.7414011    0.2042093  
   0.564971800    -0.6984777    0.3149335  
   0.566971700    -0.6388255    0.4177859  
   0.568971600    -0.5633188    0.5100675  
   0.570971500    -0.4736105    0.5898266  
   0.572971400    -0.3716154    0.6550396  
   0.574971300    -0.2596568    0.7034323  
   0.576971200    -0.1399806    0.7332240  
   0.578971100    -0.0160412    0.7436367  
   0.580971000     0.1087951    0.7334952  
   0.582970900     0.2309425    0.7025640  
   0.584970800     0.3468539    0.6518960  
   0.586970700     0.4531159    0.5822001  
   0.588970600     0.5465625    0.4954896  
   0.590970500     0.6244211    0.3935767  
   0.592970400     0.6838088    0.2798628  
   0.594970300     0.7233974    0.1572713  
   0.596970200     0.7414606    0.0296328  
   0.598970100     0.7378204   -0.0989083  
   0.600970000     0.7119178   -0.2254046  
   0.602969900     0.6654666   -0.3447885  
   0.604969800     0.5993624   -0.4544216  
   0.606969700     0.5162013   -0.5510947  
   0.608969600     0.4181850   -0.6320465  
   0.610969500     0.3089066   -0.6945823  
   0.612969400     0.1918734   -0.7380084  
   0.614969300     0.0706396   -0.7608487  
   0.616969200    -0.0509971   -0.7643086  
   0.618969100    -0.1700740   -0.7480162  
   0.620969000    -0.2836573   -0.7138414  
   0.622968900    -0.3896771   -0.6624733  
   0.624968800    -0.4857160   -0.5962042  
   0.626968700    -0.5703556   -0.5164239  
   0.628968600    -0.6411529   -0.4247197  
   0.630968500    -0.6971358   -0.3241291  
   0.632968400    -0.7372425   -0.2166404  
   0.634968300    -0.7604550   -0.1040614  
   0.636968200    -0.7665464    0.0100647  
   0.638968100    -0.7557207    0.1237235  
   0.640968000    -0.7277922    0.2351531  
   0.642967900    -0.6835019    0.3410853  
   0.644967800    -0.6235152    0.4397786  
   0.646967700    -0.5491060    0.5283968  
   0.648967600    -0.4615096    0.6058117  
   0.650967500    -0.3629070    0.6688265  
   0.652967400    -0.2551577    0.7162651  
   0.654967300    -0.1403962    0.7468970  
   0.656967200    -0.0214211    0.7595716  
   0.658967100     0.0991500    0.7532410  
   0.660967000     0.2185082    0.7275960  
   0.662966900     0.3338543    0.6826210  
   0.664966800     0.4420359    0.6183417  
   0.666966700     0.5391835    0.5367340  
   0.668966600     0.6220744    0.4394034  
   0.670966500     0.6880307    0.3285035  
   0.672966400     0.7356731    0.2087770  
   0.674966300     0.7616444    0.0818835  
   0.676966200     0.7657222   -0.0473768  
   0.678966100     0.7476588   -0.1745236  
   0.680966000     0.7089618   -0.2971238  
   0.682965900     0.6508868   -0.4104094  
   0.684965800     0.5752286   -0.5120406  
   0.686965700     0.4842262   -0.5993065  
   0.688965600     0.3811297   -0.6694775  
   0.690965500     0.2686971   -0.7206516  
   0.692965400     0.1514172   -0.7535548  
   0.694965300     0.0321386   -0.7673829  
   0.696965200    -0.0868089   -0.7620091  
   0.698965100    -0.2023818   -0.7386350  
   0.700965000    -0.3118679   -0.6978718  
   0.702964900    -0.4125275   -0.6414951  
   0.704964800    -0.5031617   -0.5708196  
   0.706964700    -0.5814132   -0.4878761  
   0.708964600    -0.6459118   -0.3942610  
   0.710964500    -0.6960328   -0.2928359  
   0.712964400    -0.7294876   -0.1851662  
   0.714964300    -0.7462251   -0.0735299  
   0.716964200    -0.7464699    0.0388350  
   0.718964100    -0.7297055    0.1495071  
   0.720964000    -0.6964445    0.2566572  
   0.722963900    -0.6472526    0.3576417  
   0.724963800    -0.5831018    0.4505650  
   0.726963700    -0.5051304    0.5326833  
   0.728963600    -0.4146105    0.6022240  
   0.730963500    -0.3135438    0.6566750  
   0.732963400    -0.2044048    0.6949925  
   0.734963300    -0.0897115    0.7155122  
   0.736963200     0.0450580    0.7161385  
   0.738963100     0.1790078    0.6913429  
   0.740963000     0.3060253    0.6418630  
   0.742962900     0.4219721    0.5692626  
   0.744962800     0.5216611    0.4764366  
   0.746962700     0.6022982    0.3669340  
   0.748962600     0.6607026    0.2444631  
   0.750962500     0.6017250    0.3407738  
   0.752962400     0.6554362    0.2187878  
   0.754962300     0.6857447    0.0901731  
   0.756962200     0.6921439   -0.0411688  
   0.758962100     0.6746894   -0.1705904  
   0.760962000     0.6345444   -0.2939028  
   0.762961900     0.5765331   -0.4025487  
   0.764961800     0.5079784   -0.4917259  
   0.766961700     0.4273137   -0.5690784  
   0.768961600     0.3355362   -0.6333705  
   0.770961500     0.2352056   -0.6824991  
   0.772961400     0.1286423   -0.7159741  
   0.774961300     0.0181136   -0.7328625  
   0.776961200    -0.0940661   -0.7323969  
   0.778961100    -0.2053960   -0.7149068  
   0.780961000    -0.3130961   -0.6801475  
   0.782960900    -0.4142995   -0.6286403  
   0.784960800    -0.5069616   -0.5615047  
   0.786960700    -0.5878999   -0.4805431  
   0.788960600    -0.6553109   -0.3875367  
   0.790960500    -0.7073025   -0.2852387  
   0.792960400    -0.7427053   -0.1757070  
   0.794960300    -0.7602365   -0.0622138  
   0.796960200    -0.7601885    0.0525699  
   0.798960100    -0.7420661    0.1660449  
   0.800960000    -0.7066679    0.2745219  
   0.802959900    -0.6548128    0.3771323  
   0.804959800    -0.5879003    0.4699837  
   0.806959700    -0.5071997    0.5515051  
   0.808959600    -0.4146137    0.6196916  
   0.810959500    -0.3125955    0.6725675  
   0.812959400    -0.2027418    0.7094130  
   0.814959300    -0.0887190    0.7287519  
   0.816959200     0.0278763    0.7298905  
   0.818959100     0.1439510    0.7129743  
   0.820959000     0.2561803    0.6773821  
   0.822958900     0.3622667    0.6242791  
   0.824958800     0.4589550    0.5545729  
   0.826958700     0.5436737    0.4695908  
   0.828958600     0.6140133    0.3713373  
   0.830958500     0.6676118    0.2623706  
   0.832958400     0.7026260    0.1460215  
   0.834958300     0.7181489    0.0250092  
   0.836958200     0.7133186   -0.0969488  
   0.838958100     0.6885773   -0.2165442  
   0.840958000     0.6440437   -0.3305751  
   0.842957900     0.5811258   -0.4361044  
   0.844957800     0.5018525   -0.5295111  
   0.846957700     0.4083206   -0.6081801  
   0.848957600     0.3033022   -0.6700135  
   0.850957500     0.1901409   -0.7136769  
   0.852957400     0.0718633   -0.7378019  
   0.854957300    -0.0481569   -0.7425689  
   0.856957200    -0.1666057   -0.7276936  
   0.858957100    -0.2797952   -0.6944035  
   0.860957000    -0.3854079   -0.6439742  
   0.862956900    -0.4805768   -0.5786680  
   0.864956800    -0.5639241   -0.5000988  
   0.866956700    -0.6332346   -0.4107622  
   0.868956600    -0.6872188   -0.3127613  
   0.870956500    -0.7262138   -0.2085208  
   0.872956400    -0.7491670   -0.0997605  
   0.874956300    -0.7552282    0.0102440  
   0.876956200    -0.7452307    0.1205361  
   0.878956100    -0.7185829    0.2277037  
   0.880956000    -0.6766832    0.3297903  
   0.882955900    -0.6199260    0.4250893  
   0.884955800    -0.5494706    0.5110263  
   0.886955700    -0.4665281    0.5858639  
   0.888955600    -0.3731885    0.6475754  
   0.890955500    -0.2710551    0.6951272  
   0.892955400    -0.1626066    0.7268745  
   0.894955300    -0.0496988    0.7417092  
