! MS46122B
! 2250307/22442219
! 7/24/2025 7:39:43 AM
! C:\USERS\SPARKY\DOCUMENTS\VNA_DATA\JULY24_2025\3K\PORT4_MOS2.S1P
! CHANNEL.1
! TR.MEASUREMENT
! RAW.DATA
# GHZ S RI R 50.0
! FREQ.GHZ         S11RE         S11IM         
!; PortSelection: Port_1
   0.001000000     1.0451950   -0.0720856  
   0.002999900     0.9638467   -0.1943958  
   0.004999800     0.9036950   -0.2993587  
   0.006999700     0.8363957   -0.3969489  
   0.008999600     0.7580148   -0.4922409  
   0.010999500     0.6652599   -0.5829790  
   0.012999400     0.5526066   -0.6665944  
   0.014999300     0.4141446   -0.7371413  
   0.016999200     0.2438637   -0.7822155  
   0.018999100     0.0365227   -0.7826562  
   0.020999000    -0.2003601   -0.7052555  
   0.022998900    -0.4314922   -0.5098495  
   0.024998800    -0.5524967   -0.1823690  
   0.026998700    -0.5223338    0.2226163  
   0.028998600    -0.2606298    0.5418565  
   0.030998500     0.0986989    0.6700152  
   0.032998400     0.3961413    0.6125498  
   0.034998300     0.6578131    0.4865215  
   0.036998200     0.8031487    0.3134052  
   0.038998100     0.8814187    0.1398375  
   0.040998000     0.9118835   -0.0211678  
   0.042997900     0.9095626   -0.1654791  
   0.044997800     0.8580946   -0.2673375  
   0.046997700     0.8418569   -0.4041938  
   0.048997600     0.7881004   -0.5010369  
   0.050997500     0.7254430   -0.5845784  
   0.052997400     0.6565629   -0.6563388  
   0.054997300     0.5824245   -0.7170213  
   0.056997200     0.5030503   -0.7690130  
   0.058997100     0.4208914   -0.8108528  
   0.060997000     0.3354298   -0.8439845  
   0.062996900     0.2474647   -0.8677921  
   0.064996800     0.1567929   -0.8819512  
   0.066996700     0.0638937   -0.8870500  
   0.068996600    -0.0301867   -0.8815836  
   0.070996500    -0.1253449   -0.8663949  
   0.072996400    -0.2206970   -0.8385297  
   0.074996300    -0.3150789   -0.7981218  
   0.076996200    -0.4071067   -0.7448673  
   0.078996100    -0.4945325   -0.6772059  
   0.080996000    -0.5758800   -0.5946456  
   0.082995900    -0.6479791   -0.4971762  
   0.084995800    -0.7070184   -0.3846978  
   0.086995700    -0.7510738   -0.2582628  
   0.088995600    -0.7745012   -0.1193197  
   0.090995500    -0.7739009    0.0290795  
   0.092995400    -0.7453111    0.1825977  
   0.094995300    -0.6845326    0.3343728  
   0.096995200    -0.5901186    0.4768778  
   0.098995100    -0.4635254    0.6003004  
   0.100995000    -0.3079114    0.6970867  
   0.102994900    -0.1329602    0.7567078  
   0.104994800     0.0521681    0.7755826  
   0.106994700     0.2359259    0.7511026  
   0.108994600     0.4073894    0.6880834  
   0.110994500     0.5574276    0.5910659  
   0.112994400     0.6791471    0.4676290  
   0.114994300     0.7693307    0.3270150  
   0.116994200     0.8273447    0.1778978  
   0.118994100     0.8543793    0.0271919  
   0.120994000     0.8552157   -0.1195410  
   0.122993900     0.8299944   -0.2573032  
   0.124993800     0.7842845   -0.3831642  
   0.126993700     0.7214527   -0.4957223  
   0.128993600     0.6445241   -0.5925716  
   0.130993500     0.5580113   -0.6748047  
   0.132993400     0.4638742   -0.7418932  
   0.134993300     0.3638511   -0.7937272  
   0.136993200     0.2602583   -0.8308676  
   0.138993100     0.1545837   -0.8539289  
   0.140993000     0.0483871   -0.8624898  
   0.142992900    -0.0572354   -0.8573551  
   0.144992800    -0.1609331   -0.8409489  
   0.146992700    -0.2615708   -0.8099701  
   0.148992600    -0.3581515   -0.7661294  
   0.150992500    -0.4475744   -0.7091359  
   0.152992400    -0.5311751   -0.6413124  
   0.154992300    -0.6061883   -0.5624033  
   0.156992200    -0.6711994   -0.4721905  
   0.158992100    -0.7247980   -0.3721066  
   0.160992000    -0.7647865   -0.2630279  
   0.162991900    -0.7899572   -0.1462687  
   0.164991800    -0.7980061   -0.0235454  
   0.166991700    -0.7872955    0.1020244  
   0.168991600    -0.7564839    0.2284688  
   0.170991500    -0.7043242    0.3523505  
   0.172991400    -0.6302485    0.4691270  
   0.174991300    -0.5353732    0.5748806  
   0.176991200    -0.4200695    0.6647471  
   0.178991100    -0.2879303    0.7347025  
   0.180991000    -0.1424037    0.7810684  
   0.182990900     0.0116157    0.7989261  
   0.184990800     0.1685525    0.7876440  
   0.186990700     0.3214334    0.7462445  
   0.188990600     0.4431833    0.6892973  
   0.190990500     0.5860197    0.5840570  
   0.192990400     0.6931575    0.4658362  
   0.194990300     0.7735007    0.3339312  
   0.196990200     0.8270504    0.1927452  
   0.198990100     0.8540278    0.0473105  
   0.200990000     0.8545095   -0.0974703  
   0.202989900     0.8307021   -0.2371288  
   0.204989800     0.7848453   -0.3672229  
   0.206989700     0.7210609   -0.4850236  
   0.208989600     0.6409290   -0.5873142  
   0.210989500     0.5476838   -0.6747028  
   0.212989400     0.4445413   -0.7449204  
   0.214989300     0.3343727   -0.7977900  
   0.216989200     0.2202060   -0.8331917  
   0.218989100     0.1046629   -0.8516216  
   0.220989000    -0.0112753   -0.8534715  
   0.222988900    -0.1251121   -0.8389181  
   0.224988800    -0.2358036   -0.8087388  
   0.226988700    -0.3397357   -0.7640320  
   0.228988600    -0.4365915   -0.7057441  
   0.230988500    -0.5243938   -0.6345765  
   0.232988400    -0.6008652   -0.5502422  
   0.234988300    -0.6667445   -0.4555940  
   0.236988200    -0.7189672   -0.3514992  
   0.238988100    -0.7558759   -0.2394574  
   0.240988000    -0.7760645   -0.1218114  
   0.242987900    -0.7788852   -0.0004507  
   0.244987800    -0.7625282    0.1221349  
   0.246987700    -0.7266008    0.2437954  
   0.248987600    -0.6699552    0.3609309  
   0.250987500    -0.5934983    0.4697775  
   0.252987400    -0.4978155    0.5660987  
   0.254987300    -0.3852158    0.6459441  
   0.256987200    -0.2582567    0.7059646  
   0.258987100    -0.1204273    0.7447042  
   0.260987000     0.0247301    0.7565008  
   0.262986900     0.1718822    0.7412983  
   0.264986800     0.3147518    0.6990572  
   0.266986700     0.4476920    0.6301240  
   0.268986600     0.5651971    0.5381709  
   0.270986500     0.6627777    0.4268287  
   0.272986400     0.7374470    0.3005696  
   0.274986300     0.7872022    0.1645672  
   0.276986200     0.8113838    0.0237401  
   0.278986100     0.8104755   -0.1168424  
   0.280986000     0.7853636   -0.2524448  
   0.282985900     0.7384045   -0.3791145  
   0.284985800     0.6728842   -0.4936948  
   0.286985700     0.5916029   -0.5936232  
   0.288985600     0.4982751   -0.6766195  
   0.290985500     0.3961991   -0.7430166  
   0.292985400     0.2881003   -0.7921354  
   0.294985300     0.1762375   -0.8240235  
   0.296985200     0.0626290   -0.8394877  
   0.298985100    -0.0509786   -0.8390499  
   0.300985000    -0.1620126   -0.8225539  
   0.302984900    -0.2682620   -0.7917265  
   0.304984800    -0.3682442   -0.7471035  
   0.306984700    -0.4604331   -0.6898922  
   0.308984600    -0.5437640   -0.6220875  
   0.310984500    -0.6167687   -0.5442489  
   0.312984400    -0.6794024   -0.4568634  
   0.314984300    -0.7300887   -0.3613653  
   0.316984200    -0.7681078   -0.2585885  
   0.318984100    -0.7919862   -0.1490425  
   0.320984000    -0.8003167   -0.0343817  
   0.322983900    -0.7911731    0.0829771  
   0.324983800    -0.7630143    0.1996039  
   0.326983700    -0.7153229    0.3112224  
   0.328983600    -0.6486093    0.4140960  
   0.330983500    -0.5657438    0.5035135  
   0.332983400    -0.4710422    0.5765990  
   0.334983300    -0.3680632    0.6333941  
   0.336983200    -0.2594173    0.6744730  
   0.338983100    -0.1463661    0.6999307  
   0.340983000    -0.0304707    0.7094713  
   0.342982900     0.0872424    0.7023422  
   0.344982800     0.2049384    0.6771042  
   0.346982700     0.3197504    0.6327649  
   0.348982600     0.4269256    0.5685281  
   0.350982500     0.5243269    0.4872213  
   0.352982400     0.6075005    0.3887487  
   0.354982300     0.6750785    0.2720943  
   0.356982200     0.7232339    0.1316975  
   0.358982100     0.7429002   -0.0156860  
   0.360982000     0.7329011   -0.1641088  
   0.362981900     0.6939061   -0.3074121  
   0.364981800     0.6276521   -0.4405468  
   0.366981700     0.5369542   -0.5574784  
   0.368981600     0.4259304   -0.6540576  
   0.370981500     0.2989545   -0.7269834  
   0.372981400     0.1612023   -0.7739698  
   0.374981300     0.0183331   -0.7940140  
   0.376981200     0.1369905   -0.7800324  
   0.378981100    -0.0043037   -0.7943541  
   0.380981000    -0.1443760   -0.7826075  
   0.382980900    -0.2668484   -0.7505625  
   0.384980800    -0.3762159   -0.7022842  
   0.386980700    -0.4758518   -0.6379217  
   0.388980600    -0.5642992   -0.5595942  
   0.390980500    -0.6390778   -0.4698077  
   0.392980400    -0.6989652   -0.3710103  
   0.394980300    -0.7434927   -0.2650054  
   0.396980200    -0.7717005   -0.1538956  
   0.398980100    -0.7836267   -0.0395487  
   0.400980000    -0.7785327    0.0757579  
   0.402979900    -0.7567258    0.1896886  
   0.404979800    -0.7178148    0.2996613  
   0.406979700    -0.6627584    0.4033304  
   0.408979600    -0.5924214    0.4985369  
   0.410979500    -0.5068643    0.5835138  
   0.412979400    -0.4077792    0.6558768  
   0.414979300    -0.2968566    0.7109546  
   0.416979200    -0.1773881    0.7497462  
   0.418979100    -0.0520168    0.7694941  
   0.420979000     0.0764554    0.7686127  
   0.422978900     0.2045693    0.7466758  
   0.424978800     0.3290369    0.7031436  
   0.426978700     0.4454722    0.6385515  
   0.428978600     0.5502560    0.5549951  
   0.430978500     0.6393456    0.4544826  
   0.432978400     0.7101818    0.3400665  
   0.434978300     0.7616072    0.2153929  
   0.436978200     0.7898188    0.0840615  
   0.438978100     0.7954966   -0.0502724  
   0.440978000     0.7783273   -0.1828889  
   0.442977900     0.7390721   -0.3098146  
   0.444977800     0.6795685   -0.4272030  
   0.446977700     0.6019182   -0.5323068  
   0.448977600     0.5094139   -0.6220931  
   0.450977500     0.4044802   -0.6947482  
   0.452977400     0.2899070   -0.7488892  
   0.454977300     0.1688860   -0.7835425  
   0.456977200     0.0447431   -0.7984162  
   0.458977100    -0.0789786   -0.7932315  
   0.460977000    -0.1988907   -0.7692863  
   0.462976900    -0.3120380   -0.7274095  
   0.464976800    -0.4164113   -0.6687878  
   0.466976700    -0.5103622   -0.5954244  
   0.468976600    -0.5912480   -0.5093053  
   0.470976500    -0.6580324   -0.4122934  
   0.472976400    -0.7089937   -0.3062260  
   0.474976300    -0.7433500   -0.1939138  
   0.476976200    -0.7597901   -0.0779349  
   0.478976100    -0.7587531    0.0394612  
   0.480976000    -0.7395849    0.1551629  
   0.482975900    -0.7026075    0.2665715  
   0.484975800    -0.6487362    0.3720596  
   0.486975700    -0.5780895    0.4688946  
   0.488975600    -0.4922357    0.5541535  
   0.490975500    -0.3926815    0.6248113  
   0.492975400    -0.2816788    0.6791560  
   0.494975300    -0.1621923    0.7144635  
   0.496975200    -0.0371279    0.7290705  
   0.498975100     0.0890325    0.7218999  
   0.500975000     0.2125161    0.6928392  
   0.502974900     0.3287318    0.6428802  
   0.504974800     0.4342075    0.5730159  
   0.506974700     0.5253315    0.4862467  
   0.508974600     0.5992123    0.3849490  
   0.510974500     0.6535988    0.2741100  
   0.512974400     0.6873475    0.1577756  
   0.514974300     0.6992779    0.0408035  
   0.516974200     0.6935247   -0.0737088  
   0.518974100     0.6709348   -0.1825486  
   0.520974000     0.6331919   -0.2840223  
   0.522973900     0.5828512   -0.3771499  
   0.524973800     0.5212996   -0.4606182  
   0.526973700     0.4497553   -0.5348860  
   0.528973600     0.3700345   -0.5983234  
   0.530973500     0.2815588   -0.6510335  
   0.532973400     0.1865845   -0.6914944  
   0.534973300     0.0858331   -0.7186850  
   0.536973200    -0.0199061   -0.7315804  
   0.538973100    -0.1270401   -0.7288445  
   0.540973000    -0.2338375   -0.7090480  
   0.542972900    -0.3379981   -0.6732199  
   0.544972800    -0.4365619   -0.6209281  
   0.546972700    -0.5269818   -0.5524760  
   0.548972600    -0.6065108   -0.4700554  
   0.550972500    -0.6720731   -0.3747973  
   0.552972400    -0.7221941   -0.2695271  
   0.554972300    -0.7548965   -0.1567488  
   0.556972200    -0.7693298   -0.0397626  
   0.558972100    -0.7648762    0.0786917  
   0.560972000    -0.7413085    0.1951724  
   0.562971900    -0.6995712    0.3066487  
   0.564971800    -0.6405951    0.4103341  
   0.566971700    -0.5657696    0.5037377  
   0.568971600    -0.4765723    0.5843230  
   0.570971500    -0.3751000    0.6501368  
   0.572971400    -0.2638340    0.6994655  
   0.574971300    -0.1448690    0.7302840  
   0.576971200    -0.0210208    0.7414740  
   0.578971100     0.1040802    0.7323936  
   0.580971000     0.2265859    0.7023525  
   0.582970900     0.3432319    0.6520516  
   0.584970800     0.4503073    0.5828201  
   0.586970700     0.5443233    0.4961803  
   0.588970600     0.6228522    0.3947731  
   0.590970500     0.6829237    0.2808490  
   0.592970400     0.7230855    0.1582066  
   0.594970300     0.7416054    0.0305023  
   0.596970200     0.7382333   -0.0985990  
   0.598970100     0.7128519   -0.2247477  
   0.600970000     0.6662921   -0.3450401  
   0.602969900     0.6004126   -0.4546656  
   0.604969800     0.5169634   -0.5513777  
   0.606969700     0.4193300   -0.6325642  
   0.608969600     0.3099293   -0.6951413  
   0.610969500     0.1923723   -0.7387897  
   0.612969400     0.0702932   -0.7621371  
   0.614969300    -0.0519734   -0.7654108  
   0.616969200    -0.1718985   -0.7487797  
   0.618969100    -0.2859103   -0.7138672  
   0.620969000    -0.3919124   -0.6623207  
   0.622968900    -0.4879659   -0.5953523  
   0.624968800    -0.5722038   -0.5150976  
   0.626968700    -0.6426963   -0.4232081  
   0.628968600    -0.6983199   -0.3222351  
   0.630968500    -0.7378808   -0.2142340  
   0.632968400    -0.7608304   -0.1019008  
   0.634968300    -0.7664919    0.0126785  
   0.636968200    -0.7551218    0.1265715  
   0.638968100    -0.7266502    0.2378177  
   0.640968000    -0.6817060    0.3440414  
   0.642967900    -0.6211329    0.4424505  
   0.644967800    -0.5460287    0.5309982  
   0.646967700    -0.4577686    0.6081467  
   0.648967600    -0.3582617    0.6708189  
   0.650967500    -0.2500110    0.7176022  
   0.652967400    -0.1347220    0.7476205  
   0.654967300    -0.0151987    0.7595058  
   0.656967200     0.1053913    0.7524219  
   0.658967100     0.2245709    0.7260002  
   0.660967000     0.3393323    0.6803053  
   0.662966900     0.4466859    0.6157556  
   0.664966800     0.5431042    0.5337675  
   0.666966700     0.6257704    0.4355735  
   0.668966600     0.6912032    0.3243597  
   0.670966500     0.7371590    0.2031981  
   0.672966400     0.7636588    0.0760029  
   0.674966300     0.7668326   -0.0536229  
   0.676966200     0.7478976   -0.1816527  
   0.678966100     0.7078565   -0.3042057  
   0.680966000     0.6484407   -0.4174283  
   0.682965900     0.5714006   -0.5189491  
   0.684965800     0.4795983   -0.6053115  
   0.686965700     0.3751628   -0.6747167  
   0.688965600     0.2621826   -0.7259560  
   0.690965500     0.1435003   -0.7565923  
   0.692965400     0.0232506   -0.7690162  
   0.694965300    -0.0962689   -0.7620398  
   0.696965200    -0.2115793   -0.7369513  
   0.698965100    -0.3207653   -0.6945263  
   0.700965000    -0.4211098   -0.6364648  
   0.702964900    -0.5108979   -0.5642279  
   0.704964800    -0.5880882   -0.4798841  
   0.706964700    -0.6512423   -0.3853544  
   0.708964600    -0.6992831   -0.2824392  
   0.710964500    -0.7316642   -0.1741326  
   0.712964400    -0.7468435   -0.0618622  
   0.714964300    -0.7448522    0.0512436  
   0.716964200    -0.7259227    0.1622911  
   0.718964100    -0.6903596    0.2693382  
   0.720964000    -0.6388528    0.3700146  
   0.722963900    -0.5725615    0.4618114  
   0.724963800    -0.4925929    0.5425583  
   0.726963700    -0.4003119    0.6104249  
   0.728963600    -0.2980623    0.6633242  
   0.730963500    -0.1872662    0.6988781  
   0.732963400    -0.0724808    0.7169186  
   0.734963300     0.0451667    0.7158360  
   0.736963200     0.1783433    0.6912474  
   0.738963100     0.3057453    0.6416750  
   0.740963000     0.4221130    0.5692201  
   0.742962900     0.5221646    0.4763801  
   0.744962800     0.6031613    0.3666653  
   0.746962700     0.6616622    0.2441811  
   0.748962600     0.6961194    0.1134531  
   0.750962500     0.6570445    0.2176244  
   0.752962400     0.6871751    0.0883972  
   0.754962300     0.6933157   -0.0434630  
   0.756962200     0.6754709   -0.1735851  
   0.758962100     0.6346573   -0.2970886  
   0.760962000     0.5728476   -0.4110138  
   0.762961900     0.4959551   -0.5070273  
   0.764961800     0.4129886   -0.5824849  
   0.766961700     0.3192639   -0.6441425  
   0.768961600     0.2172373   -0.6906292  
   0.770961500     0.1094851   -0.7210833  
   0.772961400    -0.0017042   -0.7348308  
   0.774961300    -0.1139121   -0.7312261  
   0.776961200    -0.2245056   -0.7103922  
   0.778961100    -0.3311229   -0.6727664  
   0.780961000    -0.4310261   -0.6184545  
   0.782960900    -0.5212276   -0.5489749  
   0.784960800    -0.6001897   -0.4657265  
   0.786960700    -0.6649420   -0.3708628  
   0.788960600    -0.7142018   -0.2667938  
   0.790960500    -0.7464098   -0.1560950  
   0.792960400    -0.7610151   -0.0419619  
   0.794960300    -0.7572529    0.0734198  
   0.796960200    -0.7356011    0.1867075  
   0.798960100    -0.6966494    0.2946894  
   0.800960000    -0.6415328    0.3953442  
   0.802959900    -0.5713497    0.4866447  
   0.804959800    -0.4876342    0.5653436  
   0.806959700    -0.3927574    0.6309692  
   0.808959600    -0.2886266    0.6805279  
   0.810959500    -0.1780295    0.7136211  
   0.812959400    -0.0627011    0.7291284  
   0.814959300     0.0540415    0.7264751  
   0.816959200     0.1694325    0.7054664  
   0.818959100     0.2807644    0.6660370  
   0.820959000     0.3847716    0.6092254  
   0.822958900     0.4790927    0.5361912  
   0.824958800     0.5608967    0.4481372  
   0.826958700     0.6278685    0.3472990  
   0.828958600     0.6777053    0.2362468  
   0.830958500     0.7087783    0.1185258  
   0.832958400     0.7198244   -0.0034411  
   0.834958300     0.7105615   -0.1255477  
   0.836958200     0.6814056   -0.2443656  
   0.838958100     0.6325852   -0.3569144  
   0.840958000     0.5657662   -0.4599722  
   0.842957900     0.4828773   -0.5506009  
   0.844957800     0.3863462   -0.6260504  
   0.846957700     0.2789506   -0.6839638  
   0.848957600     0.1640545   -0.7234496  
   0.850957500     0.0446755   -0.7431768  
   0.852957400    -0.0756832   -0.7434399  
   0.854957300    -0.1937747   -0.7241307  
   0.856957200    -0.3058898   -0.6865016  
   0.858957100    -0.4100966   -0.6317933  
   0.860957000    -0.5031635   -0.5622767  
   0.862956900    -0.5837117   -0.4800554  
   0.864956800    -0.6497319   -0.3874876  
   0.866956700    -0.7002865   -0.2870594  
   0.868956600    -0.7344687   -0.1812176  
   0.870956500    -0.7530400   -0.0718516  
   0.872956400    -0.7546890    0.0386157  
   0.874956300    -0.7402698    0.1478000  
   0.876956200    -0.7097525    0.2540142  
   0.878956100    -0.6638377    0.3545673  
   0.880956000    -0.6033601    0.4476479  
   0.882955900    -0.5294257    0.5308306  
   0.884955800    -0.4436225    0.6025144  
   0.886955700    -0.3475670    0.6608312  
   0.888955600    -0.2435572    0.7041211  
   0.890955500    -0.1336829    0.7317078  
   0.892955400    -0.0199454    0.7422302  
   0.894955300     0.0953009    0.7351717  
