! MS46122B
! 2250307/22442219
! 7/27/2025 9:19:09 AM
! C:\USERS\SPARKY\DOCUMENTS\VNA_DATA\JULY27_2025\3K\PORT4_MOS6.S1P
! CHANNEL.1
! TR.MEASUREMENT
! RAW.DATA
# GHZ S RI R 50.0
! FREQ.GHZ         S11RE         S11IM         
!; PortSelection: Port_1
   0.001000000     1.0456970   -0.0731816  
   0.002999900     0.9474104   -0.2227986  
   0.004999800     0.8225987   -0.0971061  
   0.006999700     0.5162692   -0.3851130  
   0.008999600     0.9357996   -0.0398131  
   0.010999500     0.9167930   -0.2458579  
   0.012999400     0.8766139   -0.3507754  
   0.014999300     0.8360762   -0.4315561  
   0.016999200     0.7943993   -0.5023243  
   0.018999100     0.7501061   -0.5677713  
   0.020999000     0.7008604   -0.6286433  
   0.022998900     0.6463630   -0.6847131  
   0.024998800     0.5783092   -0.7005125  
   0.026998700     0.5199040   -0.7822673  
   0.028998600     0.4459557   -0.8227527  
   0.030998500     0.3645128   -0.8563103  
   0.032998400     0.2800925   -0.8472361  
   0.034998300     0.1788157   -0.8968762  
   0.036998200     0.0747450   -0.9009213  
   0.038998100    -0.0354558   -0.8910379  
   0.040998000    -0.1506153   -0.8641560  
   0.042997900    -0.2691698   -0.8187326  
   0.044997800    -0.3634112   -0.7329521  
   0.046997700    -0.5021672   -0.6575475  
   0.048997600    -0.6064023   -0.5370055  
   0.050997500    -0.6926368   -0.3873481  
   0.052997400    -0.7502704   -0.2097076  
   0.054997300    -0.7674384   -0.0085789  
   0.056997200    -0.7319421    0.2064761  
   0.058997100    -0.6358693    0.4151716  
   0.060997000    -0.4794352    0.5968658  
   0.062996900    -0.2726012    0.7284448  
   0.064996800    -0.0371900    0.7945088  
   0.066996700     0.2020105    0.7908069  
   0.068996600     0.4211859    0.7240204  
   0.070996500     0.6052649    0.6091310  
   0.072996400     0.7451369    0.4623577  
   0.074996300     0.8403955    0.2995791  
   0.076996200     0.8943322    0.1333898  
   0.078996100     0.9132748   -0.0272692  
   0.080996000     0.9032579   -0.1781413  
   0.082995900     0.8697070   -0.3156308  
   0.084995800     0.8170579   -0.4377664  
   0.086995700     0.7513937   -0.5447774  
   0.088995600     0.6745822   -0.6369206  
   0.090995500     0.5896269   -0.7150040  
   0.092995400     0.4990814   -0.7795238  
   0.094995300     0.4026086   -0.8302176  
   0.096995200     0.3032709   -0.8677775  
   0.098995100     0.2014443   -0.8925933  
   0.100995000     0.0975732   -0.9051868  
   0.102994900    -0.0062784   -0.9055628  
   0.104994800    -0.1098417   -0.8935069  
   0.106994700    -0.2122296   -0.8685381  
   0.108994600    -0.3119175   -0.8317526  
   0.110994500    -0.4084495   -0.7821442  
   0.112994400    -0.5001093   -0.7198135  
   0.114994300    -0.5850139   -0.6441737  
   0.116994200    -0.6615480   -0.5551841  
   0.118994100    -0.7276417   -0.4535351  
   0.120994000    -0.7819427   -0.3405261  
   0.122993900    -0.8191976   -0.2147536  
   0.124993800    -0.8376778   -0.0797523  
   0.126993700    -0.8342187    0.0622788  
   0.128993600    -0.8047701    0.2071545  
   0.130993500    -0.7501183    0.3510609  
   0.132993400    -0.6674868    0.4881361  
   0.134993300    -0.5566159    0.6115853  
   0.136993200    -0.4197846    0.7144879  
   0.138993100    -0.2611119    0.7899829  
   0.140993000    -0.0873902    0.8323755  
   0.142992900     0.0939765    0.8379792  
   0.144992800     0.2734270    0.8067685  
   0.146992700     0.4413564    0.7374541  
   0.148992600     0.5897852    0.6360725  
   0.150992500     0.7107117    0.5080321  
   0.152992400     0.8025047    0.3626165  
   0.154992300     0.8620897    0.2066498  
   0.156992200     0.8902606    0.0473743  
   0.158992100     0.8888910   -0.1085962  
   0.160992000     0.8607807   -0.2565567  
   0.162991900     0.8096434   -0.3922144  
   0.164991800     0.7394096   -0.5134920  
   0.166991700     0.6535329   -0.6182441  
   0.168991600     0.5560901   -0.7053795  
   0.170991500     0.4495112   -0.7754583  
   0.172991400     0.3369270   -0.8274319  
   0.174991300     0.2209544   -0.8621634  
   0.176991200     0.1029966   -0.8801285  
   0.178991100    -0.0141854   -0.8816484  
   0.180991000    -0.1291228   -0.8680529  
   0.182990900    -0.2405935   -0.8387133  
   0.184990800    -0.3471029   -0.7945144  
   0.186990700    -0.4466836   -0.7364145  
   0.188990600    -0.5184491   -0.6799850  
   0.190990500    -0.6159367   -0.5840138  
   0.192990400    -0.6881389   -0.4866201  
   0.194990300    -0.7447066   -0.3810449  
   0.196990200    -0.7866957   -0.2676770  
   0.198990100    -0.8124095   -0.1469622  
   0.200990000    -0.8203720   -0.0208542  
   0.202989900    -0.8089269    0.1084275  
   0.204989800    -0.7773794    0.2373428  
   0.206989700    -0.7256304    0.3631491  
   0.208989600    -0.6514258    0.4809443  
   0.210989500    -0.5566178    0.5878699  
   0.212989400    -0.4413424    0.6795586  
   0.214989300    -0.3096910    0.7514374  
   0.216989200    -0.1650403    0.7996668  
   0.218989100    -0.0122126    0.8214906  
   0.220989000     0.1447546    0.8145496  
   0.222988900     0.2992224    0.7790019  
   0.224988800     0.4448746    0.7147806  
   0.226988700     0.5758697    0.6248282  
   0.228988600     0.6870153    0.5136535  
   0.230988500     0.7752122    0.3850753  
   0.232988400     0.8368798    0.2440674  
   0.234988300     0.8728188    0.0968015  
   0.236988200     0.8826996   -0.0517541  
   0.238988100     0.8671588   -0.1965581  
   0.240988000     0.8284999   -0.3331449  
   0.242987900     0.7693198   -0.4576969  
   0.244987800     0.6934898   -0.5691184  
   0.246987700     0.6031214   -0.6652820  
   0.248987600     0.5010169   -0.7450991  
   0.250987500     0.3902133   -0.8073275  
   0.252987400     0.2744393   -0.8518592  
   0.254987300     0.1561587   -0.8785660  
   0.256987200     0.0374711   -0.8882414  
   0.258987100    -0.0803920   -0.8830963  
   0.260987000    -0.1953739   -0.8602552  
   0.262986900    -0.3059302   -0.8222891  
   0.264986800    -0.4098793   -0.7696164  
   0.266986700    -0.5055401   -0.7032002  
   0.268986600    -0.5913695   -0.6245000  
   0.270986500    -0.6653733   -0.5347989  
   0.272986400    -0.7269651   -0.4349955  
   0.274986300    -0.7745535   -0.3263243  
   0.276986200    -0.8065340   -0.2101259  
   0.278986100    -0.8219581   -0.0880627  
   0.280986000    -0.8188992    0.0373648  
   0.282985900    -0.7960144    0.1638601  
   0.284985800    -0.7531046    0.2881058  
   0.286985700    -0.6890451    0.4063538  
   0.288985600    -0.6050288    0.5141252  
   0.290985500    -0.5019391    0.6085566  
   0.292985400    -0.3815511    0.6849108  
   0.294985300    -0.2459342    0.7397726  
   0.296985200    -0.0996192    0.7696406  
   0.298985100     0.0529119    0.7712368  
   0.300985000     0.2047355    0.7429428  
   0.302984900     0.3489473    0.6846514  
   0.304984800     0.4782344    0.5990788  
   0.306984700     0.5868545    0.4895164  
   0.308984600     0.6699945    0.3622996  
   0.310984500     0.7242309    0.2241364  
   0.312984400     0.7489571    0.0815531  
   0.314984300     0.7450755   -0.0579343  
   0.316984200     0.7152779   -0.1880429  
   0.318984100     0.6640098   -0.3046745  
   0.320984000     0.5961608   -0.4034421  
   0.322983900     0.5181716   -0.4833167  
   0.324983800     0.4361074   -0.5443024  
   0.326983700     0.3551337   -0.5893182  
   0.328983600     0.2777352   -0.6233447  
   0.330983500     0.2048487   -0.6509384  
   0.332983400     0.1335057   -0.6763245  
   0.334983300     0.0585334   -0.7005243  
   0.336983200    -0.0240793   -0.7213900  
   0.338983100    -0.1165727   -0.7337169  
   0.340983000    -0.2172935   -0.7320378  
   0.342982900    -0.3229552   -0.7119286  
   0.344982800    -0.4277101   -0.6720097  
   0.346982700    -0.5278033   -0.6118137  
   0.348982600    -0.6162748   -0.5329458  
   0.350982500    -0.6919677   -0.4402679  
   0.352982400    -0.7518126   -0.3349889  
   0.354982300    -0.7950438   -0.2154545  
   0.356982200    -0.8193508   -0.0748601  
   0.358982100    -0.8177344    0.0666193  
   0.360982000    -0.7908296    0.2057124  
   0.362981900    -0.7398641    0.3379703  
   0.364981800    -0.6661544    0.4597161  
   0.366981700    -0.5719630    0.5672390  
   0.368981600    -0.4592322    0.6571840  
   0.370981500    -0.3317995    0.7259772  
   0.372981400    -0.1928335    0.7715872  
   0.374981300    -0.0458368    0.7919256  
   0.376981200    -0.1542249    0.7860177  
   0.378981100    -0.0002927    0.7989880  
   0.380981000     0.1546540    0.7829149  
   0.382980900     0.2928728    0.7421986  
   0.384980800     0.4182165    0.6804719  
   0.386980700     0.5318443    0.5975281  
   0.388980600     0.6298302    0.4956156  
   0.390980500     0.7089788    0.3784058  
   0.392980400     0.7661082    0.2498461  
   0.394980300     0.8003442    0.1137870  
   0.396980200     0.8104904   -0.0252547  
   0.398980100     0.7964706   -0.1633433  
   0.400980000     0.7598858   -0.2958173  
   0.402979900     0.7015176   -0.4190798  
   0.404979800     0.6249415   -0.5292783  
   0.406979700     0.5315914   -0.6240854  
   0.408979600     0.4260704   -0.7011412  
   0.410979500     0.3101308   -0.7599218  
   0.412979400     0.1875877   -0.7986040  
   0.414979300     0.0619351   -0.8160247  
   0.416979200    -0.0634823   -0.8145302  
   0.418979100    -0.1854507   -0.7942598  
   0.420979000    -0.3014852   -0.7557003  
   0.422978900    -0.4099899   -0.7005164  
   0.424978800    -0.5077330   -0.6299431  
   0.426978700    -0.5934324   -0.5459829  
   0.428978600    -0.6654060   -0.4505743  
   0.430978500    -0.7217247   -0.3464252  
   0.432978400    -0.7620263   -0.2356476  
   0.434978300    -0.7868951   -0.1208979  
   0.436978200    -0.7931569   -0.0032132  
   0.438978100    -0.7822403    0.1148421  
   0.440978000    -0.7538726    0.2302334  
   0.442977900    -0.7082609    0.3409542  
   0.444977800    -0.6463587    0.4445895  
   0.446977700    -0.5684890    0.5381851  
   0.448977600    -0.4765540    0.6195485  
   0.450977500    -0.3721765    0.6866266  
   0.452977400    -0.2571184    0.7375935  
   0.454977300    -0.1333481    0.7698614  
   0.456977200    -0.0042860    0.7820140  
   0.458977100     0.1265645    0.7731059  
   0.460977000     0.2547614    0.7425998  
   0.462976900     0.3771169    0.6909506  
   0.464976800     0.4897982    0.6190096  
   0.466976700     0.5892872    0.5285783  
   0.468976600     0.6723810    0.4227152  
   0.470976500     0.7367066    0.3041252  
   0.472976400     0.7795364    0.1766826  
   0.474976300     0.8003416    0.0440204  
   0.476976200     0.7985281   -0.0891764  
   0.478976100     0.7749275   -0.2188295  
   0.480976000     0.7308800   -0.3413650  
   0.482975900     0.6681444   -0.4534414  
   0.484975800     0.5896667   -0.5523420  
   0.486975700     0.4972837   -0.6365735  
   0.488975600     0.3940456   -0.7045453  
   0.490975500     0.2832468   -0.7548249  
   0.492975400     0.1675684   -0.7876519  
   0.494975300     0.0495825   -0.8021622  
   0.496975200    -0.0678190   -0.7988595  
   0.498975100    -0.1817089   -0.7789799  
   0.500975000    -0.2904266   -0.7430448  
   0.502974900    -0.3920315   -0.6921961  
   0.504974800    -0.4852512   -0.6280762  
   0.506974700    -0.5680052   -0.5509945  
   0.508974600    -0.6399455   -0.4623773  
   0.510974500    -0.6982031   -0.3642628  
   0.512974400    -0.7420810   -0.2584888  
   0.514974300    -0.7688013   -0.1469552  
   0.516974200    -0.7799664   -0.0317887  
   0.518974100    -0.7737926    0.0844670  
   0.520974000    -0.7497320    0.1995981  
   0.522973900    -0.7076065    0.3104416  
   0.524973800    -0.6477991    0.4141114  
   0.526973700    -0.5713627    0.5077419  
   0.528973600    -0.4804481    0.5879993  
   0.530973500    -0.3774118    0.6525838  
   0.532973400    -0.2651799    0.6994128  
   0.534973300    -0.1472734    0.7275304  
   0.536973200    -0.0264221    0.7366777  
   0.538973100     0.0934634    0.7265265  
   0.540973000     0.2095773    0.6978265  
   0.542972900     0.3196018    0.6517704  
   0.544972800     0.4212053    0.5894138  
   0.546972700     0.5123764    0.5112979  
   0.548972600     0.5901083    0.4201189  
   0.550972500     0.6527525    0.3175278  
   0.552972400     0.6991928    0.2055816  
   0.554972300     0.7269514    0.0876036  
   0.556972200     0.7352756   -0.0337376  
   0.558972100     0.7243158   -0.1551789  
   0.560972000     0.6938938   -0.2731863  
   0.562971900     0.6453598   -0.3842116  
   0.564971800     0.5796400   -0.4860095  
   0.566971700     0.4988648   -0.5752912  
   0.568971600     0.4054493   -0.6506279  
   0.570971500     0.3017254   -0.7098207  
   0.572971400     0.1903268   -0.7520609  
   0.574971300     0.0738052   -0.7758811  
   0.576971200    -0.0454010   -0.7815982  
   0.578971100    -0.1631528   -0.7687886  
   0.580971000    -0.2771947   -0.7381665  
   0.582970900    -0.3843527   -0.6905576  
   0.584970800    -0.4821283   -0.6278425  
   0.586970700    -0.5687842   -0.5515230  
   0.588970600    -0.6427152   -0.4637120  
   0.590970500    -0.7026671   -0.3662541  
   0.592970400    -0.7473799   -0.2612672  
   0.594970300    -0.7761635   -0.1509236  
   0.596970200    -0.7883996   -0.0377476  
   0.598970100    -0.7840798    0.0763514  
   0.600970000    -0.7629086    0.1887647  
   0.602969900    -0.7252378    0.2971206  
   0.604969800    -0.6718080    0.3996200  
   0.606969700    -0.6034977    0.4935808  
   0.608969600    -0.5208437    0.5769738  
   0.610969500    -0.4260093    0.6471971  
   0.612969400    -0.3208071    0.7030111  
   0.614969300    -0.2072483    0.7423273  
   0.616969200    -0.0885042    0.7636262  
   0.618969100     0.0323717    0.7661038  
   0.620969000     0.1529749    0.7500446  
   0.622968900     0.2707037    0.7145697  
   0.624968800     0.3824482    0.6604703  
   0.626968700     0.4848599    0.5881116  
   0.628968600     0.5752170    0.4993457  
   0.630968500     0.6499659    0.3962930  
   0.632968400     0.7071248    0.2818746  
   0.634968300     0.7445556    0.1591151  
   0.636968200     0.7607427    0.0315747  
   0.638968100     0.7556409   -0.0970394  
   0.640968000     0.7290599   -0.2229308  
   0.642967900     0.6817772   -0.3418569  
   0.644967800     0.6159062   -0.4505840  
   0.646967700     0.5331983   -0.5464412  
   0.648967600     0.4371383   -0.6261155  
   0.650967500     0.3301965   -0.6885940  
   0.652967400     0.2160117   -0.7322665  
   0.654967300     0.0978573   -0.7566357  
   0.656967200    -0.0214957   -0.7620057  
   0.658967100    -0.1389788   -0.7486780  
   0.660967000    -0.2518862   -0.7177105  
   0.662966900    -0.3583157   -0.6695467  
   0.664966800    -0.4554325   -0.6061118  
   0.666966700    -0.5411610   -0.5288976  
   0.668966600    -0.6133580   -0.4401805  
   0.670966500    -0.6712708   -0.3418847  
   0.672966400    -0.7142757   -0.2367819  
   0.674966300    -0.7397600   -0.1270242  
   0.676966200    -0.7482470   -0.0150876  
   0.678966100    -0.7404558    0.0965939  
   0.680966000    -0.7158731    0.2062117  
   0.682965900    -0.6748618    0.3108124  
   0.684965800    -0.6184089    0.4080724  
   0.686965700    -0.5478082    0.4967726  
   0.688965600    -0.4639832    0.5739248  
   0.690965500    -0.3680087    0.6366255  
   0.692965400    -0.2633913    0.6852521  
   0.694965300    -0.1514769    0.7170092  
   0.696965200    -0.0352552    0.7310809  
   0.698965100     0.0828999    0.7262917  
   0.700965000     0.1999140    0.7025997  
   0.702964900     0.3126934    0.6595224  
   0.704964800     0.4173664    0.5980386  
   0.706964700     0.5113931    0.5198582  
   0.708964600     0.5913172    0.4261289  
   0.710964500     0.6558578    0.3205440  
   0.712964400     0.7005566    0.2049583  
   0.714964300     0.7250574    0.0837776  
   0.716964200     0.7289160   -0.0389289  
   0.718964100     0.7122183   -0.1596347  
   0.720964000     0.6759769   -0.2738586  
   0.722963900     0.6222571   -0.3798510  
   0.724963800     0.5530570   -0.4746027  
   0.726963700     0.4707608   -0.5562943  
   0.728963600     0.3776329   -0.6230162  
   0.730963500     0.2761207   -0.6733305  
   0.732963400     0.1700537   -0.7076154  
   0.734963300     0.0607290   -0.7254292  
   0.736963200    -0.0645953   -0.7253075  
   0.738963100    -0.1873596   -0.7037849  
   0.740963000    -0.3037291   -0.6618025  
   0.742962900    -0.4107299   -0.6009051  
   0.744962800    -0.5058358   -0.5231878  
   0.746962700    -0.5859622   -0.4305417  
   0.748962600    -0.6492411   -0.3250058  
   0.750962500    -0.6083754   -0.4198762  
   0.752962400    -0.6701452   -0.3119900  
   0.754962300    -0.7123436   -0.1947291  
   0.756962200    -0.7339176   -0.0712810  
   0.758962100    -0.7335124    0.0543957  
   0.760962000    -0.7108077    0.1789964  
   0.762961900    -0.6692258    0.2928791  
   0.764961800    -0.6151755    0.3892109  
   0.766961700    -0.5463337    0.4766042  
   0.768961600    -0.4642253    0.5522692  
   0.770961500    -0.3715125    0.6141009  
   0.772961400    -0.2700904    0.6606764  
   0.774961300    -0.1624060    0.6901389  
   0.776961200    -0.0514497    0.7027643  
   0.778961100     0.0607113    0.6980760  
   0.780961000     0.1709826    0.6753900  
   0.782960900     0.2767558    0.6355689  
   0.784960800     0.3758501    0.5791091  
   0.786960700     0.4647593    0.5076488  
   0.788960600     0.5418024    0.4225214  
   0.790960500     0.6041213    0.3262407  
   0.792960400     0.6503555    0.2209988  
   0.794960300     0.6791080    0.1094700  
   0.796960200     0.6895638   -0.0050370  
   0.798960100     0.6814279   -0.1198833  
   0.800960000     0.6550450   -0.2318346  
   0.802959900     0.6110604   -0.3379595  
   0.804959800     0.5504769   -0.4358408  
   0.806959700     0.4753559   -0.5220698  
   0.808959600     0.3872811   -0.5953450  
   0.810959500     0.2887358   -0.6536339  
   0.812959400     0.1826218   -0.6955848  
   0.814959300     0.0711342   -0.7198925  
   0.816959200    -0.0422756   -0.7262504  
   0.818959100    -0.1549536   -0.7144427  
   0.820959000    -0.2640482   -0.6853182  
   0.822958900    -0.3666301   -0.6396069  
   0.824958800    -0.4605879   -0.5787278  
   0.826958700    -0.5436334   -0.5038962  
   0.828958600    -0.6140263   -0.4177370  
   0.830958500    -0.6698796   -0.3223054  
   0.832958400    -0.7106292   -0.2199077  
   0.834958300    -0.7349578   -0.1127602  
   0.836958200    -0.7427742   -0.0036307  
   0.838958100    -0.7343034    0.1049186  
   0.840958000    -0.7094091    0.2112220  
   0.842957900    -0.6685143    0.3125229  
   0.844957800    -0.6129894    0.4067516  
   0.846957700    -0.5437081    0.4919412  
   0.848957600    -0.4620153    0.5658575  
   0.850957500    -0.3696284    0.6268658  
   0.852957400    -0.2688879    0.6732981  
   0.854957300    -0.1611557    0.7037435  
   0.856957200    -0.0495371    0.7174928  
   0.858957100     0.0631961    0.7131841  
   0.860957000     0.1742264    0.6915468  
   0.862956900     0.2803696    0.6526726  
   0.864956800     0.3794677    0.5972669  
   0.866956700     0.4687935    0.5267344  
   0.868956600     0.5457727    0.4422184  
   0.870956500     0.6091176    0.3458198  
   0.872956400     0.6563999    0.2400609  
   0.874956300     0.6860425    0.1270303  
   0.876956200     0.6969654    0.0097524  
   0.878956100     0.6878903   -0.1079372  
   0.880956000     0.6593201   -0.2232963  
   0.882955900     0.6120051   -0.3318433  
   0.884955800     0.5471159   -0.4312469  
   0.886955700     0.4665138   -0.5178219  
   0.888955600     0.3728982   -0.5898263  
   0.890955500     0.2690971   -0.6446149  
   0.892955400     0.1582879   -0.6812215  
   0.894955300     0.0436097   -0.6987024  
