! MS46122B
! 2250307/22442219
! 7/28/2025 2:01:18 PM
! C:\USERS\SPARKY\DOCUMENTS\VNA_DATA\JULY28_2025\3K\PORT2_MOS3.S1P
! CHANNEL.1
! TR.MEASUREMENT
! RAW.DATA
# GHZ S RI R 50.0
! FREQ.GHZ         S11RE         S11IM         
!; PortSelection: Port_1
   0.001000000     1.0460080   -0.0722394  
   0.002999900     0.9646139   -0.1944694  
   0.004999800     0.9045014   -0.2993338  
   0.006999700     0.8372929   -0.3968262  
   0.008999600     0.7590448   -0.4920913  
   0.010999500     0.6664585   -0.5828101  
   0.012999400     0.5539817   -0.6665546  
   0.014999300     0.4153934   -0.7369629  
   0.016999200     0.2449966   -0.7821662  
   0.018999100     0.0373902   -0.7824491  
   0.020999000    -0.1999054   -0.7044245  
   0.022998900    -0.4309133   -0.5073997  
   0.024998800    -0.5503860   -0.1779578  
   0.026998700    -0.5160194    0.2275147  
   0.028998600    -0.2503429    0.5436731  
   0.030998500     0.1097618    0.6668039  
   0.032998400     0.4049384    0.6057141  
   0.034998300     0.6635702    0.4774301  
   0.036998200     0.8060141    0.3039206  
   0.038998100     0.8821023    0.1308024  
   0.040998000     0.9112791   -0.0294218  
   0.042997900     0.9075705   -0.1729454  
   0.044997800     0.8554519   -0.2738978  
   0.046997700     0.8384004   -0.4101131  
   0.048997600     0.7842700   -0.5062413  
   0.050997500     0.7212396   -0.5892026  
   0.052997400     0.6520618   -0.6603622  
   0.054997300     0.5778402   -0.7204841  
   0.056997200     0.4980820   -0.7720214  
   0.058997100     0.4156901   -0.8134013  
   0.060997000     0.3299204   -0.8461097  
   0.062996900     0.2416975   -0.8693754  
   0.064996800     0.1507145   -0.8830937  
   0.066996700     0.0575524   -0.8875694  
   0.068996600    -0.0368804   -0.8814696  
   0.070996500    -0.1324098   -0.8654252  
   0.072996400    -0.2279532   -0.8366852  
   0.074996300    -0.3225374   -0.7951733  
   0.076996200    -0.4147463   -0.7406584  
   0.078996100    -0.5020628   -0.6714700  
   0.080996000    -0.5831894   -0.5873397  
   0.082995900    -0.6546423   -0.4880629  
   0.084995800    -0.7125694   -0.3736352  
   0.086995700    -0.7549576   -0.2452780  
   0.088995600    -0.7761331   -0.1044972  
   0.090995500    -0.7725587    0.0453801  
   0.092995400    -0.7402734    0.1998897  
   0.094995300    -0.6748809    0.3517056  
   0.096995200    -0.5761182    0.4928445  
   0.098995100    -0.4450542    0.6137632  
   0.100995000    -0.2856374    0.7061608  
   0.102994900    -0.1079018    0.7606020  
   0.104994800     0.0785012    0.7735952  
   0.106994700     0.2615164    0.7427281  
   0.108994600     0.4306121    0.6739154  
   0.110994500     0.5768740    0.5721289  
   0.112994400     0.6940852    0.4451441  
   0.114994300     0.7791284    0.3024611  
   0.116994200     0.8320418    0.1524539  
   0.118994100     0.8543628    0.0020468  
   0.120994000     0.8509824   -0.1434126  
   0.122993900     0.8220936   -0.2797158  
   0.124993800     0.7732204   -0.4033582  
   0.126993700     0.7080577   -0.5133314  
   0.128993600     0.6292526   -0.6076682  
   0.130993500     0.5412595   -0.6875622  
   0.132993400     0.4459402   -0.7519572  
   0.134993300     0.3449592   -0.8013932  
   0.136993200     0.2409747   -0.8359485  
   0.138993100     0.1347542   -0.8565019  
   0.140993000     0.0286106   -0.8627155  
   0.142992900    -0.0770548   -0.8556094  
   0.144992800    -0.1803220   -0.8366925  
   0.146992700    -0.2805299   -0.8032578  
   0.148992600    -0.3764788   -0.7570628  
   0.150992500    -0.4648501   -0.6976368  
   0.152992400    -0.5474794   -0.6273426  
   0.154992300    -0.6208965   -0.5459531  
   0.156992200    -0.6840752   -0.4533668  
   0.158992100    -0.7354006   -0.3509548  
   0.160992000    -0.7727793   -0.2394512  
   0.162991900    -0.7943943   -0.1209594  
   0.164991800    -0.7985803    0.0034322  
   0.166991700    -0.7835965    0.1299916  
   0.168991600    -0.7477551    0.2567550  
   0.170991500    -0.6899973    0.3802602  
   0.172991400    -0.6107312    0.4952115  
   0.174991300    -0.5104799    0.5981062  
   0.176991200    -0.3901374    0.6839313  
   0.178991100    -0.2532985    0.7483630  
   0.180991000    -0.1044764    0.7881038  
   0.182990900     0.0514849    0.7984402  
   0.184990800     0.2086311    0.7789642  
   0.186990700     0.3597440    0.7297279  
   0.188990600     0.4785985    0.6662208  
   0.190990500     0.6159437    0.5534503  
   0.192990400     0.7167759    0.4296591  
   0.194990300     0.7897925    0.2942424  
   0.196990200     0.8359606    0.1510532  
   0.198990100     0.8549908    0.0050077  
   0.200990000     0.8483106   -0.1390529  
   0.202989900     0.8174332   -0.2765746  
   0.204989800     0.7658033   -0.4030339  
   0.206989700     0.6968390   -0.5170596  
   0.208989600     0.6125684   -0.6151762  
   0.210989500     0.5159190   -0.6971316  
   0.212989400     0.4101285   -0.7625202  
   0.214989300     0.2979634   -0.8102148  
   0.216989200     0.1831383   -0.8401879  
   0.218989100     0.0667415   -0.8535452  
   0.220989000    -0.0487815   -0.8502287  
   0.222988900    -0.1617915   -0.8306663  
   0.224988800    -0.2709973   -0.7955161  
   0.226988700    -0.3733753   -0.7460843  
   0.228988600    -0.4677500   -0.6832534  
   0.230988500    -0.5525360   -0.6076427  
   0.232988400    -0.6257514   -0.5192716  
   0.234988300    -0.6871530   -0.4208703  
   0.236988200    -0.7346238   -0.3133227  
   0.238988100    -0.7659824   -0.1982292  
   0.240988000    -0.7803147   -0.0783623  
   0.242987900    -0.7763363    0.0441509  
   0.244987800    -0.7527809    0.1672099  
   0.246987700    -0.7093089    0.2880751  
   0.248987600    -0.6450102    0.4030449  
   0.250987500    -0.5604764    0.5084556  
   0.252987400    -0.4573361    0.5993198  
   0.254987300    -0.3384148    0.6722714  
   0.256987200    -0.2060061    0.7239481  
   0.258987100    -0.0642305    0.7530078  
   0.260987000     0.0829363    0.7542607  
   0.262986900     0.2293929    0.7282267  
   0.264986800     0.3693589    0.6747413  
   0.266986700     0.4973798    0.5957249  
   0.268986600     0.6074319    0.4947962  
   0.270986500     0.6961576    0.3765532  
   0.272986400     0.7607843    0.2451177  
   0.274986300     0.8001253    0.1061822  
   0.276986200     0.8138776   -0.0352460  
   0.278986100     0.8026899   -0.1745360  
   0.280986000     0.7680004   -0.3069277  
   0.282985900     0.7129236   -0.4290435  
   0.284985800     0.6402190   -0.5382082  
   0.286985700     0.5533330   -0.6315576  
   0.288985600     0.4554780   -0.7081035  
   0.290985500     0.3500705   -0.7671778  
   0.292985400     0.2398159   -0.8092116  
   0.294985300     0.1265034   -0.8341105  
   0.296985200     0.0125630   -0.8427664  
   0.298985100    -0.1003557   -0.8354307  
   0.300985000    -0.2102171   -0.8124108  
   0.302984900    -0.3147096   -0.7752980  
   0.304984800    -0.4123140   -0.7245575  
   0.306984700    -0.5015297   -0.6617573  
   0.308984600    -0.5809190   -0.5884703  
   0.310984500    -0.6497697   -0.5052578  
   0.312984400    -0.7074916   -0.4133050  
   0.314984300    -0.7523525   -0.3132999  
   0.316984200    -0.7839031   -0.2065787  
   0.318984100    -0.8003457   -0.0937923  
   0.320984000    -0.8001956    0.0231856  
   0.322983900    -0.7815216    0.1414380  
   0.324983800    -0.7429735    0.2572486  
   0.326983700    -0.6847657    0.3659416  
   0.328983600    -0.6078424    0.4632661  
   0.330983500    -0.5164805    0.5449958  
   0.332983400    -0.4151485    0.6088804  
   0.334983300    -0.3077614    0.6559770  
   0.336983200    -0.1962565    0.6867171  
   0.338983100    -0.0822885    0.7022194  
   0.340983000     0.0334567    0.7018273  
   0.342982900     0.1497583    0.6845084  
   0.344982800     0.2645636    0.6498525  
   0.346982700     0.3752341    0.5960569  
   0.348982600     0.4765220    0.5225380  
   0.350982500     0.5665685    0.4328159  
   0.352982400     0.6404540    0.3272981  
   0.354982300     0.6972552    0.2047624  
   0.356982200     0.7322919    0.0602709  
   0.358982100     0.7379578   -0.0883766  
   0.360982000     0.7138827   -0.2351429  
   0.362981900     0.6615511   -0.3741707  
   0.364981800     0.5829591   -0.5000466  
   0.366981700     0.4817082   -0.6074296  
   0.368981600     0.3618790   -0.6928803  
   0.370981500     0.2289680   -0.7533466  
   0.372981400     0.0881004   -0.7868330  
   0.374981300    -0.0558455   -0.7931958  
   0.376981200     0.0646386   -0.7908409  
   0.378981100    -0.0771545   -0.7919819  
   0.380981000    -0.2159551   -0.7676643  
   0.382980900    -0.3348066   -0.7246971  
   0.384980800    -0.4391079   -0.6664298  
   0.386980700    -0.5330049   -0.5929806  
   0.388980600    -0.6140738   -0.5066547  
   0.390980500    -0.6807600   -0.4101756  
   0.392980400    -0.7317463   -0.3055559  
   0.394980300    -0.7662690   -0.1949332  
   0.396980200    -0.7846104   -0.0803815  
   0.398980100    -0.7854823    0.0354465  
   0.400980000    -0.7692963    0.1512072  
   0.402979900    -0.7361625    0.2642322  
   0.404979800    -0.6859896    0.3710217  
   0.406979700    -0.6198578    0.4704050  
   0.408979600    -0.5386364    0.5594982  
   0.410979500    -0.4436335    0.6362460  
   0.412979400    -0.3354327    0.6984404  
   0.414979300    -0.2172846    0.7421719  
   0.416979200    -0.0921221    0.7681639  
   0.418979100     0.0367522    0.7735984  
   0.420979000     0.1663402    0.7577142  
   0.422978900     0.2929960    0.7202145  
   0.424978800     0.4130202    0.6613114  
   0.426978700     0.5220668    0.5822621  
   0.428978600     0.6167579    0.4853556  
   0.430978500     0.6934661    0.3733862  
   0.432978400     0.7497520    0.2500820  
   0.434978300     0.7852801    0.1191151  
   0.436978200     0.7969579   -0.0154778  
   0.438978100     0.7852490   -0.1496997  
   0.440978000     0.7510551   -0.2791827  
   0.442977900     0.6960879   -0.4001943  
   0.444977800     0.6223695   -0.5091583  
   0.446977700     0.5322302   -0.6030902  
   0.448977600     0.4291450   -0.6808422  
   0.450977500     0.3163144   -0.7395217  
   0.452977400     0.1963170   -0.7787570  
   0.454977300     0.0719965   -0.7981423  
   0.456977200    -0.0523759   -0.7976140  
   0.458977100    -0.1745658   -0.7775820  
   0.460977000    -0.2906983   -0.7389660  
   0.462976900    -0.3977292   -0.6833420  
   0.464976800    -0.4946910   -0.6125152  
   0.466976700    -0.5791171   -0.5278412  
   0.468976600    -0.6493860   -0.4322103  
   0.470976500    -0.7039472   -0.3264993  
   0.472976400    -0.7415574   -0.2143871  
   0.474976300    -0.7617568   -0.0974308  
   0.476976200    -0.7635135    0.0211549  
   0.478976100    -0.7472381    0.1391899  
   0.480976000    -0.7123972    0.2529877  
   0.482975900    -0.6602376    0.3605027  
   0.484975800    -0.5913077    0.4594023  
   0.486975700    -0.5066508    0.5472277  
   0.488975600    -0.4078121    0.6204989  
   0.490975500    -0.2972394    0.6775103  
   0.492975400    -0.1772376    0.7157844  
   0.494975300    -0.0517714    0.7331868  
   0.496975200     0.0761834    0.7286447  
   0.498975100     0.2013715    0.7019889  
   0.500975000     0.3203858    0.6536635  
   0.502974900     0.4286272    0.5853134  
   0.504974800     0.5226568    0.4990252  
   0.506974700     0.5994388    0.3980986  
   0.508974600     0.6568999    0.2861322  
   0.510974500     0.6928986    0.1676696  
   0.512974400     0.7082725    0.0472802  
   0.514974300     0.7018079   -0.0701448  
   0.516974200     0.6786848   -0.1821916  
   0.518974100     0.6399490   -0.2865071  
   0.520974000     0.5872889   -0.3809839  
   0.522973900     0.5234468   -0.4654403  
   0.524973800     0.4501212   -0.5389731  
   0.526973700     0.3685611   -0.6017124  
   0.528973600     0.2796482   -0.6529857  
   0.530973500     0.1844106   -0.6922432  
   0.532973400     0.0837457   -0.7186352  
   0.534973300    -0.0209052   -0.7306978  
   0.536973200    -0.1280651   -0.7277592  
   0.538973100    -0.2350265   -0.7086757  
   0.540973000    -0.3385844   -0.6727277  
   0.542972900    -0.4373063   -0.6209233  
   0.544972800    -0.5277967   -0.5532572  
   0.546972700    -0.6077164   -0.4708425  
   0.548972600    -0.6742147   -0.3754408  
   0.550972500    -0.7249132   -0.2698262  
   0.552972400    -0.7581770   -0.1563898  
   0.554972300    -0.7727959   -0.0382677  
   0.556972200    -0.7682999    0.0813985  
   0.558972100    -0.7441801    0.1994538  
   0.560972000    -0.7014246    0.3121558  
   0.562971900    -0.6410545    0.4170087  
   0.564971800    -0.5644612    0.5111147  
   0.566971700    -0.4732901    0.5919719  
   0.568971600    -0.3701116    0.6574584  
   0.570971500    -0.2569399    0.7059688  
   0.572971400    -0.1367001    0.7356260  
   0.574971300    -0.0119260    0.7453969  
   0.576971200     0.1142626    0.7343644  
   0.578971100     0.2375042    0.7022777  
   0.580971000     0.3548438    0.6496878  
   0.582970900     0.4619372    0.5775836  
   0.584970800     0.5554197    0.4882503  
   0.586970700     0.6326621    0.3845783  
   0.588970600     0.6911987    0.2683854  
   0.590970500     0.7290840    0.1441695  
   0.592970400     0.7451333    0.0146972  
   0.594970300     0.7390630   -0.1148482  
   0.596970200     0.7108180   -0.2414289  
   0.598970100     0.6615155   -0.3611697  
   0.600970000     0.5930837   -0.4698092  
   0.602969900     0.5073518   -0.5651778  
   0.604969800     0.4076185   -0.6446688  
   0.606969700     0.2966532   -0.7051910  
   0.608969600     0.1777202   -0.7466856  
   0.610969500     0.0544696   -0.7678744  
   0.612969400    -0.0688198   -0.7688066  
   0.614969300    -0.1896486   -0.7495979  
   0.616969200    -0.3043975   -0.7119818  
   0.618969100    -0.4099968   -0.6576332  
   0.620969000    -0.5051275   -0.5883209  
   0.622968900    -0.5882456   -0.5057759  
   0.624968800    -0.6569325   -0.4120201  
   0.626968700    -0.7109775   -0.3090529  
   0.628968600    -0.7485636   -0.1994409  
   0.630968500    -0.7694229   -0.0857093  
   0.632968400    -0.7728064    0.0299640  
   0.634968300    -0.7587748    0.1446735  
   0.636968200    -0.7274861    0.2564951  
   0.638968100    -0.6797440    0.3627119  
   0.640968000    -0.6162617    0.4608251  
   0.642967900    -0.5382199    0.5488306  
   0.644967800    -0.4470020    0.6248555  
   0.646967700    -0.3443937    0.6860011  
   0.648967600    -0.2330444    0.7306921  
   0.650967500    -0.1154159    0.7580115  
   0.652967400     0.0061694    0.7666292  
   0.654967300     0.1286059    0.7557912  
   0.656967200     0.2484904    0.7253328  
   0.658967100     0.3630502    0.6755834  
   0.660967000     0.4692011    0.6070752  
   0.662966900     0.5638269    0.5212120  
   0.664966800     0.6439164    0.4196553  
   0.666966700     0.7062408    0.3050636  
   0.668966600     0.7485867    0.1812983  
   0.670966500     0.7697334    0.0513903  
   0.672966400     0.7697738   -0.0798167  
   0.674966300     0.7458910   -0.2084525  
   0.676966200     0.7010781   -0.3310560  
   0.678966100     0.6369267   -0.4432031  
   0.680966000     0.5554873   -0.5427501  
   0.682965900     0.4593005   -0.6263184  
   0.684965800     0.3520142   -0.6921241  
   0.686965700     0.2360681   -0.7393668  
   0.688965600     0.1153751   -0.7669021  
   0.690965500    -0.0063796   -0.7736803  
   0.692965400    -0.1264994   -0.7619545  
   0.694965300    -0.2418121   -0.7322242  
   0.696965200    -0.3500156   -0.6853774  
   0.698965100    -0.4484847   -0.6228994  
   0.700965000    -0.5362540   -0.5468705  
   0.702964900    -0.6106610   -0.4590055  
   0.704964800    -0.6706342   -0.3613082  
   0.706964700    -0.7147212   -0.2559451  
   0.708964600    -0.7429579   -0.1453192  
   0.710964500    -0.7544257   -0.0312076  
   0.712964400    -0.7480578    0.0827024  
   0.714964300    -0.7240788    0.1948143  
   0.716964200    -0.6833951    0.3019508  
   0.718964100    -0.6268380    0.4020729  
   0.720964000    -0.5552105    0.4920311  
   0.722963900    -0.4702163    0.5702766  
   0.724963800    -0.3737284    0.6348473  
   0.726963700    -0.2672422    0.6834925  
   0.728963600    -0.1535918    0.7146367  
   0.730963500    -0.0357371    0.7264279  
   0.732963400     0.0828479    0.7195213  
   0.734963300     0.1997450    0.6927918  
   0.736963200     0.3266335    0.6390316  
   0.738963100     0.4423980    0.5622331  
   0.740963000     0.5412571    0.4650186  
   0.742962900     0.6196131    0.3512000  
   0.744962800     0.6748976    0.2248463  
   0.746962700     0.7052201    0.0918914  
   0.748962600     0.7102448   -0.0440717  
   0.750962500     0.6949025    0.0645725  
   0.752962400     0.6957873   -0.0690372  
   0.754962300     0.6728600   -0.1994246  
   0.756962200     0.6268892   -0.3225132  
   0.758962100     0.5602881   -0.4344412  
   0.760962000     0.4749869   -0.5326692  
   0.762961900     0.3791753   -0.6100634  
   0.764961800     0.2813407   -0.6661628  
   0.766961700     0.1764237   -0.7064428  
   0.768961600     0.0662549   -0.7304830  
   0.770961500    -0.0462727   -0.7372811  
   0.772961400    -0.1584787   -0.7270039  
   0.774961300    -0.2679968   -0.6995694  
   0.776961200    -0.3727589   -0.6554535  
   0.778961100    -0.4693301   -0.5953283  
   0.780961000    -0.5559176   -0.5204572  
   0.782960900    -0.6299461   -0.4325637  
   0.784960800    -0.6898562   -0.3336525  
   0.786960700    -0.7331297   -0.2261560  
   0.788960600    -0.7591473   -0.1126338  
   0.790960500    -0.7670296    0.0032937  
   0.792960400    -0.7562234    0.1194312  
   0.794960300    -0.7274616    0.2325693  
   0.796960200    -0.6814093    0.3394597  
   0.798960100    -0.6191351    0.4381099  
   0.800960000    -0.5420783    0.5252392  
   0.802959900    -0.4524472    0.6000044  
   0.804959800    -0.3521720    0.6596496  
   0.806959700    -0.2434700    0.7030386  
   0.808959600    -0.1289620    0.7289199  
   0.810959500    -0.0115275    0.7365636  
   0.812959400     0.1064683    0.7255375  
   0.814959300     0.2217329    0.6959183  
   0.816959200     0.3312813    0.6479320  
   0.818959100     0.4321587    0.5827137  
   0.820959000     0.5220478    0.5016809  
   0.822958900     0.5979165    0.4065192  
   0.824958800     0.6575232    0.2997763  
   0.826958700     0.6989962    0.1840865  
   0.828958600     0.7212049    0.0630011  
   0.830958500     0.7227400   -0.0608663  
   0.832958400     0.7038407   -0.1830408  
   0.834958300     0.6647271   -0.3005735  
   0.836958200     0.6068228   -0.4097600  
   0.838958100     0.5317917   -0.5076979  
   0.840958000     0.4414770   -0.5920637  
   0.842957900     0.3389072   -0.6600820  
   0.844957800     0.2267377   -0.7098017  
   0.846957700     0.1082898   -0.7404135  
   0.848957600    -0.0126899   -0.7512890  
   0.850957500    -0.1333548   -0.7422335  
   0.852957400    -0.2499484   -0.7141179  
   0.854957300    -0.3598685   -0.6677307  
   0.856957200    -0.4604044   -0.6052190  
   0.858957100    -0.5489107   -0.5282083  
   0.860957000    -0.6238685   -0.4395904  
   0.862956900    -0.6835677   -0.3411152  
   0.864956800    -0.7270582   -0.2358377  
   0.866956700    -0.7540951   -0.1265748  
   0.868956600    -0.7639096   -0.0149847  
   0.870956500    -0.7573942    0.0967021  
   0.872956400    -0.7344708    0.2054808  
   0.874956300    -0.6955152    0.3098172  
   0.876956200    -0.6416280    0.4078506  
   0.878956100    -0.5734306    0.4968739  
   0.880956000    -0.4925978    0.5753155  
   0.882955900    -0.4000618    0.6412155  
   0.884955800    -0.2981737    0.6926458  
   0.886955700    -0.1890702    0.7283809  
   0.888955600    -0.0748361    0.7473097  
   0.890955500     0.0416013    0.7484784  
   0.892955400     0.1579546    0.7312740  
   0.894955300     0.2709867    0.6961241  
