! MS46122B
! 2250307/22442219
! 7/22/2025 7:49:47 AM
! C:\USERS\SPARKY\DOCUMENTS\VNA_DATA\JULY22_2025\3K\PORT6_MOS6.S1P
! CHANNEL.1
! TR.MEASUREMENT
! RAW.DATA
# GHZ S RI R 50.0
! FREQ.GHZ         S11RE         S11IM         
!; PortSelection: Port_1
   0.001000000     1.0455840   -0.0722968  
   0.002999900     0.9474139   -0.2225518  
   0.004999800     0.8221296   -0.0961550  
   0.006999700     0.5148318   -0.3844490  
   0.008999600     0.9358169   -0.0393319  
   0.010999500     0.9166457   -0.2454596  
   0.012999400     0.8764468   -0.3503820  
   0.014999300     0.8358699   -0.4312328  
   0.016999200     0.7941130   -0.5018614  
   0.018999100     0.7496585   -0.5674277  
   0.020999000     0.7002844   -0.6282532  
   0.022998900     0.6457253   -0.6842009  
   0.024998800     0.5775599   -0.7000436  
   0.026998700     0.5189849   -0.7815331  
   0.028998600     0.4449365   -0.8219138  
   0.030998500     0.3634588   -0.8551828  
   0.032998400     0.2789229   -0.8460532  
   0.034998300     0.1777178   -0.8952400  
   0.036998200     0.0735776   -0.8990104  
   0.038998100    -0.0363403   -0.8886296  
   0.040998000    -0.1512824   -0.8614826  
   0.042997900    -0.2694993   -0.8156524  
   0.044997800    -0.3633391   -0.7297478  
   0.046997700    -0.5014382   -0.6539907  
   0.048997600    -0.6049377   -0.5334172  
   0.050997500    -0.6904111   -0.3839146  
   0.052997400    -0.7473066   -0.2066507  
   0.054997300    -0.7638348   -0.0065100  
   0.056997200    -0.7280001    0.2077995  
   0.058997100    -0.6317521    0.4153980  
   0.060997000    -0.4758810    0.5960174  
   0.062996900    -0.2698979    0.7269576  
   0.064996800    -0.0354146    0.7928479  
   0.066996700     0.2029876    0.7891628  
   0.068996600     0.4215509    0.7228182  
   0.070996500     0.6053258    0.6083641  
   0.072996400     0.7450960    0.4619818  
   0.074996300     0.8403167    0.2995317  
   0.076996200     0.8943096    0.1334791  
   0.078996100     0.9133386   -0.0270809  
   0.080996000     0.9033096   -0.1779083  
   0.082995900     0.8696744   -0.3153296  
   0.084995800     0.8170813   -0.4373103  
   0.086995700     0.7512631   -0.5443789  
   0.088995600     0.6743924   -0.6363192  
   0.090995500     0.5893312   -0.7143176  
   0.092995400     0.4986667   -0.7786275  
   0.094995300     0.4022908   -0.8290535  
   0.096995200     0.3027808   -0.8664587  
   0.098995100     0.2010593   -0.8910469  
   0.100995000     0.0971409   -0.9034250  
   0.102994900    -0.0065568   -0.9035364  
   0.104994800    -0.1099670   -0.8912140  
   0.106994700    -0.2120959   -0.8660262  
   0.108994600    -0.3114080   -0.8289663  
   0.110994500    -0.4077964   -0.7791883  
   0.112994400    -0.4988728   -0.7168187  
   0.114994300    -0.5833703   -0.6411145  
   0.116994200    -0.6593307   -0.5521165  
   0.118994100    -0.7250360   -0.4506564  
   0.120994000    -0.7787885   -0.3377314  
   0.122993900    -0.8156603   -0.2126710  
   0.124993800    -0.8338218   -0.0780438  
   0.126993700    -0.8301474    0.0633581  
   0.128993600    -0.8005956    0.2077059  
   0.130993500    -0.7460220    0.3509711  
   0.132993400    -0.6635822    0.4874301  
   0.134993300    -0.5529189    0.6103776  
   0.136993200    -0.4167486    0.7128733  
   0.138993100    -0.2586837    0.7881436  
   0.140993000    -0.0855201    0.8304922  
   0.142992900     0.0953353    0.8362068  
   0.144992800     0.2744218    0.8052425  
   0.146992700     0.4420843    0.7361909  
   0.148992600     0.5903723    0.6348683  
   0.150992500     0.7112005    0.5073681  
   0.152992400     0.8029458    0.3621525  
   0.154992300     0.8626261    0.2061390  
   0.156992200     0.8907976    0.0468826  
   0.158992100     0.8893493   -0.1090606  
   0.160992000     0.8611600   -0.2571054  
   0.162991900     0.8098513   -0.3926811  
   0.164991800     0.7393414   -0.5140145  
   0.166991700     0.6534573   -0.6184155  
   0.168991600     0.5558882   -0.7054355  
   0.170991500     0.4489755   -0.7753556  
   0.172991400     0.3364579   -0.8269227  
   0.174991300     0.2204763   -0.8613529  
   0.176991200     0.1028647   -0.8789377  
   0.178991100    -0.0144320   -0.8801782  
   0.180991000    -0.1292397   -0.8662747  
   0.182990900    -0.2403392   -0.8367499  
   0.184990800    -0.3465902   -0.7922701  
   0.186990700    -0.4457378   -0.7341281  
   0.188990600    -0.5171599   -0.6774821  
   0.190990500    -0.6141198   -0.5815356  
   0.192990400    -0.6858434   -0.4842520  
   0.194990300    -0.7420530   -0.3788724  
   0.196990200    -0.7836429   -0.2658166  
   0.198990100    -0.8090505   -0.1454799  
   0.200990000    -0.8167479   -0.0197714  
   0.202989900    -0.8051781    0.1090093  
   0.204989800    -0.7736540    0.2374337  
   0.206989700    -0.7219595    0.3627211  
   0.208989600    -0.6479377    0.4800043  
   0.210989500    -0.5534782    0.5866337  
   0.212989400    -0.4386835    0.6779009  
   0.214989300    -0.3074946    0.7496635  
   0.216989200    -0.1632246    0.7978889  
   0.218989100    -0.0107469    0.8197978  
   0.220989000     0.1458589    0.8130534  
   0.222988900     0.3001665    0.7777618  
   0.224988800     0.4455159    0.7138594  
   0.226988700     0.5766800    0.6239661  
   0.228988600     0.6878509    0.5130314  
   0.230988500     0.7761117    0.3845051  
   0.232988400     0.8378765    0.2434342  
   0.234988300     0.8739569    0.0960588  
   0.236988200     0.8837255   -0.0525781  
   0.238988100     0.8679072   -0.1972476  
   0.240988000     0.8292769   -0.3341331  
   0.242987900     0.7699978   -0.4587695  
   0.244987800     0.6938697   -0.5701851  
   0.246987700     0.6031311   -0.6662235  
   0.248987600     0.5009084   -0.7457722  
   0.250987500     0.3898720   -0.8078136  
   0.252987400     0.2740867   -0.8521076  
   0.254987300     0.1556691   -0.8783578  
   0.256987200     0.0369975   -0.8877606  
   0.258987100    -0.0808089   -0.8822309  
   0.260987000    -0.1956089   -0.8590483  
   0.262986900    -0.3058919   -0.8207852  
   0.264986800    -0.4096155   -0.7678908  
   0.266986700    -0.5048434   -0.7013919  
   0.268986600    -0.5902862   -0.6225009  
   0.270986500    -0.6638773   -0.5328573  
   0.272986400    -0.7251192   -0.4330869  
   0.274986300    -0.7722819   -0.3246255  
   0.276986200    -0.8039232   -0.2086326  
   0.278986100    -0.8190160   -0.0868699  
   0.280986000    -0.8158485    0.0380410  
   0.282985900    -0.7928584    0.1643708  
   0.284985800    -0.7499480    0.2880303  
   0.286985700    -0.6860108    0.4056653  
   0.288985600    -0.6021858    0.5134120  
   0.290985500    -0.4995532    0.6073556  
   0.292985400    -0.3792176    0.6837181  
   0.294985300    -0.2440762    0.7384973  
   0.296985200    -0.0978729    0.7684710  
   0.298985100     0.0543696    0.7701409  
   0.300985000     0.2061650    0.7419640  
   0.302984900     0.3501311    0.6839091  
   0.304984800     0.4796203    0.5982752  
   0.306984700     0.5882300    0.4888051  
   0.308984600     0.6714600    0.3615156  
   0.310984500     0.7256289    0.2232750  
   0.312984400     0.7501373    0.0806467  
   0.314984300     0.7462345   -0.0590153  
   0.316984200     0.7162511   -0.1889995  
   0.318984100     0.6648310   -0.3053165  
   0.320984000     0.5968702   -0.4041691  
   0.322983900     0.5189638   -0.4837665  
   0.324983800     0.4369448   -0.5446407  
   0.326983700     0.3562075   -0.5895575  
   0.328983600     0.2789769   -0.6237140  
   0.330983500     0.2062493   -0.6515069  
   0.332983400     0.1347888   -0.6771726  
   0.334983300     0.0595616   -0.7015641  
   0.336983200    -0.0234784   -0.7224404  
   0.338983100    -0.1163034   -0.7345898  
   0.340983000    -0.2173056   -0.7325439  
   0.342982900    -0.3230546   -0.7120343  
   0.344982800    -0.4278005   -0.6716217  
   0.346982700    -0.5276463   -0.6110950  
   0.348982600    -0.6158040   -0.5317935  
   0.350982500    -0.6911091   -0.4390439  
   0.352982400    -0.7506110   -0.3337601  
   0.354982300    -0.7934363   -0.2142761  
   0.356982200    -0.8172960   -0.0739599  
   0.358982100    -0.8154958    0.0674834  
   0.360982000    -0.7883785    0.2060421  
   0.362981900    -0.7373626    0.3378954  
   0.364981800    -0.6636826    0.4593192  
   0.366981700    -0.5694260    0.5667309  
   0.368981600    -0.4571925    0.6560524  
   0.370981500    -0.3297967    0.7247979  
   0.372981400    -0.1910653    0.7703791  
   0.374981300    -0.0442877    0.7906919  
   0.376981200    -0.1525818    0.7852902  
   0.378981100     0.0012704    0.7984141  
   0.380981000     0.1562043    0.7823830  
   0.382980900     0.2945617    0.7417744  
   0.384980800     0.4199933    0.6801712  
   0.386980700     0.5337450    0.5972205  
   0.388980600     0.6322355    0.4952345  
   0.390980500     0.7112266    0.3779871  
   0.392980400     0.7685206    0.2492281  
   0.394980300     0.8028787    0.1128864  
   0.396980200     0.8130470   -0.0265204  
   0.398980100     0.7989523   -0.1649348  
   0.400980000     0.7621183   -0.2977405  
   0.402979900     0.7035176   -0.4212607  
   0.404979800     0.6265451   -0.5316733  
   0.406979700     0.5327346   -0.6265926  
   0.408979600     0.4268424   -0.7036079  
   0.410979500     0.3104487   -0.7622781  
   0.412979400     0.1875266   -0.8007129  
   0.414979300     0.0615654   -0.8178040  
   0.416979200    -0.0640133   -0.8159202  
   0.418979100    -0.1861211   -0.7953193  
   0.420979000    -0.3024358   -0.7562594  
   0.422978900    -0.4105304   -0.7005818  
   0.424978800    -0.5082181   -0.6296610  
   0.426978700    -0.5938596   -0.5452932  
   0.428978600    -0.6652895   -0.4497083  
   0.430978500    -0.7213159   -0.3455406  
   0.432978400    -0.7612829   -0.2346582  
   0.434978300    -0.7858140   -0.1200166  
   0.436978200    -0.7918730   -0.0022225  
   0.438978100    -0.7806426    0.1155311  
   0.440978000    -0.7521546    0.2306629  
   0.442977900    -0.7063759    0.3414095  
   0.444977800    -0.6443354    0.4450348  
   0.446977700    -0.5665265    0.5383466  
   0.448977600    -0.4746958    0.6195087  
   0.450977500    -0.3702787    0.6866938  
   0.452977400    -0.2550307    0.7374548  
   0.454977300    -0.1314495    0.7697675  
   0.456977200    -0.0023144    0.7820047  
   0.458977100     0.1285876    0.7730492  
   0.460977000     0.2569032    0.7425698  
   0.462976900     0.3794359    0.6909454  
   0.464976800     0.4922746    0.6188793  
   0.466976700     0.5920275    0.5283818  
   0.468976600     0.6754026    0.4221888  
   0.470976500     0.7397057    0.3035575  
   0.472976400     0.7828581    0.1755428  
   0.474976300     0.8035098    0.0425257  
   0.476976200     0.8016106   -0.0910030  
   0.478976100     0.7779162   -0.2209762  
   0.480976000     0.7335199   -0.3439424  
   0.482975900     0.6703182   -0.4562605  
   0.484975800     0.5914465   -0.5553564  
   0.486975700     0.4985355   -0.6397248  
   0.488975600     0.3948292   -0.7075821  
   0.490975500     0.2835719   -0.7577316  
   0.492975400     0.1675123   -0.7903335  
   0.494975300     0.0492166   -0.8045409  
   0.496975200    -0.0684913   -0.8008133  
   0.498975100    -0.1825155   -0.7805726  
   0.500975000    -0.2913597   -0.7442606  
   0.502974900    -0.3929331   -0.6930323  
   0.504974800    -0.4861385   -0.6285012  
   0.506974700    -0.5687302   -0.5511533  
   0.508974600    -0.6404945   -0.4622778  
   0.510974500    -0.6985551   -0.3638777  
   0.512974400    -0.7422493   -0.2579058  
   0.514974300    -0.7687609   -0.1462220  
   0.516974200    -0.7795504   -0.0309782  
   0.518974100    -0.7732124    0.0854168  
   0.520974000    -0.7489459    0.2006090  
   0.522973900    -0.7065804    0.3114680  
   0.524973800    -0.6465306    0.4152851  
   0.526973700    -0.5699380    0.5087031  
   0.528973600    -0.4788102    0.5889541  
   0.530973500    -0.3756205    0.6534585  
   0.532973400    -0.2632655    0.7003049  
   0.534973300    -0.1450315    0.7283624  
   0.536973200    -0.0241030    0.7374139  
   0.538973100     0.0959566    0.7271884  
   0.540973000     0.2123080    0.6984419  
   0.542972900     0.3225505    0.6522233  
   0.544972800     0.4244298    0.5897366  
   0.546972700     0.5157079    0.5115421  
   0.548972600     0.5938125    0.4198560  
   0.550972500     0.6566021    0.3168853  
   0.552972400     0.7032318    0.2044855  
   0.554972300     0.7309654    0.0860075  
   0.556972200     0.7392761   -0.0358954  
   0.558972100     0.7280580   -0.1578367  
   0.560972000     0.6973617   -0.2762548  
   0.562971900     0.6483011   -0.3878776  
   0.564971800     0.5821644   -0.4898357  
   0.566971700     0.5009745   -0.5793794  
   0.568971600     0.4067855   -0.6548582  
   0.570971500     0.3025011   -0.7139724  
   0.572971400     0.1904381   -0.7561711  
   0.574971300     0.0732711   -0.7797974  
   0.576971200    -0.0463675   -0.7850702  
   0.578971100    -0.1645818   -0.7717605  
   0.580971000    -0.2789520   -0.7406502  
   0.582970900    -0.3863024   -0.6924766  
   0.584970800    -0.4841037   -0.6291996  
   0.586970700    -0.5707216   -0.5523711  
   0.588970600    -0.6445284   -0.4640241  
   0.590970500    -0.7042828   -0.3661327  
   0.592970400    -0.7487518   -0.2607983  
   0.594970300    -0.7771645   -0.1502041  
   0.596970200    -0.7890654   -0.0367619  
   0.598970100    -0.7844633    0.0775167  
   0.600970000    -0.7629718    0.1900204  
   0.602969900    -0.7250344    0.2984648  
   0.604969800    -0.6713023    0.4009156  
   0.606969700    -0.6027392    0.4949032  
   0.608969600    -0.5198633    0.5782529  
   0.610969500    -0.4248120    0.6485467  
   0.612969400    -0.3192469    0.7044480  
   0.614969300    -0.2055527    0.7436765  
   0.616969200    -0.0865895    0.7649252  
   0.618969100     0.0345504    0.7674552  
   0.620969000     0.1554891    0.7512722  
   0.622968900     0.2736427    0.7156929  
   0.624968800     0.3857410    0.6614146  
   0.626968700     0.4885957    0.5887954  
   0.628968600     0.5790724    0.4997994  
   0.630968500     0.6543636    0.3961926  
   0.632968400     0.7119064    0.2812336  
   0.634968300     0.7494566    0.1576712  
   0.636968200     0.7657496    0.0292331  
   0.638968100     0.7605498   -0.1000912  
   0.640968000     0.7335280   -0.2265259  
   0.642967900     0.6858199   -0.3463139  
   0.644967800     0.6192145   -0.4556713  
   0.646967700     0.5356994   -0.5519561  
   0.648967600     0.4387231   -0.6319134  
   0.650967500     0.3308731   -0.6945353  
   0.652967400     0.2158002   -0.7380612  
   0.654967300     0.0968778   -0.7621813  
   0.656967200    -0.0233060   -0.7670794  
   0.658967100    -0.1415034   -0.7531589  
   0.660967000    -0.2549252   -0.7215078  
   0.662966900    -0.3617321   -0.6725659  
   0.664966800    -0.4590798   -0.6083646  
   0.666966700    -0.5448708   -0.5303308  
   0.668966600    -0.6170129   -0.4409486  
   0.670966500    -0.6747544   -0.3419175  
   0.672966400    -0.7174113   -0.2362183  
   0.674966300    -0.7425813   -0.1259398  
   0.676966200    -0.7506421   -0.0135171  
   0.678966100    -0.7424547    0.0984675  
   0.680966000    -0.7173891    0.2083520  
   0.682965900    -0.6759751    0.3131453  
   0.684965800    -0.6190928    0.4106029  
   0.686965700    -0.5480289    0.4993448  
   0.688965600    -0.4638043    0.5765661  
   0.690965500    -0.3674239    0.6393616  
   0.692965400    -0.2623697    0.6880020  
   0.694965300    -0.1499836    0.7197852  
   0.696965200    -0.0333374    0.7338610  
   0.698965100     0.0853325    0.7289845  
   0.700965000     0.2030901    0.7050481  
   0.702964900     0.3162310    0.6618338  
   0.704964800     0.4215368    0.6001461  
   0.706964700     0.5160577    0.5213186  
   0.708964600     0.5964285    0.4270635  
   0.710964500     0.6612120    0.3209311  
   0.712964400     0.7062455    0.2044080  
   0.714964300     0.7308862    0.0823262  
   0.716964200     0.7347193   -0.0414387  
   0.718964100     0.7177604   -0.1628710  
   0.720964000     0.6812087   -0.2780165  
   0.722963900     0.6267934   -0.3847262  
   0.724963800     0.5569374   -0.4801055  
   0.726963700     0.4737648   -0.5620458  
   0.728963600     0.3798079   -0.6292962  
   0.730963500     0.2773385   -0.6797712  
   0.732963400     0.1703068   -0.7140263  
   0.734963300     0.0601838   -0.7317805  
   0.736963200    -0.0661425   -0.7314284  
   0.738963100    -0.1898542   -0.7091823  
   0.740963000    -0.3070692   -0.6665661  
   0.742962900    -0.4146388   -0.6048844  
   0.744962800    -0.5100510   -0.5262043  
   0.746962700    -0.5905952   -0.4326415  
   0.748962600    -0.6539287   -0.3262396  
   0.750962500    -0.6127247   -0.4216207  
   0.752962400    -0.6744779   -0.3128352  
   0.754962300    -0.7166212   -0.1945512  
   0.756962200    -0.7378592   -0.0703385  
   0.758962100    -0.7369906    0.0560665  
   0.760962000    -0.7137930    0.1812724  
   0.762961900    -0.6716202    0.2956976  
   0.764961800    -0.6168784    0.3924454  
   0.766961700    -0.5476017    0.4800648  
   0.768961600    -0.4648186    0.5558817  
   0.770961500    -0.3714263    0.6178620  
   0.772961400    -0.2693651    0.6644841  
   0.774961300    -0.1611312    0.6939152  
   0.776961200    -0.0494749    0.7065055  
   0.778961100     0.0633369    0.7014773  
   0.780961000     0.1744026    0.6787916  
   0.782960900     0.2806685    0.6385999  
   0.784960800     0.3804865    0.5816343  
   0.786960700     0.4700369    0.5096668  
   0.788960600     0.5476659    0.4238331  
   0.790960500     0.6105904    0.3266878  
   0.792960400     0.6570119    0.2205776  
   0.794960300     0.6860415    0.1080006  
   0.796960200     0.6964532   -0.0074859  
   0.798960100     0.6880940   -0.1234145  
   0.800960000     0.6613482   -0.2363907  
   0.802959900     0.6167657   -0.3434932  
   0.804959800     0.5553855   -0.4422346  
   0.806959700     0.4793753   -0.5292317  
   0.808959600     0.3902780   -0.6031266  
   0.810959500     0.2905643   -0.6617576  
   0.812959400     0.1831634   -0.7038508  
   0.814959300     0.0704664   -0.7280844  
   0.816959200    -0.0442357   -0.7340788  
   0.818959100    -0.1580405   -0.7217166  
   0.820959000    -0.2680312   -0.6919661  
   0.822958900    -0.3715020   -0.6452904  
   0.824958800    -0.4660152   -0.5833282  
   0.826958700    -0.5493671   -0.5075473  
   0.828958600    -0.6199903   -0.4203238  
   0.830958500    -0.6758835   -0.3237765  
   0.832958400    -0.7165646   -0.2202763  
   0.834958300    -0.7406088   -0.1123962  
   0.836958200    -0.7480182   -0.0023444  
   0.838958100    -0.7390642    0.1071045  
   0.840958000    -0.7136284    0.2140829  
   0.842957900    -0.6719998    0.3158625  
   0.844957800    -0.6157671    0.4106046  
   0.846957700    -0.5457793    0.4961281  
   0.848957600    -0.4633705    0.5703525  
   0.850957500    -0.3702231    0.6315542  
   0.852957400    -0.2686602    0.6782172  
   0.854957300    -0.1602016    0.7086989  
   0.856957200    -0.0477560    0.7224191  
   0.858957100     0.0658331    0.7180571  
   0.860957000     0.1775088    0.6962914  
   0.862956900     0.2847174    0.6570250  
   0.864956800     0.3846043    0.6011602  
   0.866956700     0.4748199    0.5300087  
   0.868956600     0.5525205    0.4447382  
   0.870956500     0.6164722    0.3474051  
   0.872956400     0.6644359    0.2406157  
   0.874956300     0.6944107    0.1263490  
   0.876956200     0.7055371    0.0079525  
   0.878956100     0.6965170   -0.1113499  
   0.880956000     0.6676241   -0.2281029  
   0.882955900     0.6195214   -0.3381832  
   0.884955800     0.5537710   -0.4387358  
   0.886955700     0.4718460   -0.5264255  
   0.888955600     0.3768914   -0.5990547  
   0.890955500     0.2715500   -0.6543732  
   0.892955400     0.1591967   -0.6911762  
   0.894955300     0.0430543   -0.7085127  
