! MS46122B
! 2250307/22442219
! 7/25/2025 1:39:00 PM
! C:\USERS\SPARKY\DOCUMENTS\VNA_DATA\JULY25_2025\3K\PORT4_MOS1.S1P
! CHANNEL.1
! TR.MEASUREMENT
! RAW.DATA
# GHZ S RI R 50.0
! FREQ.GHZ         S11RE         S11IM         
!; PortSelection: Port_1
   0.001000000     1.0450030   -0.0717820  
   0.002999900     0.9634635   -0.1941565  
   0.004999800     0.9031949   -0.2990638  
   0.006999700     0.8359315   -0.3966058  
   0.008999600     0.7571976   -0.4917074  
   0.010999500     0.6642761   -0.5820569  
   0.012999400     0.5516073   -0.6650086  
   0.014999300     0.4133436   -0.7345518  
   0.016999200     0.2438440   -0.7784712  
   0.018999100     0.0384176   -0.7775238  
   0.020999000    -0.1948449   -0.6997457  
   0.022998900    -0.4209010   -0.5066090  
   0.024998800    -0.5387785   -0.1860908  
   0.026998700    -0.5113882    0.2084474  
   0.028998600    -0.2599979    0.5224097  
   0.030998500     0.0888696    0.6536798  
   0.032998400     0.3818832    0.6037880  
   0.034998300     0.6424828    0.4846180  
   0.036998200     0.7896917    0.3164225  
   0.038998100     0.8706107    0.1456913  
   0.040998000     0.9038318   -0.0137084  
   0.042997900     0.9035667   -0.1572495  
   0.044997800     0.8539386   -0.2591391  
   0.046997700     0.8390647   -0.3954285  
   0.048997600     0.7867863   -0.4924715  
   0.050997500     0.7252986   -0.5762888  
   0.052997400     0.6572911   -0.6482629  
   0.054997300     0.5843906   -0.7088777  
   0.056997200     0.5056590   -0.7613682  
   0.058997100     0.4242957   -0.8034533  
   0.060997000     0.3396011   -0.8368139  
   0.062996900     0.2524268   -0.8610585  
   0.064996800     0.1625787   -0.8756032  
   0.066996700     0.0705919   -0.8811303  
   0.068996600    -0.0225821   -0.8762544  
   0.070996500    -0.1166580   -0.8617806  
   0.072996400    -0.2111692   -0.8347742  
   0.074996300    -0.3045354   -0.7953346  
   0.076996200    -0.3954802   -0.7433314  
   0.078996100    -0.4822880   -0.6773335  
   0.080996000    -0.5629409   -0.5969689  
   0.082995900    -0.6347887   -0.5017641  
   0.084995800    -0.6939048   -0.3921382  
   0.086995700    -0.7385662   -0.2685277  
   0.088995600    -0.7633814   -0.1327080  
   0.090995500    -0.7650512    0.0125539  
   0.092995400    -0.7397301    0.1631989  
   0.094995300    -0.6832360    0.3127931  
   0.096995200    -0.5941406    0.4542175  
   0.098995100    -0.4733038    0.5779768  
   0.100995000    -0.3234007    0.6770608  
   0.102994900    -0.1536108    0.7404660  
   0.104994800     0.0274761    0.7646416  
   0.106994700     0.2091532    0.7466658  
   0.108994600     0.3799015    0.6901594  
   0.110994500     0.5314352    0.5994322  
   0.112994400     0.6560746    0.4815352  
   0.114994300     0.7500286    0.3454989  
   0.116994200     0.8125648    0.1992467  
   0.118994100     0.8443778    0.0502903  
   0.120994000     0.8496984   -0.0953087  
   0.122993900     0.8288123   -0.2333895  
   0.124993800     0.7868698   -0.3601029  
   0.126993700     0.7275236   -0.4737570  
   0.128993600     0.6534436   -0.5724014  
   0.130993500     0.5694390   -0.6564651  
   0.132993400     0.4773967   -0.7256001  
   0.134993300     0.3791431   -0.7795407  
   0.136993200     0.2771172   -0.8187379  
   0.138993100     0.1727146   -0.8438125  
   0.140993000     0.0674250   -0.8547775  
   0.142992900    -0.0373036   -0.8521775  
   0.144992800    -0.1403908   -0.8379604  
   0.146992700    -0.2406031   -0.8095247  
   0.148992600    -0.3366553   -0.7683670  
   0.150992500    -0.4262302   -0.7138724  
   0.152992400    -0.5102907   -0.6489050  
   0.154992300    -0.5858890   -0.5728536  
   0.156992200    -0.6519711   -0.4856904  
   0.158992100    -0.7069610   -0.3886774  
   0.160992000    -0.7489530   -0.2826104  
   0.162991900    -0.7766668   -0.1688136  
   0.164991800    -0.7879375   -0.0491075  
   0.166991700    -0.7810624    0.0742642  
   0.168991600    -0.7548312    0.1988053  
   0.170991500    -0.7077814    0.3216107  
   0.172991400    -0.6395739    0.4382597  
   0.174991300    -0.5507880    0.5446486  
   0.176991200    -0.4416043    0.6372557  
   0.178991100    -0.3152975    0.7109589  
   0.180991000    -0.1750941    0.7624742  
   0.182990900    -0.0250358    0.7868458  
   0.184990800     0.1292283    0.7830516  
   0.186990700     0.2811998    0.7497856  
   0.188990600     0.4036629    0.6999389  
   0.190990500     0.5495093    0.6033249  
   0.192990400     0.6612927    0.4920930  
   0.194990300     0.7472144    0.3660977  
   0.196990200     0.8075351    0.2289636  
   0.198990100     0.8415211    0.0862935  
   0.200990000     0.8493555   -0.0574481  
   0.202989900     0.8323480   -0.1969547  
   0.204989800     0.7930692   -0.3285527  
   0.206989700     0.7355058   -0.4484910  
   0.208989600     0.6603011   -0.5544208  
   0.210989500     0.5718158   -0.6452228  
   0.212989400     0.4721954   -0.7197956  
   0.214989300     0.3650859   -0.7770346  
   0.216989200     0.2535809   -0.8170951  
   0.218989100     0.1392961   -0.8402368  
   0.220989000     0.0247081   -0.8470613  
   0.222988900    -0.0889079   -0.8375880  
   0.224988800    -0.1991552   -0.8121698  
   0.226988700    -0.3040584   -0.7724319  
   0.228988600    -0.4017565   -0.7189837  
   0.230988500    -0.4913234   -0.6524667  
   0.232988400    -0.5701208   -0.5727373  
   0.234988300    -0.6389867   -0.4829076  
   0.236988200    -0.6945989   -0.3830593  
   0.238988100    -0.7360091   -0.2748106  
   0.240988000    -0.7613495   -0.1606503  
   0.242987900    -0.7699401   -0.0422886  
   0.244987800    -0.7602438    0.0781499  
   0.246987700    -0.7313716    0.1985995  
   0.248987600    -0.6824664    0.3157308  
   0.250987500    -0.6138290    0.4261877  
   0.252987400    -0.5266006    0.5254596  
   0.254987300    -0.4217264    0.6099250  
   0.256987200    -0.3015144    0.6762944  
   0.258987100    -0.1698425    0.7231497  
   0.260987000    -0.0287259    0.7444718  
   0.262986900     0.1157387    0.7396796  
   0.264986800     0.2586600    0.7081632  
   0.266986700     0.3939425    0.6502884  
   0.268986600     0.5159522    0.5682948  
   0.270986500     0.6200501    0.4656085  
   0.272986400     0.7030374    0.3466499  
   0.274986300     0.7619293    0.2157516  
   0.276986200     0.7960818    0.0783443  
   0.278986100     0.8051932   -0.0613703  
   0.280986000     0.7897483   -0.1975850  
   0.282985900     0.7517244   -0.3271282  
   0.284985800     0.6940520   -0.4451467  
   0.286985700     0.6198783   -0.5497411  
   0.288985600     0.5323188   -0.6386944  
   0.290985500     0.4350041   -0.7108727  
   0.292985400     0.3303123   -0.7661852  
   0.294985300     0.2207311   -0.8047518  
   0.296985200     0.1087954   -0.8267344  
   0.298985100    -0.0037662   -0.8326144  
   0.300985000    -0.1148236   -0.8228450  
   0.302984900    -0.2216701   -0.7980752  
   0.304984800    -0.3228425   -0.7595269  
   0.306984700    -0.4171685   -0.7080168  
   0.308984600    -0.5025893   -0.6456523  
   0.310984500    -0.5788113   -0.5733651  
   0.312984400    -0.6450118   -0.4910181  
   0.314984300    -0.7003250   -0.4005738  
   0.316984200    -0.7433998   -0.3024471  
   0.318984100    -0.7734025   -0.1972484  
   0.320984000    -0.7887389   -0.0864372  
   0.322983900    -0.7878173    0.0281936  
   0.324983800    -0.7689848    0.1435553  
   0.326983700    -0.7309436    0.2558877  
   0.328983600    -0.6743141    0.3613600  
   0.330983500    -0.6006368    0.4555386  
   0.332983400    -0.5140629    0.5353585  
   0.334983300    -0.4170664    0.6002042  
   0.336983200    -0.3130165    0.6498263  
   0.338983100    -0.2032936    0.6840077  
   0.340983000    -0.0895391    0.7025870  
   0.342982900     0.0273819    0.7045887  
   0.344982800     0.1452544    0.6886443  
   0.346982700     0.2618150    0.6545327  
   0.348982600     0.3725125    0.5998927  
   0.350982500     0.4748933    0.5277939  
   0.352982400     0.5651590    0.4381964  
   0.354982300     0.6416870    0.3289843  
   0.356982200     0.7010631    0.1951435  
   0.358982100     0.7333173    0.0515098  
   0.360982000     0.7367449   -0.0955036  
   0.362981900     0.7110139   -0.2404671  
   0.364981800     0.6576318   -0.3775809  
   0.366981700     0.5785959   -0.5012776  
   0.368981600     0.4774160   -0.6065785  
   0.370981500     0.3584135   -0.6901202  
   0.372981400     0.2266350   -0.7489709  
   0.374981300     0.0867054   -0.7812108  
   0.376981200     0.2016168   -0.7572758  
   0.378981100     0.0634738   -0.7835999  
   0.380981000    -0.0760176   -0.7841156  
   0.382980900    -0.1998234   -0.7627338  
   0.384980800    -0.3118907   -0.7244566  
   0.386980700    -0.4154782   -0.6693987  
   0.388980600    -0.5094357   -0.5994284  
   0.390980500    -0.5902172   -0.5175329  
   0.392980400    -0.6575614   -0.4251218  
   0.394980300    -0.7101378   -0.3249178  
   0.396980200    -0.7471024   -0.2181616  
   0.398980100    -0.7685144   -0.1070016  
   0.400980000    -0.7732661    0.0058730  
   0.402979900    -0.7614859    0.1190533  
   0.404979800    -0.7336141    0.2297461  
   0.406979700    -0.6888909    0.3356265  
   0.408979600    -0.6288319    0.4347735  
   0.410979500    -0.5535394    0.5250894  
   0.412979400    -0.4642079    0.6043288  
   0.414979300    -0.3615985    0.6685279  
   0.416979200    -0.2492302    0.7178456  
   0.418979100    -0.1295982    0.7492267  
   0.420979000    -0.0048526    0.7614290  
   0.422978900     0.1219869    0.7532284  
   0.424978800     0.2474763    0.7240229  
   0.426978700     0.3676100    0.6739615  
   0.428978600     0.4785253    0.6037948  
   0.430978500     0.5766049    0.5158488  
   0.432978400     0.6582972    0.4122092  
   0.434978300     0.7226899    0.2962307  
   0.436978200     0.7655096    0.1710093  
   0.438978100     0.7865057    0.0401601  
   0.440978000     0.7848599   -0.0919484  
   0.442977900     0.7608640   -0.2213638  
   0.444977800     0.7163110   -0.3437566  
   0.446977700     0.6520457   -0.4561616  
   0.448977600     0.5709476   -0.5551770  
   0.450977500     0.4759810   -0.6390548  
   0.452977400     0.3690956   -0.7056043  
   0.454977300     0.2532914   -0.7538382  
   0.456977200     0.1324517   -0.7823673  
   0.458977100     0.0101647   -0.7912039  
   0.460977000    -0.1110203   -0.7806682  
   0.462976900    -0.2272352   -0.7521635  
   0.464976800    -0.3368220   -0.7057949  
   0.466976700    -0.4371189   -0.6441540  
   0.468976600    -0.5258186   -0.5684934  
   0.470976500    -0.6018757   -0.4805865  
   0.472976400    -0.6638899   -0.3824756  
   0.474976300    -0.7095953   -0.2766310  
   0.476976200    -0.7389542   -0.1651896  
   0.478976100    -0.7510929   -0.0505657  
   0.480976000    -0.7456372    0.0638386  
   0.482975900    -0.7226490    0.1766649  
   0.484975800    -0.6827379    0.2852810  
   0.486975700    -0.6258227    0.3873047  
   0.488975600    -0.5531873    0.4800333  
   0.490975500    -0.4658459    0.5611927  
   0.492975400    -0.3652397    0.6275331  
   0.494975300    -0.2541499    0.6769283  
   0.496975200    -0.1354459    0.7075756  
   0.498975100    -0.0124078    0.7174073  
   0.500975000     0.1110408    0.7062399  
   0.502974900     0.2307934    0.6735978  
   0.504974800     0.3431720    0.6207106  
   0.506974700     0.4437954    0.5489404  
   0.508974600     0.5303413    0.4605088  
   0.510974500     0.5989980    0.3597935  
   0.512974400     0.6487324    0.2506242  
   0.514974300     0.6769274    0.1376261  
   0.516974200     0.6872297    0.0243731  
   0.518974100     0.6797586   -0.0859693  
   0.520974000     0.6568666   -0.1909826  
   0.522973900     0.6196405   -0.2896421  
   0.524973800     0.5701934   -0.3799315  
   0.526973700     0.5098646   -0.4620509  
   0.528973600     0.4395508   -0.5347636  
   0.530973500     0.3602358   -0.5980958  
   0.532973400     0.2721635   -0.6501786  
   0.534973300     0.1769844   -0.6901258  
   0.536973200     0.0759770   -0.7162595  
   0.538973100    -0.0292216   -0.7275139  
   0.540973000    -0.1358789   -0.7230037  
   0.542972900    -0.2420690   -0.7016227  
   0.544972800    -0.3449109   -0.6637977  
   0.546972700    -0.4419321   -0.6097663  
   0.548972600    -0.5302781   -0.5400851  
   0.550972500    -0.6072957   -0.4568260  
   0.552972400    -0.6702033   -0.3611117  
   0.554972300    -0.7176090   -0.2562703  
   0.556972200    -0.7477736   -0.1445547  
   0.558972100    -0.7600511   -0.0291472  
   0.560972000    -0.7535372    0.0869535  
   0.562971900    -0.7288482    0.2007607  
   0.564971800    -0.6864614    0.3095361  
   0.566971700    -0.6276444    0.4105266  
   0.568971600    -0.5533254    0.5012543  
   0.570971500    -0.4650578    0.5796162  
   0.572971400    -0.3649041    0.6435258  
   0.574971300    -0.2548289    0.6913797  
   0.576971200    -0.1372846    0.7208378  
   0.578971100    -0.0154589    0.7313198  
   0.580971000     0.1074280    0.7216150  
   0.582970900     0.2277748    0.6915340  
   0.584970800     0.3418266    0.6419646  
   0.586970700     0.4467943    0.5737238  
   0.588970600     0.5391333    0.4884301  
   0.590970500     0.6163928    0.3882940  
   0.592970400     0.6753967    0.2762341  
   0.594970300     0.7149348    0.1554589  
   0.596970200     0.7331722    0.0296311  
   0.598970100     0.7300134   -0.0973741  
   0.600970000     0.7047951   -0.2225127  
   0.602969900     0.6591003   -0.3410156  
   0.604969800     0.5940078   -0.4494050  
   0.606969700     0.5117977   -0.5450960  
   0.608969600     0.4149790   -0.6254744  
   0.610969500     0.3068408   -0.6874773  
   0.612969400     0.1909699   -0.7303438  
   0.614969300     0.0709182   -0.7531114  
   0.616969200    -0.0492655   -0.7563787  
   0.618969100    -0.1671259   -0.7401782  
   0.620969000    -0.2795598   -0.7061864  
   0.622968900    -0.3841716   -0.6552092  
   0.624968800    -0.4790342   -0.5895291  
   0.626968700    -0.5624833   -0.5104411  
   0.628968600    -0.6322970   -0.4196292  
   0.630968500    -0.6872006   -0.3200560  
   0.632968400    -0.7264197   -0.2139729  
   0.634968300    -0.7492006   -0.1028403  
   0.636968200    -0.7549002    0.0097994  
   0.638968100    -0.7439491    0.1218694  
   0.640968000    -0.7161325    0.2316233  
   0.642967900    -0.6722945    0.3359814  
   0.644967800    -0.6129259    0.4329221  
   0.646967700    -0.5395090    0.5202287  
   0.648967600    -0.4532951    0.5960977  
   0.650967500    -0.3561565    0.6581721  
   0.652967400    -0.2501943    0.7047287  
   0.654967300    -0.1374553    0.7349483  
   0.656967200    -0.0201039    0.7475582  
   0.658967100     0.0985949    0.7414927  
   0.660967000     0.2161655    0.7163451  
   0.662966900     0.3298150    0.6723220  
   0.664966800     0.4364664    0.6094130  
   0.666966700     0.5324504    0.5292266  
   0.668966600     0.6145091    0.4335608  
   0.670966500     0.6799159    0.3244589  
   0.672966400     0.7275504    0.2061184  
   0.674966300     0.7535637    0.0810074  
   0.676966200     0.7578892   -0.0463643  
   0.678966100     0.7406130   -0.1722055  
   0.680966000     0.7028140   -0.2933185  
   0.682965900     0.6456488   -0.4057697  
   0.684965800     0.5711237   -0.5066203  
   0.686965700     0.4812436   -0.5932805  
   0.688965600     0.3793173   -0.6629450  
   0.690965500     0.2681424   -0.7138146  
   0.692965400     0.1519376   -0.7465919  
   0.694965300     0.0338248   -0.7604232  
   0.696965200    -0.0839879   -0.7551640  
   0.698965100    -0.1983319   -0.7319041  
   0.700965000    -0.3069056   -0.6916170  
   0.702964900    -0.4065046   -0.6356962  
   0.704964800    -0.4961539   -0.5657180  
   0.706964700    -0.5734789   -0.4835537  
   0.708964600    -0.6371464   -0.3908599  
   0.710964500    -0.6864514   -0.2905497  
   0.712964400    -0.7194306   -0.1839769  
   0.714964300    -0.7357340   -0.0737446  
   0.716964200    -0.7358193    0.0372596  
   0.718964100    -0.7190296    0.1464221  
   0.720964000    -0.6861123    0.2518976  
   0.722963900    -0.6374151    0.3515476  
   0.724963800    -0.5741109    0.4431289  
   0.726963700    -0.4971654    0.5240873  
   0.728963600    -0.4078889    0.5925518  
   0.730963500    -0.3081909    0.6463063  
   0.732963400    -0.2006933    0.6840424  
   0.734963300    -0.0878368    0.7043619  
   0.736963200     0.0447675    0.7049919  
   0.738963100     0.1768448    0.6807768  
   0.740963000     0.3020310    0.6321673  
   0.742962900     0.4162315    0.5607813  
   0.744962800     0.5149288    0.4699212  
   0.746962700     0.5948619    0.3622580  
   0.748962600     0.6531737    0.2415800  
   0.750962500     0.5950836    0.3374247  
   0.752962400     0.6487493    0.2171700  
   0.754962300     0.6794801    0.0901546  
   0.756962200     0.6865401   -0.0397575  
   0.758962100     0.6699269   -0.1681076  
   0.760962000     0.6308370   -0.2905835  
   0.762961900     0.5738548   -0.3986766  
   0.764961800     0.5062202   -0.4875238  
   0.766961700     0.4264723   -0.5646927  
   0.768961600     0.3355300   -0.6288312  
   0.770961500     0.2359292   -0.6779710  
   0.772961400     0.1300787   -0.7114564  
   0.774961300     0.0202653   -0.7283539  
   0.776961200    -0.0911445   -0.7279595  
   0.778961100    -0.2017591   -0.7106025  
   0.780961000    -0.3085835   -0.6759700  
   0.782960900    -0.4090241   -0.6248281  
   0.784960800    -0.5008247   -0.5581347  
   0.786960700    -0.5809528   -0.4777405  
   0.788960600    -0.6475220   -0.3855293  
   0.790960500    -0.6989343   -0.2839080  
   0.792960400    -0.7337416   -0.1755896  
   0.794960300    -0.7508681   -0.0633037  
   0.796960200    -0.7504547    0.0502393  
   0.798960100    -0.7325658    0.1622162  
   0.800960000    -0.6974029    0.2693410  
   0.802959900    -0.6461520    0.3705770  
   0.804959800    -0.5798633    0.4620993  
   0.806959700    -0.5004739    0.5425518  
   0.808959600    -0.4092789    0.6096330  
   0.810959500    -0.3085991    0.6620650  
   0.812959400    -0.2003052    0.6985346  
   0.814959300    -0.0878610    0.7177660  
   0.816959200     0.0270157    0.7192007  
   0.818959100     0.1415237    0.7026579  
   0.820959000     0.2524443    0.6681100  
   0.822958900     0.3571809    0.6161578  
   0.824958800     0.4529500    0.5478070  
   0.826958700     0.5369693    0.4642748  
   0.828958600     0.6069611    0.3675226  
   0.830958500     0.6604772    0.2599870  
   0.832958400     0.6956107    0.1451614  
   0.834958300     0.7116082    0.0254985  
   0.836958200     0.7074677   -0.0952990  
   0.838958100     0.6835635   -0.2138301  
   0.840958000     0.6399211   -0.3271134  
   0.842957900     0.5780045   -0.4319453  
   0.844957800     0.4996478   -0.5249655  
   0.846957700     0.4073112   -0.6033487  
   0.848957600     0.3032001   -0.6650558  
   0.850957500     0.1910956   -0.7086829  
   0.852957400     0.0735119   -0.7329081  
   0.854957300    -0.0456017   -0.7378027  
   0.856957200    -0.1630417   -0.7232099  
   0.858957100    -0.2755220   -0.6901858  
   0.860957000    -0.3800903   -0.6403306  
   0.862956900    -0.4746164   -0.5753969  
   0.864956800    -0.5570467   -0.4976861  
   0.866956700    -0.6257241   -0.4090712  
   0.868956600    -0.6791297   -0.3118351  
   0.870956500    -0.7176149   -0.2084541  
   0.872956400    -0.7401887   -0.1009785  
   0.874956300    -0.7459713    0.0077627  
   0.876956200    -0.7359968    0.1167666  
   0.878956100    -0.7095929    0.2224350  
   0.880956000    -0.6684122    0.3233890  
   0.882955900    -0.6123301    0.4175306  
   0.884955800    -0.5429404    0.5024591  
   0.886955700    -0.4610027    0.5762944  
   0.888955600    -0.3691285    0.6371456  
   0.890955500    -0.2685022    0.6842887  
   0.892955400    -0.1617069    0.7158445  
   0.894955300    -0.0504517    0.7309070  
