! MS46122B
! 2250307/22442219
! 7/24/2025 7:51:28 AM
! C:\USERS\SPARKY\DOCUMENTS\VNA_DATA\JULY24_2025\3K\PORT6_MOS4_REPEAT1.S1P
! CHANNEL.1
! TR.MEASUREMENT
! RAW.DATA
# GHZ S RI R 50.0
! FREQ.GHZ         S11RE         S11IM         
!; PortSelection: Port_1
   0.001000000     1.0452330   -0.0720193  
   0.002999900     0.9638486   -0.1943940  
   0.004999800     0.9035893   -0.2992797  
   0.006999700     0.8363416   -0.3968778  
   0.008999600     0.7577372   -0.4922262  
   0.010999500     0.6647046   -0.5829866  
   0.012999400     0.5515242   -0.6665691  
   0.014999300     0.4122448   -0.7368523  
   0.016999200     0.2407145   -0.7811373  
   0.018999100     0.0316521   -0.7797626  
   0.020999000    -0.2065485   -0.6984303  
   0.022998900    -0.4364008   -0.4961154  
   0.024998800    -0.5504060   -0.1618206  
   0.026998700    -0.5054605    0.2447602  
   0.028998600    -0.2310666    0.5536774  
   0.030998500     0.1307322    0.6664367  
   0.032998400     0.4216233    0.5978732  
   0.034998300     0.6752908    0.4650425  
   0.036998200     0.8128335    0.2902709  
   0.038998100     0.8850244    0.1173111  
   0.040998000     0.9112515   -0.0420469  
   0.042997900     0.9053006   -0.1845547  
   0.044997800     0.8517419   -0.2839821  
   0.046997700     0.8330320   -0.4194267  
   0.048997600     0.7777060   -0.5144836  
   0.050997500     0.7138017   -0.5962171  
   0.052997400     0.6438258   -0.6664268  
   0.054997300     0.5688350   -0.7255347  
   0.056997200     0.4884984   -0.7759371  
   0.058997100     0.4054578   -0.8163009  
   0.060997000     0.3191850   -0.8478597  
   0.062996900     0.2304045   -0.8699326  
   0.064996800     0.1389592   -0.8823537  
   0.066996700     0.0454551   -0.8853349  
   0.068996600    -0.0492529   -0.8777174  
   0.070996500    -0.1450200   -0.8599264  
   0.072996400    -0.2405408   -0.8292339  
   0.074996300    -0.3349259   -0.7858151  
   0.076996200    -0.4266959   -0.7289834  
   0.078996100    -0.5130363   -0.6573312  
   0.080996000    -0.5930068   -0.5706846  
   0.082995900    -0.6624962   -0.4686489  
   0.084995800    -0.7179223   -0.3515774  
   0.086995700    -0.7569911   -0.2209013  
   0.088995600    -0.7741510   -0.0779299  
   0.090995500    -0.7653819    0.0731778  
   0.092995400    -0.7273417    0.2280358  
   0.094995300    -0.6553738    0.3785062  
   0.096995200    -0.5499485    0.5167004  
   0.098995100    -0.4125466    0.6330984  
   0.100995000    -0.2482461    0.7184638  
   0.102994900    -0.0674528    0.7645578  
   0.104994800     0.1196806    0.7682047  
   0.106994700     0.3010413    0.7288001  
   0.108994600     0.4660067    0.6515720  
   0.110994500     0.6067189    0.5428335  
   0.112994400     0.7168692    0.4112570  
   0.114994300     0.7942900    0.2657352  
   0.116994200     0.8397607    0.1144766  
   0.118994100     0.8549665   -0.0356169  
   0.120994000     0.8449004   -0.1796218  
   0.122993900     0.8104461   -0.3133561  
   0.124993800     0.7566479   -0.4339695  
   0.126993700     0.6875023   -0.5403010  
   0.128993600     0.6053512   -0.6307677  
   0.130993500     0.5148205   -0.7061760  
   0.132993400     0.4172851   -0.7667084  
   0.134993300     0.3152676   -0.8116455  
   0.136993200     0.2099997   -0.8422317  
   0.138993100     0.1034391   -0.8584653  
   0.140993000    -0.0029974   -0.8605761  
   0.142992900    -0.1081214   -0.8489202  
   0.144992800    -0.2109377   -0.8259372  
   0.146992700    -0.3100146   -0.7883167  
   0.148992600    -0.4040495   -0.7382521  
   0.150992500    -0.4905480   -0.6748781  
   0.152992400    -0.5703267   -0.6007294  
   0.154992300    -0.6407138   -0.5153950  
   0.156992200    -0.7002065   -0.4193466  
   0.158992100    -0.7469285   -0.3136893  
   0.160992000    -0.7792979   -0.1994463  
   0.162991900    -0.7952184   -0.0784840  
   0.164991800    -0.7926980    0.0470809  
   0.166991700    -0.7705155    0.1745566  
   0.168991600    -0.7272058    0.3006026  
   0.170991500    -0.6614096    0.4217140  
   0.172991400    -0.5741564    0.5332072  
   0.174991300    -0.4663294    0.6305357  
   0.176991200    -0.3389742    0.7091226  
   0.178991100    -0.1966242    0.7645120  
   0.180991000    -0.0438297    0.7937598  
   0.182990900     0.1136152    0.7929301  
   0.184990800     0.2699153    0.7617540  
   0.186990700     0.4176255    0.7011060  
   0.188990600     0.5315663    0.6280309  
   0.190990500     0.6599101    0.5051274  
   0.192990400     0.7505396    0.3739273  
   0.194990300     0.8129769    0.2335428  
   0.196990200     0.8476341    0.0875197  
   0.198990100     0.8551599   -0.0588211  
   0.200990000     0.8375311   -0.2010936  
   0.202989900     0.7966973   -0.3346549  
   0.204989800     0.7361059   -0.4562466  
   0.206989700     0.6594882   -0.5639006  
   0.208989600     0.5685177   -0.6552727  
   0.210989500     0.4670846   -0.7294941  
   0.212989400     0.3572649   -0.7864977  
   0.214989300     0.2427226   -0.8259593  
   0.216989200     0.1261882   -0.8477029  
   0.218989100     0.0098412   -0.8526585  
   0.220989000    -0.1052412   -0.8411368  
   0.222988900    -0.2167193   -0.8132570  
   0.224988800    -0.3231239   -0.7705818  
   0.226988700    -0.4221046   -0.7137136  
   0.228988600    -0.5118568   -0.6437858  
   0.230988500    -0.5911376   -0.5616111  
   0.232988400    -0.6579751   -0.4672202  
   0.234988300    -0.7121995   -0.3635847  
   0.236988200    -0.7512619   -0.2513780  
   0.238988100    -0.7734956   -0.1328684  
   0.240988000    -0.7780776   -0.0105895  
   0.242987900    -0.7632110    0.1130054  
   0.244987800    -0.7286546    0.2353515  
   0.246987700    -0.6734374    0.3533818  
   0.248987600    -0.5976855    0.4636486  
   0.250987500    -0.5020273    0.5617129  
   0.252987400    -0.3888543    0.6434730  
   0.254987300    -0.2608580    0.7045000  
   0.256987200    -0.1221406    0.7427379  
   0.258987100     0.0238645    0.7567440  
   0.260987000     0.1715504    0.7418252  
   0.262986900     0.3154410    0.6995216  
   0.264986800     0.4493665    0.6301171  
   0.266986700     0.5680320    0.5370448  
   0.268986600     0.6663841    0.4241719  
   0.270986500     0.7408836    0.2967612  
   0.272986400     0.7903838    0.1590847  
   0.274986300     0.8136851    0.0177201  
   0.276986200     0.8116943   -0.1234726  
   0.278986100     0.7855108   -0.2593237  
   0.280986000     0.7372433   -0.3865684  
   0.282985900     0.6703689   -0.5012916  
   0.284985800     0.5874845   -0.6011528  
   0.286985700     0.4922924   -0.6842427  
   0.288985600     0.3881374   -0.7500421  
   0.290985500     0.2786682   -0.7980237  
   0.292985400     0.1655581   -0.8286659  
   0.294985300     0.0514513   -0.8425271  
   0.296985200    -0.0624048   -0.8404835  
   0.298985100    -0.1737625   -0.8224222  
   0.300985000    -0.2808483   -0.7894597  
   0.302984900    -0.3812783   -0.7425946  
   0.304984800    -0.4737424   -0.6828690  
   0.306984700    -0.5573236   -0.6119078  
   0.308984600    -0.6298298   -0.5306615  
   0.310984500    -0.6909453   -0.4407336  
   0.312984400    -0.7397895   -0.3420964  
   0.314984300    -0.7750668   -0.2363415  
   0.316984200    -0.7956756   -0.1251499  
   0.318984100    -0.7998772   -0.0089873  
   0.320984000    -0.7860992    0.1093610  
   0.322983900    -0.7527143    0.2272497  
   0.324983800    -0.6990566    0.3388981  
   0.326983700    -0.6258286    0.4402227  
   0.328983600    -0.5360321    0.5270343  
   0.330983500    -0.4342708    0.5953850  
   0.332983400    -0.3265611    0.6447386  
   0.334983300    -0.2148845    0.6771554  
   0.336983200    -0.1017173    0.6937670  
   0.338983100     0.0127822    0.6953424  
   0.340983000     0.1272345    0.6810534  
   0.342982900     0.2407264    0.6500088  
   0.344982800     0.3505662    0.6011296  
   0.346982700     0.4541105    0.5334002  
   0.348982600     0.5455489    0.4471932  
   0.350982500     0.6231438    0.3454100  
   0.352982400     0.6827736    0.2304807  
   0.354982300     0.7223853    0.1006872  
   0.356982200     0.7369025   -0.0477700  
   0.358982100     0.7213151   -0.1962933  
   0.360982000     0.6765919   -0.3382601  
   0.362981900     0.6048217   -0.4685632  
   0.364981800     0.5089324   -0.5818984  
   0.366981700     0.3931240   -0.6736728  
   0.368981600     0.2628364   -0.7407756  
   0.370981500     0.1227942   -0.7813786  
   0.372981400    -0.0210657   -0.7944731  
   0.374981300    -0.1639051   -0.7803509  
   0.376981200    -0.0428815   -0.7945489  
   0.378981100    -0.1832861   -0.7762944  
   0.380981000    -0.3168342   -0.7329916  
   0.382980900    -0.4282886   -0.6738160  
   0.384980800    -0.5238852   -0.6014864  
   0.386980700    -0.6065614   -0.5160647  
   0.388980600    -0.6752129   -0.4190546  
   0.390980500    -0.7281410   -0.3142496  
   0.392980400    -0.7644466   -0.2029776  
   0.394980300    -0.7837400   -0.0878432  
   0.396980200    -0.7857710    0.0288106  
   0.398980100    -0.7703239    0.1450056  
   0.400980000    -0.7379320    0.2587512  
   0.402979900    -0.6879839    0.3669384  
   0.404979800    -0.6223035    0.4670762  
   0.406979700    -0.5410009    0.5571442  
   0.408979600    -0.4462526    0.6344968  
   0.410979500    -0.3382502    0.6973298  
   0.412979400    -0.2199761    0.7432128  
   0.414979300    -0.0939028    0.7684174  
   0.416979200     0.0358677    0.7742131  
   0.418979100     0.1662750    0.7585260  
   0.420979000     0.2939328    0.7210543  
   0.422978900     0.4146525    0.6620238  
   0.424978800     0.5246256    0.5822039  
   0.426978700     0.6201175    0.4842263  
   0.428978600     0.6975102    0.3705773  
   0.430978500     0.7537631    0.2453927  
   0.432978400     0.7876545    0.1128256  
   0.434978300     0.7993048   -0.0232855  
   0.436978200     0.7861197   -0.1586750  
   0.438978100     0.7501705   -0.2891631  
   0.440978000     0.6931695   -0.4104949  
   0.442977900     0.6171855   -0.5194314  
   0.444977800     0.5245145   -0.6133492  
   0.446977700     0.4190584   -0.6898675  
   0.448977600     0.3041189   -0.7470335  
   0.450977500     0.1829249   -0.7840905  
   0.452977400     0.0579844   -0.8011110  
   0.454977300    -0.0670306   -0.7979795  
   0.456977200    -0.1893238   -0.7754404  
   0.458977100    -0.3056569   -0.7340704  
   0.460977000    -0.4127564   -0.6753308  
   0.462976900    -0.5085789   -0.6018819  
   0.464976800    -0.5915651   -0.5146345  
   0.466976700    -0.6596614   -0.4162917  
   0.468976600    -0.7119529   -0.3089784  
   0.470976500    -0.7470048   -0.1949093  
   0.472976400    -0.7642184   -0.0766536  
   0.474976300    -0.7628446    0.0432069  
   0.476976200    -0.7427186    0.1615612  
   0.478976100    -0.7041366    0.2756958  
   0.480976000    -0.6481079    0.3828391  
   0.482975900    -0.5754218    0.4802687  
   0.484975800    -0.4872196    0.5659238  
   0.486975700    -0.3853555    0.6364222  
   0.488975600    -0.2720515    0.6900856  
   0.490975500    -0.1500645    0.7243581  
   0.492975400    -0.0226627    0.7377228  
   0.494975300     0.1059157    0.7287555  
   0.496975200     0.2316775    0.6973490  
   0.498975100     0.3501804    0.6442584  
   0.500975000     0.4573458    0.5710682  
   0.502974900     0.5491499    0.4804105  
   0.504974800     0.6229579    0.3756156  
   0.506974700     0.6767753    0.2605517  
   0.508974600     0.7090731    0.1387346  
   0.510974500     0.7194824    0.0158914  
   0.512974400     0.7092546   -0.1047228  
   0.514974300     0.6791173   -0.2175598  
   0.516974200     0.6341062   -0.3219645  
   0.518974100     0.5754850   -0.4160144  
   0.520974000     0.5056082   -0.4984720  
   0.522973900     0.4264525   -0.5688865  
   0.524973800     0.3402777   -0.6271788  
   0.526973700     0.2470257   -0.6733111  
   0.528973600     0.1489514   -0.7067158  
   0.530973500     0.0462775   -0.7269984  
   0.532973400    -0.0594543   -0.7329378  
   0.534973300    -0.1660756   -0.7237059  
   0.536973200    -0.2726849   -0.6984064  
   0.538973100    -0.3752390   -0.6564195  
   0.540973000    -0.4709812   -0.5989394  
   0.542972900    -0.5580699   -0.5255868  
   0.544972800    -0.6336473   -0.4388294  
   0.546972700    -0.6948328   -0.3393520  
   0.548972600    -0.7397509   -0.2301757  
   0.550972500    -0.7665821   -0.1142215  
   0.552972400    -0.7745440    0.0053918  
   0.554972300    -0.7628860    0.1255515  
   0.556972200    -0.7315305    0.2429903  
   0.558972100    -0.6813836    0.3543659  
   0.560972000    -0.6138536    0.4564640  
   0.562971900    -0.5304809    0.5464933  
   0.564971800    -0.4331557    0.6221829  
   0.566971700    -0.3244696    0.6815578  
   0.568971600    -0.2073083    0.7226415  
   0.570971500    -0.0840291    0.7442644  
   0.572971400     0.0419505    0.7454520  
   0.574971300     0.1677434    0.7257904  
   0.576971200     0.2896709    0.6847757  
   0.578971100     0.4038388    0.6234948  
   0.580971000     0.5067360    0.5432569  
   0.582970900     0.5946947    0.4464399  
   0.584970800     0.6648350    0.3356353  
   0.586970700     0.7147363    0.2148605  
   0.588970600     0.7436290    0.0866754  
   0.590970500     0.7499471   -0.0440525  
   0.592970400     0.7339585   -0.1740871  
   0.594970300     0.6957666   -0.2988930  
   0.596970200     0.6373194   -0.4150968  
   0.598970100     0.5602966   -0.5189316  
   0.600970000     0.4672431   -0.6080939  
   0.602969900     0.3614391   -0.6796792  
   0.604969800     0.2458066   -0.7321128  
   0.606969700     0.1240505   -0.7644246  
   0.608969600    -0.0007544   -0.7764469  
   0.610969500    -0.1244653   -0.7683963  
   0.612969400    -0.2444103   -0.7400810  
   0.614969300    -0.3567738   -0.6940345  
   0.616969200    -0.4592707   -0.6313305  
   0.618969100    -0.5494187   -0.5547212  
   0.620969000    -0.6262855   -0.4659709  
   0.622968900    -0.6885158   -0.3670444  
   0.624968800    -0.7348585   -0.2603767  
   0.626968700    -0.7647520   -0.1477999  
   0.628968600    -0.7774944   -0.0322277  
   0.630968500    -0.7726108    0.0840433  
   0.632968400    -0.7503065    0.1984257  
   0.634968300    -0.7111727    0.3085517  
   0.636968200    -0.6553678    0.4118134  
   0.638968100    -0.5846499    0.5061507  
   0.640968000    -0.4994721    0.5890356  
   0.642967900    -0.4021541    0.6585629  
   0.644967800    -0.2941457    0.7130982  
   0.646967700    -0.1781872    0.7500269  
   0.648967600    -0.0570686    0.7685574  
   0.650967500     0.0662959    0.7680444  
   0.652967400     0.1888988    0.7476357  
   0.654967300     0.3078039    0.7075688  
   0.656967200     0.4194142    0.6481416  
   0.658967100     0.5208204    0.5708372  
   0.660967000     0.6088717    0.4772227  
   0.662966900     0.6807734    0.3689992  
   0.664966800     0.7341691    0.2489157  
   0.666966700     0.7667485    0.1209931  
   0.668966600     0.7772602   -0.0109417  
   0.670966500     0.7654664   -0.1430441  
   0.672966400     0.7321969   -0.2707172  
   0.674966300     0.6770650   -0.3901996  
   0.676966200     0.6029796   -0.4978131  
   0.678966100     0.5132359   -0.5905511  
   0.680966000     0.4096995   -0.6665628  
   0.682965900     0.2964188   -0.7236401  
   0.684965800     0.1767682   -0.7611387  
   0.686965700     0.0537166   -0.7784564  
   0.688965600    -0.0693266   -0.7762758  
   0.690965500    -0.1881834   -0.7533332  
   0.692965400    -0.3014794   -0.7138425  
   0.694965300    -0.4058074   -0.6578612  
   0.696965200    -0.4997092   -0.5870725  
   0.698965100    -0.5805944   -0.5036444  
   0.700965000    -0.6478481   -0.4093321  
   0.702964900    -0.6997749   -0.3064476  
   0.704964800    -0.7354630   -0.1971527  
   0.706964700    -0.7541787   -0.0837987  
   0.708964600    -0.7554136    0.0310912  
   0.710964500    -0.7399957    0.1454000  
   0.712964400    -0.7063642    0.2561108  
   0.714964300    -0.6560578    0.3608296  
   0.716964200    -0.5900757    0.4564856  
   0.718964100    -0.5094508    0.5411659  
   0.720964000    -0.4167477    0.6124052  
   0.722963900    -0.3132394    0.6684912  
   0.724963800    -0.2016518    0.7075068  
   0.726963700    -0.0842174    0.7283116  
   0.728963600     0.0355750    0.7292103  
   0.730963500     0.1543291    0.7105603  
   0.732963400     0.2689216    0.6725330  
   0.734963300     0.3760073    0.6158921  
   0.736963200     0.4859490    0.5303252  
   0.738963100     0.5782901    0.4252879  
   0.740963000     0.6485478    0.3051153  
   0.742962900     0.6948217    0.1743489  
   0.744962800     0.7154739    0.0383610  
   0.746962700     0.7105051   -0.0980782  
   0.748962600     0.6806331   -0.2301579  
   0.750962500     0.6946264   -0.1231784  
   0.752962400     0.6617649   -0.2524983  
   0.754962300     0.6064180   -0.3727683  
   0.756962200     0.5311182   -0.4800126  
   0.758962100     0.4382754   -0.5719734  
   0.760962000     0.3310272   -0.6454651  
   0.762961900     0.2185895   -0.6968634  
   0.764961800     0.1094329   -0.7269093  
   0.766961700    -0.0026893   -0.7401066  
   0.768961600    -0.1159571   -0.7360380  
   0.770961500    -0.2275810   -0.7147936  
   0.772961400    -0.3344299   -0.6764418  
   0.774961300    -0.4344729   -0.6222113  
   0.776961200    -0.5256128   -0.5526295  
   0.778961100    -0.6046197   -0.4695570  
   0.780961000    -0.6700659   -0.3745005  
   0.782960900    -0.7200735   -0.2700828  
   0.784960800    -0.7529951   -0.1586101  
   0.786960700    -0.7677886   -0.0424931  
   0.788960600    -0.7643582    0.0746947  
   0.790960500    -0.7420152    0.1898903  
   0.792960400    -0.7020536    0.3000833  
   0.794960300    -0.6450770    0.4030356  
   0.796960200    -0.5728480    0.4957281  
   0.798960100    -0.4867021    0.5755327  
   0.800960000    -0.3892574    0.6410752  
   0.802959900    -0.2823883    0.6906425  
   0.804959800    -0.1687871    0.7230717  
   0.806959700    -0.0516504    0.7371563  
   0.808959600     0.0669482    0.7323256  
   0.810959500     0.1837776    0.7092258  
   0.812959400     0.2958266    0.6673826  
   0.814959300     0.4006062    0.6076667  
   0.816959200     0.4946747    0.5319876  
   0.818959100     0.5757481    0.4414013  
   0.820959000     0.6415974    0.3380607  
   0.822958900     0.6897553    0.2251461  
   0.824958800     0.7189387    0.1048511  
   0.826958700     0.7280342   -0.0189128  
   0.828958600     0.7161480   -0.1425379  
   0.830958500     0.6840196   -0.2628796  
   0.832958400     0.6321660   -0.3759386  
   0.834958300     0.5624391   -0.4787401  
   0.836958200     0.4768558   -0.5686762  
   0.838958100     0.3778394   -0.6426799  
   0.840958000     0.2681030   -0.6992112  
   0.842957900     0.1510641   -0.7368634  
   0.844957800     0.0300978   -0.7544965  
   0.846957700    -0.0915603   -0.7525539  
   0.848957600    -0.2105476   -0.7308835  
   0.850957500    -0.3239812   -0.6905234  
   0.852957400    -0.4286086   -0.6332166  
   0.854957300    -0.5222033   -0.5603244  
   0.856957200    -0.6028045   -0.4743549  
   0.858957100    -0.6682590   -0.3776834  
   0.860957000    -0.7176713   -0.2732641  
   0.862956900    -0.7503943   -0.1632842  
   0.864956800    -0.7658306   -0.0510464  
   0.866956700    -0.7640942    0.0612267  
   0.868956600    -0.7458946    0.1718885  
   0.870956500    -0.7115253    0.2780577  
   0.872956400    -0.6620520    0.3785250  
   0.874956300    -0.5985273    0.4702232  
   0.876956200    -0.5210930    0.5522645  
   0.878956100    -0.4319884    0.6226811  
   0.880956000    -0.3329757    0.6788939  
   0.882955900    -0.2253698    0.7199125  
   0.884955800    -0.1123746    0.7444382  
   0.886955700     0.0041010    0.7512830  
   0.888955600     0.1215380    0.7399426  
   0.890955500     0.2363404    0.7102909  
   0.892955400     0.3460840    0.6625637  
   0.894955300     0.4476380    0.5976527  
