! MS46122B
! 2250307/22442219
! 7/28/2025 2:09:36 PM
! C:\USERS\SPARKY\DOCUMENTS\VNA_DATA\JULY28_2025\3K\PORT4_MOS5_REPEAT1.S1P
! CHANNEL.1
! TR.MEASUREMENT
! RAW.DATA
# GHZ S RI R 50.0
! FREQ.GHZ         S11RE         S11IM         
!; PortSelection: Port_1
   0.001000000     1.0463570   -0.0722633  
   0.002999900     0.9646528   -0.1945919  
   0.004999800     0.9046662   -0.2995565  
   0.006999700     0.8373345   -0.3973278  
   0.008999600     0.7591848   -0.4930463  
   0.010999500     0.6662664   -0.5843986  
   0.012999400     0.5529976   -0.6688735  
   0.014999300     0.4130748   -0.7404991  
   0.016999200     0.2398002   -0.7865541  
   0.018999100     0.0271485   -0.7865045  
   0.020999000    -0.2171453   -0.7044119  
   0.022998900    -0.4546276   -0.4958633  
   0.024998800    -0.5711076   -0.1477486  
   0.026998700    -0.5157372    0.2757055  
   0.028998600    -0.2200418    0.5884650  
   0.030998500     0.1587478    0.6897926  
   0.032998400     0.4532638    0.6057338  
   0.034998300     0.7047309    0.4603783  
   0.036998200     0.8368625    0.2780144  
   0.038998100     0.9028612    0.1010780  
   0.040998000     0.9239036   -0.0604155  
   0.042997900     0.9133425   -0.2033215  
   0.044997800     0.8563331   -0.3018427  
   0.046997700     0.8344204   -0.4375107  
   0.048997600     0.7764913   -0.5316757  
   0.050997500     0.7104095   -0.6126804  
   0.052997400     0.6384838   -0.6819186  
   0.054997300     0.5617092   -0.7402204  
   0.056997200     0.4797245   -0.7896029  
   0.058997100     0.3950324   -0.8289838  
   0.060997000     0.3072625   -0.8594725  
   0.062996900     0.2168742   -0.8802606  
   0.064996800     0.1237529   -0.8914164  
   0.066996700     0.0287266   -0.8927557  
   0.068996600    -0.0676464   -0.8833355  
   0.070996500    -0.1651373   -0.8633739  
   0.072996400    -0.2620795   -0.8300633  
   0.074996300    -0.3578230   -0.7837962  
   0.076996200    -0.4507219   -0.7232603  
   0.078996100    -0.5377485   -0.6474890  
   0.080996000    -0.6177498   -0.5559658  
   0.082995900    -0.6865346   -0.4485217  
   0.084995800    -0.7398968   -0.3255567  
   0.086995700    -0.7754717   -0.1887230  
   0.088995600    -0.7875125   -0.0395999  
   0.090995500    -0.7711990    0.1167851  
   0.092995400    -0.7238798    0.2757472  
   0.094995300    -0.6405921    0.4284156  
   0.096995200    -0.5226023    0.5648711  
   0.098995100    -0.3730471    0.6763108  
   0.100995000    -0.1970466    0.7524859  
   0.102994900    -0.0077774    0.7860050  
   0.104994800     0.1841960    0.7751212  
   0.106994700     0.3660438    0.7200426  
   0.108994600     0.5275452    0.6284627  
   0.110994500     0.6606430    0.5068932  
   0.112994400     0.7610158    0.3654161  
   0.114994300     0.8275066    0.2130062  
   0.116994200     0.8612380    0.0580399  
   0.118994100     0.8652804   -0.0934061  
   0.120994000     0.8450767   -0.2366378  
   0.122993900     0.8012528   -0.3677630  
   0.124993800     0.7393891   -0.4845608  
   0.126993700     0.6633722   -0.5868098  
   0.128993600     0.5752335   -0.6717816  
   0.130993500     0.4800073   -0.7420115  
   0.132993400     0.3784328   -0.7965983  
   0.134993300     0.2730511   -0.8361159  
   0.136993200     0.1656307   -0.8609115  
   0.138993100     0.0570692   -0.8711576  
   0.140993000    -0.0505576   -0.8672364  
   0.142992900    -0.1565608   -0.8495438  
   0.144992800    -0.2599014   -0.8202820  
   0.146992700    -0.3586142   -0.7762616  
   0.148992600    -0.4514293   -0.7196853  
   0.150992500    -0.5363412   -0.6495776  
   0.152992400    -0.6136447   -0.5686783  
   0.154992300    -0.6804129   -0.4766293  
   0.156992200    -0.7353290   -0.3734239  
   0.158992100    -0.7765741   -0.2613481  
   0.160992000    -0.8015978   -0.1408689  
   0.162991900    -0.8089723   -0.0147069  
   0.164991800    -0.7967057    0.1155998  
   0.166991700    -0.7627818    0.2458535  
   0.168991600    -0.7067096    0.3729183  
   0.170991500    -0.6271155    0.4927238  
   0.172991400    -0.5257304    0.6000207  
   0.174991300    -0.4035394    0.6895159  
   0.176991200    -0.2637052    0.7574669  
   0.178991100    -0.1103607    0.7988521  
   0.180991000     0.0502631    0.8111253  
   0.182990900     0.2116787    0.7914341  
   0.184990800     0.3676688    0.7404878  
   0.186990700     0.5103059    0.6603965  
   0.188990600     0.6168160    0.5719562  
   0.190990500     0.7311658    0.4311662  
   0.192990400     0.8059812    0.2877238  
   0.194990300     0.8511504    0.1390108  
   0.196990200     0.8673569   -0.0109860  
   0.198990100     0.8571436   -0.1582594  
   0.200990000     0.8221743   -0.2980950  
   0.202989900     0.7660159   -0.4263720  
   0.204989800     0.6911026   -0.5402368  
   0.206989700     0.6026196   -0.6390506  
   0.208989600     0.5017975   -0.7193058  
   0.210989500     0.3919128   -0.7823957  
   0.212989400     0.2760304   -0.8272510  
   0.214989300     0.1571293   -0.8540251  
   0.216989200     0.0379583   -0.8633868  
   0.218989100    -0.0798149   -0.8556300  
   0.220989000    -0.1942708   -0.8315011  
   0.222988900    -0.3040153   -0.7912494  
   0.224988800    -0.4072334   -0.7363816  
   0.226988700    -0.5013155   -0.6675711  
   0.228988600    -0.5850255   -0.5860189  
   0.230988500    -0.6567349   -0.4929101  
   0.232988400    -0.7138137   -0.3883055  
   0.234988300    -0.7571372   -0.2753240  
   0.236988200    -0.7833347   -0.1548704  
   0.238988100    -0.7912819   -0.0299637  
   0.240988000    -0.7796174    0.0971077  
   0.242987900    -0.7473803    0.2228952  
   0.244987800    -0.6941043    0.3446657  
   0.246987700    -0.6194803    0.4588485  
   0.248987600    -0.5243996    0.5613737  
   0.250987500    -0.4097951    0.6476886  
   0.252987400    -0.2798316    0.7135137  
   0.254987300    -0.1379326    0.7551056  
   0.256987200     0.0109385    0.7706167  
   0.258987100     0.1625541    0.7590625  
   0.260987000     0.3103116    0.7178156  
   0.262986900     0.4487284    0.6487327  
   0.264986800     0.5712842    0.5545831  
   0.266986700     0.6736010    0.4396052  
   0.268986600     0.7513316    0.3090667  
   0.270986500     0.8028575    0.1684435  
   0.272986400     0.8274117    0.0237095  
   0.274986300     0.8260275   -0.1208299  
   0.276986200     0.7999060   -0.2597454  
   0.278986100     0.7508460   -0.3893447  
   0.280986000     0.6828946   -0.5066680  
   0.282985900     0.5984818   -0.6086443  
   0.284985800     0.5008973   -0.6940199  
   0.286985700     0.3944589   -0.7616379  
   0.288985600     0.2816582   -0.8106167  
   0.290985500     0.1657757   -0.8416952  
   0.292985400     0.0492256   -0.8553728  
   0.294985300    -0.0664363   -0.8529953  
   0.296985200    -0.1795929   -0.8342218  
   0.298985100    -0.2886451   -0.8001742  
   0.300985000    -0.3916611   -0.7515107  
   0.302984900    -0.4861331   -0.6896501  
   0.304984800    -0.5713804   -0.6159557  
   0.306984700    -0.6456721   -0.5311577  
   0.308984600    -0.7075681   -0.4372140  
   0.310984500    -0.7564102   -0.3353760  
   0.312984400    -0.7908407   -0.2258657  
   0.314984300    -0.8098655   -0.1109052  
   0.316984200    -0.8117552    0.0081030  
   0.318984100    -0.7949653    0.1293742  
   0.320984000    -0.7574951    0.2497926  
   0.322983900    -0.6988267    0.3642227  
   0.324983800    -0.6194897    0.4672515  
   0.326983700    -0.5222210    0.5539537  
   0.328983600    -0.4120250    0.6201935  
   0.330983500    -0.2959556    0.6645157  
   0.332983400    -0.1790962    0.6885602  
   0.334983300    -0.0639973    0.6960177  
   0.336983200     0.0494047    0.6889340  
   0.338983100     0.1609895    0.6677034  
   0.340983000     0.2705393    0.6314421  
   0.342982900     0.3760628    0.5789150  
   0.344982800     0.4753406    0.5085869  
   0.346982700     0.5641677    0.4202317  
   0.348982600     0.6373385    0.3157038  
   0.350982500     0.6932633    0.1984746  
   0.352982400     0.7279217    0.0714038  
   0.354982300     0.7388878   -0.0659495  
   0.356982200     0.7204677   -0.2163169  
   0.358982100     0.6721838   -0.3596914  
   0.360982000     0.5963803   -0.4904588  
   0.362981900     0.4964466   -0.6027938  
   0.364981800     0.3765458   -0.6931518  
   0.366981700     0.2421864   -0.7579610  
   0.368981600     0.0987961   -0.7947862  
   0.370981500    -0.0478088   -0.8037516  
   0.372981400    -0.1919764   -0.7851521  
   0.374981300    -0.3296546   -0.7395692  
   0.376981200    -0.2115341   -0.7810236  
   0.378981100    -0.3465872   -0.7329366  
   0.380981000    -0.4693484   -0.6611085  
   0.382980900    -0.5675760   -0.5780744  
   0.384980800    -0.6466507   -0.4861196  
   0.386980700    -0.7112445   -0.3828194  
   0.388980600    -0.7589549   -0.2711497  
   0.390980500    -0.7888511   -0.1542098  
   0.392980400    -0.8010240   -0.0342303  
   0.394980300    -0.7949198    0.0858217  
   0.396980200    -0.7708389    0.2045724  
   0.398980100    -0.7287710    0.3189929  
   0.400980000    -0.6691767    0.4262771  
   0.402979900    -0.5930655    0.5248784  
   0.404979800    -0.5019022    0.6108913  
   0.406979700    -0.3972892    0.6828676  
   0.408979600    -0.2809571    0.7377201  
   0.410979500    -0.1553284    0.7741159  
   0.412979400    -0.0232319    0.7895973  
   0.414979300     0.1111464    0.7819993  
   0.416979200     0.2442260    0.7530454  
   0.418979100     0.3715280    0.7013204  
   0.420979000     0.4892543    0.6279652  
   0.422978900     0.5935683    0.5345558  
   0.424978800     0.6804658    0.4238036  
   0.426978700     0.7469727    0.2988192  
   0.428978600     0.7905033    0.1641915  
   0.430978500     0.8096576    0.0245232  
   0.432978400     0.8040977   -0.1151578  
   0.434978300     0.7758619   -0.2516901  
   0.436978200     0.7237198   -0.3795498  
   0.438978100     0.6511560   -0.4954194  
   0.440978000     0.5608501   -0.5968443  
   0.442977900     0.4560440   -0.6806578  
   0.444977800     0.3402536   -0.7445967  
   0.446977700     0.2171302   -0.7882545  
   0.448977600     0.0900507   -0.8109974  
   0.450977500    -0.0373668   -0.8128189  
   0.452977400    -0.1629021   -0.7944995  
   0.454977300    -0.2831787   -0.7569936  
   0.456977200    -0.3953594   -0.7013174  
   0.458977100    -0.4971309   -0.6288535  
   0.460977000    -0.5854116   -0.5421622  
   0.462976900    -0.6586992   -0.4434330  
   0.464976800    -0.7160528   -0.3348019  
   0.466976700    -0.7553014   -0.2187126  
   0.468976600    -0.7763809   -0.0980533  
   0.470976500    -0.7783980    0.0252665  
   0.472976400    -0.7612311    0.1473515  
   0.474976300    -0.7242087    0.2661135  
   0.476976200    -0.6688894    0.3779747  
   0.478976100    -0.5957354    0.4803936  
   0.480976000    -0.5067578    0.5698628  
   0.482975900    -0.4035846    0.6444187  
   0.484975800    -0.2882945    0.7013764  
   0.486975700    -0.1637947    0.7387472  
   0.488975600    -0.0337444    0.7546857  
   0.490975500     0.0983811    0.7479192  
   0.492975400     0.2284026    0.7178755  
   0.494975300     0.3516479    0.6654947  
   0.496975200     0.4639128    0.5915623  
   0.498975100     0.5606861    0.4993201  
   0.500975000     0.6388672    0.3917449  
   0.502974900     0.6964590    0.2732246  
   0.504974800     0.7317101    0.1476720  
   0.506974700     0.7439991    0.0196415  
   0.508974600     0.7341927   -0.1070373  
   0.510974500     0.7037086   -0.2276689  
   0.512974400     0.6548766   -0.3387806  
   0.514974300     0.5898857   -0.4365240  
   0.516974200     0.5136561   -0.5222203  
   0.518974100     0.4280368   -0.5935981  
   0.520974000     0.3354065   -0.6510113  
   0.522973900     0.2372841   -0.6945115  
   0.524973800     0.1353005   -0.7239205  
   0.526973700     0.0302189   -0.7400633  
   0.528973600    -0.0763278   -0.7417668  
   0.530973500    -0.1837033   -0.7292571  
   0.532973400    -0.2895932   -0.7010399  
   0.534973300    -0.3917007   -0.6564620  
   0.536973200    -0.4880608   -0.5964059  
   0.538973100    -0.5750040   -0.5209481  
   0.540973000    -0.6501282   -0.4318954  
   0.542972900    -0.7106037   -0.3302954  
   0.544972800    -0.7544520   -0.2188706  
   0.546972700    -0.7800294   -0.1003970  
   0.548972600    -0.7860447    0.0218479  
   0.550972500    -0.7717808    0.1443694  
   0.552972400    -0.7371977    0.2640381  
   0.554972300    -0.6832988    0.3769150  
   0.556972200    -0.6111933    0.4801783  
   0.558972100    -0.5226956    0.5705730  
   0.560972000    -0.4200474    0.6455201  
   0.562971900    -0.3061515    0.7029030  
   0.564971800    -0.1841751    0.7409883  
   0.566971700    -0.0570892    0.7583748  
   0.568971600     0.0717818    0.7547354  
   0.570971500     0.1991095    0.7296550  
   0.572971400     0.3211746    0.6833277  
   0.574971300     0.4348975    0.6166475  
   0.576971200     0.5362315    0.5307310  
   0.578971100     0.6220605    0.4281718  
   0.580971000     0.6890155    0.3121496  
   0.582970900     0.7348434    0.1862512  
   0.584970800     0.7586277    0.0542488  
   0.586970700     0.7591993   -0.0790190  
   0.588970600     0.7370802   -0.2104319  
   0.590970500     0.6929263   -0.3354578  
   0.592970400     0.6282420   -0.4506291  
   0.594970300     0.5457750   -0.5522312  
   0.596970200     0.4476574   -0.6384282  
   0.598970100     0.3375066   -0.7063234  
   0.600970000     0.2186053   -0.7543554  
   0.602969900     0.0942374   -0.7819629  
   0.604969800    -0.0319790   -0.7891448  
   0.606969700    -0.1566802   -0.7762210  
   0.608969600    -0.2770363   -0.7431937  
   0.610969500    -0.3896951   -0.6920503  
   0.612969400    -0.4918798   -0.6243007  
   0.614969300    -0.5813629   -0.5423701  
   0.616969200    -0.6563618   -0.4485335  
   0.618969100    -0.7155645   -0.3452148  
   0.620969000    -0.7582477   -0.2349562  
   0.622968900    -0.7840924   -0.1198654  
   0.624968800    -0.7924750   -0.0022122  
   0.626968700    -0.7829718    0.1156973  
   0.628968600    -0.7559142    0.2311966  
   0.630968500    -0.7117178    0.3419358  
   0.632968400    -0.6507896    0.4451025  
   0.634968300    -0.5745457    0.5386255  
   0.636968200    -0.4845696    0.6199435  
   0.638968100    -0.3819889    0.6870539  
   0.640968000    -0.2693950    0.7378731  
   0.642967900    -0.1489684    0.7706070  
   0.644967800    -0.0239930    0.7841574  
   0.646967700     0.1028702    0.7778022  
   0.648967600     0.2283270    0.7506402  
   0.650967500     0.3478797    0.7033902  
   0.652967400     0.4592685    0.6367253  
   0.654967300     0.5587689    0.5521932  
   0.656967200     0.6433324    0.4520653  
   0.658967100     0.7101504    0.3385256  
   0.660967000     0.7575130    0.2142888  
   0.662966900     0.7833930    0.0834933  
   0.664966800     0.7871153   -0.0509808  
   0.666966700     0.7675600   -0.1841150  
   0.668966600     0.7257225   -0.3117052  
   0.670966500     0.6629705   -0.4301410  
   0.672966400     0.5828394   -0.5365123  
   0.674966300     0.4858499   -0.6256513  
   0.676966200     0.3765737   -0.6967754  
   0.678966100     0.2580885   -0.7482944  
   0.680966000     0.1347353   -0.7791415  
   0.682965900     0.0092328   -0.7894100  
   0.684965800    -0.1148195   -0.7799574  
   0.686965700    -0.2344569   -0.7509032  
   0.688965600    -0.3470473   -0.7040500  
   0.690965500    -0.4490943   -0.6400357  
   0.692965400    -0.5400575   -0.5627521  
   0.694965300    -0.6170992   -0.4732139  
   0.696965200    -0.6792634   -0.3740579  
   0.698965100    -0.7257593   -0.2667410  
   0.700965000    -0.7553313   -0.1539142  
   0.702964900    -0.7674462   -0.0380687  
   0.704964800    -0.7621976    0.0784865  
   0.706964700    -0.7390578    0.1929185  
   0.708964600    -0.6982548    0.3034064  
   0.710964500    -0.6412033    0.4070772  
   0.712964400    -0.5675744    0.5010104  
   0.714964300    -0.4795984    0.5825972  
   0.716964200    -0.3793478    0.6495957  
   0.718964100    -0.2690861    0.6997909  
   0.720964000    -0.1518852    0.7318006  
   0.722963900    -0.0304709    0.7444810  
   0.724963800     0.0923242    0.7370387  
   0.726963700     0.2124209    0.7092610  
   0.728963600     0.3267867    0.6616942  
   0.730963500     0.4314159    0.5947510  
   0.732963400     0.5233615    0.5118278  
   0.734963300     0.6008993    0.4146287  
   0.736963200     0.6684476    0.2901345  
   0.738963100     0.7111978    0.1549800  
   0.740963000     0.7275309    0.0152336  
   0.742962900     0.7172832   -0.1236242  
   0.744962800     0.6818263   -0.2568350  
   0.746962700     0.6226614   -0.3799191  
   0.748962600     0.5431964   -0.4890664  
   0.750962500     0.5992357   -0.4005029  
   0.752962400     0.5181407   -0.5066061  
   0.754962300     0.4200953   -0.5953857  
   0.756962200     0.3086500   -0.6652027  
   0.758962100     0.1871893   -0.7137130  
   0.760962000     0.0592098   -0.7400683  
   0.762961900    -0.0649091   -0.7441782  
   0.764961800    -0.1779693   -0.7302595  
   0.766961700    -0.2877355   -0.6995208  
   0.768961600    -0.3918786   -0.6520195  
   0.770961500    -0.4880219   -0.5890580  
   0.772961400    -0.5735732   -0.5117608  
   0.774961300    -0.6458503   -0.4219724  
   0.776961200    -0.7038208   -0.3214806  
   0.778961100    -0.7453213   -0.2129739  
   0.780961000    -0.7694172   -0.0984425  
   0.782960900    -0.7751763    0.0190714  
   0.784960800    -0.7621416    0.1366497  
   0.786960700    -0.7301624    0.2510450  
   0.788960600    -0.6805748    0.3594478  
   0.790960500    -0.6141424    0.4589329  
   0.792960400    -0.5329465    0.5463085  
   0.794960300    -0.4383208    0.6200159  
   0.796960200    -0.3333417    0.6779869  
   0.798960100    -0.2204394    0.7186366  
   0.800960000    -0.1024084    0.7407541  
   0.802959900     0.0182775    0.7438139  
   0.804959800     0.1381322    0.7280430  
   0.806959700     0.2540592    0.6928964  
   0.808959600     0.3630723    0.6394616  
   0.810959500     0.4626209    0.5689972  
   0.812959400     0.5501071    0.4831107  
   0.814959300     0.6226095    0.3836478  
   0.816959200     0.6783513    0.2730985  
   0.818959100     0.7153983    0.1543152  
   0.820959000     0.7325766    0.0310274  
   0.822958900     0.7289026   -0.0940780  
   0.824958800     0.7045438   -0.2170438  
   0.826958700     0.6602837   -0.3343378  
   0.828958600     0.5968349   -0.4427417  
   0.830958500     0.5163872   -0.5388842  
   0.832958400     0.4214388   -0.6203077  
   0.834958300     0.3146977   -0.6848957  
   0.836958200     0.1995314   -0.7304018  
   0.838958100     0.0791254   -0.7564420  
   0.840958000    -0.0434414   -0.7623550  
   0.842957900    -0.1648562   -0.7487462  
   0.844957800    -0.2818524   -0.7157553  
   0.846957700    -0.3912188   -0.6648206  
   0.848957600    -0.4907176   -0.5977818  
   0.850957500    -0.5776749   -0.5162092  
   0.852957400    -0.6506789   -0.4224952  
   0.854957300    -0.7077504   -0.3192056  
   0.856957200    -0.7479429   -0.2090482  
   0.858957100    -0.7707193   -0.0945057  
   0.860957000    -0.7754275    0.0209576  
   0.862956900    -0.7630290    0.1351077  
   0.864956800    -0.7338974    0.2454589  
   0.866956700    -0.6887742    0.3496961  
   0.868956600    -0.6283914    0.4454650  
   0.870956500    -0.5548255    0.5318336  
   0.872956400    -0.4687887    0.6065856  
   0.874956300    -0.3724436    0.6680365  
   0.876956200    -0.2665187    0.7149561  
   0.878956100    -0.1539490    0.7451149  
   0.880956000    -0.0371663    0.7583665  
   0.882955900     0.0816173    0.7531405  
   0.884955800     0.1992766    0.7293326  
   0.886955700     0.3128933    0.6865534  
   0.888955600     0.4190990    0.6258650  
   0.890955500     0.5152087    0.5481809  
   0.892955400     0.5974665    0.4549709  
   0.894955300     0.6645104    0.3489014  
