! MS46122B
! 2250307/22442219
! 7/25/2025 1:49:38 PM
! C:\USERS\SPARKY\DOCUMENTS\VNA_DATA\JULY25_2025\3K\PORT6_MOS3_REPEAT1.S1P
! CHANNEL.1
! TR.MEASUREMENT
! RAW.DATA
# GHZ S RI R 50.0
! FREQ.GHZ         S11RE         S11IM         
!; PortSelection: Port_1
   0.001000000     1.0448900   -0.0716884  
   0.002999900     0.9634538   -0.1941662  
   0.004999800     0.9032515   -0.2991384  
   0.006999700     0.8358815   -0.3968771  
   0.008999600     0.7573777   -0.4923181  
   0.010999500     0.6643552   -0.5831214  
   0.012999400     0.5512221   -0.6667158  
   0.014999300     0.4121256   -0.7371371  
   0.016999200     0.2409205   -0.7818294  
   0.018999100     0.0326619   -0.7812997  
   0.020999000    -0.2054151   -0.7014648  
   0.022998900    -0.4362262   -0.5021888  
   0.024998800    -0.5540274   -0.1706959  
   0.026998700    -0.5164984    0.2362219  
   0.028998600    -0.2477657    0.5512652  
   0.030998500     0.1140549    0.6724746  
   0.032998400     0.4093054    0.6090238  
   0.034998300     0.6678396    0.4792145  
   0.036998200     0.8098003    0.3046069  
   0.038998100     0.8851939    0.1307036  
   0.040998000     0.9136307   -0.0300029  
   0.042997900     0.9093899   -0.1738605  
   0.044997800     0.8566346   -0.2748899  
   0.046997700     0.8390384   -0.4112475  
   0.048997600     0.7842630   -0.5073560  
   0.050997500     0.7208093   -0.5901538  
   0.052997400     0.6511396   -0.6612888  
   0.054997300     0.5768033   -0.7207206  
   0.056997200     0.4965260   -0.7723003  
   0.058997100     0.4137327   -0.8133086  
   0.060997000     0.3277512   -0.8455799  
   0.062996900     0.2392967   -0.8683550  
   0.064996800     0.1482450   -0.8815597  
   0.066996700     0.0550562   -0.8854983  
   0.068996600    -0.0393047   -0.8789005  
   0.070996500    -0.1346119   -0.8622868  
   0.072996400    -0.2300043   -0.8329156  
   0.074996300    -0.3241961   -0.7909539  
   0.076996200    -0.4160268   -0.7359350  
   0.078996100    -0.5026835   -0.6663315  
   0.080996000    -0.5831746   -0.5819429  
   0.082995900    -0.6538503   -0.4824100  
   0.084995800    -0.7110467   -0.3679196  
   0.086995700    -0.7526080   -0.2397123  
   0.088995600    -0.7730779   -0.0991504  
   0.090995500    -0.7687205    0.0501766  
   0.092995400    -0.7358232    0.2040372  
   0.094995300    -0.6700630    0.3552189  
   0.096995200    -0.5710292    0.4956128  
   0.098995100    -0.4395480    0.6157667  
   0.100995000    -0.2802211    0.7077366  
   0.102994900    -0.1027003    0.7614775  
   0.104994800     0.0836084    0.7738934  
   0.106994700     0.2663283    0.7426376  
   0.108994600     0.4354076    0.6733117  
   0.110994500     0.5814316    0.5709205  
   0.112994400     0.6983935    0.4434479  
   0.114994300     0.7831064    0.3002694  
   0.116994200     0.8354608    0.1497015  
   0.118994100     0.8571671   -0.0011274  
   0.120994000     0.8530234   -0.1467006  
   0.122993900     0.8232942   -0.2832758  
   0.124993800     0.7736459   -0.4069838  
   0.126993700     0.7075097   -0.5168759  
   0.128993600     0.6279693   -0.6107262  
   0.130993500     0.5393559   -0.6900678  
   0.132993400     0.4433501   -0.7539412  
   0.134993300     0.3419162   -0.8026219  
   0.136993200     0.2375869   -0.8363780  
   0.138993100     0.1311298   -0.8561268  
   0.140993000     0.0250681   -0.8612716  
   0.142992900    -0.0806496   -0.8532025  
   0.144992800    -0.1838869   -0.8335747  
   0.146992700    -0.2837238   -0.7993332  
   0.148992600    -0.3789257   -0.7524569  
   0.150992500    -0.4664816   -0.6923972  
   0.152992400    -0.5485227   -0.6215760  
   0.154992300    -0.6210141   -0.5398316  
   0.156992200    -0.6833509   -0.4468414  
   0.158992100    -0.7337548   -0.3443660  
   0.160992000    -0.7702140   -0.2328988  
   0.162991900    -0.7907812   -0.1146690  
   0.164991800    -0.7940421    0.0092274  
   0.166991700    -0.7782643    0.1353877  
   0.168991600    -0.7417237    0.2613731  
   0.170991500    -0.6833501    0.3840760  
   0.172991400    -0.6038212    0.4982054  
   0.174991300    -0.5031824    0.6002105  
   0.176991200    -0.3826612    0.6852095  
   0.178991100    -0.2458922    0.7488291  
   0.180991000    -0.0974282    0.7878098  
   0.182990900     0.0583643    0.7974613  
   0.184990800     0.2152475    0.7773408  
   0.186990700     0.3660196    0.7273936  
   0.188990600     0.4846547    0.6635280  
   0.190990500     0.6216156    0.5499389  
   0.192990400     0.7218427    0.4256044  
   0.194990300     0.7941898    0.2897047  
   0.196990200     0.8397329    0.1457255  
   0.198990100     0.8575347   -0.0004680  
   0.200990000     0.8500359   -0.1447982  
   0.202989900     0.8180351   -0.2820630  
   0.204989800     0.7653958   -0.4089659  
   0.206989700     0.6953865   -0.5224514  
   0.208989600     0.6099412   -0.6201010  
   0.210989500     0.5125648   -0.7011706  
   0.212989400     0.4057804   -0.7657372  
   0.214989300     0.2930970   -0.8123590  
   0.216989200     0.1780858   -0.8411416  
   0.218989100     0.0614431   -0.8533444  
   0.220989000    -0.0540332   -0.8487571  
   0.222988900    -0.1669648   -0.8279036  
   0.224988800    -0.2755480   -0.7917731  
   0.226988700    -0.3774380   -0.7413713  
   0.228988600    -0.4708172   -0.6775638  
   0.230988500    -0.5548827   -0.6010318  
   0.232988400    -0.6268945   -0.5122279  
   0.234988300    -0.6871726   -0.4133871  
   0.236988200    -0.7334191   -0.3056244  
   0.238988100    -0.7635118   -0.1905836  
   0.240988000    -0.7766112   -0.0708580  
   0.242987900    -0.7715088    0.0513266  
   0.244987800    -0.7469652    0.1737962  
   0.246987700    -0.7023780    0.2940297  
   0.248987600    -0.6371777    0.4080605  
   0.250987500    -0.5521439    0.5124255  
   0.252987400    -0.4485117    0.6022044  
   0.254987300    -0.3291939    0.6740524  
   0.256987200    -0.1967803    0.7246380  
   0.258987100    -0.0549046    0.7525188  
   0.260987000     0.0920980    0.7526578  
   0.262986900     0.2382362    0.7255665  
   0.264986800     0.3778220    0.6710322  
   0.266986700     0.5051519    0.5909190  
   0.268986600     0.6143980    0.4890592  
   0.270986500     0.7022794    0.3699560  
   0.272986400     0.7657790    0.2377418  
   0.274986300     0.8038802    0.0984044  
   0.276986200     0.8163230   -0.0432329  
   0.278986100     0.8036725   -0.1827317  
   0.280986000     0.7674872   -0.3147948  
   0.282985900     0.7111870   -0.4367373  
   0.284985800     0.6371226   -0.5449970  
   0.286985700     0.5488485   -0.6374477  
   0.288985600     0.4503268   -0.7129427  
   0.290985500     0.3441737   -0.7706640  
   0.292985400     0.2334388   -0.8112993  
   0.294985300     0.1198673   -0.8347827  
   0.296985200     0.0059705   -0.8420915  
   0.298985100    -0.1067019   -0.8332838  
   0.300985000    -0.2161534   -0.8089786  
   0.302984900    -0.3198483   -0.7706849  
   0.304984800    -0.4165336   -0.7188952  
   0.306984700    -0.5048611   -0.6552849  
   0.308984600    -0.5830826   -0.5812453  
   0.310984500    -0.6506695   -0.4977656  
   0.312984400    -0.7071812   -0.4050981  
   0.314984300    -0.7508924   -0.3051104  
   0.316984200    -0.7811912   -0.1984027  
   0.318984100    -0.7964419   -0.0858145  
   0.320984000    -0.7948433    0.0307915  
   0.322983900    -0.7751969    0.1486153  
   0.324983800    -0.7355962    0.2632864  
   0.326983700    -0.6763350    0.3712831  
   0.328983600    -0.5990479    0.4672705  
   0.330983500    -0.5074330    0.5476629  
   0.332983400    -0.4063123    0.6105108  
   0.334983300    -0.2987800    0.6569532  
   0.336983200    -0.1875303    0.6871261  
   0.338983100    -0.0730778    0.7020555  
   0.340983000     0.0430417    0.7009264  
   0.342982900     0.1594369    0.6825389  
   0.344982800     0.2743117    0.6467119  
   0.346982700     0.3848333    0.5915936  
   0.348982600     0.4856015    0.5167981  
   0.350982500     0.5748060    0.4258249  
   0.352982400     0.6478686    0.3190064  
   0.354982300     0.7031922    0.1955644  
   0.356982200     0.7364873    0.0502103  
   0.358982100     0.7401934   -0.0988945  
   0.360982000     0.7141472   -0.2457962  
   0.362981900     0.6597946   -0.3844382  
   0.364981800     0.5792695   -0.5093542  
   0.366981700     0.4762435   -0.6156966  
   0.368981600     0.3550060   -0.6996668  
   0.370981500     0.2209830   -0.7581760  
   0.372981400     0.0794038   -0.7896325  
   0.374981300    -0.0646909   -0.7938221  
   0.376981200     0.0560721   -0.7922225  
   0.378981100    -0.0856215   -0.7912892  
   0.380981000    -0.2238661   -0.7649374  
   0.382980900    -0.3419985   -0.7202711  
   0.384980800    -0.4451495   -0.6604531  
   0.386980700    -0.5376692   -0.5858307  
   0.388980600    -0.6171979   -0.4986008  
   0.390980500    -0.6823071   -0.4014203  
   0.392980400    -0.7315763   -0.2965930  
   0.394980300    -0.7644964   -0.1858137  
   0.396980200    -0.7811385   -0.0717574  
   0.398980100    -0.7806662    0.0439524  
   0.400980000    -0.7633114    0.1588783  
   0.402979900    -0.7287385    0.2709187  
   0.404979800    -0.6776402    0.3766402  
   0.406979700    -0.6106793    0.4749181  
   0.408979600    -0.5289567    0.5627187  
   0.410979500    -0.4333771    0.6384976  
   0.412979400    -0.3249195    0.6992921  
   0.414979300    -0.2065916    0.7418254  
   0.416979200    -0.0815399    0.7665256  
   0.418979100     0.0470796    0.7707826  
   0.420979000     0.1763021    0.7536903  
   0.422978900     0.3025190    0.7150831  
   0.424978800     0.4219142    0.6551403  
   0.426978700     0.5302253    0.5749460  
   0.428978600     0.6240162    0.4770697  
   0.430978500     0.6996182    0.3642811  
   0.432978400     0.7547007    0.2402355  
   0.434978300     0.7887928    0.1086621  
   0.436978200     0.7989141   -0.0263928  
   0.438978100     0.7856045   -0.1606978  
   0.440978000     0.7497049   -0.2899984  
   0.442977900     0.6929719   -0.4105189  
   0.444977800     0.6176629   -0.5185490  
   0.446977700     0.5258508   -0.6116922  
   0.448977600     0.4214987   -0.6878402  
   0.450977500     0.3076123   -0.7448974  
   0.452977400     0.1869236   -0.7821916  
   0.454977300     0.0621740   -0.7996151  
   0.456977200    -0.0622700   -0.7970836  
   0.458977100    -0.1839449   -0.7750126  
   0.460977000    -0.2993118   -0.7345246  
   0.462976900    -0.4053323   -0.6772201  
   0.464976800    -0.5010744   -0.6048470  
   0.466976700    -0.5839784   -0.5190244  
   0.468976600    -0.6523000   -0.4226305  
   0.470976500    -0.7049185   -0.3165728  
   0.472976400    -0.7407633   -0.2040833  
   0.474976300    -0.7591167   -0.0872986  
   0.476976200    -0.7590889    0.0308726  
   0.478976100    -0.7411295    0.1481738  
   0.480976000    -0.7048585    0.2607663  
   0.482975900    -0.6515500    0.3672802  
   0.484975800    -0.5816619    0.4647497  
   0.486975700    -0.4960708    0.5512850  
   0.488975600    -0.3968955    0.6229722  
   0.490975500    -0.2859958    0.6785441  
   0.492975400    -0.1660872    0.7151033  
   0.494975300    -0.0407496    0.7309972  
   0.496975200     0.0866915    0.7250283  
   0.498975100     0.2112449    0.6970038  
   0.500975000     0.3291639    0.6475039  
   0.502974900     0.4363298    0.5781527  
   0.504974800     0.5290452    0.4911169  
   0.506974700     0.6044489    0.3897642  
   0.508974600     0.6604575    0.2775818  
   0.510974500     0.6951609    0.1591162  
   0.512974400     0.7093922    0.0390866  
   0.514974300     0.7018619   -0.0778712  
   0.516974200     0.6780450   -0.1894747  
   0.518974100     0.6384013   -0.2928605  
   0.520974000     0.5854496   -0.3871461  
   0.522973900     0.5211775   -0.4712225  
   0.524973800     0.4472598   -0.5445730  
   0.526973700     0.3651692   -0.6069746  
   0.528973600     0.2754509   -0.6575472  
   0.530973500     0.1793764   -0.6963692  
   0.532973400     0.0777808   -0.7218630  
   0.534973300    -0.0275557   -0.7326978  
   0.536973200    -0.1353437   -0.7285162  
   0.538973100    -0.2422732   -0.7073056  
   0.540973000    -0.3460059   -0.6699145  
   0.542972900    -0.4441149   -0.6162472  
   0.544972800    -0.5334412   -0.5469537  
   0.546972700    -0.6120060   -0.4631582  
   0.548972600    -0.6768012   -0.3665931  
   0.550972500    -0.7255587   -0.2604199  
   0.552972400    -0.7569746   -0.1466592  
   0.554972300    -0.7697022   -0.0287398  
   0.556972200    -0.7633641    0.0904426  
   0.558972100    -0.7376078    0.2076503  
   0.560972000    -0.6934560    0.3192591  
   0.562971900    -0.6319199    0.4227431  
   0.564971800    -0.5544550    0.5154603  
   0.566971700    -0.4627238    0.5947929  
   0.568971600    -0.3591032    0.6587833  
   0.570971500    -0.2460271    0.7058154  
   0.572971400    -0.1259266    0.7340511  
   0.574971300    -0.0013282    0.7424069  
   0.576971200     0.1241246    0.7301566  
   0.578971100     0.2468214    0.6969339  
   0.580971000     0.3632516    0.6432645  
   0.582970900     0.4694615    0.5704282  
   0.584970800     0.5620019    0.4806509  
   0.586970700     0.6381666    0.3759027  
   0.588970600     0.6953249    0.2595840  
   0.590970500     0.7321519    0.1346639  
   0.592970400     0.7469071    0.0053259  
   0.594970300     0.7395323   -0.1242195  
   0.596970200     0.7099341   -0.2507016  
   0.598970100     0.6592735   -0.3699680  
   0.600970000     0.5895374   -0.4778758  
   0.602969900     0.5025093   -0.5725210  
   0.604969800     0.4017262   -0.6508075  
   0.606969700     0.2899084   -0.7099713  
   0.608969600     0.1703696   -0.7500131  
   0.610969500     0.0468425   -0.7695444  
   0.612969400    -0.0766061   -0.7688203  
   0.614969300    -0.1970762   -0.7479745  
   0.616969200    -0.3112204   -0.7088645  
   0.618969100    -0.4158811   -0.6530297  
   0.620969000    -0.5098888   -0.5824592  
   0.622968900    -0.5916282   -0.4987424  
   0.624968800    -0.6589442   -0.4044534  
   0.626968700    -0.7114051   -0.3010441  
   0.628968600    -0.7473550   -0.1912581  
   0.630968500    -0.7665331   -0.0776130  
   0.632968400    -0.7684588    0.0375695  
   0.634968300    -0.7531025    0.1516077  
   0.636968200    -0.7206028    0.2625276  
   0.638968100    -0.6717826    0.3677186  
   0.640968000    -0.6074967    0.4648144  
   0.642967900    -0.5289428    0.5512219  
   0.644967800    -0.4372676    0.6259223  
   0.646967700    -0.3346648    0.6856136  
   0.648967600    -0.2234465    0.7290874  
   0.650967500    -0.1060774    0.7550619  
   0.652967400     0.0147448    0.7626298  
   0.654967300     0.1364469    0.7508385  
   0.656967200     0.2555211    0.7196462  
   0.658967100     0.3693413    0.6691549  
   0.660967000     0.4746035    0.6003683  
   0.662966900     0.5681548    0.5140969  
   0.664966800     0.6473797    0.4122134  
   0.666966700     0.7086906    0.2974660  
   0.668966600     0.7501859    0.1737037  
   0.670966500     0.7703199    0.0440466  
   0.672966400     0.7693368   -0.0871273  
   0.674966300     0.7447127   -0.2154213  
   0.676966200     0.6990727   -0.3376355  
   0.678966100     0.6342092   -0.4490769  
   0.680966000     0.5519062   -0.5479404  
   0.682965900     0.4551750   -0.6307109  
   0.684965800     0.3472477   -0.6956566  
   0.686965700     0.2312334   -0.7418200  
   0.688965600     0.1103357   -0.7682880  
   0.690965500    -0.0115746   -0.7739002  
   0.692965400    -0.1313962   -0.7610837  
   0.694965300    -0.2462604   -0.7302343  
   0.696965200    -0.3536677   -0.6824028  
   0.698965100    -0.4515681   -0.6189939  
   0.700965000    -0.5383816   -0.5421554  
   0.702964900    -0.6116987   -0.4536760  
   0.704964800    -0.6704654   -0.3556072  
   0.706964700    -0.7133451   -0.2501009  
   0.708964600    -0.7402176   -0.1394373  
   0.710964500    -0.7505085   -0.0258457  
   0.712964400    -0.7430441    0.0875877  
   0.714964300    -0.7180862    0.1989440  
   0.716964200    -0.6765354    0.3052633  
   0.718964100    -0.6193051    0.4041046  
   0.720964000    -0.5473298    0.4930671  
   0.722963900    -0.4621619    0.5702548  
   0.724963800    -0.3656349    0.6335870  
   0.726963700    -0.2594915    0.6811494  
   0.728963600    -0.1460987    0.7112036  
   0.730963500    -0.0291570    0.7220457  
   0.732963400     0.0888973    0.7143721  
   0.734963300     0.2050947    0.6870604  
   0.736963200     0.3308307    0.6329721  
   0.738963100     0.4452955    0.5559947  
   0.740963000     0.5430916    0.4588840  
   0.742962900     0.6206133    0.3453147  
   0.744962800     0.6751944    0.2195822  
   0.746962700     0.7049865    0.0869882  
   0.748962600     0.7097645   -0.0485254  
   0.750962500     0.6955243    0.0605293  
   0.752962400     0.6961926   -0.0727245  
   0.754962300     0.6731484   -0.2028821  
   0.756962200     0.6269808   -0.3257723  
   0.758962100     0.5601729   -0.4376406  
   0.760962000     0.4746001   -0.5357483  
   0.762961900     0.3785855   -0.6129838  
   0.764961800     0.2803744   -0.6688911  
   0.766961700     0.1750549   -0.7088876  
   0.768961600     0.0646678   -0.7325177  
   0.770961500    -0.0479181   -0.7388516  
   0.772961400    -0.1603774   -0.7279189  
   0.774961300    -0.2699827   -0.6996974  
   0.776961200    -0.3743172   -0.6548961  
   0.778961100    -0.4705790   -0.5940841  
   0.780961000    -0.5566500   -0.5185409  
   0.782960900    -0.6299695   -0.4301113  
   0.784960800    -0.6889088   -0.3309909  
   0.786960700    -0.7313694   -0.2232301  
   0.788960600    -0.7563137   -0.1099435  
   0.790960500    -0.7632444    0.0058186  
   0.792960400    -0.7516060    0.1213430  
   0.794960300    -0.7222036    0.2337305  
   0.796960200    -0.6756262    0.3397871  
   0.798960100    -0.6131417    0.4374163  
   0.800960000    -0.5360227    0.5236700  
   0.802959900    -0.4463799    0.5974222  
   0.804959800    -0.3465306    0.6562884  
   0.806959700    -0.2382731    0.6989208  
   0.808959600    -0.1245827    0.7240928  
   0.810959500    -0.0078702    0.7313225  
   0.812959400     0.1092890    0.7200214  
   0.814959300     0.2236875    0.6904247  
   0.816959200     0.3325071    0.6425419  
   0.818959100     0.4327208    0.5776651  
   0.820959000     0.5220960    0.4970292  
   0.822958900     0.5975375    0.4023687  
   0.824958800     0.6569638    0.2961401  
   0.826958700     0.6982752    0.1809524  
   0.828958600     0.7204756    0.0602074  
   0.830958500     0.7220504   -0.0633619  
   0.832958400     0.7030194   -0.1852342  
   0.834958300     0.6641418   -0.3024361  
   0.836958200     0.6063001   -0.4114362  
   0.838958100     0.5312976   -0.5092450  
   0.840958000     0.4410923   -0.5933890  
   0.842957900     0.3384916   -0.6612523  
   0.844957800     0.2263450   -0.7107825  
   0.846957700     0.1079703   -0.7410839  
   0.848957600    -0.0128557   -0.7516658  
   0.850957500    -0.1332473   -0.7423568  
   0.852957400    -0.2497057   -0.7139264  
   0.854957300    -0.3593664   -0.6672207  
   0.856957200    -0.4595589   -0.6044443  
   0.858957100    -0.5475088   -0.5273093  
   0.860957000    -0.6219530   -0.4385030  
   0.862956900    -0.6809015   -0.3402593  
   0.864956800    -0.7237767   -0.2352789  
   0.866956700    -0.7501992   -0.1265435  
   0.868956600    -0.7595637   -0.0153442  
   0.870956500    -0.7527297    0.0956569  
   0.872956400    -0.7295434    0.2037395  
   0.874956300    -0.6905065    0.3073035  
   0.876956200    -0.6367871    0.4045563  
   0.878956100    -0.5689395    0.4927441  
   0.880956000    -0.4886306    0.5704212  
   0.882955900    -0.3966844    0.6358266  
   0.884955800    -0.2955545    0.6869099  
   0.886955700    -0.1873101    0.7222632  
   0.888955600    -0.0739745    0.7411380  
   0.890955500     0.0414633    0.7424377  
   0.892955400     0.1568250    0.7256902  
   0.894955300     0.2691593    0.6908779  
