! MS46122B
! 2250307/22442219
! 7/28/2025 2:11:21 PM
! C:\USERS\SPARKY\DOCUMENTS\VNA_DATA\JULY28_2025\3K\PORT6_MOS1_REPEAT1.S1P
! CHANNEL.1
! TR.MEASUREMENT
! RAW.DATA
# GHZ S RI R 50.0
! FREQ.GHZ         S11RE         S11IM         
!; PortSelection: Port_1
   0.001000000     1.0462620   -0.0723380  
   0.002999900     0.9647217   -0.1946435  
   0.004999800     0.9047125   -0.2995152  
   0.006999700     0.8376677   -0.3970492  
   0.008999600     0.7595263   -0.4923853  
   0.010999500     0.6672298   -0.5832796  
   0.012999400     0.5550764   -0.6672155  
   0.014999300     0.4173979   -0.7382486  
   0.016999200     0.2475462   -0.7845958  
   0.018999100     0.0406003   -0.7869759  
   0.020999000    -0.1968596   -0.7126739  
   0.022998900    -0.4309324   -0.5208035  
   0.024998800    -0.5579813   -0.1947884  
   0.026998700    -0.5360317    0.2133385  
   0.028998600    -0.2779410    0.5411465  
   0.030998500     0.0840164    0.6773797  
   0.032998400     0.3871210    0.6234459  
   0.034998300     0.6538125    0.4988057  
   0.036998200     0.8027970    0.3249006  
   0.038998100     0.8835822    0.1497803  
   0.040998000     0.9159760   -0.0126859  
   0.042997900     0.9144695   -0.1583917  
   0.044997800     0.8633485   -0.2616407  
   0.046997700     0.8480359   -0.3993762  
   0.048997600     0.7947355   -0.4971459  
   0.050997500     0.7323025   -0.5816277  
   0.052997400     0.6636632   -0.6542513  
   0.054997300     0.5898597   -0.7157197  
   0.056997200     0.5106292   -0.7685111  
   0.058997100     0.4286287   -0.8111554  
   0.060997000     0.3432794   -0.8451399  
   0.062996900     0.2554173   -0.8698156  
   0.064996800     0.1647894   -0.8849164  
   0.066996700     0.0719219   -0.8910082  
   0.068996600    -0.0222687   -0.8866796  
   0.070996500    -0.1175618   -0.8725443  
   0.072996400    -0.2132947   -0.8459392  
   0.074996300    -0.3082311   -0.8067967  
   0.076996200    -0.4008361   -0.7549197  
   0.078996100    -0.4893638   -0.6887265  
   0.080996000    -0.5718983   -0.6078306  
   0.082995900    -0.6456414   -0.5114298  
   0.084995800    -0.7066523   -0.4003519  
   0.086995700    -0.7531179   -0.2747871  
   0.088995600    -0.7794799   -0.1365023  
   0.090995500    -0.7822518    0.0117901  
   0.092995400    -0.7573270    0.1658482  
   0.094995300    -0.7003226    0.3190800  
   0.096995200    -0.6097151    0.4641563  
   0.098995100    -0.4866990    0.5912766  
   0.100995000    -0.3333187    0.6927436  
   0.102994900    -0.1593843    0.7577367  
   0.104994800     0.0259941    0.7824640  
   0.106994700     0.2116974    0.7635999  
   0.108994600     0.3861645    0.7052242  
   0.110994500     0.5404317    0.6120161  
   0.112994400     0.6669316    0.4911403  
   0.114994300     0.7620082    0.3522216  
   0.116994200     0.8248287    0.2031544  
   0.118994100     0.8566040    0.0516676  
   0.120994000     0.8615030   -0.0962423  
   0.122993900     0.8397557   -0.2362456  
   0.124993800     0.7969815   -0.3646428  
   0.126993700     0.7366303   -0.4795970  
   0.128993600     0.6616045   -0.5792518  
   0.130993500     0.5765638   -0.6640872  
   0.132993400     0.4833720   -0.7343363  
   0.134993300     0.3840235   -0.7890640  
   0.136993200     0.2807585   -0.8290418  
   0.138993100     0.1753314   -0.8548282  
   0.140993000     0.0687414   -0.8663175  
   0.142992900    -0.0374945   -0.8641319  
   0.144992800    -0.1417772   -0.8499247  
   0.146992700    -0.2437541   -0.8215183  
   0.148992600    -0.3413391   -0.7802556  
   0.150992500    -0.4326446   -0.7256895  
   0.152992400    -0.5181410   -0.6600397  
   0.154992300    -0.5953587   -0.5832503  
   0.156992200    -0.6630512   -0.4950585  
   0.158992100    -0.7195665   -0.3967297  
   0.160992000    -0.7629502   -0.2890468  
   0.162991900    -0.7918220   -0.1733122  
   0.164991800    -0.8039897   -0.0513736  
   0.166991700    -0.7976550    0.0744792  
   0.168991600    -0.7714712    0.2015901  
   0.170991500    -0.7240325    0.3271888  
   0.172991400    -0.6546924    0.4464637  
   0.174991300    -0.5646495    0.5554839  
   0.176991200    -0.4533641    0.6502700  
   0.178991100    -0.3239349    0.7256585  
   0.180991000    -0.1806831    0.7783738  
   0.182990900    -0.0275923    0.8033414  
   0.184990800     0.1300506    0.7991019  
   0.186990700     0.2851157    0.7648447  
   0.188990600     0.4098288    0.7135078  
   0.190990500     0.5582172    0.6147622  
   0.192990400     0.6717151    0.5011553  
   0.194990300     0.7586729    0.3725600  
   0.196990200     0.8194528    0.2331865  
   0.198990100     0.8535615    0.0879977  
   0.200990000     0.8611500   -0.0579571  
   0.202989900     0.8436866   -0.1999554  
   0.204989800     0.8034775   -0.3330385  
   0.206989700     0.7450237   -0.4547105  
   0.208989600     0.6686777   -0.5618055  
   0.210989500     0.5788985   -0.6539065  
   0.212989400     0.4780038   -0.7294917  
   0.214989300     0.3696314   -0.7875467  
   0.216989200     0.2564347   -0.8284920  
   0.218989100     0.1408932   -0.8520403  
   0.220989000     0.0245284   -0.8592392  
   0.222988900    -0.0906240   -0.8500006  
   0.224988800    -0.2027959   -0.8247162  
   0.226988700    -0.3093295   -0.7846936  
   0.228988600    -0.4089663   -0.7306973  
   0.230988500    -0.5002041   -0.6635502  
   0.232988400    -0.5806039   -0.5828797  
   0.234988300    -0.6510255   -0.4918303  
   0.236988200    -0.7081992   -0.3904012  
   0.238988100    -0.7508649   -0.2804498  
   0.240988000    -0.7770945   -0.1640956  
   0.242987900    -0.7863988   -0.0435021  
   0.244987800    -0.7769346    0.0794607  
   0.246987700    -0.7478869    0.2025124  
   0.248987600    -0.6984949    0.3223623  
   0.250987500    -0.6286500    0.4351560  
   0.252987400    -0.5395315    0.5367242  
   0.254987300    -0.4325091    0.6232964  
   0.256987200    -0.3099296    0.6911886  
   0.258987100    -0.1750742    0.7389830  
   0.260987000    -0.0311588    0.7605635  
   0.262986900     0.1162976    0.7555370  
   0.264986800     0.2621282    0.7231413  
   0.266986700     0.3999912    0.6639457  
   0.268986600     0.5241763    0.5799820  
   0.270986500     0.6298750    0.4752103  
   0.272986400     0.7140900    0.3537188  
   0.274986300     0.7737091    0.2205268  
   0.276986200     0.8079911    0.0806551  
   0.278986100     0.8169322   -0.0610643  
   0.280986000     0.8011448   -0.1996463  
   0.282985900     0.7622281   -0.3306208  
   0.284985800     0.7037202   -0.4503869  
   0.286985700     0.6284831   -0.5565894  
   0.288985600     0.5397894   -0.6468027  
   0.290985500     0.4411809   -0.7201133  
   0.292985400     0.3350638   -0.7762894  
   0.294985300     0.2243505   -0.8157423  
   0.296985200     0.1105568   -0.8381730  
   0.298985100    -0.0036384   -0.8445879  
   0.300985000    -0.1162345   -0.8349213  
   0.302984900    -0.2249314   -0.8101593  
   0.304984800    -0.3279076   -0.7713761  
   0.306984700    -0.4239062   -0.7194193  
   0.308984600    -0.5111428   -0.6565033  
   0.310984500    -0.5888120   -0.5832688  
   0.312984400    -0.6565117   -0.4996132  
   0.314984300    -0.7131763   -0.4077771  
   0.316984200    -0.7574672   -0.3080003  
   0.318984100    -0.7884274   -0.2008882  
   0.320984000    -0.8045249   -0.0880827  
   0.322983900    -0.8040483    0.0290866  
   0.324983800    -0.7848825    0.1467730  
   0.326983700    -0.7463052    0.2614553  
   0.328983600    -0.6883188    0.3696711  
   0.330983500    -0.6128945    0.4659938  
   0.332983400    -0.5238493    0.5473261  
   0.334983300    -0.4248319    0.6126640  
   0.336983200    -0.3185187    0.6627087  
   0.338983100    -0.2069206    0.6966799  
   0.340983000    -0.0911338    0.7151802  
   0.342982900     0.0272312    0.7168239  
   0.344982800     0.1467103    0.7003741  
   0.346982700     0.2648853    0.6656158  
   0.348982600     0.3770562    0.6100497  
   0.350982500     0.4808523    0.5368524  
   0.352982400     0.5723614    0.4460191  
   0.354982300     0.6499227    0.3351769  
   0.356982200     0.7102284    0.1994393  
   0.358982100     0.7430477    0.0538177  
   0.360982000     0.7465089   -0.0953052  
   0.362981900     0.7205568   -0.2422409  
   0.364981800     0.6665698   -0.3814358  
   0.366981700     0.5865527   -0.5068910  
   0.368981600     0.4841389   -0.6138002  
   0.370981500     0.3636081   -0.6987944  
   0.372981400     0.2300125   -0.7586480  
   0.374981300     0.0884135   -0.7918039  
   0.376981200     0.2047957   -0.7677172  
   0.378981100     0.0647376   -0.7948962  
   0.380981000    -0.0772083   -0.7958198  
   0.382980900    -0.2028909   -0.7743485  
   0.384980800    -0.3166896   -0.7358943  
   0.386980700    -0.4223792   -0.6802738  
   0.388980600    -0.5181966   -0.6094319  
   0.390980500    -0.6006528   -0.5264578  
   0.392980400    -0.6696915   -0.4326052  
   0.394980300    -0.7234780   -0.3308590  
   0.396980200    -0.7615370   -0.2220218  
   0.398980100    -0.7836557   -0.1090331  
   0.400980000    -0.7888231    0.0060044  
   0.402979900    -0.7770724    0.1216309  
   0.404979800    -0.7487199    0.2345771  
   0.406979700    -0.7033373    0.3426072  
   0.408979600    -0.6422317    0.4435522  
   0.410979500    -0.5653054    0.5359389  
   0.412979400    -0.4742164    0.6167437  
   0.414979300    -0.3696075    0.6821195  
   0.416979200    -0.2549427    0.7322941  
   0.418979100    -0.1329542    0.7641745  
   0.420979000    -0.0056519    0.7765325  
   0.422978900     0.1233698    0.7677613  
   0.424978800     0.2511249    0.7378401  
   0.426978700     0.3732361    0.6865975  
   0.428978600     0.4859371    0.6147757  
   0.430978500     0.5854613    0.5251020  
   0.432978400     0.6683534    0.4195200  
   0.434978300     0.7333790    0.3014865  
   0.436978200     0.7765617    0.1742678  
   0.438978100     0.7976758    0.0414252  
   0.440978000     0.7956955   -0.0926202  
   0.442977900     0.7713370   -0.2238059  
   0.444977800     0.7258563   -0.3479377  
   0.446977700     0.6607182   -0.4619001  
   0.448977600     0.5784566   -0.5625795  
   0.450977500     0.4821011   -0.6476748  
   0.452977400     0.3739916   -0.7149373  
   0.454977300     0.2566758   -0.7640125  
   0.456977200     0.1342790   -0.7932485  
   0.458977100     0.0099232   -0.8024593  
   0.460977000    -0.1127912   -0.7920997  
   0.462976900    -0.2308964   -0.7635728  
   0.464976800    -0.3422317   -0.7168849  
   0.466976700    -0.4444832   -0.6545717  
   0.468976600    -0.5349457   -0.5779535  
   0.470976500    -0.6127254   -0.4887178  
   0.472976400    -0.6761170   -0.3892034  
   0.474976300    -0.7230214   -0.2814950  
   0.476976200    -0.7533045   -0.1681525  
   0.478976100    -0.7659304   -0.0515396  
   0.480976000    -0.7607987    0.0653241  
   0.482975900    -0.7375038    0.1803932  
   0.484975800    -0.6970301    0.2912630  
   0.486975700    -0.6392667    0.3954243  
   0.488975600    -0.5651523    0.4902673  
   0.490975500    -0.4760414    0.5729151  
   0.492975400    -0.3733413    0.6408688  
   0.494975300    -0.2600780    0.6911285  
   0.496975200    -0.1386992    0.7223061  
   0.498975100    -0.0131410    0.7322299  
   0.500975000     0.1128992    0.7205201  
   0.502974900     0.2349632    0.6869895  
   0.504974800     0.3493584    0.6327474  
   0.506974700     0.4519791    0.5590655  
   0.508974600     0.5398843    0.4688150  
   0.510974500     0.6094754    0.3656852  
   0.512974400     0.6595663    0.2541834  
   0.514974300     0.6875158    0.1388169  
   0.516974200     0.6974588    0.0234872  
   0.518974100     0.6891119   -0.0886825  
   0.520974000     0.6650150   -0.1953796  
   0.522973900     0.6265209   -0.2950991  
   0.524973800     0.5757873   -0.3862170  
   0.526973700     0.5141984   -0.4687738  
   0.528973600     0.4427548   -0.5418706  
   0.530973500     0.3624623   -0.6053703  
   0.532973400     0.2734884   -0.6576815  
   0.534973300     0.1775855   -0.6978359  
   0.536973200     0.0756124   -0.7242684  
   0.538973100    -0.0303644   -0.7358206  
   0.540973000    -0.1383398   -0.7317575  
   0.542972900    -0.2458857   -0.7104259  
   0.544972800    -0.3500151   -0.6726480  
   0.546972700    -0.4485515   -0.6183667  
   0.548972600    -0.5385815   -0.5481665  
   0.550972500    -0.6170124   -0.4639202  
   0.552972400    -0.6814209   -0.3670202  
   0.554972300    -0.7300184   -0.2606634  
   0.556972200    -0.7611308   -0.1471441  
   0.558972100    -0.7740732   -0.0296666  
   0.560972000    -0.7679595    0.0884996  
   0.562971900    -0.7430552    0.2045702  
   0.564971800    -0.7000236    0.3155608  
   0.566971700    -0.6402500    0.4186427  
   0.568971600    -0.5646147    0.5111511  
   0.570971500    -0.4747330    0.5911254  
   0.572971400    -0.3725290    0.6564638  
   0.574971300    -0.2603302    0.7049832  
   0.576971200    -0.1404411    0.7349087  
   0.578971100    -0.0162276    0.7453397  
   0.580971000     0.1089185    0.7351954  
   0.582970900     0.2313320    0.7042453  
   0.584970800     0.3474204    0.6534881  
   0.586970700     0.4540557    0.5836390  
   0.588970600     0.5478205    0.4966366  
   0.590970500     0.6257427    0.3946384  
   0.592970400     0.6853920    0.2804256  
   0.594970300     0.7250451    0.1577797  
   0.596970200     0.7432043    0.0296989  
   0.598970100     0.7395182   -0.0989020  
   0.600970000     0.7135875   -0.2255328  
   0.602969900     0.6670685   -0.3454327  
   0.604969800     0.6007686   -0.4552927  
   0.606969700     0.5174066   -0.5521179  
   0.608969600     0.4192844   -0.6332030  
   0.610969500     0.3097467   -0.6959488  
   0.612969400     0.1923999   -0.7394676  
   0.614969300     0.0708750   -0.7624219  
   0.616969200    -0.0508548   -0.7658085  
   0.618969100    -0.1704425   -0.7494409  
   0.620969000    -0.2840227   -0.7152863  
   0.622968900    -0.3902323   -0.6637955  
   0.624968800    -0.4865187   -0.5974034  
   0.626968700    -0.5713226   -0.5173925  
   0.628968600    -0.6422520   -0.4256482  
   0.630968500    -0.6982905   -0.3248756  
   0.632968400    -0.7385362   -0.2171598  
   0.634968300    -0.7617908   -0.1043691  
   0.636968200    -0.7679342    0.0099494  
   0.638968100    -0.7569975    0.1238292  
   0.640968000    -0.7291388    0.2354597  
   0.642967900    -0.6848525    0.3415345  
   0.644967800    -0.6247135    0.4402919  
   0.646967700    -0.5501353    0.5292889  
   0.648967600    -0.4624406    0.6067823  
   0.650967500    -0.3638162    0.6698923  
   0.652967400    -0.2557805    0.7174038  
   0.654967300    -0.1408003    0.7481723  
   0.656967200    -0.0215909    0.7609482  
   0.658967100     0.0992044    0.7546242  
   0.660967000     0.2186888    0.7289724  
   0.662966900     0.3343999    0.6838750  
   0.664966800     0.4425970    0.6195738  
   0.666966700     0.5400438    0.5377904  
   0.668966600     0.6231030    0.4402799  
   0.670966500     0.6892291    0.3292040  
   0.672966400     0.7370374    0.2090568  
   0.674966300     0.7630334    0.0820307  
   0.676966200     0.7671261   -0.0473020  
   0.678966100     0.7490339   -0.1748854  
   0.680966000     0.7102551   -0.2974863  
   0.682965900     0.6520801   -0.4109453  
   0.684965800     0.5763159   -0.5128214  
   0.686965700     0.4850979   -0.6002351  
   0.688965600     0.3818631   -0.6705285  
   0.690965500     0.2693844   -0.7217360  
   0.692965400     0.1517841   -0.7548137  
   0.694965300     0.0323032   -0.7685961  
   0.696965200    -0.0868326   -0.7632443  
   0.698965100    -0.2025864   -0.7398261  
   0.700965000    -0.3122852   -0.6989806  
   0.702964900    -0.4130548   -0.6425160  
   0.704964800    -0.5038623   -0.5717455  
   0.706964700    -0.5822302   -0.4886529  
   0.708964600    -0.6468182   -0.3949147  
   0.710964500    -0.6970586   -0.2932424  
   0.712964400    -0.7305894   -0.1854425  
   0.714964300    -0.7473119   -0.0737149  
   0.716964200    -0.7475700    0.0386807  
   0.718964100    -0.7307366    0.1497060  
   0.720964000    -0.6975189    0.2568595  
   0.722963900    -0.6481493    0.3581722  
   0.724963800    -0.5841168    0.4510367  
   0.726963700    -0.5058229    0.5334916  
   0.728963600    -0.4152718    0.6030688  
   0.730963500    -0.3139163    0.6576899  
   0.732963400    -0.2047663    0.6960198  
   0.734963300    -0.0899303    0.7165615  
   0.736963200     0.0449848    0.7172245  
   0.738963100     0.1789885    0.6924452  
   0.740963000     0.3066604    0.6428548  
   0.742962900     0.4224504    0.5700210  
   0.744962800     0.5225084    0.4772503  
   0.746962700     0.6032093    0.3675255  
   0.748962600     0.6617441    0.2447862  
   0.750962500     0.6026083    0.3413547  
   0.752962400     0.6563551    0.2191757  
   0.754962300     0.6867301    0.0903790  
   0.756962200     0.6931478   -0.0410958  
   0.758962100     0.6756379   -0.1707245  
   0.760962000     0.6354647   -0.2942252  
   0.762961900     0.5774142   -0.4029798  
   0.764961800     0.5087897   -0.4923244  
   0.766961700     0.4280561   -0.5696908  
   0.768961600     0.3360865   -0.6341053  
   0.770961500     0.2356329   -0.6833135  
   0.772961400     0.1289390   -0.7168583  
   0.774961300     0.0182769   -0.7337812  
   0.776961200    -0.0940822   -0.7333255  
   0.778961100    -0.2055445   -0.7158476  
   0.780961000    -0.3134196   -0.6810256  
   0.782960900    -0.4146790   -0.6294940  
   0.784960800    -0.5074301   -0.5622908  
   0.786960700    -0.5884993   -0.4812299  
   0.788960600    -0.6560032   -0.3881297  
   0.790960500    -0.7081152   -0.2855163  
   0.792960400    -0.7435379   -0.1759977  
   0.794960300    -0.7610906   -0.0624219  
   0.796960200    -0.7610568    0.0525429  
   0.798960100    -0.7428821    0.1661148  
   0.800960000    -0.7075258    0.2747396  
   0.802959900    -0.6555687    0.3774541  
   0.804959800    -0.5884747    0.4701373  
   0.806959700    -0.5078628    0.5520613  
   0.808959600    -0.4151341    0.6203420  
   0.810959500    -0.3129330    0.6732808  
   0.812959400    -0.2030168    0.7101977  
   0.814959300    -0.0889439    0.7295978  
   0.816959200     0.0279688    0.7308859  
   0.818959100     0.1440724    0.7138430  
   0.820959000     0.2563168    0.6781940  
   0.822958900     0.3626455    0.6250488  
   0.824958800     0.4594504    0.5553344  
   0.826958700     0.5442888    0.4701987  
   0.828958600     0.6147091    0.3718487  
   0.830958500     0.6683924    0.2627130  
   0.832958400     0.7035413    0.1463173  
   0.834958300     0.7190046    0.0251627  
   0.836958200     0.7142188   -0.0969884  
   0.838958100     0.6894363   -0.2167130  
   0.840958000     0.6448479   -0.3309313  
   0.842957900     0.5818185   -0.4364722  
   0.844957800     0.5024356   -0.5299408  
   0.846957700     0.4089349   -0.6087806  
   0.848957600     0.3037330   -0.6706781  
   0.850957500     0.1904429   -0.7144198  
   0.852957400     0.0719669   -0.7385603  
   0.854957300    -0.0481153   -0.7433214  
   0.856957200    -0.1666637   -0.7284504  
   0.858957100    -0.2799707   -0.6951364  
   0.860957000    -0.3855515   -0.6447842  
   0.862956900    -0.4810548   -0.5791824  
   0.864956800    -0.5643406   -0.5006803  
   0.866956700    -0.6337768   -0.4112352  
   0.868956600    -0.6878734   -0.3130452  
   0.870956500    -0.7268175   -0.2088223  
   0.872956400    -0.7498085   -0.0999152  
   0.874956300    -0.7559701    0.0101610  
   0.876956200    -0.7459257    0.1205528  
   0.878956100    -0.7192287    0.2278135  
   0.880956000    -0.6772904    0.3301363  
   0.882955900    -0.6204898    0.4254598  
   0.884955800    -0.5499452    0.5114601  
   0.886955700    -0.4669622    0.5863289  
   0.888955600    -0.3736057    0.6480732  
   0.890955500    -0.2713537    0.6956962  
   0.892955400    -0.1627789    0.7275011  
   0.894955300    -0.0498273    0.7423666  
