! MS46122B
! 2250307/22442219
! 7/24/2025 7:40:41 AM
! C:\USERS\SPARKY\DOCUMENTS\VNA_DATA\JULY24_2025\3K\PORT5_MOS3.S1P
! CHANNEL.1
! TR.MEASUREMENT
! RAW.DATA
# GHZ S RI R 50.0
! FREQ.GHZ         S11RE         S11IM         
!; PortSelection: Port_1
   0.001000000     1.0454700   -0.0719741  
   0.002999900     0.9638481   -0.1943664  
   0.004999800     0.9036683   -0.2993152  
   0.006999700     0.8363658   -0.3969545  
   0.008999600     0.7578940   -0.4922287  
   0.010999500     0.6650023   -0.5830083  
   0.012999400     0.5521723   -0.6665542  
   0.014999300     0.4133784   -0.7370148  
   0.016999200     0.2425963   -0.7818320  
   0.018999100     0.0345970   -0.7814237  
   0.020999000    -0.2027719   -0.7025643  
   0.022998900    -0.4333387   -0.5044631  
   0.024998800    -0.5516058   -0.1743834  
   0.026998700    -0.5156838    0.2311398  
   0.028998600    -0.2491357    0.5462969  
   0.030998500     0.1111157    0.6685305  
   0.032998400     0.4059380    0.6067572  
   0.034998300     0.6645296    0.4781414  
   0.036998200     0.8067799    0.3044020  
   0.038998100     0.8827435    0.1311276  
   0.040998000     0.9117293   -0.0292671  
   0.042997900     0.9078798   -0.1728998  
   0.044997800     0.8555678   -0.2737538  
   0.046997700     0.8384889   -0.4100387  
   0.048997600     0.7840310   -0.5062667  
   0.050997500     0.7208858   -0.5890821  
   0.052997400     0.6516147   -0.6602182  
   0.054997300     0.5771526   -0.7203805  
   0.056997200     0.4974385   -0.7717302  
   0.058997100     0.4148689   -0.8130084  
   0.060997000     0.3291425   -0.8454899  
   0.062996900     0.2408436   -0.8686312  
   0.064996800     0.1498602   -0.8821718  
   0.066996700     0.0567529   -0.8863971  
   0.068996600    -0.0376137   -0.8801306  
   0.070996500    -0.1328691   -0.8639532  
   0.072996400    -0.2284094   -0.8350124  
   0.074996300    -0.3227687   -0.7933561  
   0.076996200    -0.4147336   -0.7387745  
   0.078996100    -0.5018075   -0.6695423  
   0.080996000    -0.5826296   -0.5854061  
   0.082995900    -0.6536999   -0.4861586  
   0.084995800    -0.7113972   -0.3719215  
   0.086995700    -0.7535536   -0.2438349  
   0.088995600    -0.7745347   -0.1033731  
   0.090995500    -0.7708836    0.0461748  
   0.092995400    -0.7386161    0.2001956  
   0.094995300    -0.6735088    0.3517078  
   0.096995200    -0.5748664    0.4925862  
   0.098995100    -0.4438923    0.6133356  
   0.100995000    -0.2849773    0.7058309  
   0.102994900    -0.1077007    0.7602873  
   0.104994800     0.0784739    0.7733290  
   0.106994700     0.2614102    0.7429550  
   0.108994600     0.4305433    0.6744790  
   0.110994500     0.5769740    0.5728341  
   0.112994400     0.6943619    0.4459278  
   0.114994300     0.7796777    0.3032274  
   0.116994200     0.8326905    0.1530921  
   0.118994100     0.8551311    0.0025211  
   0.120994000     0.8517130   -0.1431217  
   0.122993900     0.8227714   -0.2794996  
   0.124993800     0.7738627   -0.4033769  
   0.126993700     0.7084424   -0.5134493  
   0.128993600     0.6294918   -0.6077309  
   0.130993500     0.5413795   -0.6875824  
   0.132993400     0.4459084   -0.7518890  
   0.134993300     0.3447960   -0.8011840  
   0.136993200     0.2407189   -0.8355936  
   0.138993100     0.1344897   -0.8560290  
   0.140993000     0.0283219   -0.8620076  
   0.142992900    -0.0773786   -0.8545582  
   0.144992800    -0.1805551   -0.8355149  
   0.146992700    -0.2807123   -0.8018894  
   0.148992600    -0.3761895   -0.7556465  
   0.150992500    -0.4643493   -0.6960808  
   0.152992400    -0.5467844   -0.6257967  
   0.154992300    -0.6198456   -0.5445210  
   0.156992200    -0.6828781   -0.4518914  
   0.158992100    -0.7339681   -0.3496197  
   0.160992000    -0.7712486   -0.2382769  
   0.162991900    -0.7925986   -0.1200658  
   0.164991800    -0.7966756    0.0040013  
   0.166991700    -0.7817020    0.1302583  
   0.168991600    -0.7459131    0.2566904  
   0.170991500    -0.6883135    0.3799231  
   0.172991400    -0.6093102    0.4946346  
   0.174991300    -0.5092101    0.5973653  
   0.176991200    -0.3892034    0.6831704  
   0.178991100    -0.2528232    0.7476694  
   0.180991000    -0.1042954    0.7875317  
   0.182990900     0.0514639    0.7981254  
   0.184990800     0.2084841    0.7789436  
   0.186990700     0.3595417    0.7299885  
   0.188990600     0.4785967    0.6668021  
   0.190990500     0.6161122    0.5542961  
   0.192990400     0.7172502    0.4305568  
   0.194990300     0.7904868    0.2951048  
   0.196990200     0.8369652    0.1517209  
   0.198990100     0.8561652    0.0056075  
   0.200990000     0.8494849   -0.1385269  
   0.202989900     0.8185841   -0.2759058  
   0.204989800     0.7669990   -0.4030391  
   0.206989700     0.6979641   -0.5170118  
   0.208989600     0.6135131   -0.6152490  
   0.210989500     0.5166634   -0.6972976  
   0.212989400     0.4108573   -0.7625927  
   0.214989300     0.2983775   -0.8103033  
   0.216989200     0.1834680   -0.8401980  
   0.218989100     0.0672056   -0.8533968  
   0.220989000    -0.0483733   -0.8499440  
   0.222988900    -0.1617352   -0.8303000  
   0.224988800    -0.2705225   -0.7949364  
   0.226988700    -0.3727993   -0.7454263  
   0.228988600    -0.4668691   -0.6826086  
   0.230988500    -0.5516572   -0.6068210  
   0.232988400    -0.6246243   -0.5185390  
   0.234988300    -0.6858743   -0.4202101  
   0.236988200    -0.7331830   -0.3127639  
   0.238988100    -0.7644352   -0.1978360  
   0.240988000    -0.7785898   -0.0782125  
   0.242987900    -0.7746856    0.0440155  
   0.244987800    -0.7511912    0.1669499  
   0.246987700    -0.7077758    0.2876258  
   0.248987600    -0.6435143    0.4024015  
   0.250987500    -0.5593596    0.5076992  
   0.252987400    -0.4564828    0.5984640  
   0.254987300    -0.3380055    0.6714789  
   0.256987200    -0.2056805    0.7232147  
   0.258987100    -0.0641255    0.7524126  
   0.260987000     0.0828350    0.7539507  
   0.262986900     0.2295277    0.7280978  
   0.264986800     0.3694389    0.6748962  
   0.266986700     0.4975255    0.5960875  
   0.268986600     0.6077507    0.4952568  
   0.270986500     0.6966959    0.3769551  
   0.272986400     0.7615217    0.2455608  
   0.274986300     0.8009771    0.1067136  
   0.276986200     0.8148234   -0.0349208  
   0.278986100     0.8036273   -0.1744133  
   0.280986000     0.7688815   -0.3068345  
   0.282985900     0.7137227   -0.4291830  
   0.284985800     0.6408907   -0.5383699  
   0.286985700     0.5538768   -0.6317356  
   0.288985600     0.4559239   -0.7082447  
   0.290985500     0.3503647   -0.7671875  
   0.292985400     0.2400400   -0.8090268  
   0.294985300     0.1267697   -0.8337811  
   0.296985200     0.0128280   -0.8422059  
   0.298985100    -0.1000171   -0.8347113  
   0.300985000    -0.2097772   -0.8115766  
   0.302984900    -0.3139960   -0.7743818  
   0.304984800    -0.4114119   -0.7234951  
   0.306984700    -0.5004390   -0.6608200  
   0.308984600    -0.5795162   -0.5875634  
   0.310984500    -0.6481191   -0.5043876  
   0.312984400    -0.7056202   -0.4125596  
   0.314984300    -0.7503899   -0.3129305  
   0.316984200    -0.7818786   -0.2065293  
   0.318984100    -0.7983298   -0.0940573  
   0.320984000    -0.7980105    0.0225275  
   0.322983900    -0.7795247    0.1406519  
   0.324983800    -0.7414472    0.2559318  
   0.326983700    -0.6835133    0.3646218  
   0.328983600    -0.6071694    0.4618014  
   0.330983500    -0.5161930    0.5435634  
   0.332983400    -0.4155003    0.6076686  
   0.334983300    -0.3083097    0.6552495  
   0.336983200    -0.1969666    0.6865478  
   0.338983100    -0.0826714    0.7025452  
   0.340983000     0.0334219    0.7025105  
   0.342982900     0.1499959    0.6853105  
   0.344982800     0.2651646    0.6506919  
   0.346982700     0.3761100    0.5968663  
   0.348982600     0.4776277    0.5232460  
   0.350982500     0.5677722    0.4333736  
   0.352982400     0.6418753    0.3276727  
   0.354982300     0.6987516    0.2049252  
   0.356982200     0.7337932    0.0602389  
   0.358982100     0.7394259   -0.0886405  
   0.360982000     0.7152525   -0.2356218  
   0.362981900     0.6628215   -0.3748423  
   0.364981800     0.5840014   -0.5007863  
   0.366981700     0.4825619   -0.6082071  
   0.368981600     0.3625280   -0.6936425  
   0.370981500     0.2294533   -0.7539660  
   0.372981400     0.0884300   -0.7873689  
   0.374981300    -0.0557618   -0.7935314  
   0.376981200     0.0650163   -0.7909016  
   0.378981100    -0.0768229   -0.7918359  
   0.380981000    -0.2153726   -0.7672605  
   0.382980900    -0.3342532   -0.7242261  
   0.384980800    -0.4384554   -0.6657629  
   0.386980700    -0.5319455   -0.5923861  
   0.388980600    -0.6127109   -0.5060938  
   0.390980500    -0.6792243   -0.4095819  
   0.392980400    -0.7299139   -0.3053482  
   0.394980300    -0.7644109   -0.1949078  
   0.396980200    -0.7825012   -0.0809124  
   0.398980100    -0.7834670    0.0346954  
   0.400980000    -0.7673615    0.1501866  
   0.402979900    -0.7343268    0.2628460  
   0.404979800    -0.6844234    0.3693333  
   0.406979700    -0.6186393    0.4685174  
   0.408979600    -0.5377656    0.5575100  
   0.410979500    -0.4430383    0.6343188  
   0.412979400    -0.3352548    0.6965522  
   0.414979300    -0.2175788    0.7404017  
   0.416979200    -0.0927929    0.7665346  
   0.418979100     0.0358315    0.7724192  
   0.420979000     0.1651235    0.7568181  
   0.422978900     0.2918492    0.7198435  
   0.424978800     0.4118488    0.6614128  
   0.426978700     0.5210837    0.5826964  
   0.428978600     0.6160488    0.4861179  
   0.430978500     0.6931164    0.3744176  
   0.432978400     0.7497169    0.2512317  
   0.434978300     0.7855670    0.1202781  
   0.436978200     0.7975399   -0.0144498  
   0.438978100     0.7861009   -0.1486786  
   0.440978000     0.7521616   -0.2784229  
   0.442977900     0.6972142   -0.3996336  
   0.444977800     0.6235988   -0.5085602  
   0.446977700     0.5334533   -0.6027703  
   0.448977600     0.4303190   -0.6806565  
   0.450977500     0.3175132   -0.7394127  
   0.452977400     0.1972530   -0.7786943  
   0.454977300     0.0728587   -0.7980493  
   0.456977200    -0.0514898   -0.7974277  
   0.458977100    -0.1734600   -0.7774236  
   0.460977000    -0.2895449   -0.7387874  
   0.462976900    -0.3966484   -0.6831142  
   0.464976800    -0.4936664   -0.6121424  
   0.466976700    -0.5777724   -0.5276518  
   0.468976600    -0.6477922   -0.4321807  
   0.470976500    -0.7022507   -0.3266793  
   0.472976400    -0.7397255   -0.2148403  
   0.474976300    -0.7599635   -0.0981633  
   0.476976200    -0.7617326    0.0200719  
   0.478976100    -0.7455671    0.1377922  
   0.480976000    -0.7109326    0.2511054  
   0.482975900    -0.6591995    0.3585081  
   0.484975800    -0.5906454    0.4571705  
   0.486975700    -0.5064762    0.5448055  
   0.488975600    -0.4080437    0.6182879  
   0.490975500    -0.2979389    0.6754226  
   0.492975400    -0.1784254    0.7139018  
   0.494975300    -0.0532526    0.7316617  
   0.496975200     0.0741993    0.7275391  
   0.498975100     0.1993176    0.7013976  
   0.500975000     0.3182473    0.6536146  
   0.502974900     0.4264931    0.5858448  
   0.504974800     0.5206267    0.5000837  
   0.506974700     0.5976316    0.3997124  
   0.508974600     0.6554827    0.2881716  
   0.510974500     0.6918275    0.1700577  
   0.512974400     0.7078226    0.0500441  
   0.514974300     0.7018753   -0.0671987  
   0.516974200     0.6793920   -0.1792258  
   0.518974100     0.6410247   -0.2833981  
   0.520974000     0.5892134   -0.3781044  
   0.522973900     0.5259346   -0.4631460  
   0.524973800     0.4529836   -0.5370169  
   0.526973700     0.3716599   -0.6005073  
   0.528973600     0.2828770   -0.6521607  
   0.530973500     0.1875053   -0.6920282  
   0.532973400     0.0868128   -0.7188131  
   0.534973300    -0.0184702   -0.7313896  
   0.536973200    -0.1256524   -0.7286680  
   0.538973100    -0.2325353   -0.7092658  
   0.540973000    -0.3365708   -0.6737707  
   0.542972900    -0.4352765   -0.6219623  
   0.544972800    -0.5258626   -0.5542862  
   0.546972700    -0.6057591   -0.4720038  
   0.548972600    -0.6722409   -0.3768755  
   0.550972500    -0.7229002   -0.2714010  
   0.552972400    -0.7562466   -0.1582862  
   0.554972300    -0.7711079   -0.0403447  
   0.556972200    -0.7668207    0.0790327  
   0.558972100    -0.7430390    0.1967667  
   0.560972000    -0.7007427    0.3091803  
   0.562971900    -0.6408271    0.4140018  
   0.564971800    -0.5647406    0.5080662  
   0.566971700    -0.4741681    0.5890187  
   0.568971600    -0.3715832    0.6546862  
   0.570971500    -0.2591228    0.7034756  
   0.572971400    -0.1391689    0.7337168  
   0.574971300    -0.0146535    0.7439411  
   0.576971200     0.1111560    0.7336390  
   0.578971100     0.2345056    0.7023326  
   0.580971000     0.3516394    0.6504776  
   0.582970900     0.4590013    0.5792455  
   0.584970800     0.5528002    0.4907255  
   0.586970700     0.6307423    0.3872897  
   0.588970600     0.6898561    0.2717952  
   0.590970500     0.7284192    0.1478771  
   0.592970400     0.7452635    0.0188104  
   0.594970300     0.7399425   -0.1110216  
   0.596970200     0.7124563   -0.2376830  
   0.598970100     0.6638690   -0.3575663  
   0.600970000     0.5959191   -0.4668255  
   0.602969900     0.5107390   -0.5625599  
   0.604969800     0.4112579   -0.6426775  
   0.606969700     0.3005091   -0.7037652  
   0.608969600     0.1815247   -0.7460068  
   0.610969500     0.0584855   -0.7674897  
   0.612969400    -0.0648789   -0.7689191  
   0.614969300    -0.1856890   -0.7501821  
   0.616969200    -0.3004351   -0.7128623  
   0.618969100    -0.4062893   -0.6589991  
   0.620969000    -0.5016482   -0.5899187  
   0.622968900    -0.5848748   -0.5077122  
   0.624968800    -0.6538562   -0.4143756  
   0.626968700    -0.7081242   -0.3116912  
   0.628968600    -0.7460135   -0.2024197  
   0.630968500    -0.7671713   -0.0888506  
   0.632968400    -0.7709165    0.0264856  
   0.634968300    -0.7571642    0.1411653  
   0.636968200    -0.7265629    0.2526132  
   0.638968100    -0.6794477    0.3587976  
   0.640968000    -0.6164385    0.4568730  
   0.642967900    -0.5388834    0.5449028  
   0.644967800    -0.4482639    0.6210078  
   0.646967700    -0.3463469    0.6823922  
   0.648967600    -0.2356938    0.7273867  
   0.650967500    -0.1183858    0.7552453  
   0.652967400     0.0024034    0.7645342  
   0.654967300     0.1244259    0.7544805  
   0.656967200     0.2439137    0.7249594  
   0.658967100     0.3586120    0.6760806  
   0.660967000     0.4647990    0.6086813  
   0.662966900     0.5596784    0.5238335  
   0.664966800     0.6403929    0.4230934  
   0.666966700     0.7035040    0.3092053  
   0.668966600     0.7467244    0.1860501  
   0.670966500     0.7688347    0.0567397  
   0.672966400     0.7696435   -0.0741137  
   0.674966300     0.7471804   -0.2030451  
   0.676966200     0.7034050   -0.3257941  
   0.678966100     0.6402709   -0.4381919  
   0.680966000     0.5596797   -0.5384294  
   0.682965900     0.4641953   -0.6226991  
   0.684965800     0.3575411   -0.6893426  
   0.686965700     0.2419322   -0.7374591  
   0.688965600     0.1214345   -0.7659002  
   0.690965500    -0.0003280   -0.7734628  
   0.692965400    -0.1205152   -0.7626184  
   0.694965300    -0.2359756   -0.7336167  
   0.696965200    -0.3442982   -0.6874467  
   0.698965100    -0.4432684   -0.6256698  
   0.700965000    -0.5314130   -0.5500768  
   0.702964900    -0.6062062   -0.4627331  
   0.704964800    -0.6666227   -0.3653882  
   0.706964700    -0.7112578   -0.2605507  
   0.708964600    -0.7399808   -0.1501469  
   0.710964500    -0.7521428   -0.0365668  
   0.712964400    -0.7463558    0.0771603  
   0.714964300    -0.7231457    0.1891528  
   0.716964200    -0.6832054    0.2962216  
   0.718964100    -0.6274935    0.3962359  
   0.720964000    -0.5566711    0.4864156  
   0.722963900    -0.4726588    0.5648604  
   0.724963800    -0.3768184    0.6300133  
   0.726963700    -0.2713079    0.6792585  
   0.728963600    -0.1582142    0.7110590  
   0.730963500    -0.0410882    0.7237422  
   0.732963400     0.0772658    0.7178563  
   0.734963300     0.1937858    0.6921294  
   0.736963200     0.3207403    0.6397852  
   0.738963100     0.4367377    0.5643275  
   0.740963000     0.5361267    0.4684422  
   0.742962900     0.6153677    0.3557967  
   0.744962800     0.6717668    0.2305663  
   0.746962700     0.7033608    0.0981076  
   0.748962600     0.7099724   -0.0373187  
   0.750962500     0.6938198    0.0714057  
   0.752962400     0.6962265   -0.0619360  
   0.754962300     0.6749156   -0.1924182  
   0.756962200     0.6303617   -0.3159426  
   0.758962100     0.5650797   -0.4285692  
   0.760962000     0.4808448   -0.5278207  
   0.762961900     0.3859597   -0.6062449  
   0.764961800     0.2886647   -0.6633922  
   0.766961700     0.1841955   -0.7047960  
   0.768961600     0.0742498   -0.7299658  
   0.770961500    -0.0381018   -0.7378270  
   0.772961400    -0.1505607   -0.7286251  
   0.774961300    -0.2602819   -0.7022512  
   0.776961200    -0.3653766   -0.6590782  
   0.778961100    -0.4624694   -0.5998574  
   0.780961000    -0.5496033   -0.5259089  
   0.782960900    -0.6244340   -0.4387248  
   0.784960800    -0.6850963   -0.3404388  
   0.786960700    -0.7291793   -0.2334896  
   0.788960600    -0.7562218   -0.1204574  
   0.790960500    -0.7651254   -0.0047326  
   0.792960400    -0.7553650    0.1111080  
   0.794960300    -0.7277396    0.2241693  
   0.796960200    -0.6828783    0.3310471  
   0.798960100    -0.6218489    0.4300027  
   0.800960000    -0.5459263    0.5176749  
   0.802959900    -0.4574378    0.5929925  
   0.804959800    -0.3580523    0.6535314  
   0.806959700    -0.2502672    0.6979840  
   0.808959600    -0.1366686    0.7249126  
   0.810959500    -0.0198417    0.7339643  
   0.812959400     0.0977661    0.7243665  
   0.814959300     0.2128441    0.6963969  
   0.816959200     0.3225710    0.6499831  
   0.818959100     0.4238895    0.5864387  
   0.820959000     0.5145088    0.5069608  
   0.822958900     0.5914398    0.4132342  
   0.824958800     0.6523969    0.3077392  
   0.826958700     0.6954545    0.1929796  
   0.828958600     0.7193636    0.0725521  
   0.830958500     0.7226616   -0.0510168  
   0.832958400     0.7054994   -0.1732261  
   0.834958300     0.6683800   -0.2909809  
   0.836958200     0.6120982   -0.4009218  
   0.838958100     0.5385643   -0.4997852  
   0.840958000     0.4496992   -0.5852825  
   0.842957900     0.3480883   -0.6548140  
   0.844957800     0.2366634   -0.7060696  
   0.846957700     0.1188817   -0.7383760  
   0.848957600    -0.0018985   -0.7507679  
   0.850957500    -0.1226442   -0.7433167  
   0.852957400    -0.2395236   -0.7167375  
   0.854957300    -0.3499492   -0.6718177  
   0.856957200    -0.4511608   -0.6105932  
   0.858957100    -0.5405700   -0.5346356  
   0.860957000    -0.6164686   -0.4469895  
   0.862956900    -0.6770870   -0.3496961  
   0.864956800    -0.7216994   -0.2452127  
   0.866956700    -0.7500014   -0.1365502  
   0.868956600    -0.7611454   -0.0254677  
   0.870956500    -0.7560556    0.0858324  
   0.872956400    -0.7345855    0.1945210  
   0.874956300    -0.6970679    0.2990429  
   0.876956200    -0.6446878    0.3973889  
   0.878956100    -0.5780046    0.4869061  
   0.880956000    -0.4986258    0.5660645  
   0.882955900    -0.4074751    0.6329094  
   0.884955800    -0.3067964    0.6855464  
   0.886955700    -0.1987881    0.7225697  
   0.888955600    -0.0855313    0.7431258  
   0.890955500     0.0300574    0.7460071  
   0.892955400     0.1460273    0.7309242  
   0.894955300     0.2589086    0.6979346  
