! MS46122B
! 2250307/22442219
! 7/25/2025 1:36:38 PM
! C:\USERS\SPARKY\DOCUMENTS\VNA_DATA\JULY25_2025\3K\PORT2_MOS5.S1P
! CHANNEL.1
! TR.MEASUREMENT
! RAW.DATA
# GHZ S RI R 50.0
! FREQ.GHZ         S11RE         S11IM         
!; PortSelection: Port_1
   0.001000000     1.0447810   -0.0716977  
   0.002999900     0.9633653   -0.1942039  
   0.004999800     0.9031723   -0.2991963  
   0.006999700     0.8357360   -0.3968500  
   0.008999600     0.7567756   -0.4922242  
   0.010999500     0.6631981   -0.5829247  
   0.012999400     0.5492985   -0.6662394  
   0.014999300     0.4090221   -0.7358403  
   0.016999200     0.2360870   -0.7788614  
   0.018999100     0.0260043   -0.7749210  
   0.020999000    -0.2127631   -0.6886391  
   0.022998900    -0.4394160   -0.4794554  
   0.024998800    -0.5443953   -0.1400994  
   0.026998700    -0.4845759    0.2642456  
   0.028998600    -0.2004178    0.5603895  
   0.030998500     0.1602820    0.6584449  
   0.032998400     0.4430822    0.5814127  
   0.034998300     0.6882355    0.4440867  
   0.036998200     0.8189489    0.2690623  
   0.038998100     0.8858294    0.0974921  
   0.040998000     0.9085401   -0.0603758  
   0.042997900     0.8996902   -0.2007711  
   0.044997800     0.8446360   -0.2977936  
   0.046997700     0.8238602   -0.4319450  
   0.048997600     0.7670621   -0.5250667  
   0.050997500     0.7021989   -0.6052337  
   0.052997400     0.6312492   -0.6738517  
   0.054997300     0.5556301   -0.7311484  
   0.056997200     0.4743625   -0.7802556  
   0.058997100     0.3905542   -0.8190892  
   0.060997000     0.3037282   -0.8489556  
   0.062996900     0.2142788   -0.8691920  
   0.064996800     0.1222910   -0.8797906  
   0.066996700     0.0284365   -0.8806462  
   0.068996600    -0.0664933   -0.8707522  
   0.070996500    -0.1626163   -0.8504339  
   0.072996400    -0.2578681   -0.8167632  
   0.074996300    -0.3515296   -0.7705184  
   0.076996200    -0.4423685   -0.7102996  
   0.078996100    -0.5272505   -0.6352932  
   0.080996000    -0.6049704   -0.5449293  
   0.082995900    -0.6714218   -0.4391685  
   0.084995800    -0.7226430   -0.3184632  
   0.086995700    -0.7563382   -0.1844465  
   0.088995600    -0.7669811   -0.0390942  
   0.090995500    -0.7501833    0.1132500  
   0.092995400    -0.7033751    0.2675458  
   0.094995300    -0.6218224    0.4155957  
   0.096995200    -0.5070617    0.5478376  
   0.098995100    -0.3615241    0.6557435  
   0.100995000    -0.1907365    0.7300972  
   0.102994900    -0.0071875    0.7632777  
   0.104994800     0.1794646    0.7534917  
   0.106994700     0.3565940    0.7010285  
   0.108994600     0.5143089    0.6127954  
   0.110994500     0.6451445    0.4952999  
   0.112994400     0.7443339    0.3579824  
   0.114994300     0.8106074    0.2094615  
   0.116994200     0.8448022    0.0578332  
   0.118994100     0.8497301   -0.0906816  
   0.120994000     0.8309430   -0.2314441  
   0.122993900     0.7885932   -0.3604381  
   0.124993800     0.7283367   -0.4756861  
   0.126993700     0.6538994   -0.5765026  
   0.128993600     0.5674198   -0.6606019  
   0.130993500     0.4738366   -0.7300064  
   0.132993400     0.3738795   -0.7838672  
   0.134993300     0.2700344   -0.8228857  
   0.136993200     0.1642314   -0.8470977  
   0.138993100     0.0572605   -0.8569989  
   0.140993000    -0.0487116   -0.8532252  
   0.142992900    -0.1527847   -0.8353590  
   0.144992800    -0.2541715   -0.8064271  
   0.146992700    -0.3512667   -0.7628283  
   0.148992600    -0.4423718   -0.7067661  
   0.150992500    -0.5252433   -0.6377014  
   0.152992400    -0.6007727   -0.5580260  
   0.154992300    -0.6658058   -0.4675184  
   0.156992200    -0.7191806   -0.3661783  
   0.158992100    -0.7588184   -0.2564497  
   0.160992000    -0.7829918   -0.1384350  
   0.162991900    -0.7897685   -0.0151435  
   0.164991800    -0.7771616    0.1120339  
   0.166991700    -0.7439561    0.2390454  
   0.168991600    -0.6889674    0.3628344  
   0.170991500    -0.6113573    0.4795412  
   0.172991400    -0.5125291    0.5840619  
   0.174991300    -0.3935511    0.6713746  
   0.176991200    -0.2574285    0.7376860  
   0.178991100    -0.1082491    0.7781949  
   0.180991000     0.0481667    0.7911173  
   0.182990900     0.2056471    0.7727335  
   0.184990800     0.3579318    0.7237262  
   0.186990700     0.4978949    0.6465272  
   0.188990600     0.6025777    0.5609792  
   0.190990500     0.7152636    0.4240808  
   0.192990400     0.7895910    0.2841363  
   0.194990300     0.8347661    0.1388333  
   0.196990200     0.8518208   -0.0082287  
   0.198990100     0.8429056   -0.1529733  
   0.200990000     0.8093411   -0.2902496  
   0.202989900     0.7547030   -0.4168188  
   0.204989800     0.6817070   -0.5293331  
   0.206989700     0.5950253   -0.6265740  
   0.208989600     0.4962722   -0.7059807  
   0.210989500     0.3883128   -0.7683727  
   0.212989400     0.2743937   -0.8127918  
   0.214989300     0.1576196   -0.8393019  
   0.216989200     0.0401349   -0.8486600  
   0.218989100    -0.0752493   -0.8408610  
   0.220989000    -0.1879345   -0.8172956  
   0.222988900    -0.2956591   -0.7776716  
   0.224988800    -0.3968889   -0.7235806  
   0.226988700    -0.4891793   -0.6561105  
   0.228988600    -0.5710890   -0.5760249  
   0.230988500    -0.6412171   -0.4845737  
   0.232988400    -0.6970142   -0.3821827  
   0.234988300    -0.7391989   -0.2715621  
   0.236988200    -0.7646232   -0.1536353  
   0.238988100    -0.7722672   -0.0315574  
   0.240988000    -0.7607709    0.0923975  
   0.242987900    -0.7293102    0.2152563  
   0.244987800    -0.6773164    0.3340586  
   0.246987700    -0.6045972    0.4454162  
   0.248987600    -0.5120941    0.5456826  
   0.250987500    -0.4005286    0.6299741  
   0.252987400    -0.2738849    0.6944982  
   0.254987300    -0.1357324    0.7358618  
   0.256987200     0.0097329    0.7513424  
   0.258987100     0.1574621    0.7411454  
   0.260987000     0.3020497    0.7016806  
   0.262986900     0.4376375    0.6351125  
   0.264986800     0.5582523    0.5437613  
   0.266986700     0.6590427    0.4319498  
   0.268986600     0.7364182    0.3043128  
   0.270986500     0.7878125    0.1668844  
   0.272986400     0.8128645    0.0247813  
   0.274986300     0.8123683   -0.1168650  
   0.276986200     0.7874282   -0.2537685  
   0.278986100     0.7398695   -0.3814391  
   0.280986000     0.6734604   -0.4972969  
   0.282985900     0.5908020   -0.5979736  
   0.284985800     0.4949450   -0.6823220  
   0.286985700     0.3900544   -0.7491301  
   0.288985600     0.2793504   -0.7975781  
   0.290985500     0.1653468   -0.8283103  
   0.292985400     0.0506316   -0.8418755  
   0.294985300    -0.0632517   -0.8394902  
   0.296985200    -0.1745694   -0.8210962  
   0.298985100    -0.2818009   -0.7875249  
   0.300985000    -0.3829461   -0.7396380  
   0.302984900    -0.4757493   -0.6787204  
   0.304984800    -0.5593376   -0.6062614  
   0.306984700    -0.6321232   -0.5229471  
   0.308984600    -0.6926214   -0.4307332  
   0.310984500    -0.7403935   -0.3307945  
   0.312984400    -0.7740753   -0.2235553  
   0.314984300    -0.7924371   -0.1110707  
   0.316984200    -0.7942118    0.0055155  
   0.318984100    -0.7777892    0.1240963  
   0.320984000    -0.7413720    0.2416804  
   0.322983900    -0.6842939    0.3531980  
   0.324983800    -0.6069750    0.4540750  
   0.326983700    -0.5128478    0.5389197  
   0.328983600    -0.4060304    0.6042438  
   0.330983500    -0.2934065    0.6484469  
   0.332983400    -0.1795095    0.6737362  
   0.334983300    -0.0665894    0.6826410  
   0.336983200     0.0453861    0.6772610  
   0.338983100     0.1560556    0.6574330  
   0.340983000     0.2648203    0.6223270  
   0.342982900     0.3695316    0.5708887  
   0.344982800     0.4678156    0.5016469  
   0.346982700     0.5559284    0.4146152  
   0.348982600     0.6284087    0.3115228  
   0.350982500     0.6838302    0.1958171  
   0.352982400     0.7181414    0.0704941  
   0.354982300     0.7291057   -0.0649483  
   0.356982200     0.7110538   -0.2132892  
   0.358982100     0.6635358   -0.3546035  
   0.360982000     0.5888441   -0.4834532  
   0.362981900     0.4902613   -0.5943988  
   0.364981800     0.3719746   -0.6833020  
   0.366981700     0.2395421   -0.7470478  
   0.368981600     0.0983763   -0.7834232  
   0.370981500    -0.0461193   -0.7921338  
   0.372981400    -0.1879940   -0.7736336  
   0.374981300    -0.3235226   -0.7285728  
   0.376981200    -0.2073046   -0.7690318  
   0.378981100    -0.3397838   -0.7213458  
   0.380981000    -0.4605450   -0.6505666  
   0.382980900    -0.5568814   -0.5687510  
   0.384980800    -0.6344030   -0.4781842  
   0.386980700    -0.6976325   -0.3767157  
   0.388980600    -0.7442709   -0.2669242  
   0.390980500    -0.7732769   -0.1520865  
   0.392980400    -0.7851488   -0.0343984  
   0.394980300    -0.7787985    0.0834120  
   0.396980200    -0.7550392    0.1997373  
   0.398980100    -0.7139347    0.3120452  
   0.400980000    -0.6555377    0.4171636  
   0.402979900    -0.5808853    0.5138080  
   0.404979800    -0.4916032    0.5982842  
   0.406979700    -0.3891375    0.6688910  
   0.408979600    -0.2750221    0.7229035  
   0.410979500    -0.1518782    0.7588159  
   0.412979400    -0.0221981    0.7743023  
   0.414979300     0.1099187    0.7672631  
   0.416979200     0.2406655    0.7389956  
   0.418979100     0.3658932    0.6886388  
   0.420979000     0.4820173    0.6168394  
   0.422978900     0.5849212    0.5251125  
   0.424978800     0.6708077    0.4163200  
   0.426978700     0.7365753    0.2933185  
   0.428978600     0.7797100    0.1607014  
   0.430978500     0.7988894    0.0229877  
   0.432978400     0.7935618   -0.1148759  
   0.434978300     0.7659618   -0.2494859  
   0.436978200     0.7143502   -0.3758812  
   0.438978100     0.6426651   -0.4902406  
   0.440978000     0.5532479   -0.5903217  
   0.442977900     0.4496400   -0.6728319  
   0.444977800     0.3351885   -0.7358341  
   0.446977700     0.2132212   -0.7786279  
   0.448977600     0.0877591   -0.8004646  
   0.450977500    -0.0381870   -0.8019710  
   0.452977400    -0.1615448   -0.7834126  
   0.454977300    -0.2802306   -0.7457830  
   0.456977200    -0.3906768   -0.6901804  
   0.458977100    -0.4905927   -0.6183097  
   0.460977000    -0.5769597   -0.5324620  
   0.462976900    -0.6486507   -0.4349136  
   0.464976800    -0.7045259   -0.3277776  
   0.466976700    -0.7425736   -0.2132361  
   0.468976600    -0.7627056   -0.0944236  
   0.470976500    -0.7640832    0.0267853  
   0.472976400    -0.7466141    0.1467155  
   0.474976300    -0.7096315    0.2631485  
   0.476976200    -0.6548414    0.3729627  
   0.478976100    -0.5826120    0.4732992  
   0.480976000    -0.4949387    0.5609304  
   0.482975900    -0.3930882    0.6337971  
   0.484975800    -0.2798665    0.6894872  
   0.486975700    -0.1573920    0.7259085  
   0.488975600    -0.0294256    0.7414513  
   0.490975500     0.1004525    0.7344522  
   0.492975400     0.2284480    0.7046667  
   0.494975300     0.3495626    0.6529146  
   0.496975200     0.4600140    0.5799772  
   0.498975100     0.5551506    0.4889583  
   0.500975000     0.6320930    0.3829483  
   0.502974900     0.6885379    0.2659473  
   0.504974800     0.7230918    0.1421366  
   0.506974700     0.7349688    0.0158732  
   0.508974600     0.7250979   -0.1090370  
   0.510974500     0.6947844   -0.2279831  
   0.512974400     0.6464641   -0.3375294  
   0.514974300     0.5821351   -0.4339323  
   0.516974200     0.5069281   -0.5183046  
   0.518974100     0.4220454   -0.5890041  
   0.520974000     0.3303830   -0.6457175  
   0.522973900     0.2331464   -0.6886733  
   0.524973800     0.1319281   -0.7175929  
   0.526973700     0.0275278   -0.7333663  
   0.528973600    -0.0783003   -0.7345745  
   0.530973500    -0.1849377   -0.7215476  
   0.532973400    -0.2897149   -0.6923749  
   0.534973300    -0.3911066   -0.6475407  
   0.536973200    -0.4860633   -0.5868505  
   0.538973100    -0.5713385   -0.5111904  
   0.540973000    -0.6447514   -0.4219568  
   0.542972900    -0.7033419   -0.3209457  
   0.544972800    -0.7454512   -0.2102754  
   0.546972700    -0.7693182   -0.0930552  
   0.548972600    -0.7738133    0.0276746  
   0.550972500    -0.7584560    0.1483969  
   0.552972400    -0.7231671    0.2660185  
   0.554972300    -0.6688450    0.3767286  
   0.556972200    -0.5968823    0.4778333  
   0.558972100    -0.5087959    0.5660940  
   0.560972000    -0.4070382    0.6390713  
   0.562971900    -0.2942543    0.6947049  
   0.564971800    -0.1737034    0.7312480  
   0.566971700    -0.0482400    0.7475070  
   0.568971600     0.0791079    0.7428553  
   0.570971500     0.2044902    0.7173615  
   0.572971400     0.3247828    0.6706631  
   0.574971300     0.4364764    0.6037333  
   0.576971200     0.5363065    0.5182657  
   0.578971100     0.6204854    0.4161445  
   0.580971000     0.6858873    0.3006848  
   0.582970900     0.7302983    0.1757866  
   0.584970800     0.7527857    0.0447662  
   0.586970700     0.7524149   -0.0873940  
   0.588970600     0.7291564   -0.2175122  
   0.590970500     0.6841080   -0.3411415  
   0.592970400     0.6187280   -0.4547898  
   0.594970300     0.5356596   -0.5548967  
   0.596970200     0.4373890   -0.6392918  
   0.598970100     0.3272219   -0.7053550  
   0.600970000     0.2085278   -0.7514676  
   0.602969900     0.0847723   -0.7773702  
   0.604969800    -0.0406924   -0.7828010  
   0.606969700    -0.1642219   -0.7681898  
   0.608969600    -0.2832341   -0.7336011  
   0.610969500    -0.3942072   -0.6812117  
   0.612969400    -0.4945384   -0.6124129  
   0.614969300    -0.5818474   -0.5299820  
   0.616969200    -0.6546468   -0.4356634  
   0.618969100    -0.7116579   -0.3325573  
   0.620969000    -0.7522905   -0.2226841  
   0.622968900    -0.7759576   -0.1084739  
   0.624968800    -0.7822698    0.0081933  
   0.626968700    -0.7712021    0.1246553  
   0.628968600    -0.7425875    0.2385612  
   0.630968500    -0.6973114    0.3470771  
   0.632968400    -0.6353986    0.4482658  
   0.634968300    -0.5586949    0.5395963  
   0.636968200    -0.4684838    0.6187541  
   0.638968100    -0.3662442    0.6835895  
   0.640968000    -0.2541556    0.7322666  
   0.642967900    -0.1345322    0.7629874  
   0.644967800    -0.0108327    0.7746143  
   0.646967700     0.1146519    0.7665624  
   0.648967600     0.2383221    0.7380806  
   0.650967500     0.3561251    0.6896586  
   0.652967400     0.4652809    0.6223355  
   0.654967300     0.5629348    0.5371612  
   0.656967200     0.6452217    0.4369734  
   0.658967100     0.7101185    0.3233387  
   0.660967000     0.7554441    0.1994528  
   0.662966900     0.7792814    0.0692149  
   0.664966800     0.7808304   -0.0640310  
   0.666966700     0.7596721   -0.1963459  
   0.668966600     0.7160920   -0.3224336  
   0.670966500     0.6519608   -0.4391438  
   0.672966400     0.5704540   -0.5435746  
   0.674966300     0.4726821   -0.6304235  
   0.676966200     0.3628629   -0.6992378  
   0.678966100     0.2444544   -0.7481598  
   0.680966000     0.1211767   -0.7766821  
   0.682965900    -0.0037081   -0.7846356  
   0.684965800    -0.1268505   -0.7727398  
   0.686965700    -0.2449541   -0.7417181  
   0.688965600    -0.3559551   -0.6928926  
   0.690965500    -0.4559130   -0.6274446  
   0.692965400    -0.5446463   -0.5488108  
   0.694965300    -0.6192747   -0.4584285  
   0.696965200    -0.6789670   -0.3586986  
   0.698965100    -0.7228632   -0.2512965  
   0.700965000    -0.7498099   -0.1387445  
   0.702964900    -0.7593734   -0.0236201  
   0.704964800    -0.7516680    0.0918221  
   0.706964700    -0.7261967    0.2049164  
   0.708964600    -0.6831087    0.3134132  
   0.710964500    -0.6245592    0.4149370  
   0.712964400    -0.5496054    0.5064594  
   0.714964300    -0.4605785    0.5852921  
   0.716964200    -0.3598557    0.6494828  
   0.718964100    -0.2495808    0.6968194  
   0.720964000    -0.1329406    0.7259075  
   0.722963900    -0.0123539    0.7359151  
   0.724963800     0.1089680    0.7258898  
   0.726963700     0.2273442    0.6958143  
   0.728963600     0.3395562    0.6463309  
   0.730963500     0.4418216    0.5778370  
   0.732963400     0.5311578    0.4938291  
   0.734963300     0.6058432    0.3960245  
   0.736963200     0.6702325    0.2713169  
   0.738963100     0.7098647    0.1364458  
   0.740963000     0.7233118   -0.0023669  
   0.742962900     0.7104232   -0.1397134  
   0.744962800     0.6726385   -0.2712849  
   0.746962700     0.6116184   -0.3924595  
   0.748962600     0.5304669   -0.4992748  
   0.750962500     0.5885435   -0.4126408  
   0.752962400     0.5056716   -0.5166207  
   0.754962300     0.4064361   -0.6030273  
   0.756962200     0.2939077   -0.6702366  
   0.758962100     0.1718035   -0.7159827  
   0.760962000     0.0436529   -0.7394850  
   0.762961900    -0.0802131   -0.7407589  
   0.764961800    -0.1927710   -0.7242746  
   0.766961700    -0.3013921   -0.6908177  
   0.768961600    -0.4042645   -0.6407908  
   0.770961500    -0.4981864   -0.5754406  
   0.772961400    -0.5811431   -0.4962427  
   0.774961300    -0.6505458   -0.4047939  
   0.776961200    -0.7054497   -0.3031656  
   0.778961100    -0.7435343   -0.1939909  
   0.780961000    -0.7641655   -0.0797391  
   0.782960900    -0.7667016    0.0370136  
   0.784960800    -0.7503465    0.1531670  
   0.786960700    -0.7153783    0.2658025  
   0.788960600    -0.6631240    0.3719278  
   0.790960500    -0.5945055    0.4686709  
   0.792960400    -0.5115151    0.5529360  
   0.794960300    -0.4159785    0.6232571  
   0.796960200    -0.3104566    0.6778913  
   0.798960100    -0.1973431    0.7150860  
   0.800960000    -0.0800142    0.7336972  
   0.802959900     0.0394308    0.7337062  
   0.804959800     0.1576843    0.7149295  
   0.806959700     0.2716053    0.6770459  
   0.808959600     0.3785471    0.6213676  
   0.810959500     0.4752513    0.5490145  
   0.812959400     0.5597966    0.4616559  
   0.814959300     0.6292853    0.3610692  
   0.816959200     0.6818790    0.2497993  
   0.818959100     0.7155920    0.1309080  
   0.820959000     0.7294647    0.0078909  
   0.822958900     0.7224095   -0.1165093  
   0.824958800     0.6948655   -0.2380838  
   0.826958700     0.6475145   -0.3535895  
   0.828958600     0.5813493   -0.4597061  
   0.830958500     0.4985906   -0.5530521  
   0.832958400     0.4017571   -0.6314451  
   0.834958300     0.2936857   -0.6925181  
   0.836958200     0.1776858   -0.7343580  
   0.838958100     0.0569160   -0.7566819  
   0.840958000    -0.0652976   -0.7589341  
   0.842957900    -0.1855687   -0.7414099  
   0.844957800    -0.3007611   -0.7048935  
   0.846957700    -0.4078299   -0.6509070  
   0.848957600    -0.5048143   -0.5809020  
   0.850957500    -0.5883797   -0.4969124  
   0.852957400    -0.6578872   -0.4015547  
   0.854957300    -0.7111349   -0.2972857  
   0.856957200    -0.7474259   -0.1864131  
   0.858957100    -0.7662528   -0.0723595  
   0.860957000    -0.7671557    0.0423523  
   0.862956900    -0.7512554    0.1548978  
   0.864956800    -0.7189370    0.2632979  
   0.866956700    -0.6710638    0.3652216  
   0.868956600    -0.6081685    0.4583668  
   0.870956500    -0.5326113    0.5416137  
   0.872956400    -0.4450688    0.6130325  
   0.874956300    -0.3475963    0.6711583  
   0.876956200    -0.2408784    0.7142954  
   0.878956100    -0.1283612    0.7407568  
   0.880956000    -0.0118609    0.7501498  
   0.882955900     0.1055407    0.7411927  
   0.884955800     0.2215821    0.7137808  
   0.886955700     0.3328020    0.6680294  
   0.888955600     0.4364180    0.6045532  
   0.890955500     0.5290836    0.5242794  
   0.892955400     0.6079940    0.4293684  
   0.894955300     0.6711245    0.3216903  
