! MS46122B
! 2250307/22442219
! 7/22/2025 7:44:56 AM
! C:\USERS\SPARKY\DOCUMENTS\VNA_DATA\JULY22_2025\3K\PORT1_MOS1.S1P
! CHANNEL.1
! TR.MEASUREMENT
! RAW.DATA
# GHZ S RI R 50.0
! FREQ.GHZ         S11RE         S11IM         
!; PortSelection: Port_1
   0.001000000     1.0457500   -0.0716483  
   0.002999900     0.9642167   -0.1940874  
   0.004999800     0.9040259   -0.2990190  
   0.006999700     0.8368685   -0.3965764  
   0.008999600     0.7582654   -0.4917853  
   0.010999500     0.6655267   -0.5822659  
   0.012999400     0.5529854   -0.6655124  
   0.014999300     0.4149004   -0.7354220  
   0.016999200     0.2454232   -0.7798352  
   0.018999100     0.0398694   -0.7797105  
   0.020999000    -0.1941074   -0.7026913  
   0.022998900    -0.4214644   -0.5100388  
   0.024998800    -0.5407448   -0.1889274  
   0.026998700    -0.5143372    0.2070748  
   0.028998600    -0.2626810    0.5226334  
   0.030998500     0.0872436    0.6547307  
   0.032998400     0.3811136    0.6046647  
   0.034998300     0.6421292    0.4853885  
   0.036998200     0.7895793    0.3170236  
   0.038998100     0.8706452    0.1462026  
   0.040998000     0.9041398   -0.0132166  
   0.042997900     0.9038893   -0.1568370  
   0.044997800     0.8544641   -0.2588795  
   0.046997700     0.8399006   -0.3952741  
   0.048997600     0.7876863   -0.4923999  
   0.050997500     0.7262390   -0.5763906  
   0.052997400     0.6583915   -0.6485605  
   0.054997300     0.5854259   -0.7095076  
   0.056997200     0.5069118   -0.7621147  
   0.058997100     0.4255585   -0.8045143  
   0.060997000     0.3408521   -0.8382401  
   0.062996900     0.2536843   -0.8626984  
   0.064996800     0.1637724   -0.8775364  
   0.066996700     0.0716553   -0.8834507  
   0.068996600    -0.0217384   -0.8789014  
   0.070996500    -0.1160270   -0.8647156  
   0.072996400    -0.2108879   -0.8380146  
   0.074996300    -0.3046622   -0.7988087  
   0.076996200    -0.3962793   -0.7471365  
   0.078996100    -0.4833832   -0.6811992  
   0.080996000    -0.5646028   -0.6008022  
   0.082995900    -0.6370175   -0.5054814  
   0.084995800    -0.6967599   -0.3956055  
   0.086995700    -0.7420028   -0.2716533  
   0.088995600    -0.7673453   -0.1353164  
   0.090995500    -0.7694279    0.0105617  
   0.092995400    -0.7443689    0.1619190  
   0.094995300    -0.6879702    0.3122694  
   0.096995200    -0.5987166    0.4544561  
   0.098995100    -0.4778979    0.5789221  
   0.100995000    -0.3271913    0.6785914  
   0.102994900    -0.1568461    0.7423788  
   0.104994800     0.0248594    0.7666477  
   0.106994700     0.2067063    0.7487777  
   0.108994600     0.3782501    0.6922835  
   0.110994500     0.5301115    0.6014908  
   0.112994400     0.6550592    0.4835223  
   0.114994300     0.7493073    0.3474120  
   0.116994200     0.8120481    0.2011344  
   0.118994100     0.8442262    0.0520853  
   0.120994000     0.8498404   -0.0936343  
   0.122993900     0.8292396   -0.2318866  
   0.124993800     0.7876724   -0.3587969  
   0.126993700     0.7286129   -0.4726427  
   0.128993600     0.6548924   -0.5715660  
   0.130993500     0.5711316   -0.6558569  
   0.132993400     0.4792371   -0.7255073  
   0.134993300     0.3811312   -0.7799021  
   0.136993200     0.2790226   -0.8197129  
   0.138993100     0.1746553   -0.8452247  
   0.140993000     0.0692660   -0.8567497  
   0.142992900    -0.0357213   -0.8548279  
   0.144992800    -0.1388953   -0.8408535  
   0.146992700    -0.2397692   -0.8127902  
   0.148992600    -0.3363197   -0.7720443  
   0.150992500    -0.4261717   -0.7179177  
   0.152992400    -0.5110009   -0.6530859  
   0.154992300    -0.5872354   -0.5771595  
   0.156992200    -0.6539419   -0.4899588  
   0.158992100    -0.7096578   -0.3928247  
   0.160992000    -0.7523869   -0.2867023  
   0.162991900    -0.7806644   -0.1723431  
   0.164991800    -0.7924968   -0.0523000  
   0.166991700    -0.7859725    0.0716586  
   0.168991600    -0.7602302    0.1970162  
   0.170991500    -0.7133546    0.3205689  
   0.172991400    -0.6452175    0.4379545  
   0.174991300    -0.5564010    0.5452084  
   0.176991200    -0.4471240    0.6384308  
   0.178991100    -0.3202563    0.7127469  
   0.180991000    -0.1795390    0.7648571  
   0.182990900    -0.0290333    0.7896223  
   0.184990800     0.1257219    0.7861071  
   0.186990700     0.2782708    0.7530455  
   0.188990600     0.4011381    0.7031975  
   0.190990500     0.5474921    0.6067495  
   0.192990400     0.6598021    0.4955082  
   0.194990300     0.7461646    0.3695264  
   0.196990200     0.8068797    0.2324863  
   0.198990100     0.8414202    0.0896400  
   0.200990000     0.8496570   -0.0540920  
   0.202989900     0.8333423   -0.1942571  
   0.204989800     0.7944775   -0.3257481  
   0.206989700     0.7373586   -0.4461129  
   0.208989600     0.6625951   -0.5524674  
   0.210989500     0.5744871   -0.6437997  
   0.212989400     0.4751338   -0.7190120  
   0.214989300     0.3683317   -0.7768756  
   0.216989200     0.2567835   -0.8176844  
   0.218989100     0.1424503   -0.8415653  
   0.220989000     0.0277049   -0.8490393  
   0.222988900    -0.0863556   -0.8403444  
   0.224988800    -0.1968145   -0.8155286  
   0.226988700    -0.3023082   -0.7763461  
   0.228988600    -0.4007043   -0.7233734  
   0.230988500    -0.4908977   -0.6572634  
   0.232988400    -0.5705339   -0.5777828  
   0.234988300    -0.6401731   -0.4881670  
   0.236988200    -0.6966780   -0.3882037  
   0.238988100    -0.7389793   -0.2797910  
   0.240988000    -0.7650807   -0.1653207  
   0.242987900    -0.7743850   -0.0465697  
   0.244987800    -0.7654294    0.0744892  
   0.246987700    -0.7370920    0.1955713  
   0.248987600    -0.6886053    0.3135386  
   0.250987500    -0.6202701    0.4248248  
   0.252987400    -0.5331584    0.5249457  
   0.254987300    -0.4282508    0.6102024  
   0.256987200    -0.3079202    0.6775264  
   0.258987100    -0.1759864    0.7251320  
   0.260987000    -0.0343458    0.7471275  
   0.262986900     0.1104513    0.7429664  
   0.264986800     0.2540472    0.7120230  
   0.266986700     0.3900176    0.6545697  
   0.268986600     0.5125932    0.5729147  
   0.270986500     0.6174078    0.4705463  
   0.272986400     0.7011235    0.3516732  
   0.274986300     0.7607248    0.2209892  
   0.276986200     0.7957146    0.0833022  
   0.278986100     0.8055826   -0.0563859  
   0.280986000     0.7909336   -0.1929890  
   0.282985900     0.7535878   -0.3228553  
   0.284985800     0.6966249   -0.4413926  
   0.286985700     0.6229318   -0.5468075  
   0.288985600     0.5359632   -0.6363416  
   0.290985500     0.4389356   -0.7093475  
   0.292985400     0.3344208   -0.7655188  
   0.294985300     0.2251069   -0.8049669  
   0.296985200     0.1129036   -0.8278290  
   0.298985100     0.0001358   -0.8345780  
   0.300985000    -0.1113303   -0.8255767  
   0.302984900    -0.2186581   -0.8016247  
   0.304984800    -0.3204556   -0.7636949  
   0.306984700    -0.4154769   -0.7127359  
   0.308984600    -0.5016698   -0.6507869  
   0.310984500    -0.5787499   -0.5786803  
   0.312984400    -0.6456826   -0.4966627  
   0.314984300    -0.7018747   -0.4062195  
   0.316984200    -0.7458484   -0.3080512  
   0.318984100    -0.7766886   -0.2026806  
   0.320984000    -0.7928818   -0.0915215  
   0.322983900    -0.7928410    0.0236384  
   0.324983800    -0.7747135    0.1393155  
   0.326983700    -0.7373053    0.2525803  
   0.328983600    -0.6811798    0.3589420  
   0.330983500    -0.6077669    0.4540950  
   0.332983400    -0.5211605    0.5348794  
   0.334983300    -0.4240152    0.6005104  
   0.336983200    -0.3198955    0.6507955  
   0.338983100    -0.2098789    0.6854587  
   0.340983000    -0.0960390    0.7046824  
   0.342982900     0.0210139    0.7073251  
   0.344982800     0.1391935    0.6920301  
   0.346982700     0.2561514    0.6585524  
   0.348982600     0.3673648    0.6045114  
   0.350982500     0.4702523    0.5330046  
   0.352982400     0.5612530    0.4439136  
   0.354982300     0.6385602    0.3351493  
   0.356982200     0.6990702    0.2016999  
   0.358982100     0.7324163    0.0582265  
   0.360982000     0.7370215   -0.0888369  
   0.362981900     0.7124987   -0.2339425  
   0.364981800     0.6601059   -0.3715374  
   0.366981700     0.5821820   -0.4960917  
   0.368981600     0.4819608   -0.6023620  
   0.370981500     0.3636168   -0.6870152  
   0.372981400     0.2322359   -0.7471440  
   0.374981300     0.0925717   -0.7807803  
   0.376981200     0.2072082   -0.7562149  
   0.378981100     0.0692227   -0.7839343  
   0.380981000    -0.0707646   -0.7859350  
   0.382980900    -0.1949577   -0.7656001  
   0.384980800    -0.3077785   -0.7283656  
   0.386980700    -0.4121006   -0.6741829  
   0.388980600    -0.5070637   -0.6048640  
   0.390980500    -0.5888942   -0.5235313  
   0.392980400    -0.6573702   -0.4316798  
   0.394980300    -0.7110618   -0.3313560  
   0.396980200    -0.7492092   -0.2245541  
   0.398980100    -0.7717562   -0.1131715  
   0.400980000    -0.7776021   -0.0000758  
   0.402979900    -0.7667262    0.1138806  
   0.404979800    -0.7396346    0.2252520  
   0.406979700    -0.6956351    0.3319229  
   0.408979600    -0.6362609    0.4317581  
   0.410979500    -0.5612862    0.5231894  
   0.412979400    -0.4722435    0.6034361  
   0.414979300    -0.3698002    0.6686360  
   0.416979200    -0.2574052    0.7189345  
   0.418979100    -0.1376358    0.7513229  
   0.420979000    -0.0126587    0.7645253  
   0.422978900     0.1145606    0.7572211  
   0.424978800     0.2405839    0.7288619  
   0.426978700     0.3612966    0.6796607  
   0.428978600     0.4729927    0.6101995  
   0.430978500     0.5718748    0.5229099  
   0.432978400     0.6545153    0.4198175  
   0.434978300     0.7199703    0.3042978  
   0.436978200     0.7638800    0.1793183  
   0.438978100     0.7860708    0.0486221  
   0.440978000     0.7856973   -0.0835878  
   0.442977900     0.7630198   -0.2132407  
   0.444977800     0.7196088   -0.3361861  
   0.446977700     0.6565114   -0.4491250  
   0.448977600     0.5763418   -0.5493337  
   0.450977500     0.4821894   -0.6345256  
   0.452977400     0.3761492   -0.7020690  
   0.454977300     0.2608762   -0.7516476  
   0.456977200     0.1402492   -0.7816903  
   0.458977100     0.0176193   -0.7920568  
   0.460977000    -0.1036898   -0.7829849  
   0.462976900    -0.2204474   -0.7558670  
   0.464976800    -0.3307936   -0.7108172  
   0.466976700    -0.4320750   -0.6501931  
   0.468976600    -0.5220649   -0.5755875  
   0.470976500    -0.5994648   -0.4883527  
   0.472976400    -0.6627157   -0.3908412  
   0.474976300    -0.7101753   -0.2848450  
   0.476976200    -0.7408852   -0.1735426  
   0.478976100    -0.7545183   -0.0585454  
   0.480976000    -0.7504017    0.0563732  
   0.482975900    -0.7286487    0.1698940  
   0.484975800    -0.6898335    0.2793851  
   0.486975700    -0.6340009    0.3823912  
   0.488975600    -0.5619836    0.4763677  
   0.490975500    -0.4752102    0.5588319  
   0.492975400    -0.3750580    0.6264699  
   0.494975300    -0.2640424    0.6773185  
   0.496975200    -0.1452075    0.7093600  
   0.498975100    -0.0217281    0.7206081  
   0.500975000     0.1021655    0.7107062  
   0.502974900     0.2226535    0.6792293  
   0.504974800     0.3358846    0.6274675  
   0.506974700     0.4377685    0.5564302  
   0.508974600     0.5255609    0.4687234  
   0.510974500     0.5954824    0.3683744  
   0.512974400     0.6465197    0.2592441  
   0.514974300     0.6758175    0.1462023  
   0.516974200     0.6873323    0.0325539  
   0.518974100     0.6808673   -0.0782185  
   0.520974000     0.6588013   -0.1838010  
   0.522973900     0.6223670   -0.2828259  
   0.524973800     0.5736164   -0.3739643  
   0.526973700     0.5139288   -0.4563462  
   0.528973600     0.4442782   -0.5295974  
   0.530973500     0.3656392   -0.5936554  
   0.532973400     0.2782852   -0.6465493  
   0.534973300     0.1838614   -0.6873600  
   0.536973200     0.0831813   -0.7148570  
   0.538973100    -0.0216431   -0.7274516  
   0.540973000    -0.1282203   -0.7243966  
   0.542972900    -0.2347527   -0.7046003  
   0.544972800    -0.3380780   -0.6683078  
   0.546972700    -0.4361440   -0.6155149  
   0.548972600    -0.5255119   -0.5472624  
   0.550972500    -0.6039310   -0.4649335  
   0.552972400    -0.6683636   -0.3700354  
   0.554972300    -0.7174153   -0.2657295  
   0.556972200    -0.7493544   -0.1540836  
   0.558972100    -0.7633511   -0.0385349  
   0.560972000    -0.7586619    0.0780007  
   0.562971900    -0.7354701    0.1926223  
   0.564971800    -0.6943831    0.3024152  
   0.566971700    -0.6367584    0.4045535  
   0.568971600    -0.5634191    0.4966806  
   0.570971500    -0.4759590    0.5764788  
   0.572971400    -0.3762141    0.6419955  
   0.574971300    -0.2664793    0.6914189  
   0.576971200    -0.1488808    0.7225203  
   0.578971100    -0.0267248    0.7345017  
   0.580971000     0.0965472    0.7264866  
   0.582970900     0.2175490    0.6978904  
   0.584970800     0.3323420    0.6496916  
   0.586970700     0.4386608    0.5826293  
   0.588970600     0.5322739    0.4983429  
   0.590970500     0.6110321    0.3992192  
   0.592970400     0.6715473    0.2878296  
   0.594970300     0.7128692    0.1672312  
   0.596970200     0.7328581    0.0413668  
   0.598970100     0.7314234   -0.0859356  
   0.600970000     0.7080638   -0.2110923  
   0.602969900     0.6639497   -0.3305651  
   0.604969800     0.6004182   -0.4399697  
   0.606969700     0.5194753   -0.5369245  
   0.608969600     0.4239402   -0.6189023  
   0.610969500     0.3166809   -0.6826302  
   0.612969400     0.2013069   -0.7275728  
   0.614969300     0.0813840   -0.7521045  
   0.616969200    -0.0389300   -0.7571290  
   0.618969100    -0.1573455   -0.7427830  
   0.620969000    -0.2702872   -0.7105789  
   0.622968900    -0.3759725   -0.6613977  
   0.624968800    -0.4720865   -0.5969508  
   0.626968700    -0.5569434   -0.5190936  
   0.628968600    -0.6282538   -0.4294137  
   0.630968500    -0.6851010   -0.3305757  
   0.632968400    -0.7262325   -0.2247165  
   0.634968300    -0.7510022   -0.1136133  
   0.636968200    -0.7586185   -0.0006721  
   0.638968100    -0.7494291    0.1119947  
   0.640968000    -0.7231343    0.2226102  
   0.642967900    -0.6807783    0.3281082  
   0.644967800    -0.6227838    0.4260917  
   0.646967700    -0.5502929    0.5150684  
   0.648967600    -0.4648222    0.5924800  
   0.650967500    -0.3683259    0.6562918  
   0.652967400    -0.2627799    0.7045021  
   0.654967300    -0.1497928    0.7366075  
   0.656967200    -0.0325562    0.7509203  
   0.658967100     0.0866850    0.7465674  
   0.660967000     0.2049927    0.7231231  
   0.662966900     0.3195863    0.6804840  
   0.664966800     0.4274386    0.6189502  
   0.666966700     0.5248588    0.5398336  
   0.668966600     0.6085471    0.4450432  
   0.670966500     0.6756070    0.3366916  
   0.672966400     0.7250054    0.2189067  
   0.674966300     0.7529262    0.0938098  
   0.676966200     0.7591742   -0.0336811  
   0.678966100     0.7437259   -0.1600692  
   0.680966000     0.7077371   -0.2823584  
   0.682965900     0.6521041   -0.3954763  
   0.684965800     0.5790176   -0.4976437  
   0.686965700     0.4902987   -0.5858043  
   0.688965600     0.3893276   -0.6572433  
   0.690965500     0.2786953   -0.7098975  
   0.692965400     0.1627718   -0.7446805  
   0.694965300     0.0445893   -0.7604468  
   0.696965200    -0.0736018   -0.7570477  
   0.698965100    -0.1885333   -0.7355414  
   0.700965000    -0.2980325   -0.6968947  
   0.702964900    -0.3987830   -0.6424997  
   0.704964800    -0.4897329   -0.5737499  
   0.706964700    -0.5683832   -0.4925724  
   0.708964600    -0.6339381   -0.4007050  
   0.710964500    -0.6850792   -0.3009644  
   0.712964400    -0.7198729   -0.1947084  
   0.714964300    -0.7380872   -0.0843523  
   0.716964200    -0.7399526    0.0269363  
   0.718964100    -0.7248978    0.1368800  
   0.720964000    -0.6935914    0.2432441  
   0.722963900    -0.6463335    0.3440251  
   0.724963800    -0.5843145    0.4369580  
   0.726963700    -0.5083469    0.5194533  
   0.728963600    -0.4197508    0.5896903  
   0.730963500    -0.3205767    0.6451898  
   0.732963400    -0.2133865    0.6847412  
   0.734963300    -0.1003696    0.7066439  
   0.736963200     0.0329442    0.7096037  
   0.738963100     0.1657886    0.6874167  
   0.740963000     0.2925245    0.6406555  
   0.742962900     0.4080648    0.5706512  
   0.744962800     0.5086131    0.4808359  
   0.746962700     0.5904403    0.3738447  
   0.748962600     0.6506008    0.2535841  
   0.750962500     0.5905331    0.3484183  
   0.752962400     0.6459941    0.2284458  
   0.754962300     0.6785039    0.1015159  
   0.756962200     0.6872862   -0.0285630  
   0.758962100     0.6724067   -0.1574353  
   0.760962000     0.6348493   -0.2805396  
   0.762961900     0.5792534   -0.3894770  
   0.764961800     0.5127747   -0.4792691  
   0.766961700     0.4341661   -0.5574926  
   0.768961600     0.3442122   -0.6228111  
   0.770961500     0.2451292   -0.6736029  
   0.772961400     0.1397122   -0.7086708  
   0.774961300     0.0303201   -0.7271790  
   0.776961200    -0.0811985   -0.7284796  
   0.778961100    -0.1920560   -0.7128927  
   0.780961000    -0.2994316   -0.6800158  
   0.782960900    -0.4007258   -0.6305587  
   0.784960800    -0.4937059   -0.5654345  
   0.786960700    -0.5753137   -0.4863605  
   0.788960600    -0.6436663   -0.3952408  
   0.790960500    -0.6969408   -0.2943045  
   0.792960400    -0.7336643   -0.1864737  
   0.794960300    -0.7529222   -0.0741413  
   0.796960200    -0.7546242    0.0397353  
   0.798960100    -0.7385072    0.1524387  
   0.800960000    -0.7051094    0.2605073  
   0.802959900    -0.6553132    0.3631046  
   0.804959800    -0.5903372    0.4560313  
   0.806959700    -0.5119181    0.5382067  
   0.808959600    -0.4212714    0.6072141  
   0.810959500    -0.3210992    0.6612110  
   0.812959400    -0.2129938    0.6995073  
   0.814959300    -0.1004434    0.7205890  
   0.816959200     0.0147535    0.7237608  
   0.818959100     0.1299960    0.7089896  
   0.820959000     0.2415783    0.6758374  
   0.822958900     0.3477761    0.6254534  
   0.824958800     0.4448648    0.5583505  
   0.826958700     0.5304741    0.4756849  
   0.828958600     0.6019995    0.3797359  
   0.830958500     0.6571616    0.2730327  
   0.832958400     0.6942661    0.1581523  
   0.834958300     0.7121295    0.0384354  
   0.836958200     0.7097878   -0.0826197  
   0.838958100     0.6875773   -0.2017917  
   0.840958000     0.6454968   -0.3159549  
   0.842957900     0.5852018   -0.4218150  
   0.844957800     0.5081857   -0.5162210  
   0.846957700     0.4168306   -0.5961431  
   0.848957600     0.3135074   -0.6596187  
   0.850957500     0.2020264   -0.7050139  
   0.852957400     0.0847755   -0.7312205  
   0.854957300    -0.0343929   -0.7381713  
   0.856957200    -0.1520888   -0.7255613  
   0.858957100    -0.2655317   -0.6945578  
   0.860957000    -0.3713700   -0.6463146  
   0.862956900    -0.4673068   -0.5828272  
   0.864956800    -0.5513281   -0.5062261  
   0.866956700    -0.6216553   -0.4186371  
   0.868956600    -0.6771281   -0.3218159  
   0.870956500    -0.7174521   -0.2187336  
   0.872956400    -0.7419673   -0.1112599  
   0.874956300    -0.7496591   -0.0019752  
   0.876956200    -0.7413480    0.1076982  
   0.878956100    -0.7165648    0.2145348  
   0.880956000    -0.6764843    0.3167030  
   0.882955900    -0.6216885    0.4119160  
   0.884955800    -0.5528717    0.4981443  
   0.886955700    -0.4718312    0.5737093  
   0.888955600    -0.3803328    0.6362815  
   0.890955500    -0.2798591    0.6851682  
   0.892955400    -0.1728822    0.7184078  
   0.894955300    -0.0612611    0.7349641  
