! MS46122B
! 2250307/22442219
! 7/24/2025 7:41:41 AM
! C:\USERS\SPARKY\DOCUMENTS\VNA_DATA\JULY24_2025\3K\PORT6_MOS4.S1P
! CHANNEL.1
! TR.MEASUREMENT
! RAW.DATA
# GHZ S RI R 50.0
! FREQ.GHZ         S11RE         S11IM         
!; PortSelection: Port_1
   0.001000000     1.0452180   -0.0719859  
   0.002999900     0.9639587   -0.1943787  
   0.004999800     0.9037378   -0.2993814  
   0.006999700     0.8365583   -0.3970216  
   0.008999600     0.7579032   -0.4925022  
   0.010999500     0.6649419   -0.5834603  
   0.012999400     0.5518013   -0.6672694  
   0.014999300     0.4124408   -0.7380025  
   0.016999200     0.2406037   -0.7829501  
   0.018999100     0.0309237   -0.7822848  
   0.020999000    -0.2087496   -0.7014657  
   0.022998900    -0.4409788   -0.4989216  
   0.024998800    -0.5573300   -0.1623863  
   0.026998700    -0.5130219    0.2487732  
   0.028998600    -0.2356408    0.5616278  
   0.030998500     0.1303506    0.6749914  
   0.032998400     0.4242593    0.6046069  
   0.034998300     0.6795738    0.4698658  
   0.036998200     0.8175108    0.2931890  
   0.038998100     0.8895093    0.1187694  
   0.040998000     0.9153578   -0.0416104  
   0.042997900     0.9090078   -0.1848649  
   0.044997800     0.8548624   -0.2847299  
   0.046997700     0.8359402   -0.4205918  
   0.048997600     0.7801835   -0.5158336  
   0.050997500     0.7159614   -0.5978973  
   0.052997400     0.6456572   -0.6681839  
   0.054997300     0.5702493   -0.7274505  
   0.056997200     0.4897257   -0.7780001  
   0.058997100     0.4064460   -0.8183954  
   0.060997000     0.3199300   -0.8500349  
   0.062996900     0.2308823   -0.8721579  
   0.064996800     0.1392153   -0.8846420  
   0.066996700     0.0454382   -0.8876583  
   0.068996600    -0.0495715   -0.8800602  
   0.070996500    -0.1456614   -0.8623213  
   0.072996400    -0.2414680   -0.8316120  
   0.074996300    -0.3362118   -0.7882093  
   0.076996200    -0.4283341   -0.7312547  
   0.078996100    -0.5150881   -0.6594573  
   0.080996000    -0.5953869   -0.5725765  
   0.082995900    -0.6653655   -0.4702903  
   0.084995800    -0.7211425   -0.3528171  
   0.086995700    -0.7605554   -0.2216776  
   0.088995600    -0.7780519   -0.0779752  
   0.090995500    -0.7694775    0.0737679  
   0.092995400    -0.7314650    0.2295683  
   0.094995300    -0.6593676    0.3809030  
   0.096995200    -0.5534412    0.5200163  
   0.098995100    -0.4155888    0.6373474  
   0.100995000    -0.2501962    0.7233127  
   0.102994900    -0.0683439    0.7697603  
   0.104994800     0.1199388    0.7735103  
   0.106994700     0.3024544    0.7338634  
   0.108994600     0.4684736    0.6561233  
   0.110994500     0.6099895    0.5465896  
   0.112994400     0.7207097    0.4141594  
   0.114994300     0.7984527    0.2677526  
   0.116994200     0.8440614    0.1155666  
   0.118994100     0.8591309   -0.0353238  
   0.120994000     0.8489617   -0.1800393  
   0.122993900     0.8141435   -0.3143834  
   0.124993800     0.7599697   -0.4354660  
   0.126993700     0.6905689   -0.5422876  
   0.128993600     0.6078908   -0.6327440  
   0.130993500     0.5168795   -0.7088516  
   0.132993400     0.4189054   -0.7693835  
   0.134993300     0.3163558   -0.8145381  
   0.136993200     0.2107587   -0.8451095  
   0.138993100     0.1037624   -0.8614579  
   0.140993000    -0.0030415   -0.8635803  
   0.142992900    -0.1084521   -0.8518091  
   0.144992800    -0.2118417   -0.8286990  
   0.146992700    -0.3108947   -0.7910239  
   0.148992600    -0.4052762   -0.7408348  
   0.150992500    -0.4921387   -0.6771655  
   0.152992400    -0.5723832   -0.6028534  
   0.154992300    -0.6430997   -0.5172693  
   0.156992200    -0.7028517   -0.4208930  
   0.158992100    -0.7498636   -0.3148817  
   0.160992000    -0.7824578   -0.2002487  
   0.162991900    -0.7985197   -0.0788211  
   0.164991800    -0.7960950    0.0472651  
   0.166991700    -0.7740091    0.1753154  
   0.168991600    -0.7306610    0.3018028  
   0.170991500    -0.6646627    0.4236296  
   0.172991400    -0.5773498    0.5357506  
   0.174991300    -0.4686634    0.6336770  
   0.176991200    -0.3410028    0.7127512  
   0.178991100    -0.1980006    0.7685752  
   0.180991000    -0.0445210    0.7981070  
   0.182990900     0.1137862    0.7973229  
   0.184990800     0.2709077    0.7660216  
   0.186990700     0.4194608    0.7051327  
   0.188990600     0.5340240    0.6317627  
   0.190990500     0.6630459    0.5081572  
   0.192990400     0.7541550    0.3762443  
   0.194990300     0.8167587    0.2352432  
   0.196990200     0.8516538    0.0883469  
   0.198990100     0.8592374   -0.0586027  
   0.200990000     0.8414121   -0.2015590  
   0.202989900     0.8003287   -0.3358603  
   0.204989800     0.7394388   -0.4581921  
   0.206989700     0.6623368   -0.5662542  
   0.208989600     0.5709695   -0.6577991  
   0.210989500     0.4689393   -0.7324375  
   0.212989400     0.3589163   -0.7895250  
   0.214989300     0.2439210   -0.8290341  
   0.216989200     0.1268756   -0.8508661  
   0.218989100     0.0100922   -0.8558452  
   0.220989000    -0.1056030   -0.8443227  
   0.222988900    -0.2175017   -0.8163214  
   0.224988800    -0.3243206   -0.7734767  
   0.226988700    -0.4236881   -0.7164271  
   0.228988600    -0.5138047   -0.6462583  
   0.230988500    -0.5934577   -0.5637955  
   0.232988400    -0.6604715   -0.4692092  
   0.234988300    -0.7150787   -0.3650323  
   0.236988200    -0.7543901   -0.2524891  
   0.238988100    -0.7767804   -0.1334414  
   0.240988000    -0.7815015   -0.0106698  
   0.242987900    -0.7666107    0.1134763  
   0.244987800    -0.7320428    0.2364004  
   0.246987700    -0.6766847    0.3549671  
   0.248987600    -0.6007463    0.4657545  
   0.250987500    -0.5045443    0.5645308  
   0.252987400    -0.3908282    0.6465882  
   0.254987300    -0.2626009    0.7081129  
   0.256987200    -0.1231167    0.7465915  
   0.258987100     0.0236140    0.7607216  
   0.260987000     0.1720359    0.7459052  
   0.262986900     0.3166885    0.7032222  
   0.264986800     0.4512287    0.6337186  
   0.266986700     0.5705321    0.5401199  
   0.268986600     0.6693953    0.4267479  
   0.270986500     0.7443242    0.2985627  
   0.272986400     0.7939497    0.1604242  
   0.274986300     0.8173529    0.0183287  
   0.276986200     0.8153380   -0.1235616  
   0.278986100     0.7889918   -0.2600588  
   0.280986000     0.7404543   -0.3877448  
   0.282985900     0.6732848   -0.5029306  
   0.284985800     0.5898777   -0.6032397  
   0.286985700     0.4942038   -0.6865765  
   0.288985600     0.3899522   -0.7526261  
   0.290985500     0.2798506   -0.8007911  
   0.292985400     0.1664264   -0.8315143  
   0.294985300     0.0518704   -0.8453417  
   0.296985200    -0.0624041   -0.8432890  
   0.298985100    -0.1741142   -0.8252106  
   0.300985000    -0.2815281   -0.7920838  
   0.302984900    -0.3823939   -0.7450637  
   0.304984800    -0.4751507   -0.6851695  
   0.306984700    -0.5590106   -0.6139631  
   0.308984600    -0.6318126   -0.5324775  
   0.310984500    -0.6932380   -0.4419733  
   0.312984400    -0.7423226   -0.3434477  
   0.314984300    -0.7777257   -0.2373690  
   0.316984200    -0.7985567   -0.1256824  
   0.318984100    -0.8028942   -0.0091582  
   0.320984000    -0.7890459    0.1099407  
   0.322983900    -0.7556629    0.2279802  
   0.324983800    -0.7018552    0.3402858  
   0.326983700    -0.6283171    0.4421103  
   0.328983600    -0.5381319    0.5293269  
   0.330983500    -0.4359295    0.5980316  
   0.332983400    -0.3275834    0.6476274  
   0.334983300    -0.2155428    0.6801167  
   0.336983200    -0.1017460    0.6967856  
   0.338983100     0.0130155    0.6983083  
   0.340983000     0.1280940    0.6839326  
   0.342982900     0.2419719    0.6528471  
   0.344982800     0.3520756    0.6037217  
   0.346982700     0.4560162    0.5357212  
   0.348982600     0.5478153    0.4492946  
   0.350982500     0.6257164    0.3470435  
   0.352982400     0.6855749    0.2316697  
   0.354982300     0.7253608    0.1013414  
   0.356982200     0.7399530   -0.0476737  
   0.358982100     0.7242960   -0.1968339  
   0.360982000     0.6794330   -0.3392720  
   0.362981900     0.6073834   -0.4701591  
   0.364981800     0.5111006   -0.5839300  
   0.366981700     0.3951069   -0.6761199  
   0.368981600     0.2641106   -0.7434563  
   0.370981500     0.1235005   -0.7841684  
   0.372981400    -0.0209349   -0.7973375  
   0.374981300    -0.1641949   -0.7831281  
   0.376981200    -0.0427525   -0.7973027  
   0.378981100    -0.1836379   -0.7789316  
   0.380981000    -0.3176955   -0.7355153  
   0.382980900    -0.4298303   -0.6760752  
   0.384980800    -0.5254084   -0.6036045  
   0.386980700    -0.6084386   -0.5178723  
   0.388980600    -0.6773276   -0.4205461  
   0.390980500    -0.7303863   -0.3152856  
   0.392980400    -0.7668684   -0.2037391  
   0.394980300    -0.7862554   -0.0883430  
   0.396980200    -0.7883161    0.0286989  
   0.398980100    -0.7728663    0.1453332  
   0.400980000    -0.7404022    0.2594512  
   0.402979900    -0.6903368    0.3680321  
   0.404979800    -0.6244500    0.4684969  
   0.406979700    -0.5429338    0.5589575  
   0.408979600    -0.4478602    0.6366061  
   0.410979500    -0.3395990    0.6996859  
   0.412979400    -0.2211541    0.7455136  
   0.414979300    -0.0946732    0.7711226  
   0.416979200     0.0357447    0.7769575  
   0.418979100     0.1665854    0.7612678  
   0.420979000     0.2947394    0.7237511  
   0.422978900     0.4159071    0.6645523  
   0.424978800     0.5262527    0.5844878  
   0.426978700     0.6221990    0.4861836  
   0.428978600     0.6998160    0.3721943  
   0.430978500     0.7563930    0.2465607  
   0.432978400     0.7904725    0.1135960  
   0.434978300     0.8021971   -0.0230428  
   0.436978200     0.7890929   -0.1590393  
   0.438978100     0.7528446   -0.2899365  
   0.440978000     0.6957192   -0.4116747  
   0.442977900     0.6193743   -0.5211587  
   0.444977800     0.5265044   -0.6152675  
   0.446977700     0.4206929   -0.6920177  
   0.448977600     0.3053309   -0.7493790  
   0.450977500     0.1836888   -0.7865605  
   0.452977400     0.0583218   -0.8036625  
   0.454977300    -0.0670890   -0.8004951  
   0.456977200    -0.1898155   -0.7778482  
   0.458977100    -0.3063791   -0.7363600  
   0.460977000    -0.4138732   -0.6774948  
   0.462976900    -0.5100389   -0.6038087  
   0.464976800    -0.5932350   -0.5163071  
   0.466976700    -0.6616461   -0.4176857  
   0.468976600    -0.7140700   -0.3100053  
   0.470976500    -0.7492174   -0.1955876  
   0.472976400    -0.7664946   -0.0769767  
   0.474976300    -0.7651413    0.0432226  
   0.476976200    -0.7449781    0.1619499  
   0.478976100    -0.7063463    0.2764408  
   0.480976000    -0.6502000    0.3838493  
   0.482975900    -0.5773621    0.4816683  
   0.484975800    -0.4889357    0.5675917  
   0.486975700    -0.3867126    0.6384091  
   0.488975600    -0.2730932    0.6922327  
   0.490975500    -0.1506420    0.7266992  
   0.492975400    -0.0229527    0.7400923  
   0.494975300     0.1060373    0.7311396  
   0.496975200     0.2322323    0.6996247  
   0.498975100     0.3511124    0.6463909  
   0.500975000     0.4585829    0.5730932  
   0.502974900     0.5507190    0.4822439  
   0.504974800     0.6247491    0.3769813  
   0.506974700     0.6786720    0.2616782  
   0.508974600     0.7110002    0.1393455  
   0.510974500     0.7216452    0.0160851  
   0.512974400     0.7113166   -0.1046750  
   0.514974300     0.6811090   -0.2177017  
   0.516974200     0.6359298   -0.3225401  
   0.518974100     0.5771894   -0.4170110  
   0.520974000     0.5071729   -0.4995371  
   0.522973900     0.4277891   -0.5700929  
   0.524973800     0.3415115   -0.6284464  
   0.526973700     0.2480652   -0.6749002  
   0.528973600     0.1496669   -0.7084034  
   0.530973500     0.0467010   -0.7287484  
   0.532973400    -0.0591507   -0.7347135  
   0.534973300    -0.1662360   -0.7255289  
   0.536973200    -0.2730919   -0.7001061  
   0.538973100    -0.3758609   -0.6580677  
   0.540973000    -0.4719179   -0.6005104  
   0.542972900    -0.5592237   -0.5269645  
   0.544972800    -0.6351058   -0.4398814  
   0.546972700    -0.6963433   -0.3401933  
   0.548972600    -0.7414202   -0.2309161  
   0.550972500    -0.7683532   -0.1146351  
   0.552972400    -0.7763783    0.0052786  
   0.554972300    -0.7646838    0.1257417  
   0.556972200    -0.7332930    0.2434549  
   0.558972100    -0.6830574    0.3550597  
   0.560972000    -0.6154013    0.4574629  
   0.562971900    -0.5317897    0.5476727  
   0.564971800    -0.4342588    0.6236063  
   0.566971700    -0.3253240    0.6831281  
   0.568971600    -0.2079337    0.7243477  
   0.570971500    -0.0846225    0.7460136  
   0.572971400     0.0419450    0.7472147  
   0.574971300     0.1679696    0.7275764  
   0.576971200     0.2902443    0.6864894  
   0.578971100     0.4049079    0.6251307  
   0.580971000     0.5077733    0.5446870  
   0.582970900     0.5960132    0.4475846  
   0.584970800     0.6662305    0.3367057  
   0.586970700     0.7163317    0.2155037  
   0.588970600     0.7452850    0.0871371  
   0.590970500     0.7516468   -0.0439561  
   0.592970400     0.7355964   -0.1743162  
   0.594970300     0.6974082   -0.2994643  
   0.596970200     0.6387509   -0.4158339  
   0.598970100     0.5616304   -0.5197880  
   0.600970000     0.4683808   -0.6091726  
   0.602969900     0.3622957   -0.6809438  
   0.604969800     0.2464463   -0.7334713  
   0.606969700     0.1244776   -0.7658448  
   0.608969600    -0.0006081   -0.7778676  
   0.610969500    -0.1244808   -0.7697150  
   0.612969400    -0.2445604   -0.7416108  
   0.614969300    -0.3572966   -0.6952690  
   0.616969200    -0.4599106   -0.6324894  
   0.618969100    -0.5503592   -0.5558248  
   0.620969000    -0.6272432   -0.4668036  
   0.622968900    -0.6896790   -0.3676821  
   0.624968800    -0.7360102   -0.2609237  
   0.626968700    -0.7659413   -0.1481416  
   0.628968600    -0.7787291   -0.0323748  
   0.630968500    -0.7738175    0.0842698  
   0.632968400    -0.7514798    0.1986516  
   0.634968300    -0.7123399    0.3088120  
   0.636968200    -0.6564454    0.4123816  
   0.638968100    -0.5855391    0.5071601  
   0.640968000    -0.5003135    0.5898289  
   0.642967900    -0.4027255    0.6596556  
   0.644967800    -0.2946346    0.7141445  
   0.646967700    -0.1785436    0.7511259  
   0.648967600    -0.0573351    0.7697076  
   0.650967500     0.0663315    0.7691974  
   0.652967400     0.1892734    0.7486652  
   0.654967300     0.3081527    0.7086466  
   0.656967200     0.4199361    0.6491159  
   0.658967100     0.5213650    0.5718629  
   0.660967000     0.6097181    0.4779536  
   0.662966900     0.6817045    0.3695998  
   0.664966800     0.7352210    0.2492590  
   0.666966700     0.7677833    0.1212481  
   0.668966600     0.7783504   -0.0108297  
   0.670966500     0.7663763   -0.1431163  
   0.672966400     0.7331676   -0.2710214  
   0.674966300     0.6780192   -0.3906397  
   0.676966200     0.6038024   -0.4983866  
   0.678966100     0.5137145   -0.5914389  
   0.680966000     0.4102750   -0.6673662  
   0.682965900     0.2969043   -0.7243260  
   0.684965800     0.1770748   -0.7620295  
   0.686965700     0.0538405   -0.7793779  
   0.688965600    -0.0694054   -0.7770881  
   0.690965500    -0.1883527   -0.7541790  
   0.692965400    -0.3017653   -0.7146627  
   0.694965300    -0.4062398   -0.6585667  
   0.696965200    -0.5000414   -0.5878877  
   0.698965100    -0.5811813   -0.5042079  
   0.700965000    -0.6485047   -0.4097835  
   0.702964900    -0.7003877   -0.3067004  
   0.704964800    -0.7361926   -0.1974124  
   0.706964700    -0.7548925   -0.0839552  
   0.708964600    -0.7562951    0.0309507  
   0.710964500    -0.7407371    0.1455382  
   0.712964400    -0.7070874    0.2563392  
   0.714964300    -0.6567259    0.3611952  
   0.716964200    -0.5906749    0.4569053  
   0.718964100    -0.5101045    0.5415770  
   0.720964000    -0.4171920    0.6130285  
   0.722963900    -0.3135918    0.6691718  
   0.724963800    -0.2018675    0.7082012  
   0.726963700    -0.0844157    0.7289914  
   0.728963600     0.0355333    0.7299360  
   0.730963500     0.1544197    0.7112349  
   0.732963400     0.2690765    0.6731799  
   0.734963300     0.3762995    0.6164760  
   0.736963200     0.4863746    0.5308850  
   0.738963100     0.5786660    0.4257133  
   0.740963000     0.6491160    0.3054660  
   0.742962900     0.6954116    0.1745950  
   0.744962800     0.7161362    0.0384411  
   0.746962700     0.7111359   -0.0980838  
   0.748962600     0.6812307   -0.2302283  
   0.750962500     0.6952680   -0.1231666  
   0.752962400     0.6623864   -0.2526453  
   0.754962300     0.6069927   -0.3730002  
   0.756962200     0.5316138   -0.4803259  
   0.758962100     0.4387066   -0.5723825  
   0.760962000     0.3313853   -0.6459368  
   0.762961900     0.2188539   -0.6973930  
   0.764961800     0.1096360   -0.7274985  
   0.766961700    -0.0025835   -0.7407206  
   0.768961600    -0.1159421   -0.7366133  
   0.770961500    -0.2277077   -0.7153293  
   0.772961400    -0.3347748   -0.6769997  
   0.774961300    -0.4347294   -0.6226835  
   0.776961200    -0.5259194   -0.5531287  
   0.778961100    -0.6050066   -0.4699526  
   0.780961000    -0.6705148   -0.3748269  
   0.782960900    -0.7205071   -0.2704245  
   0.784960800    -0.7534919   -0.1585800  
   0.786960700    -0.7682994   -0.0425396  
   0.788960600    -0.7648550    0.0748005  
   0.790960500    -0.7425260    0.1899082  
   0.792960400    -0.7025081    0.3003491  
   0.794960300    -0.6455086    0.4032277  
   0.796960200    -0.5731828    0.4959793  
   0.798960100    -0.4870085    0.5757310  
   0.800960000    -0.3894834    0.6414872  
   0.802959900    -0.2825544    0.6910366  
   0.804959800    -0.1690086    0.7235034  
   0.806959700    -0.0517628    0.7375854  
   0.808959600     0.0669931    0.7327786  
   0.810959500     0.1839506    0.7096093  
   0.812959400     0.2960047    0.6677705  
   0.814959300     0.4008063    0.6080197  
   0.816959200     0.4949721    0.5323239  
   0.818959100     0.5761066    0.4416492  
   0.820959000     0.6419757    0.3382584  
   0.822958900     0.6901736    0.2252717  
   0.824958800     0.7193806    0.1049455  
   0.826958700     0.7284245   -0.0189070  
   0.828958600     0.7166058   -0.1425079  
   0.830958500     0.6844510   -0.2629758  
   0.832958400     0.6325169   -0.3761317  
   0.834958300     0.5627681   -0.4790129  
   0.836958200     0.4771499   -0.5689926  
   0.838958100     0.3780701   -0.6430002  
   0.840958000     0.2682021   -0.6995889  
   0.842957900     0.1512433   -0.7372270  
   0.844957800     0.0301490   -0.7548813  
   0.846957700    -0.0916153   -0.7529200  
   0.848957600    -0.2106809   -0.7312062  
   0.850957500    -0.3240969   -0.6908545  
   0.852957400    -0.4288001   -0.6335265  
   0.854957300    -0.5224067   -0.5606036  
   0.856957200    -0.6030232   -0.4746511  
   0.858957100    -0.6684794   -0.3779328  
   0.860957000    -0.7179968   -0.2732610  
   0.862956900    -0.7507257   -0.1633739  
   0.864956800    -0.7659308   -0.0510829  
   0.866956700    -0.7644144    0.0612723  
   0.868956600    -0.7461875    0.1720316  
   0.870956500    -0.7117159    0.2781447  
   0.872956400    -0.6623776    0.3786330  
   0.874956300    -0.5987861    0.4704143  
   0.876956200    -0.5212309    0.5524966  
   0.878956100    -0.4321760    0.6228938  
   0.880956000    -0.3331273    0.6791053  
   0.882955900    -0.2254658    0.7201993  
   0.884955800    -0.1123814    0.7447540  
   0.886955700     0.0041175    0.7515772  
   0.888955600     0.1215487    0.7402420  
   0.890955500     0.2364668    0.7105612  
   0.892955400     0.3461881    0.6628605  
   0.894955300     0.4477892    0.5979132  
