! MS46122B
! 2250307/22442219
! 7/24/2025 7:49:39 AM
! C:\USERS\SPARKY\DOCUMENTS\VNA_DATA\JULY24_2025\3K\PORT4_MOS2_REPEAT1.S1P
! CHANNEL.1
! TR.MEASUREMENT
! RAW.DATA
# GHZ S RI R 50.0
! FREQ.GHZ         S11RE         S11IM         
!; PortSelection: Port_1
   0.001000000     1.0453940   -0.0719580  
   0.002999900     0.9637250   -0.1943303  
   0.004999800     0.9037074   -0.2992997  
   0.006999700     0.8365275   -0.3968119  
   0.008999600     0.7580516   -0.4920880  
   0.010999500     0.6653290   -0.5828016  
   0.012999400     0.5527538   -0.6663966  
   0.014999300     0.4144135   -0.7367870  
   0.016999200     0.2441513   -0.7819525  
   0.018999100     0.0369434   -0.7822932  
   0.020999000    -0.1997178   -0.7050282  
   0.022998900    -0.4305906   -0.5098309  
   0.024998800    -0.5516687   -0.1826862  
   0.026998700    -0.5216672    0.2218601  
   0.028998600    -0.2603395    0.5409592  
   0.030998500     0.0986078    0.6692749  
   0.032998400     0.3958792    0.6119650  
   0.034998300     0.6574442    0.4861565  
   0.036998200     0.8027838    0.3132502  
   0.038998100     0.8810835    0.1397350  
   0.040998000     0.9117985   -0.0211935  
   0.042997900     0.9093569   -0.1654495  
   0.044997800     0.8578450   -0.2673131  
   0.046997700     0.8415678   -0.4041356  
   0.048997600     0.7879930   -0.5008705  
   0.050997500     0.7253450   -0.5843920  
   0.052997400     0.6564419   -0.6561598  
   0.054997300     0.5824046   -0.7168036  
   0.056997200     0.5031210   -0.7688033  
   0.058997100     0.4209569   -0.8106049  
   0.060997000     0.3354789   -0.8436999  
   0.062996900     0.2475782   -0.8675385  
   0.064996800     0.1569206   -0.8817332  
   0.066996700     0.0641076   -0.8868061  
   0.068996600    -0.0299758   -0.8813972  
   0.070996500    -0.1249268   -0.8662446  
   0.072996400    -0.2203971   -0.8383332  
   0.074996300    -0.3147258   -0.7979817  
   0.076996200    -0.4066838   -0.7447335  
   0.078996100    -0.4941566   -0.6771007  
   0.080996000    -0.5754479   -0.5946522  
   0.082995900    -0.6475626   -0.4972171  
   0.084995800    -0.7065960   -0.3848262  
   0.086995700    -0.7506241   -0.2584506  
   0.088995600    -0.7740856   -0.1195687  
   0.090995500    -0.7735288    0.0287788  
   0.092995400    -0.7449109    0.1822790  
   0.094995300    -0.6842970    0.3338873  
   0.096995200    -0.5899833    0.4763896  
   0.098995100    -0.4634501    0.5997446  
   0.100995000    -0.3078936    0.6965452  
   0.102994900    -0.1330598    0.7562177  
   0.104994800     0.0520158    0.7751162  
   0.106994700     0.2358847    0.7508246  
   0.108994600     0.4071183    0.6877795  
   0.110994500     0.5571141    0.5908006  
   0.112994400     0.6788381    0.4674447  
   0.114994300     0.7689754    0.3270688  
   0.116994200     0.8270189    0.1778557  
   0.118994100     0.8540903    0.0272041  
   0.120994000     0.8549536   -0.1194721  
   0.122993900     0.8297390   -0.2572124  
   0.124993800     0.7840132   -0.3831170  
   0.126993700     0.7212604   -0.4955557  
   0.128993600     0.6444247   -0.5922996  
   0.130993500     0.5579154   -0.6745850  
   0.132993400     0.4638272   -0.7416775  
   0.134993300     0.3638147   -0.7934973  
   0.136993200     0.2602678   -0.8306347  
   0.138993100     0.1547233   -0.8536469  
   0.140993000     0.0484963   -0.8622612  
   0.142992900    -0.0572080   -0.8571588  
   0.144992800    -0.1609396   -0.8407478  
   0.146992700    -0.2613185   -0.8098055  
   0.148992600    -0.3577062   -0.7660627  
   0.150992500    -0.4470934   -0.7089630  
   0.152992400    -0.5308820   -0.6412441  
   0.154992300    -0.6058685   -0.5624200  
   0.156992200    -0.6708795   -0.4723012  
   0.158992100    -0.7244545   -0.3721965  
   0.160992000    -0.7645310   -0.2632653  
   0.162991900    -0.7896390   -0.1464187  
   0.164991800    -0.7976940   -0.0237911  
   0.166991700    -0.7870450    0.1017719  
   0.168991600    -0.7562490    0.2281817  
   0.170991500    -0.7041279    0.3520413  
   0.172991400    -0.6301057    0.4687860  
   0.174991300    -0.5352786    0.5745502  
   0.176991200    -0.4201859    0.6644126  
   0.178991100    -0.2879276    0.7343045  
   0.180991000    -0.1425041    0.7806886  
   0.182990900     0.0114852    0.7985832  
   0.184990800     0.1683669    0.7873203  
   0.186990700     0.3212247    0.7460021  
   0.188990600     0.4429686    0.6890557  
   0.190990500     0.5857836    0.5839216  
   0.192990400     0.6928959    0.4657046  
   0.194990300     0.7732812    0.3338357  
   0.196990200     0.8268144    0.1926598  
   0.198990100     0.8538578    0.0472130  
   0.200990000     0.8544105   -0.0976429  
   0.202989900     0.8304759   -0.2370518  
   0.204989800     0.7846386   -0.3667428  
   0.206989700     0.7210065   -0.4847127  
   0.208989600     0.6407596   -0.5871513  
   0.210989500     0.5476848   -0.6743418  
   0.212989400     0.4443757   -0.7447416  
   0.214989300     0.3341378   -0.7976808  
   0.216989200     0.2202025   -0.8329927  
   0.218989100     0.1046902   -0.8514026  
   0.220989000    -0.0112049   -0.8532442  
   0.222988900    -0.1250007   -0.8387635  
   0.224988800    -0.2356139   -0.8085372  
   0.226988700    -0.3395548   -0.7639022  
   0.228988600    -0.4364658   -0.7055938  
   0.230988500    -0.5240483   -0.6345429  
   0.232988400    -0.6006302   -0.5501988  
   0.234988300    -0.6663993   -0.4556506  
   0.236988200    -0.7186950   -0.3514919  
   0.238988100    -0.7556029   -0.2395332  
   0.240988000    -0.7758005   -0.1219411  
   0.242987900    -0.7786303   -0.0006067  
   0.244987800    -0.7622668    0.1219496  
   0.246987700    -0.7263774    0.2435716  
   0.248987600    -0.6699219    0.3605421  
   0.250987500    -0.5933685    0.4694910  
   0.252987400    -0.4977539    0.5657894  
   0.254987300    -0.3854763    0.6455960  
   0.256987200    -0.2584225    0.7054999  
   0.258987100    -0.1205955    0.7443533  
   0.260987000     0.0247565    0.7562303  
   0.262986900     0.1717202    0.7410157  
   0.264986800     0.3145762    0.6988201  
   0.266986700     0.4472937    0.6300706  
   0.268986600     0.5649465    0.5380396  
   0.270986500     0.6624996    0.4267658  
   0.272986400     0.7371879    0.3005397  
   0.274986300     0.7869647    0.1645233  
   0.276986200     0.8111630    0.0237854  
   0.278986100     0.8103001   -0.1168398  
   0.280986000     0.7850423   -0.2521524  
   0.282985900     0.7382415   -0.3790353  
   0.284985800     0.6727493   -0.4936140  
   0.286985700     0.5914615   -0.5934783  
   0.288985600     0.4982177   -0.6764694  
   0.290985500     0.3961788   -0.7429074  
   0.292985400     0.2881282   -0.7919298  
   0.294985300     0.1762512   -0.8238597  
   0.296985200     0.0626760   -0.8393337  
   0.298985100    -0.0509058   -0.8388932  
   0.300985000    -0.1617894   -0.8224558  
   0.302984900    -0.2681780   -0.7916098  
   0.304984800    -0.3680967   -0.7470031  
   0.306984700    -0.4602752   -0.6898216  
   0.308984600    -0.5435739   -0.6220179  
   0.310984500    -0.6165843   -0.5442520  
   0.312984400    -0.6791345   -0.4567689  
   0.314984300    -0.7298996   -0.3614036  
   0.316984200    -0.7678977   -0.2586602  
   0.318984100    -0.7917984   -0.1491621  
   0.320984000    -0.8002045   -0.0344937  
   0.322983900    -0.7909716    0.0827424  
   0.324983800    -0.7628799    0.1993977  
   0.326983700    -0.7152339    0.3109587  
   0.328983600    -0.6484780    0.4138933  
   0.330983500    -0.5656819    0.5032732  
   0.332983400    -0.4709832    0.5763558  
   0.334983300    -0.3682204    0.6330063  
   0.336983200    -0.2594346    0.6741710  
   0.338983100    -0.1464199    0.6995953  
   0.340983000    -0.0304688    0.7091544  
   0.342982900     0.0871099    0.7020435  
   0.344982800     0.2047186    0.6768656  
   0.346982700     0.3195110    0.6325631  
   0.348982600     0.4266618    0.5683573  
   0.350982500     0.5240772    0.4870176  
   0.352982400     0.6072143    0.3886940  
   0.354982300     0.6748150    0.2721432  
   0.356982200     0.7230302    0.1317183  
   0.358982100     0.7426594   -0.0156171  
   0.360982000     0.7327129   -0.1640163  
   0.362981900     0.6937333   -0.3072314  
   0.364981800     0.6275036   -0.4403688  
   0.366981700     0.5368451   -0.5573172  
   0.368981600     0.4258598   -0.6539115  
   0.370981500     0.2989339   -0.7267894  
   0.372981400     0.1612261   -0.7737901  
   0.374981300     0.0184170   -0.7938507  
   0.376981200     0.1370158   -0.7798622  
   0.378981100    -0.0040918   -0.7942031  
   0.380981000    -0.1443413   -0.7825834  
   0.382980900    -0.2668056   -0.7504974  
   0.384980800    -0.3762286   -0.7021717  
   0.386980700    -0.4756908   -0.6378397  
   0.388980600    -0.5641127   -0.5595944  
   0.390980500    -0.6388629   -0.4697638  
   0.392980400    -0.6988249   -0.3710625  
   0.394980300    -0.7433143   -0.2650801  
   0.396980200    -0.7715310   -0.1539753  
   0.398980100    -0.7834783   -0.0396809  
   0.400980000    -0.7784315    0.0755839  
   0.402979900    -0.7566057    0.1895255  
   0.404979800    -0.7177292    0.2995011  
   0.406979700    -0.6627057    0.4031115  
   0.408979600    -0.5923097    0.4984045  
   0.410979500    -0.5068378    0.5833308  
   0.412979400    -0.4079428    0.6555946  
   0.414979300    -0.2968256    0.7108284  
   0.416979200    -0.1774554    0.7495754  
   0.418979100    -0.0521124    0.7693049  
   0.420979000     0.0763519    0.7684741  
   0.422978900     0.2044531    0.7465231  
   0.424978800     0.3289509    0.7030507  
   0.426978700     0.4453394    0.6384671  
   0.428978600     0.5501239    0.5548778  
   0.430978500     0.6392257    0.4544222  
   0.432978400     0.7100510    0.3400131  
   0.434978300     0.7614462    0.2153835  
   0.436978200     0.7896420    0.0840500  
   0.438978100     0.7953751   -0.0502637  
   0.440978000     0.7782685   -0.1827968  
   0.442977900     0.7389854   -0.3097147  
   0.444977800     0.6794692   -0.4271130  
   0.446977700     0.6018510   -0.5322096  
   0.448977600     0.5094728   -0.6216610  
   0.450977500     0.4043191   -0.6947418  
   0.452977400     0.2898911   -0.7488064  
   0.454977300     0.1688709   -0.7834631  
   0.456977200     0.0448028   -0.7983074  
   0.458977100    -0.0789382   -0.7931548  
   0.460977000    -0.1987987   -0.7692268  
   0.462976900    -0.3118836   -0.7273400  
   0.464976800    -0.4163341   -0.6687434  
   0.466976700    -0.5102171   -0.5954387  
   0.468976600    -0.5911059   -0.5093465  
   0.470976500    -0.6577528   -0.4124899  
   0.472976400    -0.7088136   -0.3062617  
   0.474976300    -0.7431918   -0.1939989  
   0.476976200    -0.7596915   -0.0780247  
   0.478976100    -0.7586424    0.0393495  
   0.480976000    -0.7395516    0.1550320  
   0.482975900    -0.7025278    0.2664123  
   0.484975800    -0.6486351    0.3720006  
   0.486975700    -0.5779476    0.4687268  
   0.488975600    -0.4922062    0.5539992  
   0.490975500    -0.3926957    0.6246225  
   0.492975400    -0.2816893    0.6790238  
   0.494975300    -0.1622017    0.7143265  
   0.496975200    -0.0371820    0.7289350  
   0.498975100     0.0889753    0.7218117  
   0.500975000     0.2124707    0.6927601  
   0.502974900     0.3286242    0.6428208  
   0.504974800     0.4341729    0.5730116  
   0.506974700     0.5252828    0.4861922  
   0.508974600     0.5991905    0.3849330  
   0.510974500     0.6536192    0.2740439  
   0.512974400     0.6873473    0.1576873  
   0.514974300     0.6992704    0.0407709  
   0.516974200     0.6935163   -0.0738021  
   0.518974100     0.6708846   -0.1826104  
   0.520974000     0.6331613   -0.2841890  
   0.522973900     0.5827557   -0.3772712  
   0.524973800     0.5211526   -0.4607959  
   0.526973700     0.4496013   -0.5349295  
   0.528973600     0.3698819   -0.5982538  
   0.530973500     0.2814080   -0.6509885  
   0.532973400     0.1865565   -0.6913701  
   0.534973300     0.0857991   -0.7185200  
   0.536973200    -0.0199464   -0.7314534  
   0.538973100    -0.1270579   -0.7286963  
   0.540973000    -0.2338090   -0.7089269  
   0.542972900    -0.3379120   -0.6730762  
   0.544972800    -0.4363529   -0.6209219  
   0.546972700    -0.5268629   -0.5524644  
   0.548972600    -0.6064150   -0.4700516  
   0.550972500    -0.6719848   -0.3747884  
   0.552972400    -0.7220991   -0.2695775  
   0.554972300    -0.7548059   -0.1568307  
   0.556972200    -0.7692503   -0.0398388  
   0.558972100    -0.7648199    0.0785866  
   0.560972000    -0.7412562    0.1950828  
   0.562971900    -0.6995506    0.3065297  
   0.564971800    -0.6406011    0.4102387  
   0.566971700    -0.5657523    0.5036392  
   0.568971600    -0.4766095    0.5842251  
   0.570971500    -0.3751741    0.6500011  
   0.572971400    -0.2639061    0.6993986  
   0.574971300    -0.1449448    0.7302579  
   0.576971200    -0.0210421    0.7414294  
   0.578971100     0.1039777    0.7323322  
   0.580971000     0.2265794    0.7023879  
   0.582970900     0.3432116    0.6520707  
   0.584970800     0.4501890    0.5828502  
   0.586970700     0.5442413    0.4962010  
   0.588970600     0.6228186    0.3947231  
   0.590970500     0.6828542    0.2809767  
   0.592970400     0.7229959    0.1584215  
   0.594970300     0.7416012    0.0305142  
   0.596970200     0.7382388   -0.0982707  
   0.598970100     0.7128521   -0.2247408  
   0.600970000     0.6662887   -0.3450291  
   0.602969900     0.6004275   -0.4546201  
   0.604969800     0.5169997   -0.5513278  
   0.606969700     0.4193854   -0.6324609  
   0.608969600     0.3097631   -0.6954141  
   0.610969500     0.1923512   -0.7389518  
   0.612969400     0.0703625   -0.7621347  
   0.614969300    -0.0518872   -0.7654176  
   0.616969200    -0.1718608   -0.7488146  
   0.618969100    -0.2857975   -0.7138819  
   0.620969000    -0.3917908   -0.6624189  
   0.622968900    -0.4879265   -0.5953815  
   0.624968800    -0.5721610   -0.5151373  
   0.626968700    -0.6426668   -0.4232734  
   0.628968600    -0.6982812   -0.3222983  
   0.630968500    -0.7378348   -0.2143344  
   0.632968400    -0.7608098   -0.1019521  
   0.634968300    -0.7664738    0.0126141  
   0.636968200    -0.7551426    0.1265270  
   0.638968100    -0.7266781    0.2377074  
   0.640968000    -0.6817401    0.3439649  
   0.642967900    -0.6212599    0.4421526  
   0.644967800    -0.5461045    0.5310812  
   0.646967700    -0.4578540    0.6080787  
   0.648967600    -0.3584785    0.6707050  
   0.650967500    -0.2501908    0.7175352  
   0.652967400    -0.1348505    0.7476445  
   0.654967300    -0.0152964    0.7595144  
   0.656967200     0.1051122    0.7524667  
   0.658967100     0.2244909    0.7260672  
   0.660967000     0.3391007    0.6804541  
   0.662966900     0.4466228    0.6158471  
   0.664966800     0.5432131    0.5337338  
   0.666966700     0.6257504    0.4356314  
   0.668966600     0.6912267    0.3244172  
   0.670966500     0.7371991    0.2032595  
   0.672966400     0.7636504    0.0762538  
   0.674966300     0.7667249   -0.0534228  
   0.676966200     0.7479694   -0.1816072  
   0.678966100     0.7079311   -0.3040143  
   0.680966000     0.6485411   -0.4173992  
   0.682965900     0.5714649   -0.5189872  
   0.684965800     0.4796621   -0.6053732  
   0.686965700     0.3752344   -0.6747483  
   0.688965600     0.2622245   -0.7259973  
   0.690965500     0.1435118   -0.7566442  
   0.692965400     0.0232920   -0.7690600  
   0.694965300    -0.0962230   -0.7621182  
   0.696965200    -0.2116839   -0.7370039  
   0.698965100    -0.3208190   -0.6945923  
   0.700965000    -0.4210792   -0.6365262  
   0.702964900    -0.5108764   -0.5643144  
   0.704964800    -0.5880977   -0.4799624  
   0.706964700    -0.6512337   -0.3854216  
   0.708964600    -0.6992997   -0.2825468  
   0.710964500    -0.7317220   -0.1741723  
   0.712964400    -0.7468950   -0.0619486  
   0.714964300    -0.7449222    0.0511484  
   0.716964200    -0.7259941    0.1622297  
   0.718964100    -0.6904278    0.2693043  
   0.720964000    -0.6389297    0.3699470  
   0.722963900    -0.5727068    0.4617077  
   0.724963800    -0.4927039    0.5425326  
   0.726963700    -0.4003461    0.6104481  
   0.728963600    -0.2981791    0.6633356  
   0.730963500    -0.1876072    0.6988615  
   0.732963400    -0.0725620    0.7169481  
   0.734963300     0.0450471    0.7159373  
   0.736963200     0.1785418    0.6913939  
   0.738963100     0.3057893    0.6417228  
   0.740963000     0.4221182    0.5693080  
   0.742962900     0.5221643    0.4764550  
   0.744962800     0.6031536    0.3667177  
   0.746962700     0.6617673    0.2440480  
   0.748962600     0.6961542    0.1134459  
   0.750962500     0.6570898    0.2176279  
   0.752962400     0.6871840    0.0883475  
   0.754962300     0.6933084   -0.0434917  
   0.756962200     0.6754546   -0.1736307  
   0.758962100     0.6346294   -0.2971314  
   0.760962000     0.5728167   -0.4110509  
   0.762961900     0.4959119   -0.5070110  
   0.764961800     0.4129397   -0.5824708  
   0.766961700     0.3192557   -0.6441126  
   0.768961600     0.2171841   -0.6906091  
   0.770961500     0.1094628   -0.7210679  
   0.772961400    -0.0016823   -0.7347688  
   0.774961300    -0.1139322   -0.7312469  
   0.776961200    -0.2245384   -0.7104000  
   0.778961100    -0.3311295   -0.6727968  
   0.780961000    -0.4310099   -0.6184851  
   0.782960900    -0.5211930   -0.5490700  
   0.784960800    -0.6001118   -0.4659064  
   0.786960700    -0.6649774   -0.3709010  
   0.788960600    -0.7142089   -0.2668646  
   0.790960500    -0.7463812   -0.1561415  
   0.792960400    -0.7610953   -0.0420023  
   0.794960300    -0.7573084    0.0733659  
   0.796960200    -0.7357388    0.1865572  
   0.798960100    -0.6967391    0.2946695  
   0.800960000    -0.6416333    0.3953692  
   0.802959900    -0.5714383    0.4866895  
   0.804959800    -0.4877428    0.5654856  
   0.806959700    -0.3929626    0.6308641  
   0.808959600    -0.2886777    0.6805615  
   0.810959500    -0.1780734    0.7136571  
   0.812959400    -0.0627627    0.7292598  
   0.814959300     0.0540102    0.7265651  
   0.816959200     0.1694094    0.7055256  
   0.818959100     0.2807128    0.6661496  
   0.820959000     0.3847131    0.6093107  
   0.822958900     0.4790964    0.5362676  
   0.824958800     0.5609149    0.4482147  
   0.826958700     0.6278734    0.3473860  
   0.828958600     0.6777405    0.2363333  
   0.830958500     0.7088383    0.1185862  
   0.832958400     0.7198586   -0.0034327  
   0.834958300     0.7106710   -0.1253626  
   0.836958200     0.6813670   -0.2443716  
   0.838958100     0.6326522   -0.3569114  
   0.840958000     0.5658204   -0.4600352  
   0.842957900     0.4830123   -0.5505486  
   0.844957800     0.3864223   -0.6261552  
   0.846957700     0.2790973   -0.6840065  
   0.848957600     0.1641546   -0.7235009  
   0.850957500     0.0447026   -0.7432623  
   0.852957400    -0.0756658   -0.7435386  
   0.854957300    -0.1937545   -0.7242439  
   0.856957200    -0.3059987   -0.6865577  
   0.858957100    -0.4101064   -0.6319191  
   0.860957000    -0.5031983   -0.5623904  
   0.862956900    -0.5837232   -0.4801568  
   0.864956800    -0.6497609   -0.3876617  
   0.866956700    -0.7003485   -0.2871744  
   0.868956600    -0.7345471   -0.1811904  
   0.870956500    -0.7531383   -0.0717931  
   0.872956400    -0.7547797    0.0385925  
   0.874956300    -0.7403649    0.1477272  
   0.876956200    -0.7097940    0.2539827  
   0.878956100    -0.6639706    0.3545009  
   0.880956000    -0.6034311    0.4475881  
   0.882955900    -0.5295384    0.5308503  
   0.884955800    -0.4437310    0.6024966  
   0.886955700    -0.3476839    0.6607960  
   0.888955600    -0.2436726    0.7041246  
   0.890955500    -0.1337819    0.7317327  
   0.892955400    -0.0199792    0.7422814  
   0.894955300     0.0952515    0.7352334  
