! MS46122B
! 2250307/22442219
! 7/27/2025 9:26:52 AM
! C:\USERS\SPARKY\DOCUMENTS\VNA_DATA\JULY27_2025\3K\PORT4_MOS6_REPEAT1.S1P
! CHANNEL.1
! TR.MEASUREMENT
! RAW.DATA
# GHZ S RI R 50.0
! FREQ.GHZ         S11RE         S11IM         
!; PortSelection: Port_1
   0.001000000     1.0456450   -0.0731210  
   0.002999900     0.9474563   -0.2227670  
   0.004999800     0.8220553   -0.0957454  
   0.006999700     0.5172281   -0.3853586  
   0.008999600     0.9358231   -0.0397354  
   0.010999500     0.9167842   -0.2458823  
   0.012999400     0.8766049   -0.3507768  
   0.014999300     0.8360591   -0.4315970  
   0.016999200     0.7943701   -0.5023428  
   0.018999100     0.7501124   -0.5678769  
   0.020999000     0.7008399   -0.6286870  
   0.022998900     0.6463881   -0.6847180  
   0.024998800     0.5782396   -0.7005799  
   0.026998700     0.5198403   -0.7822405  
   0.028998600     0.4459367   -0.8227587  
   0.030998500     0.3645034   -0.8563678  
   0.032998400     0.2800077   -0.8473252  
   0.034998300     0.1788966   -0.8969586  
   0.036998200     0.0746325   -0.9009467  
   0.038998100    -0.0355523   -0.8909931  
   0.040998000    -0.1507622   -0.8641937  
   0.042997900    -0.2692971   -0.8187433  
   0.044997800    -0.3635361   -0.7329315  
   0.046997700    -0.5023413   -0.6575187  
   0.048997600    -0.6065552   -0.5369511  
   0.050997500    -0.6927770   -0.3872479  
   0.052997400    -0.7504217   -0.2095436  
   0.054997300    -0.7675501   -0.0084146  
   0.056997200    -0.7320893    0.2066935  
   0.058997100    -0.6359007    0.4154026  
   0.060997000    -0.4794664    0.5970455  
   0.062996900    -0.2725285    0.7286617  
   0.064996800    -0.0371206    0.7947610  
   0.066996700     0.2021448    0.7909353  
   0.068996600     0.4213544    0.7241468  
   0.070996500     0.6054009    0.6092432  
   0.072996400     0.7453076    0.4623999  
   0.074996300     0.8405648    0.2996753  
   0.076996200     0.8945104    0.1333825  
   0.078996100     0.9134514   -0.0273488  
   0.080996000     0.9033974   -0.1781844  
   0.082995900     0.8698279   -0.3157298  
   0.084995800     0.8172233   -0.4378067  
   0.086995700     0.7515175   -0.5449129  
   0.088995600     0.6746821   -0.6369968  
   0.090995500     0.5897067   -0.7151714  
   0.092995400     0.4991229   -0.7796401  
   0.094995300     0.4025894   -0.8303773  
   0.096995200     0.3032583   -0.8679473  
   0.098995100     0.2014934   -0.8927976  
   0.100995000     0.0975609   -0.9053865  
   0.102994900    -0.0063596   -0.9057721  
   0.104994800    -0.1099308   -0.8936967  
   0.106994700    -0.2124098   -0.8687217  
   0.108994600    -0.3120432   -0.8319147  
   0.110994500    -0.4087823   -0.7822793  
   0.112994400    -0.5003035   -0.7199869  
   0.114994300    -0.5852550   -0.6443178  
   0.116994200    -0.6618391   -0.5552922  
   0.118994100    -0.7278904   -0.4536627  
   0.120994000    -0.7822699   -0.3403368  
   0.122993900    -0.8195676   -0.2148103  
   0.124993800    -0.8380681   -0.0796802  
   0.126993700    -0.8346161    0.0624021  
   0.128993600    -0.8051507    0.2073178  
   0.130993500    -0.7505074    0.3513517  
   0.132993400    -0.6678836    0.4885069  
   0.134993300    -0.5567659    0.6120357  
   0.136993200    -0.4199827    0.7149666  
   0.138993100    -0.2614094    0.7905029  
   0.140993000    -0.0873729    0.8330165  
   0.142992900     0.0940382    0.8385993  
   0.144992800     0.2735680    0.8076022  
   0.146992700     0.4417179    0.7380279  
   0.148992600     0.5902450    0.6365724  
   0.150992500     0.7112483    0.5084758  
   0.152992400     0.8030561    0.3629951  
   0.154992300     0.8627421    0.2068388  
   0.156992200     0.8909375    0.0474234  
   0.158992100     0.8895185   -0.1086787  
   0.160992000     0.8613393   -0.2568333  
   0.162991900     0.8102003   -0.3925267  
   0.164991800     0.7398224   -0.5139856  
   0.166991700     0.6540827   -0.6184907  
   0.168991600     0.5565817   -0.7058279  
   0.170991500     0.4497874   -0.7759838  
   0.172991400     0.3370932   -0.8279352  
   0.174991300     0.2210391   -0.8627622  
   0.176991200     0.1032437   -0.8806940  
   0.178991100    -0.0143143   -0.8822629  
   0.180991000    -0.1293808   -0.8686332  
   0.182990900    -0.2407770   -0.8393420  
   0.184990800    -0.3474216   -0.7950836  
   0.186990700    -0.4470608   -0.7370095  
   0.188990600    -0.5189360   -0.6804863  
   0.190990500    -0.6165168   -0.5844578  
   0.192990400    -0.6887283   -0.4869815  
   0.194990300    -0.7454027   -0.3813069  
   0.196990200    -0.7874679   -0.2678411  
   0.198990100    -0.8132045   -0.1470463  
   0.200990000    -0.8211786   -0.0208017  
   0.202989900    -0.8097504    0.1086311  
   0.204989800    -0.7782643    0.2376965  
   0.206989700    -0.7265139    0.3635982  
   0.208989600    -0.6522958    0.4816848  
   0.210989500    -0.5572348    0.5887141  
   0.212989400    -0.4420234    0.6803150  
   0.214989300    -0.3100650    0.7525266  
   0.216989200    -0.1652366    0.8007745  
   0.218989100    -0.0120837    0.8226258  
   0.220989000     0.1449396    0.8157436  
   0.222988900     0.2996718    0.7801438  
   0.224988800     0.4453511    0.7159201  
   0.226988700     0.5766866    0.6256860  
   0.228988600     0.6880041    0.5144336  
   0.230988500     0.7763237    0.3856665  
   0.232988400     0.8380475    0.2444212  
   0.234988300     0.8740895    0.0969554  
   0.236988200     0.8839343   -0.0519074  
   0.238988100     0.8682891   -0.1966686  
   0.240988000     0.8296168   -0.3336058  
   0.242987900     0.7704784   -0.4583771  
   0.244987800     0.6944320   -0.5699950  
   0.246987700     0.6039609   -0.6660820  
   0.248987600     0.5017110   -0.7460390  
   0.250987500     0.3906634   -0.8083925  
   0.252987400     0.2748481   -0.8530712  
   0.254987300     0.1562944   -0.8797063  
   0.256987200     0.0374685   -0.8894192  
   0.258987100    -0.0806075   -0.8842272  
   0.260987000    -0.1957196   -0.8613711  
   0.262986900    -0.3064333   -0.8233498  
   0.264986800    -0.4103405   -0.7708395  
   0.266986700    -0.5063102   -0.7042140  
   0.268986600    -0.5922920   -0.6253209  
   0.270986500    -0.6664563   -0.5355003  
   0.272986400    -0.7282090   -0.4355304  
   0.274986300    -0.7758815   -0.3266996  
   0.276986200    -0.8079836   -0.2104625  
   0.278986100    -0.8233456   -0.0879918  
   0.280986000    -0.8204058    0.0375029  
   0.282985900    -0.7975656    0.1645355  
   0.284985800    -0.7545409    0.2887540  
   0.286985700    -0.6903349    0.4071522  
   0.288985600    -0.6061237    0.5157414  
   0.290985500    -0.5029574    0.6100082  
   0.292985400    -0.3822438    0.6865458  
   0.294985300    -0.2465742    0.7415366  
   0.296985200    -0.0996762    0.7716181  
   0.298985100     0.0531973    0.7731894  
   0.300985000     0.2054940    0.7448037  
   0.302984900     0.3499336    0.6864477  
   0.304984800     0.4795871    0.6005993  
   0.306984700     0.5885975    0.4906526  
   0.308984600     0.6718674    0.3632250  
   0.310984500     0.7261725    0.2246838  
   0.312984400     0.7506990    0.0817218  
   0.314984300     0.7469259   -0.0581746  
   0.316984200     0.7170104   -0.1884518  
   0.318984100     0.6656229   -0.3051111  
   0.320984000     0.5975433   -0.4043335  
   0.322983900     0.5194206   -0.4842558  
   0.324983800     0.4371942   -0.5453663  
   0.326983700     0.3561595   -0.5904381  
   0.328983600     0.2786234   -0.6245898  
   0.330983500     0.2056372   -0.6522759  
   0.332983400     0.1340306   -0.6778734  
   0.334983300     0.0590136   -0.7022055  
   0.336983200    -0.0239174   -0.7231867  
   0.338983100    -0.1166579   -0.7355718  
   0.340983000    -0.2177237   -0.7338448  
   0.342982900    -0.3236658   -0.7137502  
   0.344982800    -0.4288222   -0.6736756  
   0.346982700    -0.5291312   -0.6133658  
   0.348982600    -0.6177995   -0.5341367  
   0.350982500    -0.6937346   -0.4413409  
   0.352982400    -0.7537413   -0.3357641  
   0.354982300    -0.7971327   -0.2158989  
   0.356982200    -0.8214496   -0.0749434  
   0.358982100    -0.8199149    0.0671228  
   0.360982000    -0.7929030    0.2064520  
   0.362981900    -0.7417983    0.3390540  
   0.364981800    -0.6679223    0.4611119  
   0.366981700    -0.5734156    0.5690643  
   0.368981600    -0.4604785    0.6591634  
   0.370981500    -0.3325386    0.7282122  
   0.372981400    -0.1932562    0.7739856  
   0.374981300    -0.0458691    0.7944174  
   0.376981200    -0.1545565    0.7885620  
   0.378981100    -0.0002215    0.8017666  
   0.380981000     0.1553295    0.7855012  
   0.382980900     0.2941721    0.7446713  
   0.384980800     0.4197916    0.6828014  
   0.386980700     0.5338057    0.5995520  
   0.388980600     0.6322858    0.4972652  
   0.390980500     0.7115698    0.3797331  
   0.392980400     0.7689189    0.2506652  
   0.394980300     0.8032245    0.1141213  
   0.396980200     0.8134374   -0.0254287  
   0.398980100     0.7993593   -0.1640177  
   0.400980000     0.7625815   -0.2969848  
   0.402979900     0.7039854   -0.4206546  
   0.404979800     0.6270226   -0.5313011  
   0.406979700     0.5333397   -0.6263840  
   0.408979600     0.4274704   -0.7036778  
   0.410979500     0.3111528   -0.7626393  
   0.412979400     0.1881145   -0.8014647  
   0.414979300     0.0620586   -0.8188667  
   0.416979200    -0.0639962   -0.8173396  
   0.418979100    -0.1862303   -0.7970493  
   0.420979000    -0.3027931   -0.7581935  
   0.422978900    -0.4114273   -0.7027677  
   0.424978800    -0.5094049   -0.6320823  
   0.426978700    -0.5956809   -0.5477214  
   0.428978600    -0.6678219   -0.4519706  
   0.430978500    -0.7243778   -0.3474121  
   0.432978400    -0.7647227   -0.2362698  
   0.434978300    -0.7897221   -0.1212346  
   0.436978200    -0.7960493   -0.0030438  
   0.438978100    -0.7851122    0.1154098  
   0.440978000    -0.7566997    0.2310796  
   0.442977900    -0.7108002    0.3424376  
   0.444977800    -0.6487100    0.4464285  
   0.446977700    -0.5705754    0.5403711  
   0.448977600    -0.4783464    0.6220574  
   0.450977500    -0.3736212    0.6896631  
   0.452977400    -0.2578732    0.7405742  
   0.454977300    -0.1338291    0.7730448  
   0.456977200    -0.0042007    0.7853323  
   0.458977100     0.1271833    0.7763494  
   0.460977000     0.2558790    0.7457381  
   0.462976900     0.3787772    0.6939949  
   0.464976800     0.4919664    0.6216720  
   0.466976700     0.5919577    0.5309407  
   0.468976600     0.6754099    0.4245490  
   0.470976500     0.7399678    0.3054612  
   0.472976400     0.7831345    0.1773859  
   0.474976300     0.8038637    0.0441555  
   0.476976200     0.8020502   -0.0895621  
   0.478976100     0.7784444   -0.2199140  
   0.480976000     0.7340653   -0.3429001  
   0.482975900     0.6709914   -0.4554220  
   0.484975800     0.5921906   -0.5547910  
   0.486975700     0.4992497   -0.6393781  
   0.488975600     0.3955965   -0.7075371  
   0.490975500     0.2843340   -0.7580529  
   0.492975400     0.1681433   -0.7909560  
   0.494975300     0.0497440   -0.8054807  
   0.496975200    -0.0682539   -0.8021344  
   0.498975100    -0.1826015   -0.7821691  
   0.500975000    -0.2917913   -0.7461199  
   0.502974900    -0.3938029   -0.6951727  
   0.504974800    -0.4874068   -0.6305887  
   0.506974700    -0.5705121   -0.5531889  
   0.508974600    -0.6427785   -0.4642755  
   0.510974500    -0.7014281   -0.3656632  
   0.512974400    -0.7454357   -0.2595282  
   0.514974300    -0.7722706   -0.1473877  
   0.516974200    -0.7835988   -0.0316906  
   0.518974100    -0.7773616    0.0850793  
   0.520974000    -0.7532688    0.2008252  
   0.522973900    -0.7109944    0.3122414  
   0.524973800    -0.6508846    0.4164870  
   0.526973700    -0.5740287    0.5105473  
   0.528973600    -0.4826563    0.5912639  
   0.530973500    -0.3790798    0.6561908  
   0.532973400    -0.2663335    0.7033739  
   0.534973300    -0.1475663    0.7315862  
   0.536973200    -0.0261571    0.7406970  
   0.538973100     0.0943387    0.7304331  
   0.540973000     0.2111229    0.7016035  
   0.542972900     0.3216700    0.6552414  
   0.544972800     0.4238342    0.5925424  
   0.546972700     0.5153359    0.5141693  
   0.548972600     0.5936161    0.4222773  
   0.550972500     0.6565389    0.3191246  
   0.552972400     0.7031423    0.2065820  
   0.554972300     0.7310566    0.0880556  
   0.556972200     0.7394754   -0.0341102  
   0.558972100     0.7283683   -0.1561868  
   0.560972000     0.6978285   -0.2747339  
   0.562971900     0.6488641   -0.3865669  
   0.564971800     0.5827971   -0.4887467  
   0.566971700     0.5017578   -0.5785255  
   0.568971600     0.4076139   -0.6542234  
   0.570971500     0.3032356   -0.7137418  
   0.572971400     0.1913076   -0.7561424  
   0.574971300     0.0740269   -0.7801928  
   0.576971200    -0.0457169   -0.7857822  
   0.578971100    -0.1641327   -0.7728444  
   0.580971000    -0.2787797   -0.7420287  
   0.582970900    -0.3865167   -0.6941370  
   0.584970800    -0.4847535   -0.6310441  
   0.586970700    -0.5719012   -0.5543109  
   0.588970600    -0.6462055   -0.4660000  
   0.590970500    -0.7064635   -0.3680243  
   0.592970400    -0.7514473   -0.2624326  
   0.594970300    -0.7803357   -0.1515482  
   0.596970200    -0.7926491   -0.0377172  
   0.598970100    -0.7883106    0.0770223  
   0.600970000    -0.7670367    0.1900624  
   0.602969900    -0.7292570    0.2991868  
   0.604969800    -0.6754532    0.4021114  
   0.606969700    -0.6068096    0.4966404  
   0.608969600    -0.5236355    0.5805078  
   0.610969500    -0.4282314    0.6511697  
   0.612969400    -0.3223418    0.7074801  
   0.614969300    -0.2082107    0.7470098  
   0.616969200    -0.0887761    0.7684081  
   0.618969100     0.0328996    0.7710062  
   0.620969000     0.1543167    0.7547736  
   0.622968900     0.2727746    0.7191283  
   0.624968800     0.3852406    0.6647143  
   0.626968700     0.4884675    0.5919183  
   0.628968600     0.5793416    0.5025128  
   0.630968500     0.6546080    0.3988113  
   0.632968400     0.7122994    0.2835942  
   0.634968300     0.7498546    0.1598295  
   0.636968200     0.7661768    0.0313387  
   0.638968100     0.7610041   -0.0981972  
   0.640968000     0.7342863   -0.2249526  
   0.642967900     0.6865509   -0.3445269  
   0.644967800     0.6201389   -0.4540202  
   0.646967700     0.5368431   -0.5504962  
   0.648967600     0.4400012   -0.6306868  
   0.650967500     0.3322730   -0.6936219  
   0.652967400     0.2172780   -0.7375313  
   0.654967300     0.0982282   -0.7619674  
   0.656967200    -0.0218824   -0.7673691  
   0.658967100    -0.1402474   -0.7538601  
   0.660967000    -0.2539186   -0.7225837  
   0.662966900    -0.3610586   -0.6740590  
   0.664966800    -0.4588604   -0.6101515  
   0.666966700    -0.5451378   -0.5323443  
   0.668966600    -0.6178764   -0.4430076  
   0.670966500    -0.6760918   -0.3439772  
   0.672966400    -0.7193975   -0.2381499  
   0.674966300    -0.7450343   -0.1276021  
   0.676966200    -0.7535805   -0.0148935  
   0.678966100    -0.7457463    0.0976277  
   0.680966000    -0.7209486    0.2079236  
   0.682965900    -0.6796535    0.3133782  
   0.684965800    -0.6228089    0.4114326  
   0.686965700    -0.5516658    0.5006858  
   0.688965600    -0.4672487    0.5784229  
   0.690965500    -0.3705858    0.6416413  
   0.692965400    -0.2651549    0.6906397  
   0.694965300    -0.1523670    0.7227001  
   0.696965200    -0.0352738    0.7369359  
   0.698965100     0.0838425    0.7321622  
   0.700965000     0.2019873    0.7081612  
   0.702964900     0.3155313    0.6648585  
   0.704964800     0.4211259    0.6030192  
   0.706964700     0.5159344    0.5240319  
   0.708964600     0.5963840    0.4295647  
   0.710964500     0.6614316    0.3231832  
   0.712964400     0.7065653    0.2066917  
   0.714964300     0.7311878    0.0843302  
   0.716964200     0.7350689   -0.0395736  
   0.718964100     0.7182304   -0.1611071  
   0.720964000     0.6817055   -0.2762276  
   0.722963900     0.6274092   -0.3831144  
   0.724963800     0.5576291   -0.4787264  
   0.726963700     0.4745322   -0.5608440  
   0.728963600     0.3806415   -0.6282094  
   0.730963500     0.2782715   -0.6788951  
   0.732963400     0.1713050   -0.7133755  
   0.734963300     0.0611616   -0.7313626  
   0.736963200    -0.0651581   -0.7312720  
   0.738963100    -0.1889785   -0.7094051  
   0.740963000    -0.3063356   -0.6670651  
   0.742962900    -0.4142142   -0.6056459  
   0.744962800    -0.5097333   -0.5273627  
   0.746962700    -0.5908332   -0.4338324  
   0.748962600    -0.6545988   -0.3274421  
   0.750962500    -0.6134385   -0.4231670  
   0.752962400    -0.6756828   -0.3143504  
   0.754962300    -0.7183529   -0.1960015  
   0.756962200    -0.7400875   -0.0716526  
   0.758962100    -0.7396328    0.0551657  
   0.760962000    -0.7167856    0.1808004  
   0.762961900    -0.6748460    0.2957813  
   0.764961800    -0.6201312    0.3930817  
   0.766961700    -0.5508813    0.4811592  
   0.768961600    -0.4679696    0.5574682  
   0.770961500    -0.3743943    0.6198775  
   0.772961400    -0.2720126    0.6668919  
   0.774961300    -0.1634067    0.6965938  
   0.776961200    -0.0513899    0.7093542  
   0.778961100     0.0617121    0.7043735  
   0.780961000     0.1731194    0.6816314  
   0.782960900     0.2797568    0.6415175  
   0.784960800     0.3798602    0.5844377  
   0.786960700     0.4695849    0.5122881  
   0.788960600     0.5473646    0.4263589  
   0.790960500     0.6104187    0.3290994  
   0.792960400     0.6568996    0.2228440  
   0.794960300     0.6859691    0.1102335  
   0.796960200     0.6964818   -0.0053016  
   0.798960100     0.6881747   -0.1213028  
   0.800960000     0.6615188   -0.2343002  
   0.802959900     0.6170888   -0.3414445  
   0.804959800     0.5558957   -0.4402190  
   0.806959700     0.4799637   -0.5272839  
   0.808959600     0.3910579   -0.6012425  
   0.810959500     0.2915471   -0.6601129  
   0.812959400     0.1843144   -0.7023539  
   0.814959300     0.0719418   -0.7269801  
   0.816959200    -0.0427113   -0.7333176  
   0.818959100    -0.1565643   -0.7212542  
   0.820959000    -0.2666439   -0.6918588  
   0.822958900    -0.3702973   -0.6456146  
   0.824958800    -0.4649945   -0.5841283  
   0.826958700    -0.5487818   -0.5085945  
   0.828958600    -0.6199150   -0.4215329  
   0.830958500    -0.6762342   -0.3250732  
   0.832958400    -0.7173544   -0.2216638  
   0.834958300    -0.7418707   -0.1135307  
   0.836958200    -0.7496653   -0.0033995  
   0.838958100    -0.7410849    0.1062947  
   0.840958000    -0.7159913    0.2135774  
   0.842957900    -0.6746364    0.3157627  
   0.844957800    -0.6185507    0.4109410  
   0.846957700    -0.5486501    0.4969524  
   0.848957600    -0.4661390    0.5716004  
   0.850957500    -0.3728773    0.6332136  
   0.852957400    -0.2710160    0.6801631  
   0.854957300    -0.1623317    0.7109305  
   0.856957200    -0.0495585    0.7247926  
   0.858957100     0.0643525    0.7205166  
   0.860957000     0.1764805    0.6986964  
   0.862956900     0.2839100    0.6594722  
   0.864956800     0.3839526    0.6034326  
   0.866956700     0.4742961    0.5321980  
   0.868956600     0.5521343    0.4467563  
   0.870956500     0.6160865    0.3492843  
   0.872956400     0.6640483    0.2423468  
   0.874956300     0.6940002    0.1280383  
   0.876956200     0.7049972    0.0095369  
   0.878956100     0.6958562   -0.1095586  
   0.880956000     0.6669716   -0.2262526  
   0.882955900     0.6190141   -0.3360324  
   0.884955800     0.5533227   -0.4366620  
   0.886955700     0.4717724   -0.5241185  
   0.888955600     0.3770104   -0.5968881  
   0.890955500     0.2719530   -0.6522394  
   0.892955400     0.1598492   -0.6891672  
   0.894955300     0.0438779   -0.7067720  
