! MS46122B
! 2250307/22442219
! 7/25/2025 1:44:03 PM
! C:\USERS\SPARKY\DOCUMENTS\VNA_DATA\JULY25_2025\3K\PORT1_MOS4_REPEAT1.S1P
! CHANNEL.1
! TR.MEASUREMENT
! RAW.DATA
# GHZ S RI R 50.0
! FREQ.GHZ         S11RE         S11IM         
!; PortSelection: Port_1
   0.001000000     1.0448220   -0.0716615  
   0.002999900     0.9635211   -0.1942423  
   0.004999800     0.9032164   -0.2991794  
   0.006999700     0.8358665   -0.3968103  
   0.008999600     0.7569402   -0.4921165  
   0.010999500     0.6636556   -0.5826778  
   0.012999400     0.5501751   -0.6658916  
   0.014999300     0.4106388   -0.7356057  
   0.016999200     0.2391332   -0.7789882  
   0.018999100     0.0306885   -0.7761788  
   0.020999000    -0.2058525   -0.6934949  
   0.022998900    -0.4325212   -0.4908336  
   0.024998800    -0.5431278   -0.1588953  
   0.026998700    -0.4966903    0.2421969  
   0.028998600    -0.2254438    0.5461466  
   0.030998500     0.1311432    0.6579222  
   0.032998400     0.4186931    0.5915930  
   0.034998300     0.6705504    0.4612184  
   0.036998200     0.8079054    0.2886243  
   0.038998100     0.8804126    0.1171238  
   0.040998000     0.9072471   -0.0413085  
   0.042997900     0.9017912   -0.1831124  
   0.044997800     0.8488448   -0.2823818  
   0.046997700     0.8304684   -0.4173294  
   0.048997600     0.7754381   -0.5121211  
   0.050997500     0.7118230   -0.5937753  
   0.052997400     0.6420845   -0.6638113  
   0.054997300     0.5675910   -0.7224173  
   0.056997200     0.4871842   -0.7729543  
   0.058997100     0.4043748   -0.8131329  
   0.060997000     0.3183964   -0.8444178  
   0.062996900     0.2298604   -0.8662588  
   0.064996800     0.1385465   -0.8785655  
   0.066996700     0.0455908   -0.8812698  
   0.068996600    -0.0487005   -0.8734581  
   0.070996500    -0.1439816   -0.8555300  
   0.072996400    -0.2389489   -0.8246508  
   0.074996300    -0.3325984   -0.7812018  
   0.076996200    -0.4236835   -0.7244321  
   0.078996100    -0.5093436   -0.6531061  
   0.080996000    -0.5884644   -0.5668177  
   0.082995900    -0.6571935   -0.4653752  
   0.084995800    -0.7118790   -0.3490978  
   0.086995700    -0.7503235   -0.2194670  
   0.088995600    -0.7670961   -0.0776928  
   0.090995500    -0.7581027    0.0719441  
   0.092995400    -0.7203556    0.2252496  
   0.094995300    -0.6491535    0.3740657  
   0.096995200    -0.5449721    0.5109372  
   0.098995100    -0.4090103    0.6261810  
   0.100995000    -0.2466284    0.7111828  
   0.102994900    -0.0677921    0.7574082  
   0.104994800     0.1175153    0.7616754  
   0.106994700     0.2972294    0.7233064  
   0.108994600     0.4612848    0.6475767  
   0.110994500     0.6013620    0.5401958  
   0.112994400     0.7114443    0.4102047  
   0.114994300     0.7890514    0.2659954  
   0.116994200     0.8349631    0.1158027  
   0.118994100     0.8507102   -0.0333846  
   0.120994000     0.8412515   -0.1767883  
   0.122993900     0.8074062   -0.3099150  
   0.124993800     0.7542091   -0.4302121  
   0.126993700     0.6856442   -0.5361260  
   0.128993600     0.6040550   -0.6265631  
   0.130993500     0.5141552   -0.7018430  
   0.132993400     0.4169346   -0.7621628  
   0.134993300     0.3152817   -0.8071756  
   0.136993200     0.2107181   -0.8374464  
   0.138993100     0.1047223   -0.8535193  
   0.140993000    -0.0012229   -0.8558002  
   0.142992900    -0.1058911   -0.8442633  
   0.144992800    -0.2083027   -0.8213689  
   0.146992700    -0.3066228   -0.7838415  
   0.148992600    -0.3998270   -0.7341667  
   0.150992500    -0.4858221   -0.6710793  
   0.152992400    -0.5649979   -0.5974218  
   0.154992300    -0.6347434   -0.5127511  
   0.156992200    -0.6936492   -0.4173338  
   0.158992100    -0.7401618   -0.3124669  
   0.160992000    -0.7721680   -0.1991332  
   0.162991900    -0.7878850   -0.0794417  
   0.164991800    -0.7854953    0.0450518  
   0.166991700    -0.7635112    0.1712779  
   0.168991600    -0.7208803    0.2962365  
   0.170991500    -0.6559834    0.4161268  
   0.172991400    -0.5697818    0.5266213  
   0.174991300    -0.4631594    0.6233461  
   0.176991200    -0.3377338    0.7015958  
   0.178991100    -0.1969347    0.7569151  
   0.180991000    -0.0457666    0.7865030  
   0.182990900     0.1101324    0.7864434  
   0.184990800     0.2651522    0.7564113  
   0.186990700     0.4120066    0.6969372  
   0.188990600     0.5253991    0.6254424  
   0.190990500     0.6533884    0.5041595  
   0.192990400     0.7442539    0.3744445  
   0.194990300     0.8068956    0.2353660  
   0.196990200     0.8423901    0.0904879  
   0.198990100     0.8506238   -0.0546803  
   0.200990000     0.8339690   -0.1963401  
   0.202989900     0.7940016   -0.3295698  
   0.204989800     0.7342958   -0.4511200  
   0.206989700     0.6584704   -0.5583256  
   0.208989600     0.5683975   -0.6494417  
   0.210989500     0.4675871   -0.7238371  
   0.212989400     0.3585125   -0.7809094  
   0.214989300     0.2446968   -0.8204771  
   0.216989200     0.1289002   -0.8423743  
   0.218989100     0.0131291   -0.8475478  
   0.220989000    -0.1012215   -0.8363495  
   0.222988900    -0.2122724   -0.8088942  
   0.224988800    -0.3178690   -0.7665744  
   0.226988700    -0.4162503   -0.7103681  
   0.228988600    -0.5052957   -0.6411468  
   0.230988500    -0.5843103   -0.5595645  
   0.232988400    -0.6506833   -0.4661421  
   0.234988300    -0.7045272   -0.3635219  
   0.236988200    -0.7435848   -0.2523336  
   0.238988100    -0.7658511   -0.1349590  
   0.240988000    -0.7706370   -0.0139569  
   0.242987900    -0.7562949    0.1085493  
   0.244987800    -0.7225490    0.2296828  
   0.246987700    -0.6681033    0.3466982  
   0.248987600    -0.5936885    0.4561129  
   0.250987500    -0.4995172    0.5537377  
   0.252987400    -0.3879293    0.6349915  
   0.254987300    -0.2620612    0.6962560  
   0.256987200    -0.1247290    0.7349235  
   0.258987100     0.0195243    0.7497360  
   0.260987000     0.1660751    0.7360191  
   0.262986900     0.3089442    0.6951267  
   0.264986800     0.4421881    0.6274502  
   0.266986700     0.5605211    0.5360421  
   0.268986600     0.6590691    0.4248620  
   0.270986500     0.7341665    0.2987669  
   0.272986400     0.7842727    0.1626894  
   0.274986300     0.8085284    0.0220933  
   0.276986200     0.8075604   -0.1180745  
   0.278986100     0.7825884   -0.2537702  
   0.280986000     0.7353236   -0.3802437  
   0.282985900     0.6694458   -0.4949234  
   0.284985800     0.5875098   -0.5947880  
   0.286985700     0.4932693   -0.6779173  
   0.288985600     0.3900724   -0.7439134  
   0.290985500     0.2812431   -0.7921097  
   0.292985400     0.1688225   -0.8230262  
   0.294985300     0.0554183   -0.8373024  
   0.296985200    -0.0577956   -0.8356980  
   0.298985100    -0.1687001   -0.8179727  
   0.300985000    -0.2752086   -0.7856700  
   0.302984900    -0.3750268   -0.7394170  
   0.304984800    -0.4669814   -0.6803623  
   0.306984700    -0.5500980   -0.6101370  
   0.308984600    -0.6223574   -0.5297816  
   0.310984500    -0.6832364   -0.4407046  
   0.312984400    -0.7320225   -0.3431964  
   0.314984300    -0.7673530   -0.2385167  
   0.316984200    -0.7880709   -0.1284398  
   0.318984100    -0.7927282   -0.0134505  
   0.320984000    -0.7796928    0.1039762  
   0.322983900    -0.7472186    0.2205359  
   0.324983800    -0.6949175    0.3312342  
   0.326983700    -0.6231048    0.4322283  
   0.328983600    -0.5350433    0.5185781  
   0.330983500    -0.4350190    0.5871659  
   0.332983400    -0.3287715    0.6371924  
   0.334983300    -0.2182765    0.6706838  
   0.336983200    -0.1059483    0.6883935  
   0.338983100     0.0078985    0.6910526  
   0.340983000     0.1220449    0.6778284  
   0.342982900     0.2352395    0.6477999  
   0.344982800     0.3448540    0.5999988  
   0.346982700     0.4483469    0.5333822  
   0.348982600     0.5398862    0.4483203  
   0.350982500     0.6177363    0.3477305  
   0.352982400     0.6778450    0.2339223  
   0.354982300     0.7182004    0.1050253  
   0.356982200     0.7336597   -0.0424452  
   0.358982100     0.7192984   -0.1902308  
   0.360982000     0.6758425   -0.3317651  
   0.362981900     0.6053879   -0.4619390  
   0.364981800     0.5107669   -0.5753083  
   0.366981700     0.3962244   -0.6673964  
   0.368981600     0.2670600   -0.7349188  
   0.370981500     0.1281158   -0.7763180  
   0.372981400    -0.0148269   -0.7903329  
   0.374981300    -0.1570177   -0.7771785  
   0.376981200    -0.0366153   -0.7901862  
   0.378981100    -0.1759837   -0.7727156  
   0.380981000    -0.3091124   -0.7304935  
   0.382980900    -0.4204451   -0.6723413  
   0.384980800    -0.5154967   -0.6011380  
   0.386980700    -0.5980516   -0.5168217  
   0.388980600    -0.6667320   -0.4209675  
   0.390980500    -0.7196776   -0.3171713  
   0.392980400    -0.7564207   -0.2070909  
   0.394980300    -0.7761096   -0.0930037  
   0.396980200    -0.7788744    0.0223887  
   0.398980100    -0.7644492    0.1380182  
   0.400980000    -0.7331048    0.2507392  
   0.402979900    -0.6843811    0.3582791  
   0.404979800    -0.6199847    0.4579621  
   0.406979700    -0.5401199    0.5478370  
   0.408979600    -0.4468274    0.6252165  
   0.410979500    -0.3404633    0.6881903  
   0.412979400    -0.2236680    0.7347506  
   0.414979300    -0.0991355    0.7606953  
   0.416979200     0.0294808    0.7677521  
   0.418979100     0.1589072    0.7534711  
   0.420979000     0.2858256    0.7176014  
   0.422978900     0.4061145    0.6602872  
   0.424978800     0.5160108    0.5822664  
   0.426978700     0.6118585    0.4860494  
   0.428978600     0.6898023    0.3740511  
   0.430978500     0.7470884    0.2503870  
   0.432978400     0.7821155    0.1190671  
   0.434978300     0.7951584   -0.0161108  
   0.436978200     0.7834207   -0.1507930  
   0.438978100     0.7488666   -0.2809823  
   0.440978000     0.6934772   -0.4022041  
   0.442977900     0.6188383   -0.5114372  
   0.444977800     0.5277185   -0.6052860  
   0.446977700     0.4235100   -0.6826168  
   0.448977600     0.3096897   -0.7404404  
   0.450977500     0.1894799   -0.7783585  
   0.452977400     0.0653431   -0.7963074  
   0.454977300    -0.0591778   -0.7942200  
   0.456977200    -0.1809271   -0.7727293  
   0.458977100    -0.2967400   -0.7324792  
   0.460977000    -0.4036962   -0.6748952  
   0.462976900    -0.4994474   -0.6025903  
   0.464976800    -0.5825985   -0.5164963  
   0.466976700    -0.6508357   -0.4194472  
   0.468976600    -0.7035229   -0.3132868  
   0.470976500    -0.7390545   -0.2005444  
   0.472976400    -0.7570705   -0.0832441  
   0.474976300    -0.7566626    0.0354730  
   0.476976200    -0.7376631    0.1530817  
   0.478976100    -0.7003742    0.2665356  
   0.480976000    -0.6458439    0.3730337  
   0.482975900    -0.5745237    0.4703108  
   0.484975800    -0.4882923    0.5558574  
   0.486975700    -0.3878365    0.6267195  
   0.488975600    -0.2761860    0.6810291  
   0.490975500    -0.1555868    0.7163306  
   0.492975400    -0.0296865    0.7308314  
   0.494975300     0.0979511    0.7233587  
   0.496975200     0.2228179    0.6936868  
   0.498975100     0.3408492    0.6424112  
   0.500975000     0.4480004    0.5711316  
   0.502974900     0.5401549    0.4823686  
   0.504974800     0.6145977    0.3792633  
   0.506974700     0.6692699    0.2658439  
   0.508974600     0.7029355    0.1453920  
   0.510974500     0.7147016    0.0234555  
   0.512974400     0.7060000   -0.0961665  
   0.514974300     0.6775377   -0.2086349  
   0.516974200     0.6341255   -0.3132645  
   0.518974100     0.5770750   -0.4072005  
   0.520974000     0.5086567   -0.4900368  
   0.522973900     0.4308679   -0.5610854  
   0.524973800     0.3459101   -0.6200298  
   0.526973700     0.2535941   -0.6672832  
   0.528973600     0.1563163   -0.7015440  
   0.530973500     0.0541428   -0.7229907  
   0.532973400    -0.0510304   -0.7299353  
   0.534973300    -0.1576079   -0.7218041  
   0.536973200    -0.2639121   -0.6972986  
   0.538973100    -0.3661064   -0.6564437  
   0.540973000    -0.4619813   -0.5999680  
   0.542972900    -0.5491946   -0.5277279  
   0.544972800    -0.6249369   -0.4420802  
   0.546972700    -0.6863595   -0.3435840  
   0.548972600    -0.7319026   -0.2356765  
   0.550972500    -0.7594184   -0.1207919  
   0.552972400    -0.7682440   -0.0021446  
   0.554972300    -0.7577152    0.1171295  
   0.556972200    -0.7276050    0.2338864  
   0.558972100    -0.6788337    0.3447140  
   0.560972000    -0.6128554    0.4464160  
   0.562971900    -0.5310239    0.5365176  
   0.564971800    -0.4353104    0.6124889  
   0.566971700    -0.3281699    0.6724644  
   0.568971600    -0.2124543    0.7144078  
   0.570971500    -0.0906699    0.7370909  
   0.572971400     0.0344339    0.7396803  
   0.574971300     0.1592768    0.7216674  
   0.576971200     0.2807070    0.6823800  
   0.578971100     0.3946806    0.6229622  
   0.580971000     0.4977632    0.5446756  
   0.582970900     0.5863595    0.4495462  
   0.584970800     0.6573419    0.3404990  
   0.586970700     0.7085407    0.2208148  
   0.588970600     0.7387552    0.0940687  
   0.590970500     0.7466154   -0.0364073  
   0.592970400     0.7322285   -0.1656319  
   0.594970300     0.6958001   -0.2903599  
   0.596970200     0.6388608   -0.4065629  
   0.598970100     0.5632652   -0.5108471  
   0.600970000     0.4716028   -0.6005634  
   0.602969900     0.3669126   -0.6729344  
   0.604969800     0.2521048   -0.7263596  
   0.606969700     0.1311432   -0.7597004  
   0.608969600     0.0068980   -0.7728174  
   0.610969500    -0.1162967   -0.7657707  
   0.612969400    -0.2359972   -0.7385967  
   0.614969300    -0.3482687   -0.6935729  
   0.616969200    -0.4505053   -0.6321079  
   0.618969100    -0.5409661   -0.5564033  
   0.620969000    -0.6181601   -0.4686073  
   0.622968900    -0.6805715   -0.3707592  
   0.624968800    -0.7273991   -0.2651129  
   0.626968700    -0.7578871   -0.1533758  
   0.628968600    -0.7713824   -0.0386349  
   0.630968500    -0.7672596    0.0770220  
   0.632968400    -0.7459415    0.1905765  
   0.634968300    -0.7077833    0.3000334  
   0.636968200    -0.6533661    0.4029212  
   0.638968100    -0.5838234    0.4974406  
   0.640968000    -0.5001438    0.5800678  
   0.642967900    -0.4040462    0.6501600  
   0.644967800    -0.2975197    0.7048672  
   0.646967700    -0.1825898    0.7426386  
   0.648967600    -0.0629753    0.7620981  
   0.650967500     0.0598673    0.7627072  
   0.652967400     0.1817099    0.7435523  
   0.654967300     0.2999448    0.7050403  
   0.656967200     0.4113120    0.6472197  
   0.658967100     0.5128381    0.5715197  
   0.660967000     0.6011974    0.4794874  
   0.662966900     0.6738843    0.3726565  
   0.664966800     0.7282368    0.2538612  
   0.666966700     0.7620192    0.1268990  
   0.668966600     0.7739412   -0.0042861  
   0.670966500     0.7633247   -0.1357104  
   0.672966400     0.7315831   -0.2633351  
   0.674966300     0.6778509   -0.3828327  
   0.676966200     0.6051823   -0.4906608  
   0.678966100     0.5165197   -0.5838864  
   0.680966000     0.4140790   -0.6605557  
   0.682965900     0.3017440   -0.7182614  
   0.684965800     0.1827797   -0.7567463  
   0.686965700     0.0602762   -0.7750366  
   0.688965600    -0.0623988   -0.7737116  
   0.690965500    -0.1809840   -0.7518245  
   0.692965400    -0.2940489   -0.7132440  
   0.694965300    -0.3983844   -0.6581997  
   0.696965200    -0.4921419   -0.5884924  
   0.698965100    -0.5733876   -0.5058075  
   0.700965000    -0.6408898   -0.4122358  
   0.702964900    -0.6930802   -0.3102247  
   0.704964800    -0.7293484   -0.2017882  
   0.706964700    -0.7484849   -0.0893279  
   0.708964600    -0.7505789    0.0250110  
   0.710964500    -0.7359451    0.1386514  
   0.712964400    -0.7032411    0.2489264  
   0.714964300    -0.6538804    0.3532021  
   0.716964200    -0.5889924    0.4487552  
   0.718964100    -0.5096687    0.5332251  
   0.720964000    -0.4179365    0.6046961  
   0.722963900    -0.3157341    0.6611685  
   0.724963800    -0.2050640    0.7007751  
   0.726963700    -0.0889076    0.7222497  
   0.728963600     0.0303090    0.7241589  
   0.730963500     0.1483012    0.7066314  
   0.732963400     0.2623465    0.6698964  
   0.734963300     0.3691490    0.6145449  
   0.736963200     0.4791428    0.5305245  
   0.738963100     0.5718279    0.4269713  
   0.740963000     0.6427082    0.3082393  
   0.742962900     0.6898896    0.1786824  
   0.744962800     0.7117766    0.0436496  
   0.746962700     0.7081848   -0.0920736  
   0.748962600     0.6797865   -0.2237518  
   0.750962500     0.6931475   -0.1169464  
   0.752962400     0.6617239   -0.2461246  
   0.754962300     0.6077917   -0.3665667  
   0.756962200     0.5337351   -0.4742751  
   0.758962100     0.4419880   -0.5668750  
   0.760962000     0.3355560   -0.6412470  
   0.762961900     0.2237862   -0.6934601  
   0.764961800     0.1149726   -0.7242814  
   0.766961700     0.0031496   -0.7382613  
   0.768961600    -0.1099378   -0.7349606  
   0.770961500    -0.2214093   -0.7143459  
   0.772961400    -0.3284824   -0.6766687  
   0.774961300    -0.4284374   -0.6230983  
   0.776961200    -0.5195071   -0.5540720  
   0.778961100    -0.5987206   -0.4716634  
   0.780961000    -0.6642311   -0.3772578  
   0.782960900    -0.7145720   -0.2735006  
   0.784960800    -0.7478460   -0.1624506  
   0.786960700    -0.7630611   -0.0471402  
   0.788960600    -0.7601058    0.0694608  
   0.790960500    -0.7384827    0.1839460  
   0.792960400    -0.6992411    0.2939537  
   0.794960300    -0.6430125    0.3964684  
   0.796960200    -0.5716659    0.4889192  
   0.798960100    -0.4864540    0.5685925  
   0.800960000    -0.3898878    0.6344863  
   0.802959900    -0.2838974    0.6843832  
   0.804959800    -0.1712799    0.7171504  
   0.806959700    -0.0547922    0.7317449  
   0.808959600     0.0631252    0.7276259  
   0.810959500     0.1792872    0.7053441  
   0.812959400     0.2909520    0.6642498  
   0.814959300     0.3954222    0.6056610  
   0.816959200     0.4895215    0.5310048  
   0.818959100     0.5706683    0.4414718  
   0.820959000     0.6368394    0.3391359  
   0.822958900     0.6855353    0.2271306  
   0.824958800     0.7153332    0.1076452  
   0.826958700     0.7252465   -0.0155138  
   0.828958600     0.7143955   -0.1387579  
   0.830958500     0.6829683   -0.2590627  
   0.832958400     0.6318935   -0.3719985  
   0.834958300     0.5629954   -0.4747637  
   0.836958200     0.4783005   -0.5645691  
   0.838958100     0.3800077   -0.6390832  
   0.840958000     0.2708783   -0.6960064  
   0.842957900     0.1544943   -0.7341200  
   0.844957800     0.0338444   -0.7522679  
   0.846957700    -0.0874431   -0.7508507  
   0.848957600    -0.2060615   -0.7297224  
   0.850957500    -0.3192231   -0.6899560  
   0.852957400    -0.4237450   -0.6331803  
   0.854957300    -0.5173262   -0.5608248  
   0.856957200    -0.5979237   -0.4755014  
   0.858957100    -0.6634510   -0.3794216  
   0.860957000    -0.7129717   -0.2754182  
   0.862956900    -0.7459389   -0.1660819  
   0.864956800    -0.7614648   -0.0543630  
   0.866956700    -0.7601966    0.0574707  
   0.868956600    -0.7423134    0.1677660  
   0.870956500    -0.7084337    0.2734512  
   0.872956400    -0.6594070    0.3735653  
   0.874956300    -0.5962967    0.4650772  
   0.876956200    -0.5195745    0.5468305  
   0.878956100    -0.4310911    0.6170925  
   0.880956000    -0.3327506    0.6730961  
   0.882955900    -0.2259257    0.7142801  
   0.884955800    -0.1135818    0.7390763  
   0.886955700     0.0022379    0.7462652  
   0.888955600     0.1190144    0.7353825  
   0.890955500     0.2333224    0.7063478  
   0.892955400     0.3426183    0.6591578  
   0.894955300     0.4439291    0.5949447  
