! MS46122B
! 2250307/22442219
! 7/25/2025 1:50:29 PM
! C:\USERS\SPARKY\DOCUMENTS\VNA_DATA\JULY25_2025\3K\PORT4_MOS1_REPEAT1.S1P
! CHANNEL.1
! TR.MEASUREMENT
! RAW.DATA
# GHZ S RI R 50.0
! FREQ.GHZ         S11RE         S11IM         
!; PortSelection: Port_1
   0.001000000     1.0447210   -0.0717337  
   0.002999900     0.9634399   -0.1942189  
   0.004999800     0.9033278   -0.2991633  
   0.006999700     0.8360735   -0.3968785  
   0.008999600     0.7576269   -0.4922326  
   0.010999500     0.6648545   -0.5829811  
   0.012999400     0.5522000   -0.6665881  
   0.014999300     0.4138323   -0.7370375  
   0.016999200     0.2437749   -0.7822230  
   0.018999100     0.0368750   -0.7828707  
   0.020999000    -0.1994102   -0.7064607  
   0.022998900    -0.4306092   -0.5129681  
   0.024998800    -0.5536833   -0.1878433  
   0.026998700    -0.5282624    0.2162793  
   0.028998600    -0.2711392    0.5389634  
   0.030998500     0.0871689    0.6726737  
   0.032998400     0.3870609    0.6192217  
   0.034998300     0.6518310    0.4958069  
   0.036998200     0.8002080    0.3232794  
   0.038998100     0.8808211    0.1492128  
   0.040998000     0.9132554   -0.0125394  
   0.042997900     0.9119551   -0.1577732  
   0.044997800     0.8610479   -0.2607056  
   0.046997700     0.8454679   -0.3980731  
   0.048997600     0.7924226   -0.4956433  
   0.050997500     0.7299700   -0.5798687  
   0.052997400     0.6612969   -0.6522998  
   0.054997300     0.5878599   -0.7129984  
   0.056997200     0.5084597   -0.7658222  
   0.058997100     0.4264481   -0.8080797  
   0.060997000     0.3412184   -0.8416638  
   0.062996900     0.2535225   -0.8659571  
   0.064996800     0.1631104   -0.8806140  
   0.066996700     0.0705323   -0.8862336  
   0.068996600    -0.0232419   -0.8814394  
   0.070996500    -0.1179424   -0.8669298  
   0.072996400    -0.2130891   -0.8399341  
   0.074996300    -0.3072345   -0.8004467  
   0.076996200    -0.3989767   -0.7483667  
   0.078996100    -0.4865602   -0.6821282  
   0.080996000    -0.5680492   -0.6012670  
   0.082995900    -0.6407463   -0.5054252  
   0.084995800    -0.7007197   -0.3949780  
   0.086995700    -0.7461612   -0.2703872  
   0.088995600    -0.7717218   -0.1332754  
   0.090995500    -0.7738676    0.0134818  
   0.092995400    -0.7487370    0.1659119  
   0.094995300    -0.6921328    0.3174767  
   0.096995200    -0.6022826    0.4608280  
   0.098995100    -0.4803515    0.5865111  
   0.100995000    -0.3284573    0.6871824  
   0.102994900    -0.1564339    0.7516398  
   0.104994800     0.0273282    0.7762759  
   0.106994700     0.2112659    0.7579991  
   0.108994600     0.3846221    0.7006840  
   0.110994500     0.5380580    0.6084722  
   0.112994400     0.6641647    0.4887256  
   0.114994300     0.7591178    0.3507724  
   0.116994200     0.8220336    0.2024676  
   0.118994100     0.8538474    0.0516808  
   0.120994000     0.8589137   -0.0956617  
   0.122993900     0.8372988   -0.2352950  
   0.124993800     0.7946298   -0.3631679  
   0.126993700     0.7344007   -0.4778355  
   0.128993600     0.6594092   -0.5772634  
   0.130993500     0.5743409   -0.6619210  
   0.132993400     0.4813397   -0.7315030  
   0.134993300     0.3821302   -0.7857726  
   0.136993200     0.2791336   -0.8251848  
   0.138993100     0.1739623   -0.8504087  
   0.140993000     0.0681024   -0.8611795  
   0.142992900    -0.0377553   -0.8585992  
   0.144992800    -0.1416776   -0.8441685  
   0.146992700    -0.2427910   -0.8155082  
   0.148992600    -0.3395150   -0.7740182  
   0.150992500    -0.4297806   -0.7191727  
   0.152992400    -0.5145729   -0.6537514  
   0.154992300    -0.5906722   -0.5772920  
   0.156992200    -0.6575258   -0.4893437  
   0.158992100    -0.7131015   -0.3916404  
   0.160992000    -0.7556913   -0.2849102  
   0.162991900    -0.7837477   -0.1700039  
   0.164991800    -0.7953600   -0.0492463  
   0.166991700    -0.7887136    0.0752715  
   0.168991600    -0.7624645    0.2010009  
   0.170991500    -0.7153038    0.3251092  
   0.172991400    -0.6465265    0.4430542  
   0.174991300    -0.5571436    0.5508314  
   0.176991200    -0.4470627    0.6445125  
   0.178991100    -0.3192930    0.7192362  
   0.180991000    -0.1775619    0.7715803  
   0.182990900    -0.0259155    0.7965019  
   0.184990800     0.1300300    0.7927029  
   0.186990700     0.2840258    0.7592049  
   0.188990600     0.4078958    0.7087135  
   0.190990500     0.5554804    0.6110775  
   0.192990400     0.6686192    0.4985446  
   0.194990300     0.7553524    0.3709960  
   0.196990200     0.8164754    0.2321125  
   0.198990100     0.8503656    0.0880503  
   0.200990000     0.8583191   -0.0576503  
   0.202989900     0.8410223   -0.1988055  
   0.204989800     0.8010563   -0.3315905  
   0.206989700     0.7428164   -0.4526978  
   0.208989600     0.6666127   -0.5595336  
   0.210989500     0.5769451   -0.6512449  
   0.212989400     0.4764362   -0.7263067  
   0.214989300     0.3682682   -0.7839740  
   0.216989200     0.2555556   -0.8243260  
   0.218989100     0.1404119   -0.8475430  
   0.220989000     0.0246486   -0.8542433  
   0.222988900    -0.0900810   -0.8446724  
   0.224988800    -0.2011425   -0.8189558  
   0.226988700    -0.3069372   -0.7788020  
   0.228988600    -0.4057057   -0.7248432  
   0.230988500    -0.4959681   -0.6578518  
   0.232988400    -0.5754613   -0.5774414  
   0.234988300    -0.6449251   -0.4869370  
   0.236988200    -0.7011845   -0.3861553  
   0.238988100    -0.7430947   -0.2770768  
   0.240988000    -0.7687330   -0.1617624  
   0.242987900    -0.7775822   -0.0423108  
   0.244987800    -0.7679594    0.0793167  
   0.246987700    -0.7389493    0.2011497  
   0.248987600    -0.6897539    0.3194952  
   0.250987500    -0.6206065    0.4311198  
   0.252987400    -0.5325589    0.5315232  
   0.254987300    -0.4268474    0.6171447  
   0.256987200    -0.3054632    0.6843923  
   0.258987100    -0.1720230    0.7319117  
   0.260987000    -0.0292863    0.7535243  
   0.262986900     0.1167655    0.7488229  
   0.264986800     0.2612711    0.7170296  
   0.266986700     0.3982252    0.6585482  
   0.268986600     0.5215421    0.5755864  
   0.270986500     0.6269302    0.4716098  
   0.272986400     0.7107349    0.3513209  
   0.274986300     0.7703010    0.2189467  
   0.276986200     0.8046501    0.0797845  
   0.278986100     0.8136552   -0.0612663  
   0.280986000     0.7978879   -0.1990059  
   0.282985900     0.7592518   -0.3296192  
   0.284985800     0.7009115   -0.4488576  
   0.286985700     0.6257971   -0.5544909  
   0.288985600     0.5373173   -0.6440690  
   0.290985500     0.4390360   -0.7168831  
   0.292985400     0.3333491   -0.7724915  
   0.294985300     0.2228730   -0.8113542  
   0.296985200     0.1098639   -0.8333284  
   0.298985100    -0.0036604   -0.8392340  
   0.300985000    -0.1156417   -0.8292004  
   0.302984900    -0.2232979   -0.8042248  
   0.304984800    -0.3254140   -0.7652842  
   0.306984700    -0.4203066   -0.7133861  
   0.308984600    -0.5065534   -0.6506886  
   0.310984500    -0.5832648   -0.5777352  
   0.312984400    -0.6500097   -0.4947874  
   0.314984300    -0.7058268   -0.4036256  
   0.316984200    -0.7493994   -0.3047725  
   0.318984100    -0.7797530   -0.1987828  
   0.320984000    -0.7953838   -0.0869298  
   0.322983900    -0.7947264    0.0288416  
   0.324983800    -0.7757937    0.1449607  
   0.326983700    -0.7375463    0.2584540  
   0.328983600    -0.6803887    0.3652673  
   0.330983500    -0.6060359    0.4606894  
   0.332983400    -0.5184874    0.5412003  
   0.334983300    -0.4205707    0.6065146  
   0.336983200    -0.3153917    0.6566762  
   0.338983100    -0.2046239    0.6910054  
   0.340983000    -0.0896829    0.7097191  
   0.342982900     0.0283161    0.7117181  
   0.344982800     0.1472659    0.6955687  
   0.346982700     0.2648332    0.6611451  
   0.348982600     0.3765964    0.6059528  
   0.350982500     0.4798945    0.5331618  
   0.352982400     0.5710321    0.4426712  
   0.354982300     0.6482716    0.3324291  
   0.356982200     0.7082567    0.1973243  
   0.358982100     0.7408380    0.0522870  
   0.360982000     0.7442202   -0.0961738  
   0.362981900     0.7182558   -0.2425892  
   0.364981800     0.6643045   -0.3810623  
   0.366981700     0.5844249   -0.5058725  
   0.368981600     0.4822890   -0.6121765  
   0.370981500     0.3620658   -0.6964389  
   0.372981400     0.2289411   -0.7557871  
   0.374981300     0.0877028   -0.7883449  
   0.376981200     0.2038233   -0.7640276  
   0.378981100     0.0643690   -0.7905427  
   0.380981000    -0.0764885   -0.7909252  
   0.382980900    -0.2014385   -0.7693619  
   0.384980800    -0.3140912   -0.7306460  
   0.386980700    -0.4187950   -0.6750446  
   0.388980600    -0.5136250   -0.6044644  
   0.390980500    -0.5951343   -0.5217144  
   0.392980400    -0.6629670   -0.4288788  
   0.394980300    -0.7160376   -0.3275374  
   0.396980200    -0.7533357   -0.2198170  
   0.398980100    -0.7749143   -0.1079819  
   0.400980000    -0.7797599    0.0057659  
   0.402979900    -0.7679443    0.1200216  
   0.404979800    -0.7398257    0.2316505  
   0.406979700    -0.6948186    0.3384793  
   0.408979600    -0.6343201    0.4384546  
   0.410979500    -0.5584180    0.5296261  
   0.412979400    -0.4683391    0.6096506  
   0.414979300    -0.3649759    0.6744418  
   0.416979200    -0.2516261    0.7242575  
   0.418979100    -0.1309691    0.7560658  
   0.420979000    -0.0050866    0.7684794  
   0.422978900     0.1228155    0.7602593  
   0.424978800     0.2495197    0.7309754  
   0.426978700     0.3707823    0.6805913  
   0.428978600     0.4827350    0.6097130  
   0.430978500     0.5818130    0.5209641  
   0.432978400     0.6643555    0.4164464  
   0.434978300     0.7293475    0.2993857  
   0.436978200     0.7726160    0.1730063  
   0.438978100     0.7939367    0.0409189  
   0.440978000     0.7921795   -0.0924161  
   0.442977900     0.7680854   -0.2230277  
   0.444977800     0.7229199   -0.3465986  
   0.446977700     0.6581224   -0.4600644  
   0.448977600     0.5761650   -0.5599818  
   0.450977500     0.4801629   -0.6448479  
   0.452977400     0.3723065   -0.7117711  
   0.454977300     0.2555807   -0.7602621  
   0.456977200     0.1335829   -0.7890016  
   0.458977100     0.0103211   -0.7978144  
   0.460977000    -0.1119300   -0.7871594  
   0.462976900    -0.2291256   -0.7583640  
   0.464976800    -0.3394333   -0.7116635  
   0.466976700    -0.4406872   -0.6493886  
   0.468976600    -0.5301526   -0.5730582  
   0.470976500    -0.6068675   -0.4844308  
   0.472976400    -0.6693949   -0.3855520  
   0.474976300    -0.7154865   -0.2786966  
   0.476976200    -0.7450671   -0.1664867  
   0.478976100    -0.7573422   -0.0509207  
   0.480976000    -0.7519007    0.0644239  
   0.482975900    -0.7287251    0.1781900  
   0.484975800    -0.6885867    0.2877471  
   0.486975700    -0.6312241    0.3907120  
   0.488975600    -0.5580729    0.4842647  
   0.490975500    -0.4700566    0.5660586  
   0.492975400    -0.3685793    0.6332200  
   0.494975300    -0.2566844    0.6830677  
   0.496975200    -0.1367858    0.7140231  
   0.498975100    -0.0126121    0.7240636  
   0.500975000     0.1118922    0.7128273  
   0.502974900     0.2327647    0.6799294  
   0.504974800     0.3460947    0.6266561  
   0.506974700     0.4477352    0.5542238  
   0.508974600     0.5350531    0.4649610  
   0.510974500     0.6044351    0.3633588  
   0.512974400     0.6544602    0.2531969  
   0.514974300     0.6827992    0.1392324  
   0.516974200     0.6932266    0.0249875  
   0.518974100     0.6856695   -0.0862572  
   0.520974000     0.6624736   -0.1922026  
   0.522973900     0.6250469   -0.2915176  
   0.524973800     0.5751815   -0.3825856  
   0.526973700     0.5143687   -0.4653687  
   0.528973600     0.4434847   -0.5386643  
   0.530973500     0.3635492   -0.6025272  
   0.532973400     0.2749420   -0.6549807  
   0.534973300     0.1789436   -0.6953157  
   0.536973200     0.0770358   -0.7217044  
   0.538973100    -0.0289354   -0.7330717  
   0.540973000    -0.1364740   -0.7285420  
   0.542972900    -0.2436293   -0.7069593  
   0.544972800    -0.3471787   -0.6689700  
   0.546972700    -0.4449594   -0.6145260  
   0.548972600    -0.5340478   -0.5441431  
   0.550972500    -0.6116797   -0.4603842  
   0.552972400    -0.6751150   -0.3639618  
   0.554972300    -0.7228833   -0.2582765  
   0.556972200    -0.7532852   -0.1457356  
   0.558972100    -0.7656918   -0.0294162  
   0.560972000    -0.7592213    0.0875508  
   0.562971900    -0.7344090    0.2022382  
   0.564971800    -0.6916882    0.3118617  
   0.566971700    -0.6324607    0.4137072  
   0.568971600    -0.5575086    0.5051205  
   0.570971500    -0.4687070    0.5841466  
   0.572971400    -0.3677937    0.6487900  
   0.574971300    -0.2569232    0.6968899  
   0.576971200    -0.1384130    0.7266475  
   0.578971100    -0.0155467    0.7371783  
   0.580971000     0.1082601    0.7275094  
   0.582970900     0.2295367    0.6973642  
   0.584970800     0.3446083    0.6473438  
   0.586970700     0.4502265    0.5787055  
   0.588970600     0.5435937    0.4926198  
   0.590970500     0.6213003    0.3918497  
   0.592970400     0.6809136    0.2787486  
   0.594970300     0.7207358    0.1572108  
   0.596970200     0.7392084    0.0299825  
   0.598970100     0.7359368   -0.0978225  
   0.600970000     0.7105531   -0.2239419  
   0.602969900     0.6645869   -0.3431380  
   0.604969800     0.5988529   -0.4525631  
   0.606969700     0.5160348   -0.5491105  
   0.608969600     0.4183784   -0.6299583  
   0.610969500     0.3096097   -0.6921697  
   0.612969400     0.1927322   -0.7357090  
   0.614969300     0.0717279   -0.7584315  
   0.616969200    -0.0493191   -0.7616861  
   0.618969100    -0.1681076   -0.7451826  
   0.620969000    -0.2810472   -0.7110641  
   0.622968900    -0.3865282   -0.6596942  
   0.624968800    -0.4820186   -0.5935002  
   0.626968700    -0.5659880   -0.5139138  
   0.628968600    -0.6362317   -0.4224921  
   0.630968500    -0.6915480   -0.3223403  
   0.632968400    -0.7310160   -0.2154869  
   0.634968300    -0.7538937   -0.1036390  
   0.636968200    -0.7596550    0.0096851  
   0.638968100    -0.7485323    0.1225291  
   0.640968000    -0.7206096    0.2328872  
   0.642967900    -0.6765465    0.3379115  
   0.644967800    -0.6168727    0.4355201  
   0.646967700    -0.5431091    0.5231277  
   0.648967600    -0.4562467    0.5998348  
   0.650967500    -0.3586819    0.6621745  
   0.652967400    -0.2519409    0.7091106  
   0.654967300    -0.1383701    0.7396346  
   0.656967200    -0.0204878    0.7523057  
   0.658967100     0.0988853    0.7462856  
   0.660967000     0.2172276    0.7211312  
   0.662966900     0.3317440    0.6767570  
   0.664966800     0.4390581    0.6135072  
   0.666966700     0.5356809    0.5328220  
   0.668966600     0.6182742    0.4365821  
   0.670966500     0.6841443    0.3267687  
   0.672966400     0.7320372    0.2077204  
   0.674966300     0.7582362    0.0819508  
   0.676966200     0.7627523   -0.0464363  
   0.678966100     0.7452414   -0.1730985  
   0.680966000     0.7071766   -0.2950144  
   0.682965900     0.6496228   -0.4081896  
   0.684965800     0.5746761   -0.5094608  
   0.686965700     0.4842788   -0.5965074  
   0.688965600     0.3816859   -0.6667007  
   0.690965500     0.2697902   -0.7178600  
   0.692965400     0.1530133   -0.7507877  
   0.694965300     0.0341768   -0.7646345  
   0.696965200    -0.0843104   -0.7593194  
   0.698965100    -0.1994169   -0.7359932  
   0.700965000    -0.3084518   -0.6953546  
   0.702964900    -0.4085525   -0.6391786  
   0.704964800    -0.4986785   -0.5687476  
   0.706964700    -0.5764348   -0.4861089  
   0.708964600    -0.6404272   -0.3929478  
   0.710964500    -0.6899919   -0.2921185  
   0.712964400    -0.7230957   -0.1850525  
   0.714964300    -0.7395703   -0.0741593  
   0.716964200    -0.7396057    0.0373842  
   0.718964100    -0.7227885    0.1471492  
   0.720964000    -0.6896998    0.2533400  
   0.722963900    -0.6408406    0.3534392  
   0.724963800    -0.5772734    0.4453363  
   0.726963700    -0.4998201    0.5268425  
   0.728963600    -0.4101124    0.5957068  
   0.730963500    -0.3098179    0.6497769  
   0.732963400    -0.2018828    0.6877100  
   0.734963300    -0.0883368    0.7080756  
   0.736963200     0.0451151    0.7088407  
   0.738963100     0.1777220    0.6844920  
   0.740963000     0.3038022    0.6357344  
   0.742962900     0.4184673    0.5639347  
   0.744962800     0.5176132    0.4725675  
   0.746962700     0.5980175    0.3643952  
   0.748962600     0.6564726    0.2431607  
   0.750962500     0.5981445    0.3394061  
   0.752962400     0.6520830    0.2185416  
   0.754962300     0.6829907    0.0908815  
   0.756962200     0.6900765   -0.0397207  
   0.758962100     0.6734632   -0.1687236  
   0.760962000     0.6341696   -0.2917339  
   0.762961900     0.5768784   -0.4003682  
   0.764961800     0.5089446   -0.4896675  
   0.766961700     0.4288539   -0.5671302  
   0.768961600     0.3373952   -0.6317180  
   0.770961500     0.2373243   -0.6810363  
   0.772961400     0.1309666   -0.7147225  
   0.774961300     0.0207622   -0.7317054  
   0.776961200    -0.0912965   -0.7313041  
   0.778961100    -0.2023902   -0.7138863  
   0.780961000    -0.3097075   -0.6790224  
   0.782960900    -0.4106656   -0.6277047  
   0.784960800    -0.5028600   -0.5607023  
   0.786960700    -0.5833377   -0.4799522  
   0.788960600    -0.6502897   -0.3872567  
   0.790960500    -0.7018313   -0.2853767  
   0.792960400    -0.7368098   -0.1764226  
   0.794960300    -0.7540160   -0.0636985  
   0.796960200    -0.7537090    0.0503864  
   0.798960100    -0.7356554    0.1627913  
   0.800960000    -0.7003703    0.2704207  
   0.802959900    -0.6488885    0.3721310  
   0.804959800    -0.5823367    0.4639899  
   0.806959700    -0.5025823    0.5448239  
   0.808959600    -0.4108883    0.6124383  
   0.810959500    -0.3098795    0.6648563  
   0.812959400    -0.2013697    0.7013941  
   0.814959300    -0.0884127    0.7208611  
   0.816959200     0.0270478    0.7222117  
   0.818959100     0.1420621    0.7057264  
   0.820959000     0.2532730    0.6709092  
   0.822958900     0.3586742    0.6188264  
   0.824958800     0.4548435    0.5502114  
   0.826958700     0.5392419    0.4663175  
   0.828958600     0.6095029    0.3691673  
   0.830958500     0.6631795    0.2614013  
   0.832958400     0.6986041    0.1459139  
   0.834958300     0.7146373    0.0257416  
   0.836958200     0.7104955   -0.0955223  
   0.838958100     0.6864910   -0.2145605  
   0.840958000     0.6426504   -0.3282960  
   0.842957900     0.5804881   -0.4335412  
   0.844957800     0.5018523   -0.5269299  
   0.846957700     0.4090712   -0.6056600  
   0.848957600     0.3045247   -0.6676455  
   0.850957500     0.1919155   -0.7114503  
   0.852957400     0.0739983   -0.7357047  
   0.854957300    -0.0454951   -0.7405998  
   0.856957200    -0.1634942   -0.7259301  
   0.858957100    -0.2762620   -0.6928528  
   0.860957000    -0.3814293   -0.6426229  
   0.862956900    -0.4761803   -0.5775258  
   0.864956800    -0.5589712   -0.4994273  
   0.866956700    -0.6277611   -0.4105186  
   0.868956600    -0.6813520   -0.3131554  
   0.870956500    -0.7199445   -0.2093286  
   0.872956400    -0.7425976   -0.1013717  
   0.874956300    -0.7484123    0.0076886  
   0.876956200    -0.7384411    0.1170631  
   0.878956100    -0.7120028    0.2230759  
   0.880956000    -0.6705352    0.3244528  
   0.882955900    -0.6143513    0.4188717  
   0.884955800    -0.5447206    0.5039909  
   0.886955700    -0.4624754    0.5780634  
   0.888955600    -0.3702970    0.6391206  
   0.890955500    -0.2693950    0.6864607  
   0.892955400    -0.1622496    0.7181451  
   0.894955300    -0.0506499    0.7331948  
