! MS46122B
! 2250307/22442219
! 7/22/2025 7:57:34 AM
! C:\USERS\SPARKY\DOCUMENTS\VNA_DATA\JULY22_2025\3K\PORT5_MOS5_REPEAT1.S1P
! CHANNEL.1
! TR.MEASUREMENT
! RAW.DATA
# GHZ S RI R 50.0
! FREQ.GHZ         S11RE         S11IM         
!; PortSelection: Port_1
   0.001000000     1.0457070   -0.0716481  
   0.002999900     0.9640694   -0.1941477  
   0.004999800     0.9039377   -0.2991628  
   0.006999700     0.8366481   -0.3970174  
   0.008999600     0.7579842   -0.4926493  
   0.010999500     0.6646447   -0.5836714  
   0.012999400     0.5509830   -0.6676319  
   0.014999300     0.4106651   -0.7381384  
   0.016999200     0.2375038   -0.7823812  
   0.018999100     0.0261165   -0.7798283  
   0.020999000    -0.2148291   -0.6950859  
   0.022998900    -0.4456044   -0.4858907  
   0.024998800    -0.5545613   -0.1431389  
   0.026998700    -0.4962010    0.2681557  
   0.028998600    -0.2077359    0.5700127  
   0.030998500     0.1590599    0.6692085  
   0.032998400     0.4458041    0.5898816  
   0.034998300     0.6930647    0.4499373  
   0.036998200     0.8244070    0.2726152  
   0.038998100     0.8911583    0.0992826  
   0.040998000     0.9134206   -0.0596272  
   0.042997900     0.9041994   -0.2009795  
   0.044997800     0.8487104   -0.2986075  
   0.046997700     0.8276093   -0.4332554  
   0.048997600     0.7706165   -0.5269525  
   0.050997500     0.7054337   -0.6075088  
   0.052997400     0.6343122   -0.6764829  
   0.054997300     0.5581915   -0.7344215  
   0.056997200     0.4768043   -0.7836576  
   0.058997100     0.3927329   -0.8229829  
   0.060997000     0.3055604   -0.8531344  
   0.062996900     0.2157678   -0.8737586  
   0.064996800     0.1232434   -0.8847290  
   0.066996700     0.0289630   -0.8859460  
   0.068996600    -0.0666252   -0.8763987  
   0.070996500    -0.1633535   -0.8563471  
   0.072996400    -0.2594052   -0.8228762  
   0.074996300    -0.3540074   -0.7768083  
   0.076996200    -0.4458204   -0.7165915  
   0.078996100    -0.5316668   -0.6412142  
   0.080996000    -0.6104590   -0.5504794  
   0.082995900    -0.6779968   -0.4440380  
   0.084995800    -0.7302240   -0.3224742  
   0.086995700    -0.7648467   -0.1872452  
   0.088995600    -0.7761936   -0.0403323  
   0.090995500    -0.7597384    0.1136603  
   0.092995400    -0.7128280    0.2699139  
   0.094995300    -0.6307076    0.4198878  
   0.096995200    -0.5148736    0.5538955  
   0.098995100    -0.3676959    0.6633425  
   0.100995000    -0.1949698    0.7386550  
   0.102994900    -0.0092444    0.7720942  
   0.104994800     0.1794181    0.7620845  
   0.106994700     0.3584792    0.7088694  
   0.108994600     0.5176733    0.6195557  
   0.110994500     0.6494837    0.5007209  
   0.112994400     0.7492845    0.3620347  
   0.114994300     0.8158916    0.2121841  
   0.116994200     0.8501855    0.0593863  
   0.118994100     0.8550011   -0.0901465  
   0.120994000     0.8360617   -0.2318933  
   0.122993900     0.7934832   -0.3617626  
   0.124993800     0.7329332   -0.4776851  
   0.126993700     0.6581383   -0.5793303  
   0.128993600     0.5711730   -0.6639168  
   0.130993500     0.4770278   -0.7339941  
   0.132993400     0.3767801   -0.7882327  
   0.134993300     0.2723403   -0.8277966  
   0.136993200     0.1659347   -0.8524924  
   0.138993100     0.0584812   -0.8628196  
   0.140993000    -0.0484571   -0.8593453  
   0.142992900    -0.1533758   -0.8417959  
   0.144992800    -0.2555285   -0.8130242  
   0.146992700    -0.3534977   -0.7694602  
   0.148992600    -0.4454407   -0.7134216  
   0.150992500    -0.5294604   -0.6440371  
   0.152992400    -0.6058971   -0.5640139  
   0.154992300    -0.6719858   -0.4729326  
   0.156992200    -0.7262660   -0.3708690  
   0.158992100    -0.7666894   -0.2603080  
   0.160992000    -0.7916511   -0.1411170  
   0.162991900    -0.7989140   -0.0165735  
   0.164991800    -0.7866523    0.1119547  
   0.166991700    -0.7534301    0.2404805  
   0.168991600    -0.6982791    0.3657819  
   0.170991500    -0.6199540    0.4839586  
   0.172991400    -0.5202286    0.5898644  
   0.174991300    -0.4000913    0.6783217  
   0.176991200    -0.2626220    0.7456058  
   0.178991100    -0.1116391    0.7867510  
   0.180991000     0.0464121    0.7997305  
   0.182990900     0.2055288    0.7811257  
   0.184990800     0.3593969    0.7316459  
   0.186990700     0.5006714    0.6536011  
   0.188990600     0.6062095    0.5671660  
   0.190990500     0.7198576    0.4290130  
   0.192990400     0.7947302    0.2879075  
   0.194990300     0.8402844    0.1414440  
   0.196990200     0.8576150   -0.0069852  
   0.198990100     0.8483367   -0.1522689  
   0.200990000     0.8148251   -0.2908518  
   0.202989900     0.7599641   -0.4180264  
   0.204989800     0.6866209   -0.5315280  
   0.206989700     0.5995463   -0.6298027  
   0.208989600     0.5002121   -0.7098630  
   0.210989500     0.3919711   -0.7728541  
   0.212989400     0.2770666   -0.8180072  
   0.214989300     0.1597620   -0.8450027  
   0.216989200     0.0413385   -0.8548388  
   0.218989100    -0.0748919   -0.8474768  
   0.220989000    -0.1884865   -0.8241059  
   0.222988900    -0.2973908   -0.7845734  
   0.224988800    -0.3994462   -0.7306389  
   0.226988700    -0.4929583   -0.6628696  
   0.228988600    -0.5759853   -0.5824491  
   0.230988500    -0.6471312   -0.4906229  
   0.232988400    -0.7038631   -0.3873325  
   0.234988300    -0.7469400   -0.2758110  
   0.236988200    -0.7731240   -0.1568557  
   0.238988100    -0.7814076   -0.0335167  
   0.240988000    -0.7701979    0.0918081  
   0.242987900    -0.7388307    0.2160798  
   0.244987800    -0.6866717    0.3363696  
   0.246987700    -0.6134650    0.4491362  
   0.248987600    -0.5202014    0.5507505  
   0.250987500    -0.4077530    0.6363892  
   0.252987400    -0.2796957    0.7017496  
   0.254987300    -0.1403258    0.7436707  
   0.256987200     0.0065747    0.7598175  
   0.258987100     0.1558748    0.7494404  
   0.260987000     0.3021991    0.7096559  
   0.262986900     0.4390139    0.6426196  
   0.264986800     0.5607722    0.5505363  
   0.266986700     0.6626464    0.4376643  
   0.268986600     0.7406403    0.3091702  
   0.270986500     0.7925640    0.1707574  
   0.272986400     0.8179688    0.0278002  
   0.274986300     0.8176637   -0.1151688  
   0.276986200     0.7927439   -0.2526920  
   0.278986100     0.7451704   -0.3816959  
   0.280986000     0.6786286   -0.4982936  
   0.282985900     0.5955715   -0.5999403  
   0.284985800     0.4994863   -0.6851335  
   0.286985700     0.3941639   -0.7526475  
   0.288985600     0.2827835   -0.8018714  
   0.290985500     0.1680666   -0.8333019  
   0.292985400     0.0526154   -0.8474050  
   0.294985300    -0.0619184   -0.8454394  
   0.296985200    -0.1742531   -0.8273961  
   0.298985100    -0.2824445   -0.7940861  
   0.300985000    -0.3845012   -0.7463389  
   0.302984900    -0.4784050   -0.6853490  
   0.304984800    -0.5629674   -0.6126944  
   0.306984700    -0.6368877   -0.5290166  
   0.308984600    -0.6982524   -0.4362673  
   0.310984500    -0.7469938   -0.3357619  
   0.312984400    -0.7814284   -0.2276010  
   0.314984300    -0.8007123   -0.1140883  
   0.316984200    -0.8029589    0.0034417  
   0.318984100    -0.7867964    0.1232475  
   0.320984000    -0.7505193    0.2422167  
   0.322983900    -0.6932442    0.3553078  
   0.324983800    -0.6156227    0.4575109  
   0.326983700    -0.5205517    0.5436519  
   0.328983600    -0.4126323    0.6098856  
   0.330983500    -0.2985156    0.6546893  
   0.332983400    -0.1833668    0.6800948  
   0.334983300    -0.0693476    0.6888565  
   0.336983200     0.0433154    0.6832529  
   0.338983100     0.1545720    0.6632063  
   0.340983000     0.2636915    0.6280582  
   0.342982900     0.3692248    0.5764496  
   0.344982800     0.4680203    0.5071831  
   0.346982700     0.5568112    0.4199401  
   0.348982600     0.6300081    0.3165608  
   0.350982500     0.6860884    0.2005486  
   0.352982400     0.7211061    0.0746813  
   0.354982300     0.7326931   -0.0614515  
   0.356982200     0.7152193   -0.2106463  
   0.358982100     0.6680601   -0.3530837  
   0.360982000     0.5936483   -0.4828540  
   0.362981900     0.4951060   -0.5949077  
   0.364981800     0.3767472   -0.6849754  
   0.366981700     0.2437808   -0.7498648  
   0.368981600     0.1019186   -0.7871587  
   0.370981500    -0.0433928   -0.7967919  
   0.372981400    -0.1864613   -0.7787969  
   0.374981300    -0.3229901   -0.7344354  
   0.376981200    -0.2057817   -0.7749320  
   0.378981100    -0.3393784   -0.7278244  
   0.380981000    -0.4617606   -0.6571877  
   0.382980900    -0.5591831   -0.5754843  
   0.384980800    -0.6381188   -0.4844607  
   0.386980700    -0.7023793   -0.3826348  
   0.388980600    -0.7499819   -0.2723077  
   0.390980500    -0.7801391   -0.1565849  
   0.392980400    -0.7926919   -0.0378367  
   0.394980300    -0.7871740    0.0807313  
   0.396980200    -0.7639160    0.1983876  
   0.398980100    -0.7228124    0.3117886  
   0.400980000    -0.6644360    0.4182749  
   0.402979900    -0.5896220    0.5161193  
   0.404979800    -0.4999478    0.6017549  
   0.406979700    -0.3969184    0.6733553  
   0.408979600    -0.2820996    0.7284126  
   0.410979500    -0.1580974    0.7651292  
   0.412979400    -0.0274541    0.7813306  
   0.414979300     0.1056676    0.7747034  
   0.416979200     0.2374905    0.7468573  
   0.418979100     0.3638109    0.6965638  
   0.420979000     0.4809403    0.6247607  
   0.422978900     0.5848967    0.5329822  
   0.424978800     0.6718099    0.4238309  
   0.426978700     0.7385448    0.3004566  
   0.428978600     0.7826051    0.1673092  
   0.430978500     0.8025995    0.0290006  
   0.432978400     0.7980636   -0.1096161  
   0.434978300     0.7709578   -0.2452241  
   0.436978200     0.7200741   -0.3724424  
   0.438978100     0.6488302   -0.4878169  
   0.440978000     0.5597289   -0.5890228  
   0.442977900     0.4562276   -0.6726906  
   0.444977800     0.3417073   -0.7369681  
   0.446977700     0.2193808   -0.7810227  
   0.448977600     0.0933778   -0.8041109  
   0.450977500    -0.0331004   -0.8066081  
   0.452977400    -0.1574705   -0.7890418  
   0.454977300    -0.2772203   -0.7522916  
   0.456977200    -0.3887818   -0.6974940  
   0.458977100    -0.4902086   -0.6259524  
   0.460977000    -0.5778981   -0.5402963  
   0.462976900    -0.6509644   -0.4426993  
   0.464976800    -0.7083377   -0.3350892  
   0.466976700    -0.7476513   -0.2202288  
   0.468976600    -0.7689814   -0.1007055  
   0.470976500    -0.7714314    0.0213203  
   0.472976400    -0.7547809    0.1424677  
   0.474976300    -0.7186207    0.2602485  
   0.476976200    -0.6643152    0.3714425  
   0.478976100    -0.5923451    0.4731253  
   0.480976000    -0.5046656    0.5621962  
   0.482975900    -0.4027934    0.6364341  
   0.484975800    -0.2889594    0.6935171  
   0.486975700    -0.1658253    0.7310541  
   0.488975600    -0.0370658    0.7477111  
   0.490975500     0.0938777    0.7417057  
   0.492975400     0.2229246    0.7126555  
   0.494975300     0.3453345    0.6614734  
   0.496975200     0.4570504    0.5888702  
   0.498975100     0.5536315    0.4978121  
   0.500975000     0.6317389    0.3919785  
   0.502974900     0.6895451    0.2746635  
   0.504974800     0.7252234    0.1503353  
   0.506974700     0.7383454    0.0232667  
   0.508974600     0.7293307   -0.1023927  
   0.510974500     0.6998012   -0.2222931  
   0.512974400     0.6520168   -0.3329042  
   0.514974300     0.5881729   -0.4302996  
   0.516974200     0.5131086   -0.5157081  
   0.518974100     0.4283970   -0.5874283  
   0.520974000     0.3367304   -0.6451112  
   0.522973900     0.2394601   -0.6890299  
   0.524973800     0.1382155   -0.7189211  
   0.526973700     0.0336200   -0.7356073  
   0.528973600    -0.0725860   -0.7379096  
   0.530973500    -0.1795334   -0.7258185  
   0.532973400    -0.2851150   -0.6981147  
   0.534973300    -0.3869481   -0.6540162  
   0.536973200    -0.4829584   -0.5944292  
   0.538973100    -0.5696970   -0.5195743  
   0.540973000    -0.6445065   -0.4311952  
   0.542972900    -0.7048637   -0.3302918  
   0.544972800    -0.7485999   -0.2196851  
   0.546972700    -0.7742172   -0.1021552  
   0.548972600    -0.7804999    0.0193982  
   0.550972500    -0.7666458    0.1411358  
   0.552972400    -0.7326142    0.2599817  
   0.554972300    -0.6794286    0.3721099  
   0.556972200    -0.6081707    0.4747573  
   0.558972100    -0.5205980    0.5647944  
   0.560972000    -0.4190260    0.6394792  
   0.562971900    -0.3061666    0.6968997  
   0.564971800    -0.1852606    0.7351708  
   0.566971700    -0.0591421    0.7530383  
   0.568971600     0.0689253    0.7498265  
   0.570971500     0.1953414    0.7256168  
   0.572971400     0.3167710    0.6801804  
   0.574971300     0.4298743    0.6141027  
   0.576971200     0.5312268    0.5294826  
   0.578971100     0.6170096    0.4278826  
   0.580971000     0.6841235    0.3128216  
   0.582970900     0.7302804    0.1878389  
   0.584970800     0.7545033    0.0566066  
   0.586970700     0.7557264   -0.0759984  
   0.588970600     0.7342632   -0.2069046  
   0.590970500     0.6907886   -0.3315313  
   0.592970400     0.6268532   -0.4464940  
   0.594970300     0.5449661   -0.5479546  
   0.596970200     0.4477018   -0.6340697  
   0.598970100     0.3380986   -0.7021102  
   0.600970000     0.2197010   -0.7503497  
   0.602969900     0.0958543   -0.7781765  
   0.604969800    -0.0300287   -0.7856535  
   0.606969700    -0.1541766   -0.7728676  
   0.608969600    -0.2741854   -0.7401693  
   0.610969500    -0.3865071   -0.6893925  
   0.612969400    -0.4883866   -0.6219698  
   0.614969300    -0.5775253   -0.5405127  
   0.616969200    -0.6522464   -0.4471491  
   0.618969100    -0.7113514   -0.3442228  
   0.620969000    -0.7538303   -0.2346835  
   0.622968900    -0.7795263   -0.1200789  
   0.624968800    -0.7879207   -0.0030394  
   0.626968700    -0.7785295    0.1142971  
   0.628968600    -0.7517069    0.2291703  
   0.630968500    -0.7078903    0.3392164  
   0.632968400    -0.6473334    0.4419431  
   0.634968300    -0.5717439    0.5349079  
   0.636968200    -0.4822586    0.6160327  
   0.638968100    -0.3802870    0.6828856  
   0.640968000    -0.2684043    0.7335467  
   0.642967900    -0.1486045    0.7662448  
   0.644967800    -0.0244226    0.7798813  
   0.646967700     0.1017690    0.7737170  
   0.648967600     0.2262693    0.7470254  
   0.650967500     0.3455522    0.7001737  
   0.652967400     0.4562522    0.6342525  
   0.654967300     0.5555587    0.5503803  
   0.656967200     0.6399511    0.4508209  
   0.658967100     0.7067283    0.3380230  
   0.660967000     0.7541363    0.2145026  
   0.662966900     0.7802542    0.0842721  
   0.664966800     0.7842816   -0.0496830  
   0.666966700     0.7650964   -0.1823359  
   0.668966600     0.7236881   -0.3095529  
   0.670966500     0.6614475   -0.4277979  
   0.672966400     0.5816979   -0.5339742  
   0.674966300     0.4851820   -0.6230543  
   0.676966200     0.3762819   -0.6941158  
   0.678966100     0.2583136   -0.7455226  
   0.680966000     0.1351330   -0.7765059  
   0.682965900     0.0099836   -0.7868457  
   0.684965800    -0.1139040   -0.7774989  
   0.686965700    -0.2331247   -0.7484571  
   0.688965600    -0.3454167   -0.7017163  
   0.690965500    -0.4471723   -0.6377985  
   0.692965400    -0.5378222   -0.5605800  
   0.694965300    -0.6145884   -0.4712823  
   0.696965200    -0.6764707   -0.3723747  
   0.698965100    -0.7227505   -0.2653023  
   0.700965000    -0.7520032   -0.1527317  
   0.702964900    -0.7638671   -0.0373212  
   0.704964800    -0.7584880    0.0788589  
   0.706964700    -0.7351664    0.1929348  
   0.708964600    -0.6942317    0.3026276  
   0.710964500    -0.6372343    0.4059817  
   0.712964400    -0.5638298    0.4993013  
   0.714964300    -0.4761052    0.5803428  
   0.716964200    -0.3762415    0.6467832  
   0.718964100    -0.2663256    0.6966606  
   0.720964000    -0.1498294    0.7282121  
   0.722963900    -0.0290044    0.7407554  
   0.724963800     0.0931724    0.7332461  
   0.726963700     0.2124105    0.7054901  
   0.728963600     0.3263775    0.6580827  
   0.730963500     0.4304975    0.5914634  
   0.732963400     0.5219857    0.5089205  
   0.734963300     0.5990799    0.4122740  
   0.736963200     0.6663122    0.2883604  
   0.738963100     0.7089344    0.1537567  
   0.740963000     0.7252256    0.0147540  
   0.742962900     0.7151820   -0.1236222  
   0.744962800     0.6799380   -0.2563720  
   0.746962700     0.6211039   -0.3790897  
   0.748962600     0.5419942   -0.4879991  
   0.750962500     0.5980702   -0.3996211  
   0.752962400     0.5171868   -0.5055987  
   0.754962300     0.4195777   -0.5942341  
   0.756962200     0.3083511   -0.6640056  
   0.758962100     0.1869996   -0.7125452  
   0.760962000     0.0592275   -0.7388670  
   0.762961900    -0.0647457   -0.7429869  
   0.764961800    -0.1776795   -0.7289641  
   0.766961700    -0.2872994   -0.6980916  
   0.768961600    -0.3913176   -0.6504923  
   0.770961500    -0.4871480   -0.5874634  
   0.772961400    -0.5723916   -0.5100574  
   0.774961300    -0.6441393   -0.4203174  
   0.776961200    -0.7017868   -0.3198204  
   0.778961100    -0.7428958   -0.2115369  
   0.780961000    -0.7665414   -0.0972800  
   0.782960900    -0.7720801    0.0198240  
   0.784960800    -0.7587882    0.1369162  
   0.786960700    -0.7266979    0.2508895  
   0.788960600    -0.6769386    0.3589049  
   0.790960500    -0.6105916    0.4577778  
   0.792960400    -0.5296164    0.5445802  
   0.794960300    -0.4351967    0.6178100  
   0.796960200    -0.3305848    0.6753709  
   0.798960100    -0.2180396    0.7156996  
   0.800960000    -0.1004072    0.7375676  
   0.802959900     0.0196574    0.7404959  
   0.804959800     0.1389585    0.7246349  
   0.806959700     0.2544297    0.6895541  
   0.808959600     0.3630767    0.6362572  
   0.810959500     0.4621220    0.5659745  
   0.812959400     0.5492787    0.4803720  
   0.814959300     0.6214867    0.3811401  
   0.816959200     0.6770051    0.2709176  
   0.818959100     0.7138652    0.1524783  
   0.820959000     0.7309090    0.0295486  
   0.822958900     0.7271664   -0.0953597  
   0.824958800     0.7027352   -0.2180450  
   0.826958700     0.6584507   -0.3349905  
   0.828958600     0.5950045   -0.4431161  
   0.830958500     0.5145233   -0.5391648  
   0.832958400     0.4195772   -0.6203043  
   0.834958300     0.3129927   -0.6844437  
   0.836958200     0.1980168   -0.7295849  
   0.838958100     0.0776636   -0.7553780  
   0.840958000    -0.0448587   -0.7609382  
   0.842957900    -0.1659930   -0.7469868  
   0.844957800    -0.2827138   -0.7136872  
   0.846957700    -0.3916315   -0.6625519  
   0.848957600    -0.4906541   -0.5953565  
   0.850957500    -0.5771114   -0.5135928  
   0.852957400    -0.6496565   -0.4198129  
   0.854957300    -0.7061765   -0.3166798  
   0.856957200    -0.7458361   -0.2066921  
   0.858957100    -0.7681205   -0.0925019  
   0.860957000    -0.7723475    0.0225551  
   0.862956900    -0.7596396    0.1362037  
   0.864956800    -0.7303223    0.2459407  
   0.866956700    -0.6851077    0.3497439  
   0.868956600    -0.6246829    0.4448859  
   0.870956500    -0.5512832    0.5307466  
   0.872956400    -0.4654474    0.6048877  
   0.874956300    -0.3693927    0.6660740  
   0.876956200    -0.2638097    0.7126885  
   0.878956100    -0.1514279    0.7425542  
   0.880956000    -0.0349736    0.7554662  
   0.882955900     0.0833743    0.7499347  
   0.884955800     0.2007149    0.7258068  
   0.886955700     0.3134507    0.6833305  
   0.888955600     0.4194764    0.6226845  
   0.890955500     0.5149483    0.5450361  
   0.892955400     0.5969555    0.4520185  
   0.894955300     0.6634613    0.3461710  
