! MS46122B
! 2250307/22442219
! 7/22/2025 7:47:44 AM
! C:\USERS\SPARKY\DOCUMENTS\VNA_DATA\JULY22_2025\3K\PORT4_MOS4.S1P
! CHANNEL.1
! TR.MEASUREMENT
! RAW.DATA
# GHZ S RI R 50.0
! FREQ.GHZ         S11RE         S11IM         
!; PortSelection: Port_1
   0.001000000     1.0458520   -0.0715315  
   0.002999900     0.9642276   -0.1941386  
   0.004999800     0.9041172   -0.2992031  
   0.006999700     0.8367012   -0.3969404  
   0.008999600     0.7582368   -0.4924347  
   0.010999500     0.6652162   -0.5833802  
   0.012999400     0.5519570   -0.6671857  
   0.014999300     0.4125857   -0.7377418  
   0.016999200     0.2406136   -0.7825022  
   0.018999100     0.0310888   -0.7813092  
   0.020999000    -0.2079584   -0.7001294  
   0.022998900    -0.4389221   -0.4973876  
   0.024998800    -0.5538417   -0.1618721  
   0.026998700    -0.5087476    0.2466894  
   0.028998600    -0.2331123    0.5569548  
   0.030998500     0.1303627    0.6698312  
   0.032998400     0.4224526    0.6006771  
   0.034998300     0.6764826    0.4672396  
   0.036998200     0.8142591    0.2919354  
   0.038998100     0.8865374    0.1184984  
   0.040998000     0.9127650   -0.0412441  
   0.042997900     0.9067944   -0.1840227  
   0.044997800     0.8531776   -0.2837192  
   0.046997700     0.8344914   -0.4194504  
   0.048997600     0.7790506   -0.5145999  
   0.050997500     0.7150150   -0.5965962  
   0.052997400     0.6449713   -0.6669311  
   0.054997300     0.5699022   -0.7261939  
   0.056997200     0.4894103   -0.7767914  
   0.058997100     0.4062819   -0.8172905  
   0.060997000     0.3198584   -0.8489308  
   0.062996900     0.2309492   -0.8711184  
   0.064996800     0.1393360   -0.8836233  
   0.066996700     0.0456252   -0.8867208  
   0.068996600    -0.0492443   -0.8791689  
   0.070996500    -0.1451861   -0.8614490  
   0.072996400    -0.2410017   -0.8307989  
   0.074996300    -0.3355598   -0.7873538  
   0.076996200    -0.4276123   -0.7304970  
   0.078996100    -0.5142602   -0.6587425  
   0.080996000    -0.5944249   -0.5719494  
   0.082995900    -0.6642454   -0.4697673  
   0.084995800    -0.7199019   -0.3524229  
   0.086995700    -0.7591687   -0.2214993  
   0.088995600    -0.7764768   -0.0781229  
   0.090995500    -0.7677717    0.0733284  
   0.092995400    -0.7297795    0.2286288  
   0.094995300    -0.6577041    0.3795200  
   0.096995200    -0.5519933    0.5181709  
   0.098995100    -0.4145709    0.6350075  
   0.100995000    -0.2496376    0.7206467  
   0.102994900    -0.0684128    0.7669711  
   0.104994800     0.1191472    0.7707287  
   0.106994700     0.3008774    0.7311835  
   0.108994600     0.4664069    0.6538896  
   0.110994500     0.6074733    0.5448037  
   0.112994400     0.7179507    0.4130662  
   0.114994300     0.7956210    0.2672466  
   0.116994200     0.8412979    0.1156413  
   0.118994100     0.8565266   -0.0346985  
   0.120994000     0.8465607   -0.1790122  
   0.122993900     0.8121172   -0.3130075  
   0.124993800     0.7583568   -0.4338643  
   0.126993700     0.6891256   -0.5404926  
   0.128993600     0.6068614   -0.6311816  
   0.130993500     0.5163445   -0.7068708  
   0.132993400     0.4185546   -0.7675631  
   0.134993300     0.3162184   -0.8127816  
   0.136993200     0.2109830   -0.8433271  
   0.138993100     0.1042935   -0.8597918  
   0.140993000    -0.0025102   -0.8621574  
   0.142992900    -0.1078092   -0.8505507  
   0.144992800    -0.2109094   -0.8276236  
   0.146992700    -0.3100715   -0.7900515  
   0.148992600    -0.4044758   -0.7399954  
   0.150992500    -0.4911124   -0.6764651  
   0.152992400    -0.5712948   -0.6023299  
   0.154992300    -0.6419236   -0.5169008  
   0.156992200    -0.7016488   -0.4207162  
   0.158992100    -0.7486440   -0.3148620  
   0.160992000    -0.7812397   -0.2004506  
   0.162991900    -0.7972612   -0.0791605  
   0.164991800    -0.7948524    0.0467151  
   0.166991700    -0.7728004    0.1745336  
   0.168991600    -0.7295005    0.3008154  
   0.170991500    -0.6636449    0.4223456  
   0.172991400    -0.5763009    0.5341502  
   0.174991300    -0.4682549    0.6318776  
   0.176991200    -0.3408580    0.7108178  
   0.178991100    -0.1981151    0.7663569  
   0.180991000    -0.0450136    0.7957848  
   0.182990900     0.1127715    0.7950987  
   0.184990800     0.2694038    0.7639490  
   0.186990700     0.4174999    0.7032383  
   0.188990600     0.5317323    0.6302065  
   0.190990500     0.6603828    0.5071045  
   0.192990400     0.7513684    0.3757454  
   0.194990300     0.8138793    0.2352721  
   0.196990200     0.8487874    0.0890240  
   0.198990100     0.8565828   -0.0576174  
   0.200990000     0.8390217   -0.1998985  
   0.202989900     0.7983335   -0.3340268  
   0.204989800     0.7378371   -0.4561527  
   0.206989700     0.6611377   -0.5640655  
   0.208989600     0.5702642   -0.6554195  
   0.210989500     0.4685979   -0.7300796  
   0.212989400     0.3588017   -0.7873051  
   0.214989300     0.2440146   -0.8270153  
   0.216989200     0.1274059   -0.8489411  
   0.218989100     0.0106796   -0.8540948  
   0.220989000    -0.1045525   -0.8427203  
   0.222988900    -0.2163479   -0.8149554  
   0.224988800    -0.3230792   -0.7724218  
   0.226988700    -0.4222600   -0.7155496  
   0.228988600    -0.5121748   -0.6456188  
   0.230988500    -0.5919332   -0.5633416  
   0.232988400    -0.6589608   -0.4689177  
   0.234988300    -0.7134362   -0.3651193  
   0.236988200    -0.7527933   -0.2526639  
   0.238988100    -0.7752140   -0.1341404  
   0.240988000    -0.7800111   -0.0115978  
   0.242987900    -0.7652583    0.1123375  
   0.244987800    -0.7308578    0.2349779  
   0.246987700    -0.6757193    0.3533291  
   0.248987600    -0.5999942    0.4638944  
   0.250987500    -0.5042629    0.5623214  
   0.252987400    -0.3908601    0.6443607  
   0.254987300    -0.2628824    0.7057702  
   0.256987200    -0.1239597    0.7442756  
   0.258987100     0.0221067    0.7585044  
   0.260987000     0.1702946    0.7438413  
   0.262986900     0.3144741    0.7016035  
   0.264986800     0.4486997    0.6323169  
   0.266986700     0.5675864    0.5393779  
   0.268986600     0.6664284    0.4264187  
   0.270986500     0.7413284    0.2987465  
   0.272986400     0.7910842    0.1611256  
   0.274986300     0.8147330    0.0192918  
   0.276986200     0.8129601   -0.1219462  
   0.278986100     0.7869620   -0.2581253  
   0.280986000     0.7388392   -0.3855956  
   0.282985900     0.6720620   -0.5006215  
   0.284985800     0.5892470   -0.6008750  
   0.286985700     0.4938040   -0.6842315  
   0.288985600     0.3899664   -0.7503457  
   0.290985500     0.2801641   -0.7986188  
   0.292985400     0.1670152   -0.8295149  
   0.294985300     0.0527638   -0.8435976  
   0.296985200    -0.0613385   -0.8417487  
   0.298985100    -0.1729056   -0.8238816  
   0.300985000    -0.2802537   -0.7910383  
   0.302984900    -0.3809613   -0.7442517  
   0.304984800    -0.4736572   -0.6846001  
   0.306984700    -0.5573475   -0.6136659  
   0.308984600    -0.6303054   -0.5323732  
   0.310984500    -0.6917308   -0.4423119  
   0.312984400    -0.7407993   -0.3437224  
   0.314984300    -0.7763320   -0.2379055  
   0.316984200    -0.7970092   -0.1265249  
   0.318984100    -0.8015904   -0.0101302  
   0.320984000    -0.7878511    0.1084414  
   0.322983900    -0.7546799    0.2264596  
   0.324983800    -0.7010972    0.3385625  
   0.326983700    -0.6279147    0.4402214  
   0.328983600    -0.5380394    0.5273797  
   0.330983500    -0.4361461    0.5960050  
   0.332983400    -0.3280389    0.6455572  
   0.334983300    -0.2163098    0.6781643  
   0.336983200    -0.1031168    0.6948497  
   0.338983100     0.0114944    0.6965058  
   0.340983000     0.1260697    0.6823117  
   0.342982900     0.2397269    0.6514136  
   0.344982800     0.3496906    0.6026602  
   0.346982700     0.4533859    0.5350521  
   0.348982600     0.5449787    0.4491322  
   0.350982500     0.6228616    0.3473193  
   0.352982400     0.6827727    0.2323680  
   0.354982300     0.7227190    0.1025280  
   0.356982200     0.7375433   -0.0459559  
   0.358982100     0.7223120   -0.1945523  
   0.360982000     0.6778846   -0.3367947  
   0.362981900     0.6063421   -0.4674430  
   0.364981800     0.5106381   -0.5810894  
   0.366981700     0.3949754   -0.6732165  
   0.368981600     0.2647224   -0.7407103  
   0.370981500     0.1246313   -0.7817202  
   0.372981400    -0.0193053   -0.7951933  
   0.374981300    -0.1623626   -0.7814044  
   0.376981200    -0.0412555   -0.7954102  
   0.378981100    -0.1818754   -0.7774836  
   0.380981000    -0.3156746   -0.7344652  
   0.382980900    -0.4274870   -0.6755392  
   0.384980800    -0.5233148   -0.6033024  
   0.386980700    -0.6063271   -0.5179533  
   0.388980600    -0.6752893   -0.4209854  
   0.390980500    -0.7284896   -0.3159874  
   0.392980400    -0.7651214   -0.2047945  
   0.394980300    -0.7847611   -0.0896317  
   0.396980200    -0.7869856    0.0273214  
   0.398980100    -0.7718502    0.1438088  
   0.400980000    -0.7396230    0.2576332  
   0.402979900    -0.6898542    0.3660791  
   0.404979800    -0.6242819    0.4664707  
   0.406979700    -0.5430545    0.5568145  
   0.408979600    -0.4483011    0.6344824  
   0.410979500    -0.3404588    0.6974707  
   0.412979400    -0.2221773    0.7436370  
   0.414979300    -0.0959316    0.7691229  
   0.416979200     0.0339302    0.7752752  
   0.418979100     0.1644122    0.7598317  
   0.420979000     0.2922613    0.7225966  
   0.422978900     0.4131809    0.6637784  
   0.424978800     0.5233447    0.5841868  
   0.426978700     0.6191513    0.4864097  
   0.428978600     0.6967934    0.3728911  
   0.430978500     0.7534955    0.2478259  
   0.432978400     0.7877662    0.1153085  
   0.434978300     0.7998009   -0.0208202  
   0.436978200     0.7869606   -0.1562727  
   0.438978100     0.7514088   -0.2869335  
   0.440978000     0.6947774   -0.4084519  
   0.442977900     0.6189016   -0.5178353  
   0.444977800     0.5266249   -0.6120023  
   0.446977700     0.4213924   -0.6889088  
   0.448977600     0.3066665   -0.7464306  
   0.450977500     0.1854299   -0.7839243  
   0.452977400     0.0606762   -0.8013598  
   0.454977300    -0.0646493   -0.7986921  
   0.456977200    -0.1871311   -0.7765263  
   0.458977100    -0.3037138   -0.7355011  
   0.460977000    -0.4110525   -0.6771261  
   0.462976900    -0.5072101   -0.6039302  
   0.464976800    -0.5907026   -0.5167981  
   0.466976700    -0.6591124   -0.4186560  
   0.468976600    -0.7118210   -0.3114049  
   0.470976500    -0.7472353   -0.1973201  
   0.472976400    -0.7648491   -0.0790005  
   0.474976300    -0.7638579    0.0408246  
   0.476976200    -0.7441725    0.1596088  
   0.478976100    -0.7058447    0.2737524  
   0.480976000    -0.6500735    0.3813199  
   0.482975900    -0.5776566    0.4790307  
   0.484975800    -0.4896387    0.5650266  
   0.486975700    -0.3878544    0.6358917  
   0.488975600    -0.2746609    0.6899211  
   0.490975500    -0.1526666    0.7245917  
   0.492975400    -0.0252310    0.7383367  
   0.494975300     0.1033477    0.7298009  
   0.496975200     0.2293012    0.6987061  
   0.498975100     0.3480030    0.6459509  
   0.500975000     0.4554577    0.5730935  
   0.502974900     0.5475932    0.4828426  
   0.504974800     0.6217554    0.3781638  
   0.506974700     0.6758992    0.2632957  
   0.508974600     0.7087314    0.1415638  
   0.510974500     0.7196172    0.0184921  
   0.512974400     0.7096696   -0.1019861  
   0.514974300     0.6798924   -0.2148906  
   0.516974200     0.6352363   -0.3194946  
   0.518974100     0.5769677   -0.4138089  
   0.520974000     0.5073670   -0.4964844  
   0.522973900     0.4284692   -0.5671675  
   0.524973800     0.3426172   -0.6256267  
   0.526973700     0.2494706   -0.6722804  
   0.528973600     0.1514581   -0.7060663  
   0.530973500     0.0488967   -0.7267494  
   0.532973400    -0.0568350   -0.7331109  
   0.534973300    -0.1634493   -0.7242649  
   0.536973200    -0.2702005   -0.6994806  
   0.538973100    -0.3728513   -0.6578606  
   0.540973000    -0.4690718   -0.6006647  
   0.542972900    -0.5563589   -0.5277156  
   0.544972800    -0.6323367   -0.4412481  
   0.546972700    -0.6938882   -0.3419941  
   0.548972600    -0.7393053   -0.2330402  
   0.550972500    -0.7666194   -0.1170898  
   0.552972400    -0.7750430    0.0025027  
   0.554972300    -0.7639251    0.1227534  
   0.556972200    -0.7330025    0.2403598  
   0.558972100    -0.6833380    0.3518708  
   0.560972000    -0.6162020    0.4543518  
   0.562971900    -0.5331383    0.5446795  
   0.564971800    -0.4361135    0.6208131  
   0.566971700    -0.3276507    0.6806548  
   0.568971600    -0.2106819    0.7222015  
   0.570971500    -0.0876877    0.7442637  
   0.572971400     0.0384552    0.7460254  
   0.574971300     0.1642773    0.7269444  
   0.576971200     0.2863395    0.6864659  
   0.578971100     0.4009787    0.6257788  
   0.580971000     0.5039843    0.5459634  
   0.582970900     0.5924075    0.4494654  
   0.584970800     0.6629943    0.3391692  
   0.586970700     0.7134255    0.2186562  
   0.588970600     0.7429125    0.0906628  
   0.590970500     0.7498711   -0.0401129  
   0.592970400     0.7345231   -0.1700099  
   0.594970300     0.6969939   -0.2950563  
   0.596970200     0.6391762   -0.4115808  
   0.598970100     0.5626806   -0.5156834  
   0.600970000     0.4701658   -0.6052795  
   0.602969900     0.3648479   -0.6773602  
   0.604969800     0.2494157   -0.7304895  
   0.606969700     0.1278046   -0.7634386  
   0.608969600     0.0032396   -0.7761046  
   0.610969500    -0.1206430   -0.7687231  
   0.612969400    -0.2406456   -0.7412139  
   0.614969300    -0.3533527   -0.6955938  
   0.616969200    -0.4561780   -0.6334267  
   0.618969100    -0.5467969   -0.5572709  
   0.620969000    -0.6241164   -0.4689308  
   0.622968900    -0.6868222   -0.3703228  
   0.624968800    -0.7337053   -0.2639894  
   0.626968700    -0.7641827   -0.1515031  
   0.628968600    -0.7775689   -0.0360077  
   0.630968500    -0.7732715    0.0802847  
   0.632968400    -0.7516269    0.1947669  
   0.634968300    -0.7130833    0.3050862  
   0.636968200    -0.6578211    0.4087027  
   0.638968100    -0.5875167    0.5036707  
   0.640968000    -0.5028761    0.5866558  
   0.642967900    -0.4058174    0.6568717  
   0.644967800    -0.2982548    0.7117128  
   0.646967700    -0.1823305    0.7493261  
   0.648967600    -0.0615454    0.7684767  
   0.650967500     0.0619422    0.7685964  
   0.652967400     0.1844800    0.7488283  
   0.654967300     0.3033882    0.7094607  
   0.656967200     0.4151932    0.6507599  
   0.658967100     0.5171372    0.5739592  
   0.660967000     0.6056369    0.4808610  
   0.662966900     0.6780499    0.3732301  
   0.664966800     0.7320389    0.2537209  
   0.666966700     0.7654288    0.1259454  
   0.668966600     0.7768066   -0.0057671  
   0.670966500     0.7658267   -0.1378535  
   0.672966400     0.7333307   -0.2657298  
   0.674966300     0.6790310   -0.3854977  
   0.676966200     0.6056251   -0.4935348  
   0.678966100     0.5164976   -0.5868258  
   0.680966000     0.4135067   -0.6634552  
   0.682965900     0.3006928   -0.7210515  
   0.684965800     0.1812396   -0.7594727  
   0.686965700     0.0583305   -0.7776139  
   0.688965600    -0.0647333   -0.7761450  
   0.690965500    -0.1836889   -0.7539835  
   0.692965400    -0.2971756   -0.7152315  
   0.694965300    -0.4018973   -0.6599238  
   0.696965200    -0.4960921   -0.5897971  
   0.698965100    -0.5775678   -0.5068205  
   0.700965000    -0.6454025   -0.4129383  
   0.702964900    -0.6978597   -0.3103819  
   0.704964800    -0.7342907   -0.2014432  
   0.706964700    -0.7537498   -0.0882815  
   0.708964600    -0.7557954    0.0264730  
   0.710964500    -0.7410458    0.1409131  
   0.712964400    -0.7081965    0.2517420  
   0.714964300    -0.6586106    0.3567373  
   0.716964200    -0.5933208    0.4527752  
   0.718964100    -0.5133266    0.5379415  
   0.720964000    -0.4210899    0.6096818  
   0.722963900    -0.3181762    0.6665046  
   0.724963800    -0.2068339    0.7062792  
   0.726963700    -0.0897923    0.7278395  
   0.728963600     0.0299426    0.7296468  
   0.730963500     0.1488685    0.7118750  
   0.732963400     0.2636117    0.6747519  
   0.734963300     0.3710461    0.6189618  
   0.736963200     0.4816132    0.5342989  
   0.738963100     0.5746755    0.4300007  
   0.740963000     0.6458669    0.3104949  
   0.742962900     0.6930453    0.1800006  
   0.744962800     0.7147335    0.0442009  
   0.746962700     0.7108035   -0.0921940  
   0.748962600     0.6819317   -0.2244102  
   0.750962500     0.6949843   -0.1172929  
   0.752962400     0.6631342   -0.2467880  
   0.754962300     0.6087714   -0.3674065  
   0.756962200     0.5343407   -0.4752237  
   0.758962100     0.4423091   -0.5678393  
   0.760962000     0.3356849   -0.6421441  
   0.762961900     0.2236914   -0.6943906  
   0.764961800     0.1149117   -0.7253042  
   0.766961700     0.0029282   -0.7394059  
   0.768961600    -0.1102996   -0.7362051  
   0.770961500    -0.2219533   -0.7158463  
   0.772961400    -0.3291779   -0.6783990  
   0.774961300    -0.4295228   -0.6250326  
   0.776961200    -0.5210284   -0.5562080  
   0.778961100    -0.6008447   -0.4738845  
   0.780961000    -0.6670139   -0.3795042  
   0.782960900    -0.7179115   -0.2754849  
   0.784960800    -0.7517681   -0.1642354  
   0.786960700    -0.7675319   -0.0483940  
   0.788960600    -0.7650722    0.0688827  
   0.790960500    -0.7438015    0.1840932  
   0.792960400    -0.7047628    0.2945683  
   0.794960300    -0.6486972    0.3979666  
   0.796960200    -0.5772499    0.4910960  
   0.798960100    -0.4918508    0.5717197  
   0.800960000    -0.3949725    0.6382065  
   0.802959900    -0.2885762    0.6885723  
   0.804959800    -0.1753038    0.7220343  
   0.806959700    -0.0583338    0.7370756  
   0.808959600     0.0603118    0.7333235  
   0.810959500     0.1772455    0.7111261  
   0.812959400     0.2895643    0.6703312  
   0.814959300     0.3947687    0.6115711  
   0.816959200     0.4894907    0.5368137  
   0.818959100     0.5712790    0.4470434  
   0.820959000     0.6380126    0.3443954  
   0.822958900     0.6871667    0.2320226  
   0.824958800     0.7174391    0.1122640  
   0.826958700     0.7278353   -0.0113811  
   0.828958600     0.7171677   -0.1349833  
   0.830958500     0.6862425   -0.2555946  
   0.832958400     0.6354768   -0.3692109  
   0.834958300     0.5667978   -0.4726517  
   0.836958200     0.4821114   -0.5634373  
   0.838958100     0.3838370   -0.6383703  
   0.840958000     0.2746850   -0.6959401  
   0.842957900     0.1581573   -0.7347288  
   0.844957800     0.0373137   -0.7535955  
   0.846957700    -0.0843687   -0.7528200  
   0.848957600    -0.2036356   -0.7322800  
   0.850957500    -0.3172920   -0.6930729  
   0.852957400    -0.4226233   -0.6366201  
   0.854957300    -0.5168171   -0.5647575  
   0.856957200    -0.5982987   -0.4795220  
   0.858957100    -0.6645948   -0.3835586  
   0.860957000    -0.7150191   -0.2795509  
   0.862956900    -0.7488053   -0.1698945  
   0.864956800    -0.7653363   -0.0578345  
   0.866956700    -0.7646024    0.0544363  
   0.868956600    -0.7474254    0.1652228  
   0.870956500    -0.7140904    0.2716177  
   0.872956400    -0.6655707    0.3724185  
   0.874956300    -0.6029889    0.4645648  
   0.876956200    -0.5264626    0.5473148  
   0.878956100    -0.4382379    0.6185685  
   0.880956000    -0.3399031    0.6757599  
   0.882955900    -0.2327544    0.7179573  
   0.884955800    -0.1200420    0.7437040  
   0.886955700    -0.0037806    0.7517498  
   0.888955600     0.1136556    0.7416182  
   0.890955500     0.2289654    0.7131813  
   0.892955400     0.3391570    0.6665865  
   0.894955300     0.4413500    0.6026599  
