! MS46122B
! 2250307/22442219
! 7/27/2025 9:17:09 AM
! C:\USERS\SPARKY\DOCUMENTS\VNA_DATA\JULY27_2025\3K\PORT2_MOS4.S1P
! CHANNEL.1
! TR.MEASUREMENT
! RAW.DATA
# GHZ S RI R 50.0
! FREQ.GHZ         S11RE         S11IM         
!; PortSelection: Port_1
   0.001000000     1.0458010   -0.0721677  
   0.002999900     0.9643717   -0.1944856  
   0.004999800     0.9043710   -0.2994549  
   0.006999700     0.8373668   -0.3970265  
   0.008999600     0.7589462   -0.4926187  
   0.010999500     0.6662059   -0.5837507  
   0.012999400     0.5533478   -0.6678694  
   0.014999300     0.4142919   -0.7391182  
   0.016999200     0.2425418   -0.7848533  
   0.018999100     0.0326297   -0.7852314  
   0.020999000    -0.2079569   -0.7057882  
   0.022998900    -0.4423218   -0.5041206  
   0.024998800    -0.5611901   -0.1668111  
   0.026998700    -0.5188703    0.2471304  
   0.028998600    -0.2408015    0.5632075  
   0.030998500     0.1274692    0.6780454  
   0.032998400     0.4232543    0.6075416  
   0.034998300     0.6796919    0.4721839  
   0.036998200     0.8181511    0.2948872  
   0.038998100     0.8903771    0.1200336  
   0.040998000     0.9164224   -0.0407846  
   0.042997900     0.9101025   -0.1841781  
   0.044997800     0.8560904   -0.2844045  
   0.046997700     0.8372699   -0.4205630  
   0.048997600     0.7816306   -0.5159895  
   0.050997500     0.7174482   -0.5982621  
   0.052997400     0.6473475   -0.6687645  
   0.054997300     0.5718604   -0.7284201  
   0.056997200     0.4914602   -0.7792037  
   0.058997100     0.4081289   -0.8199621  
   0.060997000     0.3216501   -0.8519615  
   0.062996900     0.2324608   -0.8744230  
   0.064996800     0.1406252   -0.8873354  
   0.066996700     0.0467020   -0.8907673  
   0.068996600    -0.0485776   -0.8835572  
   0.070996500    -0.1448537   -0.8662146  
   0.072996400    -0.2411906   -0.8358666  
   0.074996300    -0.3364669   -0.7927560  
   0.076996200    -0.4292023   -0.7360222  
   0.078996100    -0.5166484   -0.6645017  
   0.080996000    -0.5976698   -0.5775822  
   0.082995900    -0.6684248   -0.4751930  
   0.084995800    -0.7250690   -0.3574141  
   0.086995700    -0.7652604   -0.2257706  
   0.088995600    -0.7835118   -0.0814920  
   0.090995500    -0.7754979    0.0711350  
   0.092995400    -0.7379304    0.2278505  
   0.094995300    -0.6660005    0.3802956  
   0.096995200    -0.5601296    0.5205629  
   0.098995100    -0.4218132    0.6390904  
   0.100995000    -0.2559581    0.7256569  
   0.102994900    -0.0731810    0.7730172  
   0.104994800     0.1159275    0.7773604  
   0.106994700     0.2992650    0.7377997  
   0.108994600     0.4662510    0.6601548  
   0.110994500     0.6085362    0.5505491  
   0.112994400     0.7199389    0.4179598  
   0.114994300     0.7982989    0.2713314  
   0.116994200     0.8444408    0.1188776  
   0.118994100     0.8600060   -0.0323183  
   0.120994000     0.8503075   -0.1772760  
   0.122993900     0.8159073   -0.3121618  
   0.124993800     0.7620487   -0.4338126  
   0.126993700     0.6928967   -0.5410551  
   0.128993600     0.6104942   -0.6323401  
   0.130993500     0.5197203   -0.7087526  
   0.132993400     0.4218462   -0.7698833  
   0.134993300     0.3192320   -0.8156714  
   0.136993200     0.2136645   -0.8467583  
   0.138993100     0.1063908   -0.8638964  
   0.140993000    -0.0007338   -0.8666192  
   0.142992900    -0.1066552   -0.8556617  
   0.144992800    -0.2103522   -0.8328889  
   0.146992700    -0.3101365   -0.7957388  
   0.148992600    -0.4052548   -0.7457557  
   0.150992500    -0.4925309   -0.6824867  
   0.152992400    -0.5736600   -0.6082755  
   0.154992300    -0.6451854   -0.5227181  
   0.156992200    -0.7058010   -0.4262987  
   0.158992100    -0.7536286   -0.3200588  
   0.160992000    -0.7870737   -0.2051122  
   0.162991900    -0.8038343   -0.0830799  
   0.164991800    -0.8021523    0.0435210  
   0.166991700    -0.7807018    0.1723139  
   0.168991600    -0.7375799    0.2999468  
   0.170991500    -0.6718839    0.4225880  
   0.172991400    -0.5844119    0.5356987  
   0.174991300    -0.4758742    0.6344779  
   0.176991200    -0.3480887    0.7145630  
   0.178991100    -0.2044852    0.7711238  
   0.180991000    -0.0505530    0.8014964  
   0.182990900     0.1084248    0.8012363  
   0.184990800     0.2662336    0.7704561  
   0.186990700     0.4154915    0.7099249  
   0.188990600     0.5306913    0.6368287  
   0.190990500     0.6605811    0.5134168  
   0.192990400     0.7524968    0.3816372  
   0.194990300     0.8159276    0.2405647  
   0.196990200     0.8516716    0.0937046  
   0.198990100     0.8600662   -0.0536392  
   0.200990000     0.8430305   -0.1967752  
   0.202989900     0.8026729   -0.3314158  
   0.204989800     0.7424315   -0.4544559  
   0.206989700     0.6659300   -0.5632366  
   0.208989600     0.5750166   -0.6556234  
   0.210989500     0.4734095   -0.7310963  
   0.212989400     0.3633596   -0.7893333  
   0.214989300     0.2483874   -0.8297557  
   0.216989200     0.1312619   -0.8525954  
   0.218989100     0.0140096   -0.8584479  
   0.220989000    -0.1019128   -0.8477756  
   0.222988900    -0.2144205   -0.8206093  
   0.224988800    -0.3217729   -0.7784905  
   0.226988700    -0.4222143   -0.7221295  
   0.228988600    -0.5131994   -0.6523682  
   0.230988500    -0.5939470   -0.5700570  
   0.232988400    -0.6619419   -0.4756661  
   0.234988300    -0.7175735   -0.3714605  
   0.236988200    -0.7579817   -0.2587619  
   0.238988100    -0.7813697   -0.1392753  
   0.240988000    -0.7870638   -0.0159781  
   0.242987900    -0.7730545    0.1088375  
   0.244987800    -0.7391272    0.2326812  
   0.246987700    -0.6843392    0.3522066  
   0.248987600    -0.6086772    0.4640924  
   0.250987500    -0.5128695    0.5638487  
   0.252987400    -0.3992291    0.6469607  
   0.254987300    -0.2708294    0.7096832  
   0.256987200    -0.1309527    0.7492229  
   0.258987100     0.0160514    0.7643131  
   0.260987000     0.1652659    0.7503502  
   0.262986900     0.3106504    0.7085545  
   0.264986800     0.4460481    0.6395239  
   0.266986700     0.5661272    0.5465959  
   0.268986600     0.6660326    0.4336500  
   0.270986500     0.7420757    0.3055731  
   0.272986400     0.7927575    0.1675711  
   0.274986300     0.8172937    0.0251029  
   0.276986200     0.8163326   -0.1167518  
   0.278986100     0.7911224   -0.2540825  
   0.280986000     0.7434700   -0.3820521  
   0.282985900     0.6770688   -0.4981503  
   0.284985800     0.5944721   -0.5993799  
   0.286985700     0.4991731   -0.6837209  
   0.288985600     0.3953915   -0.7508315  
   0.290985500     0.2853580   -0.8000587  
   0.292985400     0.1718980   -0.8319770  
   0.294985300     0.0571220   -0.8469006  
   0.296985200    -0.0574753   -0.8458789  
   0.298985100    -0.1697593   -0.8287545  
   0.300985000    -0.2779587   -0.7965049  
   0.302984900    -0.3795351   -0.7502492  
   0.304984800    -0.4731963   -0.6909238  
   0.306984700    -0.5580648   -0.6201901  
   0.308984600    -0.6317834   -0.5390701  
   0.310984500    -0.6943355   -0.4489061  
   0.312984400    -0.7444236   -0.3499781  
   0.314984300    -0.7810620   -0.2438317  
   0.316984200    -0.8029312   -0.1318565  
   0.318984100    -0.8083046   -0.0148526  
   0.320984000    -0.7951945    0.1045295  
   0.322983900    -0.7627419    0.2237914  
   0.324983800    -0.7095978    0.3372137  
   0.326983700    -0.6367123    0.4402704  
   0.328983600    -0.5466045    0.5285222  
   0.330983500    -0.4442592    0.5983739  
   0.332983400    -0.3356333    0.6489655  
   0.334983300    -0.2229669    0.6822678  
   0.336983200    -0.1090392    0.6995323  
   0.338983100     0.0062230    0.7016716  
   0.340983000     0.1215889    0.6879117  
   0.342982900     0.2358883    0.6573491  
   0.344982800     0.3465874    0.6089631  
   0.346982700     0.4512108    0.5415885  
   0.348982600     0.5436701    0.4556645  
   0.350982500     0.6224489    0.3538968  
   0.352982400     0.6832685    0.2388894  
   0.354982300     0.7241949    0.1087607  
   0.356982200     0.7400432   -0.0402611  
   0.358982100     0.7257587   -0.1895474  
   0.360982000     0.6821607   -0.3326628  
   0.362981900     0.6112833   -0.4643224  
   0.364981800     0.5160477   -0.5790843  
   0.366981700     0.4006236   -0.6725121  
   0.368981600     0.2702964   -0.7412768  
   0.370981500     0.1298899   -0.7834901  
   0.372981400    -0.0145199   -0.7981709  
   0.374981300    -0.1585197   -0.7854358  
   0.376981200    -0.0368580   -0.7991190  
   0.378981100    -0.1780646   -0.7820413  
   0.380981000    -0.3131134   -0.7399831  
   0.382980900    -0.4262883   -0.6814570  
   0.384980800    -0.5230569   -0.6096781  
   0.386980700    -0.6072649   -0.5245582  
   0.388980600    -0.6774275   -0.4275639  
   0.390980500    -0.7318099   -0.3222694  
   0.392980400    -0.7694846   -0.2108045  
   0.394980300    -0.7901685   -0.0947253  
   0.396980200    -0.7932894    0.0226836  
   0.398980100    -0.7788386    0.1402839  
   0.400980000    -0.7471458    0.2550601  
   0.402979900    -0.6977447    0.3646493  
   0.404979800    -0.6323479    0.4661614  
   0.406979700    -0.5511959    0.5574374  
   0.408979600    -0.4561699    0.6363541  
   0.410979500    -0.3480678    0.7004767  
   0.412979400    -0.2291257    0.7475114  
   0.414979300    -0.1025975    0.7738458  
   0.416979200     0.0282286    0.7805626  
   0.418979100     0.1596411    0.7657203  
   0.420979000     0.2883887    0.7289215  
   0.422978900     0.4102558    0.6703565  
   0.424978800     0.5214343    0.5908597  
   0.426978700     0.6181490    0.4930789  
   0.428978600     0.6966228    0.3793624  
   0.430978500     0.7543008    0.2541384  
   0.432978400     0.7893401    0.1210966  
   0.434978300     0.8021692   -0.0155464  
   0.436978200     0.7900190   -0.1516280  
   0.438978100     0.7549012   -0.2830527  
   0.440978000     0.6988890   -0.4053413  
   0.442977900     0.6233726   -0.5156960  
   0.444977800     0.5314414   -0.6105067  
   0.446977700     0.4262267   -0.6885393  
   0.448977600     0.3111946   -0.7471396  
   0.450977500     0.1897490   -0.7856000  
   0.452977400     0.0643682   -0.8039598  
   0.454977300    -0.0613994   -0.8020935  
   0.456977200    -0.1845520   -0.7807196  
   0.458977100    -0.3018687   -0.7402974  
   0.460977000    -0.4103586   -0.6823157  
   0.462976900    -0.5075823   -0.6094123  
   0.464976800    -0.5920072   -0.5223175  
   0.466976700    -0.6615778   -0.4240346  
   0.468976600    -0.7152680   -0.3164683  
   0.470976500    -0.7516339   -0.2019921  
   0.472976400    -0.7700892   -0.0828697  
   0.474976300    -0.7698249    0.0378427  
   0.476976200    -0.7507980    0.1576009  
   0.478976100    -0.7126728    0.2727439  
   0.480976000    -0.6571341    0.3811113  
   0.482975900    -0.5845895    0.4799480  
   0.484975800    -0.4966033    0.5668489  
   0.486975700    -0.3942814    0.6387501  
   0.488975600    -0.2805254    0.6936085  
   0.490975500    -0.1578626    0.7289355  
   0.492975400    -0.0298183    0.7432527  
   0.494975300     0.0999104    0.7350091  
   0.496975200     0.2266207    0.7041969  
   0.498975100     0.3463133    0.6514806  
   0.500975000     0.4544940    0.5785671  
   0.502974900     0.5474396    0.4880435  
   0.504974800     0.6222360    0.3829778  
   0.506974700     0.6769992    0.2675911  
   0.508974600     0.7102979    0.1453027  
   0.510974500     0.7214077    0.0217796  
   0.512974400     0.7117905   -0.0994381  
   0.514974300     0.6821575   -0.2129248  
   0.516974200     0.6376068   -0.3185261  
   0.518974100     0.5791245   -0.4131848  
   0.520974000     0.5093870   -0.4961741  
   0.522973900     0.4303006   -0.5672550  
   0.524973800     0.3441977   -0.6262257  
   0.526973700     0.2508893   -0.6730937  
   0.528973600     0.1527842   -0.7071825  
   0.530973500     0.0499283   -0.7282470  
   0.532973400    -0.0558421   -0.7349455  
   0.534973300    -0.1630375   -0.7265111  
   0.536973200    -0.2703022   -0.7019265  
   0.538973100    -0.3735184   -0.6606386  
   0.540973000    -0.4702058   -0.6037160  
   0.542972900    -0.5584290   -0.5307448  
   0.544972800    -0.6350436   -0.4441602  
   0.546972700    -0.6974041   -0.3446747  
   0.548972600    -0.7434482   -0.2351685  
   0.550972500    -0.7713487   -0.1185167  
   0.552972400    -0.7802126    0.0017071  
   0.554972300    -0.7693197    0.1227830  
   0.556972200    -0.7384771    0.2412750  
   0.558972100    -0.6887535    0.3536579  
   0.560972000    -0.6212790    0.4569508  
   0.562971900    -0.5376844    0.5480607  
   0.564971800    -0.4400342    0.6247835  
   0.566971700    -0.3308675    0.6850730  
   0.568971600    -0.2131047    0.7269319  
   0.570971500    -0.0893087    0.7491683  
   0.572971400     0.0376718    0.7507323  
   0.574971300     0.1641843    0.7314126  
   0.576971200     0.2869786    0.6906784  
   0.578971100     0.4021285    0.6293423  
   0.580971000     0.5055433    0.5489725  
   0.582970900     0.5941936    0.4519617  
   0.584970800     0.6650234    0.3408240  
   0.586970700     0.7155169    0.2195363  
   0.588970600     0.7448508    0.0913191  
   0.590970500     0.7515438   -0.0401601  
   0.592970400     0.7360551   -0.1704329  
   0.594970300     0.6981948   -0.2959296  
   0.596970200     0.6399388   -0.4125238  
   0.598970100     0.5630207   -0.5169992  
   0.600970000     0.4700581   -0.6068590  
   0.602969900     0.3641877   -0.6791307  
   0.604969800     0.2485092   -0.7322192  
   0.606969700     0.1265259   -0.7651733  
   0.608969600     0.0013386   -0.7778364  
   0.610969500    -0.1229251   -0.7703658  
   0.612969400    -0.2432548   -0.7426593  
   0.614969300    -0.3565092   -0.6967616  
   0.616969200    -0.4597709   -0.6342952  
   0.618969100    -0.5508311   -0.5578119  
   0.620969000    -0.6284241   -0.4687889  
   0.622968900    -0.6914610   -0.3696355  
   0.624968800    -0.7384176   -0.2626834  
   0.626968700    -0.7688969   -0.1495221  
   0.628968600    -0.7821427   -0.0333068  
   0.630968500    -0.7776147    0.0837652  
   0.632968400    -0.7554560    0.1989173  
   0.634968300    -0.7163728    0.3097471  
   0.636968200    -0.6604568    0.4139348  
   0.638968100    -0.5892993    0.5093427  
   0.640968000    -0.5037512    0.5925346  
   0.642967900    -0.4057328    0.6630688  
   0.644967800    -0.2970983    0.7176639  
   0.646967700    -0.1801987    0.7548430  
   0.648967600    -0.0584821    0.7733948  
   0.650967500     0.0657727    0.7727021  
   0.652967400     0.1889857    0.7520724  
   0.654967300     0.3084592    0.7115508  
   0.656967200     0.4203564    0.6517274  
   0.658967100     0.5222576    0.5737819  
   0.660967000     0.6103883    0.4797141  
   0.662966900     0.6822689    0.3710182  
   0.664966800     0.7357841    0.2501313  
   0.666966700     0.7681751    0.1218406  
   0.668966600     0.7784778   -0.0104419  
   0.670966500     0.7662145   -0.1427934  
   0.672966400     0.7327988   -0.2708015  
   0.674966300     0.6774153   -0.3904861  
   0.676966200     0.6030660   -0.4981333  
   0.678966100     0.5130658   -0.5908788  
   0.680966000     0.4093433   -0.6669421  
   0.682965900     0.2959061   -0.7240890  
   0.684965800     0.1759616   -0.7617518  
   0.686965700     0.0527087   -0.7791468  
   0.688965600    -0.0706022   -0.7769785  
   0.690965500    -0.1897805   -0.7540631  
   0.692965400    -0.3033909   -0.7145758  
   0.694965300    -0.4081692   -0.6584784  
   0.696965200    -0.5022081   -0.5877132  
   0.698965100    -0.5835937   -0.5038254  
   0.700965000    -0.6512138   -0.4089817  
   0.702964900    -0.7033595   -0.3057927  
   0.704964800    -0.7393131   -0.1960637  
   0.706964700    -0.7581615   -0.0821823  
   0.708964600    -0.7593985    0.0332720  
   0.710964500    -0.7438015    0.1484228  
   0.712964400    -0.7098994    0.2596876  
   0.714964300    -0.6591134    0.3650453  
   0.716964200    -0.5925472    0.4611773  
   0.718964100    -0.5112865    0.5461226  
   0.720964000    -0.4175844    0.6177745  
   0.722963900    -0.3132690    0.6738297  
   0.724963800    -0.2006898    0.7126665  
   0.726963700    -0.0826064    0.7329885  
   0.728963600     0.0381926    0.7333792  
   0.730963500     0.1574757    0.7139688  
   0.732963400     0.2724485    0.6750663  
   0.734963300     0.3797520    0.6174445  
   0.736963200     0.4897475    0.5307409  
   0.738963100     0.5818104    0.4248139  
   0.740963000     0.6515756    0.3036879  
   0.742962900     0.6971554    0.1721770  
   0.744962800     0.7170392    0.0356022  
   0.746962700     0.7110959   -0.1011687  
   0.748962600     0.6802505   -0.2332926  
   0.750962500     0.6944483   -0.1264454  
   0.752962400     0.6606664   -0.2557900  
   0.754962300     0.6045184   -0.3758448  
   0.756962200     0.5284555   -0.4827545  
   0.758962100     0.4349720   -0.5742831  
   0.760962000     0.3272245   -0.6472436  
   0.762961900     0.2143794   -0.6980088  
   0.764961800     0.1048110   -0.7275409  
   0.766961700    -0.0073601   -0.7401958  
   0.768961600    -0.1207919   -0.7354871  
   0.770961500    -0.2325419   -0.7137312  
   0.772961400    -0.3393525   -0.6748907  
   0.774961300    -0.4394068   -0.6200882  
   0.776961200    -0.5304422   -0.5500409  
   0.778961100    -0.6093506   -0.4663387  
   0.780961000    -0.6746407   -0.3706624  
   0.782960900    -0.7243361   -0.2657565  
   0.784960800    -0.7569342   -0.1536563  
   0.786960700    -0.7713212   -0.0370571  
   0.788960600    -0.7673342    0.0807159  
   0.790960500    -0.7443005    0.1964004  
   0.792960400    -0.7035123    0.3070234  
   0.794960300    -0.6456199    0.4102828  
   0.796960200    -0.5722951    0.5030547  
   0.798960100    -0.4851291    0.5824143  
   0.800960000    -0.3865099    0.6480510  
   0.802959900    -0.2785487    0.6969787  
   0.804959800    -0.1639846    0.7286228  
   0.806959700    -0.0458548    0.7416999  
   0.808959600     0.0733403    0.7357687  
   0.810959500     0.1905444    0.7114226  
   0.812959400     0.3028152    0.6681451  
   0.814959300     0.4075707    0.6070377  
   0.816959200     0.5013025    0.5299082  
   0.818959100     0.5817077    0.4379045  
   0.820959000     0.6466093    0.3333984  
   0.822958900     0.6935980    0.2194440  
   0.824958800     0.7215492    0.0984422  
   0.826958700     0.7289602   -0.0258024  
   0.828958600     0.7156921   -0.1495955  
   0.830958500     0.6821233   -0.2696577  
   0.832958400     0.6288356   -0.3824471  
   0.834958300     0.5578416   -0.4847555  
   0.836958200     0.4712246   -0.5737740  
   0.838958100     0.3712836   -0.6467659  
   0.840958000     0.2607664   -0.7022292  
   0.842957900     0.1433376   -0.7387280  
   0.844957800     0.0218452   -0.7552322  
   0.846957700    -0.0999585   -0.7521006  
   0.848957600    -0.2187774   -0.7292911  
   0.850957500    -0.3318911   -0.6879371  
   0.852957400    -0.4364779   -0.6295142  
   0.854957300    -0.5296144   -0.5556263  
   0.856957200    -0.6096439   -0.4688359  
   0.858957100    -0.6745185   -0.3712407  
   0.860957000    -0.7232327   -0.2660270  
   0.862956900    -0.7551700   -0.1553811  
   0.864956800    -0.7695310   -0.0423856  
   0.866956700    -0.7670281    0.0703851  
   0.868956600    -0.7477344    0.1815072  
   0.870956500    -0.7121592    0.2881050  
   0.872956400    -0.6614378    0.3885289  
   0.874956300    -0.5963257    0.4803601  
   0.876956200    -0.5177848    0.5621043  
   0.878956100    -0.4270917    0.6317752  
   0.880956000    -0.3267433    0.6871246  
   0.882955900    -0.2179139    0.7271138  
   0.884955800    -0.1038051    0.7503904  
   0.886955700     0.0135852    0.7557040  
   0.888955600     0.1317241    0.7426574  
   0.890955500     0.2467436    0.7112404  
   0.892955400     0.3564708    0.6614537  
   0.894955300     0.4577414    0.5944639  
