! MS46122B
! 2250307/22442219
! 7/27/2025 9:27:45 AM
! C:\USERS\SPARKY\DOCUMENTS\VNA_DATA\JULY27_2025\3K\PORT5_MOS1_REPEAT1.S1P
! CHANNEL.1
! TR.MEASUREMENT
! RAW.DATA
# GHZ S RI R 50.0
! FREQ.GHZ         S11RE         S11IM         
!; PortSelection: Port_1
   0.001000000     1.0458110   -0.0722024  
   0.002999900     0.9643961   -0.1945145  
   0.004999800     0.9043959   -0.2993869  
   0.006999700     0.8374140   -0.3971119  
   0.008999600     0.7594007   -0.4925839  
   0.010999500     0.6671520   -0.5836880  
   0.012999400     0.5550495   -0.6679077  
   0.014999300     0.4171722   -0.7394578  
   0.016999200     0.2472036   -0.7862434  
   0.018999100     0.0396387   -0.7892523  
   0.020999000    -0.1989072   -0.7154662  
   0.022998900    -0.4348522   -0.5234685  
   0.024998800    -0.5637228   -0.1960664  
   0.026998700    -0.5426341    0.2152440  
   0.028998600    -0.2829020    0.5459808  
   0.030998500     0.0818612    0.6832471  
   0.032998400     0.3871755    0.6284466  
   0.034998300     0.6551293    0.5027688  
   0.036998200     0.8046698    0.3277594  
   0.038998100     0.8855496    0.1517800  
   0.040998000     0.9177647   -0.0113527  
   0.042997900     0.9163472   -0.1575354  
   0.044997800     0.8651586   -0.2610601  
   0.046997700     0.8495467   -0.3991396  
   0.048997600     0.7963387   -0.4972017  
   0.050997500     0.7338664   -0.5819332  
   0.052997400     0.6651747   -0.6547016  
   0.054997300     0.5911213   -0.7165363  
   0.056997200     0.5120460   -0.7695178  
   0.058997100     0.4299024   -0.8122874  
   0.060997000     0.3444155   -0.8465541  
   0.062996900     0.2564374   -0.8714672  
   0.064996800     0.1656016   -0.8868289  
   0.066996700     0.0725999   -0.8930719  
   0.068996600    -0.0217599   -0.8890052  
   0.070996500    -0.1171945   -0.8751816  
   0.072996400    -0.2132897   -0.8487376  
   0.074996300    -0.3085505   -0.8098984  
   0.076996200    -0.4015388   -0.7581169  
   0.078996100    -0.4905339   -0.6921654  
   0.080996000    -0.5734993   -0.6114050  
   0.082995900    -0.6478159   -0.5148259  
   0.084995800    -0.7094252   -0.4037265  
   0.086995700    -0.7565638   -0.2780210  
   0.088995600    -0.7834889   -0.1393802  
   0.090995500    -0.7869105    0.0093063  
   0.092995400    -0.7626552    0.1640200  
   0.094995300    -0.7061420    0.3181065  
   0.096995200    -0.6157885    0.4641355  
   0.098995100    -0.4928717    0.5923257  
   0.100995000    -0.3392187    0.6949400  
   0.102994900    -0.1649467    0.7609780  
   0.104994800     0.0212374    0.7865578  
   0.106994700     0.2077080    0.7684377  
   0.108994600     0.3833627    0.7105180  
   0.110994500     0.5387146    0.6174913  
   0.112994400     0.6662948    0.4966146  
   0.114994300     0.7623527    0.3573723  
   0.116994200     0.8259836    0.2079367  
   0.118994100     0.8585369    0.0558869  
   0.120994000     0.8639622   -0.0926813  
   0.122993900     0.8426641   -0.2333079  
   0.124993800     0.8002093   -0.3622488  
   0.126993700     0.7400382   -0.4779223  
   0.128993600     0.6650805   -0.5783047  
   0.130993500     0.5799576   -0.6640164  
   0.132993400     0.4867996   -0.7346185  
   0.134993300     0.3872029   -0.7899771  
   0.136993200     0.2838238   -0.8303869  
   0.138993100     0.1782594   -0.8566503  
   0.140993000     0.0713019   -0.8686520  
   0.142992900    -0.0352754   -0.8668907  
   0.144992800    -0.1399287   -0.8530982  
   0.146992700    -0.2424007   -0.8250497  
   0.148992600    -0.3402361   -0.7841737  
   0.150992500    -0.4321492   -0.7297269  
   0.152992400    -0.5182889   -0.6643509  
   0.154992300    -0.5960854   -0.5877568  
   0.156992200    -0.6644922   -0.4997128  
   0.158992100    -0.7216574   -0.4011653  
   0.160992000    -0.7657712   -0.2935870  
   0.162991900    -0.7952727   -0.1774483  
   0.164991800    -0.8080974   -0.0552168  
   0.166991700    -0.8024568    0.0711012  
   0.168991600    -0.7768365    0.1987288  
   0.170991500    -0.7299870    0.3250043  
   0.172991400    -0.6611304    0.4450417  
   0.174991300    -0.5711502    0.5549836  
   0.176991200    -0.4601175    0.6506859  
   0.178991100    -0.3309469    0.7271479  
   0.180991000    -0.1875221    0.7809345  
   0.182990900    -0.0340750    0.8069635  
   0.184990800     0.1241452    0.8036877  
   0.186990700     0.2799453    0.7704018  
   0.188990600     0.4054669    0.7196547  
   0.190990500     0.5550603    0.6216032  
   0.192990400     0.6697647    0.5084192  
   0.194990300     0.7579318    0.3798847  
   0.196990200     0.8202018    0.2402924  
   0.198990100     0.8552477    0.0947878  
   0.200990000     0.8638607   -0.0518380  
   0.202989900     0.8473029   -0.1941725  
   0.204989800     0.8079304   -0.3281239  
   0.206989700     0.7501812   -0.4505653  
   0.208989600     0.6741674   -0.5588728  
   0.210989500     0.5847284   -0.6519225  
   0.212989400     0.4840527   -0.7284846  
   0.214989300     0.3755938   -0.7877911  
   0.216989200     0.2624419   -0.8294564  
   0.218989100     0.1465509   -0.8540687  
   0.220989000     0.0297266   -0.8621114  
   0.222988900    -0.0861058   -0.8537821  
   0.224988800    -0.1986812   -0.8290709  
   0.226988700    -0.3060217   -0.7899092  
   0.228988600    -0.4062600   -0.7364180  
   0.230988500    -0.4984842   -0.6696939  
   0.232988400    -0.5798652   -0.5893882  
   0.234988300    -0.6512043   -0.4985749  
   0.236988200    -0.7094396   -0.3971967  
   0.238988100    -0.7531390   -0.2872638  
   0.240988000    -0.7804524   -0.1706053  
   0.242987900    -0.7908471   -0.0496441  
   0.244987800    -0.7823584    0.0738528  
   0.246987700    -0.7542511    0.1975448  
   0.248987600    -0.7057232    0.3181806  
   0.250987500    -0.6367056    0.4322183  
   0.252987400    -0.5480462    0.5348750  
   0.254987300    -0.4416327    0.6226960  
   0.256987200    -0.3189725    0.6920466  
   0.258987100    -0.1840851    0.7411894  
   0.260987000    -0.0397075    0.7641943  
   0.262986900     0.1084416    0.7605043  
   0.264986800     0.2550404    0.7293797  
   0.266986700     0.3940187    0.6711931  
   0.268986600     0.5193874    0.5881276  
   0.270986500     0.6266683    0.4837066  
   0.272986400     0.7121689    0.3628448  
   0.274986300     0.7732682    0.2294692  
   0.276986200     0.8090556    0.0895073  
   0.278986100     0.8193560   -0.0529011  
   0.280986000     0.8046985   -0.1919360  
   0.282985900     0.7670028   -0.3242096  
   0.284985800     0.7092781   -0.4448309  
   0.286985700     0.6346192   -0.5521807  
   0.288985600     0.5462520   -0.6434962  
   0.290985500     0.4480546   -0.7180054  
   0.292985400     0.3420700   -0.7753154  
   0.294985300     0.2312145   -0.8158882  
   0.296985200     0.1172364   -0.8394235  
   0.298985100     0.0027113   -0.8468193  
   0.300985000    -0.1104838   -0.8381221  
   0.302984900    -0.2195770   -0.8142555  
   0.304984800    -0.3231519   -0.7762628  
   0.306984700    -0.4199615   -0.7249970  
   0.308984600    -0.5080345   -0.6626803  
   0.310984500    -0.5866820   -0.5897334  
   0.312984400    -0.6552775   -0.5067418  
   0.314984300    -0.7130317   -0.4152155  
   0.316984200    -0.7583371   -0.3156819  
   0.318984100    -0.7905443   -0.2088129  
   0.320984000    -0.8079418   -0.0955795  
   0.322983900    -0.8087442    0.0217658  
   0.324983800    -0.7908125    0.1398188  
   0.326983700    -0.7534110    0.2557012  
   0.328983600    -0.6965688    0.3648270  
   0.330983500    -0.6220101    0.4624311  
   0.332983400    -0.5337863    0.5451711  
   0.334983300    -0.4348539    0.6122352  
   0.336983200    -0.3284500    0.6638445  
   0.338983100    -0.2163512    0.6993661  
   0.340983000    -0.1002734    0.7190416  
   0.342982900     0.0188377    0.7219394  
   0.344982800     0.1391471    0.7065725  
   0.346982700     0.2582934    0.6727752  
   0.348982600     0.3714929    0.6180203  
   0.350982500     0.4764610    0.5455290  
   0.352982400     0.5692919    0.4550847  
   0.354982300     0.6482978    0.3447135  
   0.356982200     0.7102644    0.2090363  
   0.358982100     0.7447258    0.0632037  
   0.360982000     0.7498549   -0.0863813  
   0.362981900     0.7254290   -0.2342275  
   0.364981800     0.6727847   -0.3743837  
   0.366981700     0.5939426   -0.5011694  
   0.368981600     0.4924180   -0.6096426  
   0.370981500     0.3724546   -0.6962878  
   0.372981400     0.2390187   -0.7579637  
   0.374981300     0.0970745   -0.7927620  
   0.376981200     0.2134327   -0.7674332  
   0.378981100     0.0733281   -0.7963746  
   0.380981000    -0.0690133   -0.7988782  
   0.382980900    -0.1955150   -0.7788745  
   0.384980800    -0.3103481   -0.7415555  
   0.386980700    -0.4169056   -0.6870219  
   0.388980600    -0.5138922   -0.6170223  
   0.390980500    -0.5976409   -0.5345885  
   0.392980400    -0.6679872   -0.4413817  
   0.394980300    -0.7230749   -0.3397481  
   0.396980200    -0.7626626   -0.2314310  
   0.398980100    -0.7861462   -0.1178920  
   0.400980000    -0.7927191   -0.0027428  
   0.402979900    -0.7822078    0.1133765  
   0.404979800    -0.7551340    0.2269870  
   0.406979700    -0.7108858    0.3359121  
   0.408979600    -0.6507805    0.4380969  
   0.410979500    -0.5749173    0.5314208  
   0.412979400    -0.4844635    0.6136678  
   0.414979300    -0.3804977    0.6804589  
   0.416979200    -0.2661838    0.7322310  
   0.418979100    -0.1442348    0.7657368  
   0.420979000    -0.0169801    0.7796309  
   0.422978900     0.1126732    0.7726535  
   0.424978800     0.2412011    0.7443313  
   0.426978700     0.3643529    0.6945583  
   0.428978600     0.4782985    0.6240913  
   0.430978500     0.5792874    0.5355137  
   0.432978400     0.6637440    0.4307517  
   0.434978300     0.7307906    0.3135137  
   0.436978200     0.7757550    0.1862552  
   0.438978100     0.7988262    0.0532427  
   0.440978000     0.7986706   -0.0812590  
   0.442977900     0.7762509   -0.2130784  
   0.444977800     0.7321586   -0.3384123  
   0.446977700     0.6683964   -0.4535584  
   0.448977600     0.5872837   -0.5556493  
   0.450977500     0.4917007   -0.6426266  
   0.452977400     0.3840099   -0.7117105  
   0.454977300     0.2670632   -0.7624748  
   0.456977200     0.1445345   -0.7935105  
   0.458977100     0.0199000   -0.8045217  
   0.460977000    -0.1034669   -0.7958039  
   0.462976900    -0.2223913   -0.7687790  
   0.464976800    -0.3347447   -0.7236705  
   0.466976700    -0.4382943   -0.6623353  
   0.468976600    -0.5300542   -0.5867583  
   0.470976500    -0.6092445   -0.4983127  
   0.472976400    -0.6741114   -0.3994338  
   0.474976300    -0.7228362   -0.2918615  
   0.476976200    -0.7547943   -0.1784667  
   0.478976100    -0.7691751   -0.0615585  
   0.480976000    -0.7656782    0.0556891  
   0.482975900    -0.7439713    0.1714706  
   0.484975800    -0.7049621    0.2831769  
   0.486975700    -0.6484808    0.3884134  
   0.488975600    -0.5755538    0.4847032  
   0.490975500    -0.4873265    0.5690124  
   0.492975400    -0.3854839    0.6384509  
   0.494975300    -0.2725615    0.6906426  
   0.496975200    -0.1513112    0.7236918  
   0.498975100    -0.0255712    0.7356135  
   0.500975000     0.1009165    0.7257793  
   0.502974900     0.2239308    0.6939794  
   0.504974800     0.3394678    0.6413909  
   0.506974700     0.4434550    0.5692140  
   0.508974600     0.5330387    0.4798017  
   0.510974500     0.6044821    0.3777131  
   0.512974400     0.6564630    0.2666254  
   0.514974300     0.6864097    0.1515128  
   0.516974200     0.6981719    0.0358971  
   0.518974100     0.6916913   -0.0767639  
   0.520974000     0.6691614   -0.1839891  
   0.522973900     0.6323296   -0.2847497  
   0.524973800     0.5829124   -0.3771040  
   0.526973700     0.5223670   -0.4610218  
   0.528973600     0.4519174   -0.5354928  
   0.530973500     0.3722204   -0.6006187  
   0.532973400     0.2838788   -0.6544688  
   0.534973300     0.1879809   -0.6963779  
   0.536973200     0.0860452   -0.7245293  
   0.538973100    -0.0203518   -0.7377181  
   0.540973000    -0.1285312   -0.7351101  
   0.542972900    -0.2368114   -0.7155979  
   0.544972800    -0.3419430   -0.6791493  
   0.546972700    -0.4417157   -0.6261088  
   0.548972600    -0.5331122   -0.5569955  
   0.550972500    -0.6130990   -0.4736908  
   0.552972400    -0.6791720   -0.3774045  
   0.554972300    -0.7295374   -0.2714752  
   0.556972200    -0.7625036   -0.1579878  
   0.558972100    -0.7772693   -0.0403441  
   0.560972000    -0.7729465    0.0783251  
   0.562971900    -0.7497415    0.1951174  
   0.564971800    -0.7084226    0.3070276  
   0.566971700    -0.6499236    0.4114374  
   0.568971600    -0.5754565    0.5054320  
   0.570971500    -0.4865611    0.5869983  
   0.572971400    -0.3850686    0.6541533  
   0.574971300    -0.2733439    0.7045496  
   0.576971200    -0.1536966    0.7365698  
   0.578971100    -0.0291424    0.7488186  
   0.580971000     0.0964413    0.7407644  
   0.582970900     0.2196251    0.7118241  
   0.584970800     0.3366609    0.6627227  
   0.586970700     0.4448840    0.5945355  
   0.588970600     0.5403348    0.5088469  
   0.590970500     0.6202557    0.4079402  
   0.592970400     0.6820049    0.2944360  
   0.594970300     0.7238526    0.1720801  
   0.596970200     0.7442657    0.0443160  
   0.598970100     0.7428070   -0.0849799  
   0.600970000     0.7192694   -0.2123729  
   0.602969900     0.6744130   -0.3337414  
   0.604969800     0.6099567   -0.4448870  
   0.606969700     0.5279425   -0.5434640  
   0.608969600     0.4308624   -0.6267044  
   0.610969500     0.3220533   -0.6915295  
   0.612969400     0.2050852   -0.7372460  
   0.614969300     0.0835389   -0.7623327  
   0.616969200    -0.0387586   -0.7678235  
   0.618969100    -0.1589758   -0.7533268  
   0.620969000    -0.2738552   -0.7210027  
   0.622968900    -0.3811326   -0.6711893  
   0.624968800    -0.4789711   -0.6059131  
   0.626968700    -0.5654309   -0.5270001  
   0.628968600    -0.6380521   -0.4359858  
   0.630968500    -0.6960372   -0.3355043  
   0.632968400    -0.7380735   -0.2279440  
   0.634968300    -0.7632412   -0.1151647  
   0.636968200    -0.7709730   -0.0005364  
   0.638968100    -0.7617421    0.1141541  
   0.640968000    -0.7352785    0.2266780  
   0.642967900    -0.6922064    0.3338600  
   0.644967800    -0.6332656    0.4338561  
   0.646967700    -0.5597137    0.5240974  
   0.648967600    -0.4728787    0.6028877  
   0.650967500    -0.3747827    0.6674854  
   0.652967400    -0.2673804    0.7165653  
   0.654967300    -0.1526036    0.7490300  
   0.656967200    -0.0331495    0.7635083  
   0.658967100     0.0878685    0.7589622  
   0.660967000     0.2080870    0.7349633  
   0.662966900     0.3246285    0.6913748  
   0.664966800     0.4338404    0.6287757  
   0.666966700     0.5326334    0.5481865  
   0.668966600     0.6172422    0.4518560  
   0.670966500     0.6850468    0.3417505  
   0.672966400     0.7349051    0.2220967  
   0.674966300     0.7629321    0.0952791  
   0.676966200     0.7690459   -0.0339838  
   0.678966100     0.7530186   -0.1619943  
   0.680966000     0.7162139   -0.2856393  
   0.682965900     0.6597701   -0.4002994  
   0.684965800     0.5856468   -0.5035790  
   0.686965700     0.4958036   -0.5926687  
   0.688965600     0.3935224   -0.6649497  
   0.690965500     0.2813043   -0.7181897  
   0.692965400     0.1640194   -0.7532750  
   0.694965300     0.0444117   -0.7691033  
   0.696965200    -0.0752102   -0.7656707  
   0.698965100    -0.1916668   -0.7439793  
   0.700965000    -0.3024773   -0.7048594  
   0.702964900    -0.4045431   -0.6498002  
   0.704964800    -0.4967693   -0.5802025  
   0.706964700    -0.5767260   -0.4980547  
   0.708964600    -0.6430107   -0.4049528  
   0.710964500    -0.6949410   -0.3038024  
   0.712964400    -0.7302330   -0.1960571  
   0.714964300    -0.7487774   -0.0841043  
   0.716964200    -0.7506441    0.0288353  
   0.718964100    -0.7354354    0.1403677  
   0.720964000    -0.7035770    0.2484666  
   0.722963900    -0.6556149    0.3506958  
   0.724963800    -0.5926232    0.4448359  
   0.726963700    -0.5153208    0.5286490  
   0.728963600    -0.4252533    0.5999213  
   0.730963500    -0.3244536    0.6559998  
   0.732963400    -0.2155179    0.6959285  
   0.734963300    -0.1006486    0.7181602  
   0.736963200     0.0346669    0.7205858  
   0.738963100     0.1694411    0.6975699  
   0.740963000     0.2978394    0.6497341  
   0.742962900     0.4150313    0.5784468  
   0.744962800     0.5163842    0.4868156  
   0.746962700     0.5988942    0.3781720  
   0.748962600     0.6593289    0.2561212  
   0.750962500     0.5983993    0.3520321  
   0.752962400     0.6541733    0.2303697  
   0.754962300     0.6865005    0.1017777  
   0.756962200     0.6949272   -0.0298331  
   0.758962100     0.6794174   -0.1601326  
   0.760962000     0.6409401   -0.2843603  
   0.762961900     0.5843793   -0.3942426  
   0.764961800     0.5169982   -0.4848485  
   0.766961700     0.4372756   -0.5635280  
   0.768961600     0.3460796   -0.6294135  
   0.770961500     0.2461008   -0.6803085  
   0.772961400     0.1395924   -0.7155516  
   0.774961300     0.0290016   -0.7341233  
   0.776961200    -0.0836269   -0.7353212  
   0.778961100    -0.1956043   -0.7194719  
   0.780961000    -0.3041968   -0.6862627  
   0.782960900    -0.4065866   -0.6360639  
   0.784960800    -0.5005796   -0.5701466  
   0.786960700    -0.5831388   -0.4900461  
   0.788960600    -0.6522679   -0.3976674  
   0.790960500    -0.7060114   -0.2955941  
   0.792960400    -0.7430996   -0.1863226  
   0.794960300    -0.7624611   -0.0725026  
   0.796960200    -0.7641618    0.0427388  
   0.798960100    -0.7475680    0.1569948  
   0.800960000    -0.7135352    0.2665220  
   0.802959900    -0.6628788    0.3703190  
   0.804959800    -0.5969750    0.4645938  
   0.806959700    -0.5170505    0.5475504  
   0.808959600    -0.4250010    0.6173440  
   0.810959500    -0.3232450    0.6718647  
   0.812959400    -0.2136205    0.7102205  
   0.814959300    -0.0992726    0.7312635  
   0.816959200     0.0178536    0.7340704  
   0.818959100     0.1345334    0.7184903  
   0.820959000     0.2475076    0.6844188  
   0.822958900     0.3548252    0.6324195  
   0.824958800     0.4527629    0.5638408  
   0.826958700     0.5388522    0.4796565  
   0.828958600     0.6107085    0.3820594  
   0.830958500     0.6657785    0.2737799  
   0.832958400     0.7025845    0.1572288  
   0.834958300     0.7197563    0.0361175  
   0.836958200     0.7165676   -0.0860890  
   0.838958100     0.6934623   -0.2063367  
   0.840958000     0.6504309   -0.3213140  
   0.842957900     0.5889048   -0.4278154  
   0.844957800     0.5108660   -0.5228043  
   0.846957700     0.4181207   -0.6029806  
   0.848957600     0.3135909   -0.6665637  
   0.850957500     0.2008608   -0.7119238  
   0.852957400     0.0824861   -0.7378566  
   0.854957300    -0.0377508   -0.7443613  
   0.856957200    -0.1567072   -0.7311038  
   0.858957100    -0.2710631   -0.6992494  
   0.860957000    -0.3776629   -0.6502094  
   0.862956900    -0.4742022   -0.5858996  
   0.864956800    -0.5588051   -0.5083510  
   0.866956700    -0.6295438   -0.4196495  
   0.868956600    -0.6851470   -0.3220163  
   0.870956500    -0.7257308   -0.2176444  
   0.872956400    -0.7501900   -0.1089320  
   0.874956300    -0.7577101    0.0015356  
   0.876956200    -0.7490252    0.1123849  
   0.878956100    -0.7235900    0.2201603  
   0.880956000    -0.6827833    0.3232874  
   0.882955900    -0.6271146    0.4195183  
   0.884955800    -0.5574110    0.5065863  
   0.886955700    -0.4753182    0.5827754  
   0.888955600    -0.3824969    0.6458617  
   0.890955500    -0.2804459    0.6947442  
   0.892955400    -0.1719829    0.7279158  
   0.894955300    -0.0589552    0.7441610  
