! MS46122B
! 2250307/22442219
! 7/25/2025 1:40:39 PM
! C:\USERS\SPARKY\DOCUMENTS\VNA_DATA\JULY25_2025\3K\PORT6_MOS3.S1P
! CHANNEL.1
! TR.MEASUREMENT
! RAW.DATA
# GHZ S RI R 50.0
! FREQ.GHZ         S11RE         S11IM         
!; PortSelection: Port_1
   0.001000000     1.0448470   -0.0716915  
   0.002999900     0.9634490   -0.1941826  
   0.004999800     0.9032378   -0.2991494  
   0.006999700     0.8358928   -0.3967778  
   0.008999600     0.7571719   -0.4920981  
   0.010999500     0.6640852   -0.5827356  
   0.012999400     0.5509765   -0.6660592  
   0.014999300     0.4119514   -0.7360654  
   0.016999200     0.2409602   -0.7801330  
   0.018999100     0.0331485   -0.7786684  
   0.020999000    -0.2032846   -0.6984848  
   0.022998900    -0.4317880   -0.4993807  
   0.024998800    -0.5472100   -0.1700714  
   0.026998700    -0.5088822    0.2323654  
   0.028998600    -0.2430193    0.5436515  
   0.030998500     0.1144639    0.6637463  
   0.032998400     0.4067755    0.6021355  
   0.034998300     0.6636367    0.4743550  
   0.036998200     0.8051224    0.3016381  
   0.038998100     0.8806692    0.1292191  
   0.040998000     0.9095956   -0.0304943  
   0.042997900     0.9057232   -0.1735995  
   0.044997800     0.8534468   -0.2741548  
   0.046997700     0.8361462   -0.4100755  
   0.048997600     0.7819000   -0.5059484  
   0.050997500     0.7187513   -0.5885530  
   0.052997400     0.6493196   -0.6594450  
   0.054997300     0.5752234   -0.7190614  
   0.056997200     0.4952908   -0.7702876  
   0.058997100     0.4126813   -0.8112725  
   0.060997000     0.3270952   -0.8434267  
   0.062996900     0.2388580   -0.8662133  
   0.064996800     0.1479906   -0.8793728  
   0.066996700     0.0550766   -0.8832754  
   0.068996600    -0.0390034   -0.8765749  
   0.070996500    -0.1340960   -0.8599819  
   0.072996400    -0.2291332   -0.8305772  
   0.074996300    -0.3229639   -0.7886931  
   0.076996200    -0.4143629   -0.7337138  
   0.078996100    -0.5007430   -0.6642565  
   0.080996000    -0.5808329   -0.5800976  
   0.082995900    -0.6511307   -0.4808528  
   0.084995800    -0.7079000   -0.3666793  
   0.086995700    -0.7491230   -0.2390207  
   0.088995600    -0.7692602   -0.0989842  
   0.090995500    -0.7647057    0.0495815  
   0.092995400    -0.7317106    0.2026029  
   0.094995300    -0.6660899    0.3529649  
   0.096995200    -0.5673056    0.4924109  
   0.098995100    -0.4366671    0.6117131  
   0.100995000    -0.2781681    0.7030353  
   0.102994900    -0.1016905    0.7563431  
   0.104994800     0.0834720    0.7685918  
   0.106994700     0.2650899    0.7375628  
   0.108994600     0.4330712    0.6686834  
   0.110994500     0.5782896    0.5669821  
   0.112994400     0.6946028    0.4404406  
   0.114994300     0.7789443    0.2981446  
   0.116994200     0.8311872    0.1484831  
   0.118994100     0.8529298   -0.0015181  
   0.120994000     0.8489483   -0.1464884  
   0.122993900     0.8195235   -0.2822765  
   0.124993800     0.7702246   -0.4054437  
   0.126993700     0.7045366   -0.5149313  
   0.128993600     0.6254749   -0.6084976  
   0.130993500     0.5372290   -0.6875884  
   0.132993400     0.4416653   -0.7510908  
   0.134993300     0.3406792   -0.7997900  
   0.136993200     0.2367309   -0.8335074  
   0.138993100     0.1306689   -0.8531735  
   0.140993000     0.0248833   -0.8585033  
   0.142992900    -0.0802899   -0.8503339  
   0.144992800    -0.1829880   -0.8308005  
   0.146992700    -0.2824776   -0.7966796  
   0.148992600    -0.3773332   -0.7499869  
   0.150992500    -0.4649420   -0.6900460  
   0.152992400    -0.5464637   -0.6194404  
   0.154992300    -0.6186938   -0.5379020  
   0.156992200    -0.6807089   -0.4453022  
   0.158992100    -0.7308365   -0.3431527  
   0.160992000    -0.7670277   -0.2321252  
   0.162991900    -0.7874769   -0.1142705  
   0.164991800    -0.7905866    0.0091525  
   0.166991700    -0.7747026    0.1346176  
   0.168991600    -0.7382662    0.2601275  
   0.170991500    -0.6800088    0.3822315  
   0.172991400    -0.6007429    0.4957409  
   0.174991300    -0.5005401    0.5971934  
   0.176991200    -0.3807999    0.6816898  
   0.178991100    -0.2444673    0.7448514  
   0.180991000    -0.0965962    0.7835411  
   0.182990900     0.0583948    0.7930633  
   0.184990800     0.2144110    0.7729652  
   0.186990700     0.3644239    0.7232655  
   0.188990600     0.4824357    0.6596259  
   0.190990500     0.6185822    0.5467182  
   0.192990400     0.7182533    0.4230192  
   0.194990300     0.7904316    0.2876677  
   0.196990200     0.8355816    0.1446582  
   0.198990100     0.8536645   -0.0009630  
   0.200990000     0.8460296   -0.1444172  
   0.202989900     0.8142345   -0.2810012  
   0.204989800     0.7619491   -0.4073978  
   0.206989700     0.6922781   -0.5202944  
   0.208989600     0.6073934   -0.6174767  
   0.210989500     0.5102642   -0.6984425  
   0.212989400     0.4042504   -0.7626109  
   0.214989300     0.2921254   -0.8090398  
   0.216989200     0.1772488   -0.8379049  
   0.218989100     0.0612812   -0.8500437  
   0.220989000    -0.0537870   -0.8454883  
   0.222988900    -0.1660796   -0.8246793  
   0.224988800    -0.2745187   -0.7888001  
   0.226988700    -0.3758177   -0.7384958  
   0.228988600    -0.4688041   -0.6750009  
   0.230988500    -0.5524703   -0.5988064  
   0.232988400    -0.6242555   -0.5102782  
   0.234988300    -0.6842381   -0.4117759  
   0.236988200    -0.7302566   -0.3044589  
   0.238988100    -0.7602077   -0.1898275  
   0.240988000    -0.7730340   -0.0706854  
   0.242987900    -0.7679972    0.0509244  
   0.244987800    -0.7434047    0.1728376  
   0.246987700    -0.6990104    0.2923834  
   0.248987600    -0.6340515    0.4059944  
   0.250987500    -0.5492648    0.5098273  
   0.252987400    -0.4460888    0.5990931  
   0.254987300    -0.3272640    0.6704901  
   0.256987200    -0.1954922    0.7207188  
   0.258987100    -0.0543366    0.7483422  
   0.260987000     0.0917810    0.7484704  
   0.262986900     0.2372384    0.7214264  
   0.264986800     0.3760483    0.6671202  
   0.266986700     0.5025322    0.5875719  
   0.268986600     0.6115494    0.4860605  
   0.270986500     0.6988602    0.3676668  
   0.272986400     0.7620583    0.2360854  
   0.274986300     0.8000039    0.0976249  
   0.276986200     0.8124224   -0.0434530  
   0.278986100     0.7998387   -0.1821052  
   0.280986000     0.7639597   -0.3137662  
   0.282985900     0.7078484   -0.4350212  
   0.284985800     0.6342436   -0.5430199  
   0.286985700     0.5464526   -0.6351497  
   0.288985600     0.4483480   -0.7102404  
   0.290985500     0.3426811   -0.7678249  
   0.292985400     0.2324135   -0.8083307  
   0.294985300     0.1193480   -0.8318213  
   0.296985200     0.0058579   -0.8389869  
   0.298985100    -0.1064291   -0.8303670  
   0.300985000    -0.2153798   -0.8062780  
   0.302984900    -0.3187906   -0.7680143  
   0.304984800    -0.4152144   -0.7162966  
   0.306984700    -0.5031622   -0.6529833  
   0.308984600    -0.5810954   -0.5792201  
   0.310984500    -0.6484244   -0.4958927  
   0.312984400    -0.7047023   -0.4037372  
   0.314984300    -0.7480964   -0.3038614  
   0.316984200    -0.7782894   -0.1976549  
   0.318984100    -0.7933567   -0.0855254  
   0.320984000    -0.7918905    0.0307505  
   0.322983900    -0.7719563    0.1479495  
   0.324983800    -0.7324976    0.2622291  
   0.326983700    -0.6735617    0.3694110  
   0.328983600    -0.5965443    0.4649401  
   0.330983500    -0.5053090    0.5449625  
   0.332983400    -0.4046935    0.6075450  
   0.334983300    -0.2976466    0.6538162  
   0.336983200    -0.1869484    0.6838288  
   0.338983100    -0.0731449    0.6987178  
   0.340983000     0.0426240    0.6976110  
   0.342982900     0.1585689    0.6793175  
   0.344982800     0.2728833    0.6436631  
   0.346982700     0.3828867    0.5888106  
   0.348982600     0.4832489    0.5143673  
   0.350982500     0.5721533    0.4236052  
   0.352982400     0.6448733    0.3174109  
   0.354982300     0.6999072    0.1945436  
   0.356982200     0.7330131    0.0498566  
   0.358982100     0.7367582   -0.0986371  
   0.360982000     0.7108110   -0.2448355  
   0.362981900     0.6567022   -0.3829674  
   0.364981800     0.5765531   -0.5074697  
   0.366981700     0.4740081   -0.6131878  
   0.368981600     0.3532805   -0.6967092  
   0.370981500     0.2199071   -0.7550482  
   0.372981400     0.0789156   -0.7864022  
   0.374981300    -0.0646357   -0.7906091  
   0.376981200     0.0555973   -0.7890522  
   0.378981100    -0.0854445   -0.7881607  
   0.380981000    -0.2231048   -0.7619473  
   0.382980900    -0.3405463   -0.7173954  
   0.384980800    -0.4435841   -0.6579093  
   0.386980700    -0.5356730   -0.5835719  
   0.388980600    -0.6149334   -0.4966440  
   0.390980500    -0.6797621   -0.3999076  
   0.392980400    -0.7289392   -0.2952587  
   0.394980300    -0.7616480   -0.1851384  
   0.396980200    -0.7782587   -0.0712072  
   0.398980100    -0.7777100    0.0438807  
   0.400980000    -0.7602394    0.1582829  
   0.402979900    -0.7259119    0.2699871  
   0.404979800    -0.6749772    0.3752865  
   0.406979700    -0.6082527    0.4731663  
   0.408979600    -0.5266476    0.5607218  
   0.410979500    -0.4314710    0.6359887  
   0.412979400    -0.3233446    0.6966278  
   0.414979300    -0.2055492    0.7388728  
   0.416979200    -0.0810756    0.7633946  
   0.418979100     0.0470477    0.7675648  
   0.420979000     0.1757754    0.7504662  
   0.422978900     0.3013923    0.7119542  
   0.424978800     0.4203160    0.6521098  
   0.426978700     0.5281335    0.5723721  
   0.428978600     0.6214899    0.4748846  
   0.430978500     0.6967782    0.3624893  
   0.432978400     0.7515786    0.2389647  
   0.434978300     0.7854692    0.1079498  
   0.436978200     0.7955544   -0.0264581  
   0.438978100     0.7823052   -0.1602630  
   0.440978000     0.7463868   -0.2890582  
   0.442977900     0.6900455   -0.4090288  
   0.444977800     0.6150078   -0.5165579  
   0.446977700     0.5236092   -0.6092013  
   0.448977600     0.4197479   -0.6852375  
   0.450977500     0.3064484   -0.7419615  
   0.452977400     0.1860688   -0.7792314  
   0.454977300     0.0618755   -0.7966083  
   0.456977200    -0.0621030   -0.7940670  
   0.458977100    -0.1833357   -0.7721096  
   0.460977000    -0.2983010   -0.7318023  
   0.462976900    -0.4038926   -0.6747046  
   0.464976800    -0.4992055   -0.6026524  
   0.466976700    -0.5818555   -0.5171096  
   0.468976600    -0.6499106   -0.4210411  
   0.470976500    -0.7023925   -0.3153032  
   0.472976400    -0.7380422   -0.2033050  
   0.474976300    -0.7563285   -0.0869493  
   0.476976200    -0.7562272    0.0307727  
   0.478976100    -0.7382350    0.1475446  
   0.480976000    -0.7022524    0.2599386  
   0.482975900    -0.6490563    0.3659295  
   0.484975800    -0.5792524    0.4631484  
   0.486975700    -0.4940719    0.5491819  
   0.488975600    -0.3952327    0.6205584  
   0.490975500    -0.2847869    0.6757737  
   0.492975400    -0.1652876    0.7122571  
   0.494975300    -0.0404493    0.7280369  
   0.496975200     0.0865128    0.7220343  
   0.498975100     0.2105652    0.6940022  
   0.500975000     0.3280035    0.6447881  
   0.502974900     0.4347230    0.5757197  
   0.504974800     0.5270949    0.4889764  
   0.506974700     0.6021682    0.3880278  
   0.508974600     0.6580086    0.2762465  
   0.510974500     0.6925617    0.1582375  
   0.512974400     0.7067294    0.0386118  
   0.514974300     0.6992176   -0.0779371  
   0.516974200     0.6754639   -0.1888679  
   0.518974100     0.6359393   -0.2921672  
   0.520974000     0.5831312   -0.3859528  
   0.522973900     0.5190989   -0.4698889  
   0.524973800     0.4454737   -0.5427209  
   0.526973700     0.3635583   -0.6050732  
   0.528973600     0.2741920   -0.6555575  
   0.530973500     0.1783943   -0.6940724  
   0.532973400     0.0771323   -0.7194611  
   0.534973300    -0.0278535   -0.7302354  
   0.536973200    -0.1351839   -0.7258751  
   0.538973100    -0.2418979   -0.7048396  
   0.540973000    -0.3450525   -0.6675707  
   0.542972900    -0.4427081   -0.6141635  
   0.544972800    -0.5318151   -0.5450361  
   0.546972700    -0.6101462   -0.4615042  
   0.548972600    -0.6746488   -0.3652922  
   0.550972500    -0.7233192   -0.2593917  
   0.552972400    -0.7545362   -0.1460559  
   0.554972300    -0.7672299   -0.0285462  
   0.556972200    -0.7608639    0.0902306  
   0.558972100    -0.7351849    0.2070069  
   0.560972000    -0.6911813    0.3182842  
   0.562971900    -0.6298020    0.4214313  
   0.564971800    -0.5525447    0.5137781  
   0.566971700    -0.4611443    0.5928252  
   0.568971600    -0.3578197    0.6565440  
   0.570971500    -0.2451421    0.7034230  
   0.572971400    -0.1254539    0.7315001  
   0.574971300    -0.0012991    0.7398772  
   0.576971200     0.1237969    0.7276253  
   0.578971100     0.2460259    0.6944507  
   0.580971000     0.3620026    0.6409624  
   0.582970900     0.4678326    0.5684208  
   0.584970800     0.5600395    0.4786538  
   0.586970700     0.6360359    0.3744756  
   0.588970600     0.6930388    0.2583160  
   0.590970500     0.7296002    0.1341896  
   0.592970400     0.7443534    0.0050922  
   0.594970300     0.7369678   -0.1238569  
   0.596970200     0.7074963   -0.2500453  
   0.598970100     0.6570535   -0.3688179  
   0.600970000     0.5874308   -0.4766892  
   0.602969900     0.5007457   -0.5708708  
   0.604969800     0.4001942   -0.6489962  
   0.606969700     0.2887552   -0.7080687  
   0.608969600     0.1696640   -0.7477808  
   0.610969500     0.0464804   -0.7673110  
   0.612969400    -0.0765290   -0.7666107  
   0.614969300    -0.1966787   -0.7457345  
   0.616969200    -0.3105093   -0.7068059  
   0.618969100    -0.4148567   -0.6511830  
   0.620969000    -0.5086666   -0.5807374  
   0.622968900    -0.5901339   -0.4973162  
   0.624968800    -0.6572711   -0.4032843  
   0.626968700    -0.7095028   -0.3001577  
   0.628968600    -0.7454696   -0.1906407  
   0.630968500    -0.7646465   -0.0772075  
   0.632968400    -0.7664894    0.0375781  
   0.634968300    -0.7509955    0.1514751  
   0.636968200    -0.7187468    0.2619518  
   0.638968100    -0.6700100    0.3668532  
   0.640968000    -0.6058061    0.4634993  
   0.642967900    -0.5274431    0.5499353  
   0.644967800    -0.4360944    0.6243377  
   0.646967700    -0.3337232    0.6839146  
   0.648967600    -0.2228198    0.7272667  
   0.650967500    -0.1056805    0.7531279  
   0.652967400     0.0148124    0.7606638  
   0.654967300     0.1361135    0.7489063  
   0.656967200     0.2549986    0.7177361  
   0.658967100     0.3684215    0.6674207  
   0.660967000     0.4734672    0.5987180  
   0.662966900     0.5667949    0.5126107  
   0.664966800     0.6456201    0.4112204  
   0.666966700     0.7069741    0.2965620  
   0.668966600     0.7482330    0.1731742  
   0.670966500     0.7684452    0.0436531  
   0.672966400     0.7672573   -0.0867436  
   0.674966300     0.7428944   -0.2149667  
   0.676966200     0.6973851   -0.3367873  
   0.678966100     0.6326516   -0.4480665  
   0.680966000     0.5505112   -0.5467205  
   0.682965900     0.4540367   -0.6293057  
   0.684965800     0.3465217   -0.6940389  
   0.686965700     0.2306277   -0.7401650  
   0.688965600     0.1100270   -0.7665781  
   0.690965500    -0.0116151   -0.7722224  
   0.692965400    -0.1311795   -0.7594107  
   0.694965300    -0.2457863   -0.7286509  
   0.696965200    -0.3530629   -0.6809308  
   0.698965100    -0.4506297   -0.6176510  
   0.700965000    -0.5372643   -0.5410233  
   0.702964900    -0.6104498   -0.4527037  
   0.704964800    -0.6690776   -0.3547868  
   0.706964700    -0.7119082   -0.2495756  
   0.708964600    -0.7387221   -0.1391445  
   0.710964500    -0.7490298   -0.0258337  
   0.712964400    -0.7415217    0.0874015  
   0.714964300    -0.7166224    0.1985752  
   0.716964200    -0.6751724    0.3045406  
   0.718964100    -0.6179304    0.4034818  
   0.720964000    -0.5461793    0.4920427  
   0.722963900    -0.4611715    0.5689627  
   0.724963800    -0.3648728    0.6322511  
   0.726963700    -0.2588974    0.6797479  
   0.728963600    -0.1458258    0.7097256  
   0.730963500    -0.0288872    0.7205514  
   0.732963400     0.0887980    0.7128841  
   0.734963300     0.2047032    0.6855784  
   0.736963200     0.3300177    0.6315663  
   0.738963100     0.4444368    0.5547470  
   0.740963000     0.5420521    0.4578564  
   0.742962900     0.6193846    0.3445392  
   0.744962800     0.6738192    0.2189203  
   0.746962700     0.7035857    0.0867392  
   0.748962600     0.7083220   -0.0485027  
   0.750962500     0.6941434    0.0602614  
   0.752962400     0.6947713   -0.0727532  
   0.754962300     0.6717473   -0.2026458  
   0.756962200     0.6256699   -0.3253560  
   0.758962100     0.5589883   -0.4369052  
   0.760962000     0.4735532   -0.5348804  
   0.762961900     0.3776682   -0.6119726  
   0.764961800     0.2797228   -0.6677654  
   0.766961700     0.1745870   -0.7076420  
   0.768961600     0.0643969   -0.7312107  
   0.770961500    -0.0480162   -0.7374762  
   0.772961400    -0.1601886   -0.7266200  
   0.774961300    -0.2696285   -0.6984554  
   0.776961200    -0.3737886   -0.6537013  
   0.778961100    -0.4698208   -0.5930465  
   0.780961000    -0.5557516   -0.5176237  
   0.782960900    -0.6288744   -0.4294063  
   0.784960800    -0.6877650   -0.3304813  
   0.786960700    -0.7301540   -0.2228586  
   0.788960600    -0.7551011   -0.1096212  
   0.790960500    -0.7620377    0.0057967  
   0.792960400    -0.7503861    0.1211167  
   0.794960300    -0.7210549    0.2333580  
   0.796960200    -0.6745344    0.3392834  
   0.798960100    -0.6121768    0.4365609  
   0.800960000    -0.5352071    0.5228570  
   0.802959900    -0.4456764    0.5965106  
   0.804959800    -0.3460020    0.6552421  
   0.806959700    -0.2379244    0.6977718  
   0.808959600    -0.1243567    0.7229935  
   0.810959500    -0.0078607    0.7301747  
   0.812959400     0.1090667    0.7188534  
   0.814959300     0.2233340    0.6892507  
   0.816959200     0.3320127    0.6415331  
   0.818959100     0.4320637    0.5767278  
   0.820959000     0.5212676    0.4962265  
   0.822958900     0.5965841    0.4017367  
   0.824958800     0.6559250    0.2956444  
   0.826958700     0.6972253    0.1806007  
   0.828958600     0.7193850    0.0600731  
   0.830958500     0.7209205   -0.0632872  
   0.832958400     0.7019861   -0.1850114  
   0.834958300     0.6631179   -0.3020565  
   0.836958200     0.6054240   -0.4108031  
   0.838958100     0.5305156   -0.5086095  
   0.840958000     0.4404121   -0.5925381  
   0.842957900     0.3380460   -0.6602785  
   0.844957800     0.2259646   -0.7097557  
   0.846957700     0.1077480   -0.7400977  
   0.848957600    -0.0128776   -0.7506622  
   0.850957500    -0.1332715   -0.7413170  
   0.852957400    -0.2494743   -0.7129461  
   0.854957300    -0.3589279   -0.6663361  
   0.856957200    -0.4588879   -0.6037390  
   0.858957100    -0.5468570   -0.5265715  
   0.860957000    -0.6211865   -0.4379344  
   0.862956900    -0.6800811   -0.3399507  
   0.864956800    -0.7229168   -0.2349827  
   0.866956700    -0.7493845   -0.1262302  
   0.868956600    -0.7587005   -0.0153330  
   0.870956500    -0.7518204    0.0955624  
   0.872956400    -0.7287413    0.2035299  
   0.874956300    -0.6896971    0.3070013  
   0.876956200    -0.6360890    0.4040250  
   0.878956100    -0.5681608    0.4922036  
   0.880956000    -0.4878477    0.5697986  
   0.882955900    -0.3962136    0.6351292  
   0.884955800    -0.2952051    0.6861216  
   0.886955700    -0.1871211    0.7214425  
   0.888955600    -0.0739141    0.7403131  
   0.890955500     0.0413652    0.7415261  
   0.892955400     0.1567145    0.7247418  
   0.894955300     0.2688072    0.6901515  
