! MS46122B
! 2250307/22442219
! 7/27/2025 9:17:52 AM
! C:\USERS\SPARKY\DOCUMENTS\VNA_DATA\JULY27_2025\3K\PORT3_MOS5.S1P
! CHANNEL.1
! TR.MEASUREMENT
! RAW.DATA
# GHZ S RI R 50.0
! FREQ.GHZ         S11RE         S11IM         
!; PortSelection: Port_1
   0.001000000     1.0460330   -0.0721338  
   0.002999900     0.9643291   -0.1944656  
   0.004999800     0.9041984   -0.2993871  
   0.006999700     0.8370309   -0.3969715  
   0.008999600     0.7583476   -0.4924296  
   0.010999500     0.6652067   -0.5833240  
   0.012999400     0.5517040   -0.6670873  
   0.014999300     0.4117579   -0.7373851  
   0.016999200     0.2391455   -0.7814643  
   0.018999100     0.0284387   -0.7787706  
   0.020999000    -0.2114008   -0.6942405  
   0.022998900    -0.4405564   -0.4858457  
   0.024998800    -0.5484241   -0.1450637  
   0.026998700    -0.4901446    0.2626745  
   0.028998600    -0.2042181    0.5618465  
   0.030998500     0.1591151    0.6604573  
   0.032998400     0.4434373    0.5825478  
   0.034998300     0.6890740    0.4442070  
   0.036998200     0.8196797    0.2685647  
   0.038998100     0.8864938    0.0965655  
   0.040998000     0.9090961   -0.0613878  
   0.042997900     0.9002231   -0.2020521  
   0.044997800     0.8452243   -0.2989735  
   0.046997700     0.8245081   -0.4333042  
   0.048997600     0.7677832   -0.5266197  
   0.050997500     0.7030734   -0.6069133  
   0.052997400     0.6322573   -0.6756752  
   0.054997300     0.5564507   -0.7337321  
   0.056997200     0.4754056   -0.7828594  
   0.058997100     0.3916468   -0.8221086  
   0.060997000     0.3047058   -0.8523995  
   0.062996900     0.2150977   -0.8730848  
   0.064996800     0.1227886   -0.8841937  
   0.066996700     0.0286163   -0.8855181  
   0.068996600    -0.0668778   -0.8760864  
   0.070996500    -0.1635049   -0.8561466  
   0.072996400    -0.2595154   -0.8228058  
   0.074996300    -0.3541150   -0.7767965  
   0.076996200    -0.4459110   -0.7166051  
   0.078996100    -0.5317798   -0.6412982  
   0.080996000    -0.6105503   -0.5505604  
   0.082995900    -0.6780496   -0.4440677  
   0.084995800    -0.7301858   -0.3223807  
   0.086995700    -0.7646396   -0.1871573  
   0.088995600    -0.7757044   -0.0401582  
   0.090995500    -0.7588667    0.1138243  
   0.092995400    -0.7114756    0.2699397  
   0.094995300    -0.6290027    0.4194767  
   0.096995200    -0.5125101    0.5529220  
   0.098995100    -0.3654854    0.6615828  
   0.100995000    -0.1928450    0.7359267  
   0.102994900    -0.0074455    0.7684563  
   0.104994800     0.1806160    0.7577374  
   0.106994700     0.3585961    0.7039182  
   0.108994600     0.5166861    0.6143560  
   0.110994500     0.6475068    0.4957621  
   0.112994400     0.7463375    0.3573784  
   0.114994300     0.8121417    0.2081948  
   0.116994200     0.8458927    0.0561190  
   0.118994100     0.8504055   -0.0926232  
   0.120994000     0.8313596   -0.2336372  
   0.122993900     0.7888279   -0.3628001  
   0.124993800     0.7284693   -0.4780980  
   0.126993700     0.6539522   -0.5791064  
   0.128993600     0.5674008   -0.6632997  
   0.130993500     0.4735929   -0.7331942  
   0.132993400     0.3735663   -0.7872731  
   0.134993300     0.2696543   -0.8266290  
   0.136993200     0.1634527   -0.8512665  
   0.138993100     0.0561098   -0.8616140  
   0.140993000    -0.0504223   -0.8581862  
   0.142992900    -0.1551338   -0.8406770  
   0.144992800    -0.2572424   -0.8119268  
   0.146992700    -0.3549122   -0.7684566  
   0.148992600    -0.4471594   -0.7122737  
   0.150992500    -0.5310001   -0.6429552  
   0.152992400    -0.6073307   -0.5628299  
   0.154992300    -0.6732846   -0.4716669  
   0.156992200    -0.7274574   -0.3694998  
   0.158992100    -0.7679597   -0.2586093  
   0.160992000    -0.7924414   -0.1394289  
   0.162991900    -0.7993640   -0.0147686  
   0.164991800    -0.7866734    0.1138896  
   0.166991700    -0.7530218    0.2423957  
   0.168991600    -0.6972967    0.3675684  
   0.170991500    -0.6184109    0.4854704  
   0.172991400    -0.5181105    0.5908878  
   0.174991300    -0.3975326    0.6786997  
   0.176991200    -0.2597199    0.7452621  
   0.178991100    -0.1086748    0.7852777  
   0.180991000     0.0492290    0.7973437  
   0.182990900     0.2078638    0.7777800  
   0.184990800     0.3609014    0.7274895  
   0.186990700     0.5013013    0.6488100  
   0.188990600     0.6059502    0.5620176  
   0.190990500     0.7183602    0.4238249  
   0.192990400     0.7921883    0.2830363  
   0.194990300     0.8367612    0.1371397  
   0.196990200     0.8534408   -0.0107286  
   0.198990100     0.8436702   -0.1553817  
   0.200990000     0.8097535   -0.2931398  
   0.202989900     0.7548178   -0.4195783  
   0.204989800     0.6815466   -0.5324311  
   0.206989700     0.5945962   -0.6296518  
   0.208989600     0.4956222   -0.7092592  
   0.210989500     0.3874426   -0.7719723  
   0.212989400     0.2732307   -0.8166311  
   0.214989300     0.1559319   -0.8434797  
   0.216989200     0.0380635   -0.8531038  
   0.218989100    -0.0781429   -0.8457181  
   0.220989000    -0.1913078   -0.8221921  
   0.222988900    -0.2998628   -0.7826122  
   0.224988800    -0.4019144   -0.7284741  
   0.226988700    -0.4951269   -0.6606612  
   0.228988600    -0.5779817   -0.5801571  
   0.230988500    -0.6489446   -0.4881777  
   0.232988400    -0.7054076   -0.3847769  
   0.234988300    -0.7481867   -0.2732213  
   0.236988200    -0.7740851   -0.1540026  
   0.238988100    -0.7819007   -0.0306503  
   0.240988000    -0.7702498    0.0948992  
   0.242987900    -0.7383038    0.2191253  
   0.244987800    -0.6855208    0.3392375  
   0.246987700    -0.6116847    0.4517170  
   0.248987600    -0.5177668    0.5528519  
   0.250987500    -0.4047339    0.6377245  
   0.252987400    -0.2763416    0.7023278  
   0.254987300    -0.1366697    0.7433304  
   0.256987200     0.0101274    0.7583718  
   0.258987100     0.1592568    0.7469919  
   0.260987000     0.3047324    0.7063138  
   0.262986900     0.4407999    0.6384400  
   0.264986800     0.5616060    0.5458400  
   0.266986700     0.6622472    0.4326857  
   0.268986600     0.7392419    0.3042410  
   0.270986500     0.7901687    0.1660965  
   0.272986400     0.8147044    0.0235872  
   0.274986300     0.8137298   -0.1186293  
   0.276986200     0.7883518   -0.2556638  
   0.278986100     0.7404836   -0.3835661  
   0.280986000     0.6737984   -0.4996090  
   0.282985900     0.5909116   -0.6004909  
   0.284985800     0.4948976   -0.6850765  
   0.286985700     0.3897812   -0.7522452  
   0.288985600     0.2787711   -0.8010153  
   0.290985500     0.1644151   -0.8321265  
   0.292985400     0.0492282   -0.8460770  
   0.294985300    -0.0652517   -0.8440257  
   0.296985200    -0.1771768   -0.8258860  
   0.298985100    -0.2851752   -0.7924821  
   0.300985000    -0.3871832   -0.7446356  
   0.302984900    -0.4808838   -0.6836073  
   0.304984800    -0.5654572   -0.6108202  
   0.306984700    -0.6391512   -0.5270155  
   0.308984600    -0.7005779   -0.4341490  
   0.310984500    -0.7490260   -0.3333767  
   0.312984400    -0.7832325   -0.2250280  
   0.314984300    -0.8021494   -0.1113248  
   0.316984200    -0.8040647    0.0064300  
   0.318984100    -0.7874131    0.1263312  
   0.320984000    -0.7505680    0.2452916  
   0.322983900    -0.6927733    0.3580954  
   0.324983800    -0.6144497    0.4601069  
   0.326983700    -0.5188489    0.5457814  
   0.328983600    -0.4103909    0.6114584  
   0.330983500    -0.2961825    0.6554687  
   0.332983400    -0.1808132    0.6801099  
   0.334983300    -0.0671194    0.6881149  
   0.336983200     0.0452127    0.6818428  
   0.338983100     0.1558491    0.6613404  
   0.340983000     0.2648162    0.6256953  
   0.342982900     0.3696400    0.5737883  
   0.344982800     0.4680959    0.5042461  
   0.346982700     0.5560809    0.4168637  
   0.348982600     0.6285846    0.3134947  
   0.350982500     0.6840093    0.1975637  
   0.352982400     0.7183906    0.0719327  
   0.354982300     0.7294430   -0.0637714  
   0.356982200     0.7114941   -0.2124422  
   0.358982100     0.6640774   -0.3540836  
   0.360982000     0.5894609   -0.4833228  
   0.362981900     0.4909412   -0.5946914  
   0.364981800     0.3726184   -0.6841078  
   0.366981700     0.2400409   -0.7485051  
   0.368981600     0.0985520   -0.7854688  
   0.370981500    -0.0464136   -0.7947668  
   0.372981400    -0.1890123   -0.7767705  
   0.374981300    -0.3253219   -0.7321450  
   0.376981200    -0.2084462   -0.7734011  
   0.378981100    -0.3422251   -0.7262164  
   0.380981000    -0.4640550   -0.6555228  
   0.382980900    -0.5615296   -0.5736157  
   0.384980800    -0.6401550   -0.4827967  
   0.386980700    -0.7044627   -0.3808291  
   0.388980600    -0.7520529   -0.2702647  
   0.390980500    -0.7820681   -0.1544103  
   0.392980400    -0.7943926   -0.0357807  
   0.394980300    -0.7887022    0.0832778  
   0.396980200    -0.7650023    0.2009841  
   0.398980100    -0.7237577    0.3143032  
   0.400980000    -0.6649472    0.4208964  
   0.402979900    -0.5897399    0.5187221  
   0.404979800    -0.4996382    0.6041550  
   0.406979700    -0.3961469    0.6756363  
   0.408979600    -0.2811493    0.7301030  
   0.410979500    -0.1567389    0.7665120  
   0.412979400    -0.0259861    0.7820913  
   0.414979300     0.1070820    0.7748301  
   0.416979200     0.2388620    0.7464543  
   0.418979100     0.3648688    0.6955514  
   0.420979000     0.4816417    0.6232816  
   0.422978900     0.5850787    0.5311280  
   0.424978800     0.6713750    0.4217762  
   0.426978700     0.7375289    0.2983491  
   0.428978600     0.7810001    0.1652953  
   0.430978500     0.8004642    0.0271886  
   0.432978400     0.7954651   -0.1110857  
   0.434978300     0.7680445   -0.2462606  
   0.436978200     0.7169895   -0.3730341  
   0.438978100     0.6456378   -0.4880432  
   0.440978000     0.5566317   -0.5887771  
   0.442977900     0.4532762   -0.6721609  
   0.444977800     0.3389558   -0.7361223  
   0.446977700     0.2169989   -0.7799717  
   0.448977600     0.0913561   -0.8029331  
   0.450977500    -0.0349297   -0.8055198  
   0.452977400    -0.1593488   -0.7879521  
   0.454977300    -0.2788395   -0.7513527  
   0.456977200    -0.3903912   -0.6966586  
   0.458977100    -0.4916511   -0.6252534  
   0.460977000    -0.5795426   -0.5396196  
   0.462976900    -0.6526693   -0.4420343  
   0.464976800    -0.7100483   -0.3346098  
   0.466976700    -0.7495408   -0.2194810  
   0.468976600    -0.7709936   -0.0998437  
   0.470976500    -0.7734743    0.0224629  
   0.472976400    -0.7569121    0.1437174  
   0.474976300    -0.7206833    0.2616862  
   0.476976200    -0.6661540    0.3729214  
   0.478976100    -0.5940082    0.4747864  
   0.480976000    -0.5060904    0.5639329  
   0.482975900    -0.4040364    0.6382186  
   0.484975800    -0.2899008    0.6951573  
   0.486975700    -0.1665640    0.7326816  
   0.488975600    -0.0376756    0.7490712  
   0.490975500     0.0934570    0.7429732  
   0.492975400     0.2225170    0.7136372  
   0.494975300     0.3449042    0.6622599  
   0.496975200     0.4564996    0.5894395  
   0.498975100     0.5528624    0.4984730  
   0.500975000     0.6309435    0.3923777  
   0.502974900     0.6885923    0.2749985  
   0.504974800     0.7241436    0.1507574  
   0.506974700     0.7371189    0.0238550  
   0.508974600     0.7281080   -0.1017443  
   0.510974500     0.6985699   -0.2215456  
   0.512974400     0.6508356   -0.3320786  
   0.514974300     0.5869924   -0.4293236  
   0.516974200     0.5120730   -0.5148895  
   0.518974100     0.4274175   -0.5864682  
   0.520974000     0.3360783   -0.6439671  
   0.522973900     0.2387553   -0.6880077  
   0.524973800     0.1377148   -0.7179152  
   0.526973700     0.0332828   -0.7347789  
   0.528973600    -0.0726399   -0.7371980  
   0.530973500    -0.1795641   -0.7254227  
   0.532973400    -0.2848859   -0.6978306  
   0.534973300    -0.3869103   -0.6543166  
   0.536973200    -0.4831613   -0.5951260  
   0.538973100    -0.5700414   -0.5205681  
   0.540973000    -0.6452942   -0.4323684  
   0.542972900    -0.7059906   -0.3317477  
   0.544972800    -0.7503222   -0.2210927  
   0.546972700    -0.7762875   -0.1036348  
   0.548972600    -0.7830442    0.0180851  
   0.550972500    -0.7695892    0.1399915  
   0.552972400    -0.7359180    0.2592840  
   0.554972300    -0.6829821    0.3718309  
   0.556972200    -0.6119139    0.4748971  
   0.558972100    -0.5244095    0.5654341  
   0.560972000    -0.4227430    0.6405696  
   0.562971900    -0.3098704    0.6983631  
   0.564971800    -0.1887792    0.7369579  
   0.566971700    -0.0624844    0.7550598  
   0.568971600     0.0658437    0.7521703  
   0.570971500     0.1924553    0.7281098  
   0.572971400     0.3141063    0.6829409  
   0.574971300     0.4273810    0.6171196  
   0.576971200     0.5290397    0.5325919  
   0.578971100     0.6150585    0.4312253  
   0.580971000     0.6824028    0.3164188  
   0.582970900     0.7289471    0.1915015  
   0.584970800     0.7535976    0.0605437  
   0.586970700     0.7551409   -0.0720181  
   0.588970600     0.7342849   -0.2027694  
   0.590970500     0.6913442   -0.3276387  
   0.592970400     0.6279204   -0.4427635  
   0.594970300     0.5467272   -0.5444490  
   0.596970200     0.4498218   -0.6311786  
   0.598970100     0.3408709   -0.6995826  
   0.600970000     0.2226883   -0.7486061  
   0.602969900     0.0992576   -0.7770443  
   0.604969800    -0.0266329   -0.7853302  
   0.606969700    -0.1509113   -0.7734572  
   0.608969600    -0.2712427   -0.7414904  
   0.610969500    -0.3839374   -0.6914698  
   0.612969400    -0.4864106   -0.6246543  
   0.614969300    -0.5761929   -0.5437387  
   0.616969200    -0.6516764   -0.4507315  
   0.618969100    -0.7114234   -0.3481451  
   0.620969000    -0.7548317   -0.2385561  
   0.622968900    -0.7814589   -0.1239052  
   0.624968800    -0.7906536   -0.0066739  
   0.626968700    -0.7820175    0.1110175  
   0.628968600    -0.7558412    0.2263671  
   0.630968500    -0.7125592    0.3369994  
   0.632968400    -0.6525199    0.4403903  
   0.634968300    -0.5771891    0.5340295  
   0.636968200    -0.4879179    0.6158926  
   0.638968100    -0.3860381    0.6834618  
   0.640968000    -0.2741384    0.7348316  
   0.642967900    -0.1544391    0.7682665  
   0.644967800    -0.0298544    0.7825888  
   0.646967700     0.0965499    0.7770721  
   0.648967600     0.2216382    0.7509094  
   0.650967500     0.3411606    0.7047000  
   0.652967400     0.4525539    0.6391041  
   0.654967300     0.5520657    0.5557950  
   0.656967200     0.6371870    0.4565827  
   0.658967100     0.7046453    0.3441593  
   0.660967000     0.7527774    0.2209131  
   0.662966900     0.7797341    0.0908813  
   0.664966800     0.7846519   -0.0429767  
   0.666966700     0.7664400   -0.1757316  
   0.668966600     0.7259634   -0.3031726  
   0.670966500     0.6645888   -0.4217398  
   0.672966400     0.5857729   -0.5284250  
   0.674966300     0.4901006   -0.6183195  
   0.676966200     0.3819034   -0.6903279  
   0.678966100     0.2644281   -0.7428882  
   0.680966000     0.1417254   -0.7749986  
   0.682965900     0.0167605   -0.7866206  
   0.684965800    -0.1071621   -0.7785699  
   0.686965700    -0.2268307   -0.7508273  
   0.688965600    -0.3397397   -0.7052796  
   0.690965500    -0.4422648   -0.6424428  
   0.692965400    -0.5339591   -0.5662908  
   0.694965300    -0.6117107   -0.4778162  
   0.696965200    -0.6749695   -0.3791961  
   0.698965100    -0.7225245   -0.2725067  
   0.700965000    -0.7531226   -0.1600100  
   0.702964900    -0.7663051   -0.0444697  
   0.704964800    -0.7621740    0.0720454  
   0.706964700    -0.7401109    0.1867586  
   0.708964600    -0.7004188    0.2971224  
   0.710964500    -0.6443080    0.4014440  
   0.712964400    -0.5716624    0.4959090  
   0.714964300    -0.4845339    0.5781586  
   0.716964200    -0.3850476    0.6458729  
   0.718964100    -0.2754177    0.6969756  
   0.720964000    -0.1587744    0.7298959  
   0.722963900    -0.0376825    0.7436994  
   0.724963800     0.0847607    0.7374336  
   0.726963700     0.2048847    0.7107474  
   0.728963600     0.3192528    0.6643990  
   0.730963500     0.4242040    0.5986870  
   0.732963400     0.5167017    0.5169228  
   0.734963300     0.5948533    0.4207999  
   0.736963200     0.6636196    0.2973714  
   0.738963100     0.7076364    0.1631573  
   0.740963000     0.7254577    0.0240222  
   0.742962900     0.7168348   -0.1145014  
   0.744962800     0.6829948   -0.2476894  
   0.746962700     0.6255710   -0.3708675  
   0.748962600     0.5476038   -0.4808319  
   0.750962500     0.6023622   -0.3916139  
   0.752962400     0.5228878   -0.4983284  
   0.754962300     0.4262516   -0.5882564  
   0.756962200     0.3159999   -0.6593557  
   0.758962100     0.1953669   -0.7093561  
   0.760962000     0.0680004   -0.7373458  
   0.762961900    -0.0558514   -0.7431627  
   0.764961800    -0.1687891   -0.7306806  
   0.766961700    -0.2788839   -0.7013668  
   0.768961600    -0.3836351   -0.6553640  
   0.770961500    -0.4803271   -0.5937881  
   0.772961400    -0.5668157   -0.5177082  
   0.774961300    -0.6401991   -0.4289369  
   0.776961200    -0.6993716   -0.3291743  
   0.778961100    -0.7423869   -0.2213938  
   0.780961000    -0.7679450   -0.1073814  
   0.782960900    -0.7751140    0.0100748  
   0.784960800    -0.7636580    0.1277931  
   0.786960700    -0.7332206    0.2425097  
   0.788960600    -0.6849718    0.3515799  
   0.790960500    -0.6199327    0.4517871  
   0.792960400    -0.5399500    0.5400852  
   0.794960300    -0.4462706    0.6149482  
   0.796960200    -0.3420869    0.6742547  
   0.798960100    -0.2298969    0.7162955  
   0.800960000    -0.1122477    0.7399294  
   0.802959900     0.0083402    0.7444290  
   0.804959800     0.1281178    0.7302363  
   0.806959700     0.2444572    0.6965416  
   0.808959600     0.3540164    0.6446615  
   0.810959500     0.4543307    0.5754959  
   0.812959400     0.5426615    0.4909786  
   0.814959300     0.6163200    0.3926420  
   0.816959200     0.6733766    0.2830734  
   0.818959100     0.7119155    0.1651734  
   0.820959000     0.7307244    0.0423517  
   0.822958900     0.7288311   -0.0825190  
   0.824958800     0.7063173   -0.2054797  
   0.826958700     0.6638231   -0.3231206  
   0.828958600     0.6021940   -0.4321113  
   0.830958500     0.5233872   -0.5292920  
   0.832958400     0.4298921   -0.6119908  
   0.834958300     0.3244890   -0.6778719  
   0.836958200     0.2102160   -0.7251547  
   0.838958100     0.0904385   -0.7530701  
   0.840958000    -0.0318697   -0.7609160  
   0.842957900    -0.1531677   -0.7492573  
   0.844957800    -0.2705890   -0.7182014  
   0.846957700    -0.3806035   -0.6690325  
   0.848957600    -0.4809654   -0.6037199  
   0.850957500    -0.5691596   -0.5236193  
   0.852957400    -0.6435111   -0.4311347  
   0.854957300    -0.7021880   -0.3289175  
   0.856957200    -0.7440148   -0.2195903  
   0.858957100    -0.7686744   -0.1056286  
   0.860957000    -0.7753717    0.0098222  
   0.862956900    -0.7647886    0.1239848  
   0.864956800    -0.7373967    0.2346151  
   0.866956700    -0.6941399    0.3395585  
   0.868956600    -0.6352902    0.4361834  
   0.870956500    -0.5631377    0.5238250  
   0.872956400    -0.4784103    0.5997732  
   0.874956300    -0.3830339    0.6628833  
   0.876956200    -0.2778588    0.7113666  
   0.878956100    -0.1657695    0.7432131  
   0.880956000    -0.0493949    0.7581099  
   0.882955900     0.0691472    0.7546714  
   0.884955800     0.1870202    0.7326646  
   0.886955700     0.3006677    0.6921242  
   0.888955600     0.4077353    0.6334546  
   0.890955500     0.5047623    0.5575481  
   0.892955400     0.5886426    0.4659823  
   0.894955300     0.6570870    0.3614210  
