! MS46122B
! 2250307/22442219
! 7/28/2025 2:10:16 PM
! C:\USERS\SPARKY\DOCUMENTS\VNA_DATA\JULY28_2025\3K\PORT5_MOS6_REPEAT1.S1P
! CHANNEL.1
! TR.MEASUREMENT
! RAW.DATA
# GHZ S RI R 50.0
! FREQ.GHZ         S11RE         S11IM         
!; PortSelection: Port_1
   0.001000000     1.0461530   -0.0730644  
   0.002999900     0.9477938   -0.2227598  
   0.004999800     0.8217178   -0.0951569  
   0.006999700     0.5190439   -0.3851688  
   0.008999600     0.9360943   -0.0395846  
   0.010999500     0.9170896   -0.2458921  
   0.012999400     0.8768886   -0.3507894  
   0.014999300     0.8363497   -0.4315261  
   0.016999200     0.7946454   -0.5022523  
   0.018999100     0.7504997   -0.5677149  
   0.020999000     0.7009291   -0.6284372  
   0.022998900     0.6465583   -0.6844616  
   0.024998800     0.5784144   -0.7003000  
   0.026998700     0.5200601   -0.7817929  
   0.028998600     0.4461607   -0.8221991  
   0.030998500     0.3648181   -0.8556848  
   0.032998400     0.2802924   -0.8465890  
   0.034998300     0.1793852   -0.8961588  
   0.036998200     0.0752381   -0.9000127  
   0.038998100    -0.0347416   -0.8900155  
   0.040998000    -0.1497120   -0.8632221  
   0.042997900    -0.2681102   -0.8178022  
   0.044997800    -0.3621729   -0.7320678  
   0.046997700    -0.5006326   -0.6567741  
   0.048997600    -0.6046541   -0.5364950  
   0.050997500    -0.6906953   -0.3871359  
   0.052997400    -0.7483005   -0.2098490  
   0.054997300    -0.7655529   -0.0093740  
   0.056997200    -0.7303897    0.2054107  
   0.058997100    -0.6347585    0.4138390  
   0.060997000    -0.4789053    0.5953616  
   0.062996900    -0.2726696    0.7272073  
   0.064996800    -0.0376874    0.7937343  
   0.066996700     0.2013295    0.7905567  
   0.068996600     0.4205779    0.7242544  
   0.070996500     0.6048675    0.6097802  
   0.072996400     0.7450521    0.4632066  
   0.074996300     0.8405412    0.3005706  
   0.076996200     0.8948262    0.1343780  
   0.078996100     0.9139135   -0.0263744  
   0.080996000     0.9040698   -0.1773333  
   0.082995900     0.8706272   -0.3148488  
   0.084995800     0.8180429   -0.4371196  
   0.086995700     0.7523502   -0.5442877  
   0.088995600     0.6756285   -0.6363869  
   0.090995500     0.5906188   -0.7146180  
   0.092995400     0.5000639   -0.7790809  
   0.094995300     0.4035633   -0.8297877  
   0.096995200     0.3042611   -0.8673490  
   0.098995100     0.2025048   -0.8921971  
   0.100995000     0.0987329   -0.9047050  
   0.102994900    -0.0050733   -0.9051613  
   0.104994800    -0.1086128   -0.8931184  
   0.106994700    -0.2108755   -0.8682485  
   0.108994600    -0.3105549   -0.8314551  
   0.110994500    -0.4071285   -0.7818743  
   0.112994400    -0.4985743   -0.7196870  
   0.114994300    -0.5834250   -0.6441614  
   0.116994200    -0.6600214   -0.5553946  
   0.118994100    -0.7259577   -0.4538336  
   0.120994000    -0.7802563   -0.3409106  
   0.122993900    -0.8176706   -0.2155051  
   0.124993800    -0.8362851   -0.0806493  
   0.126993700    -0.8330485    0.0610169  
   0.128993600    -0.8038443    0.2059249  
   0.130993500    -0.7495626    0.3497404  
   0.132993400    -0.6671952    0.4868461  
   0.134993300    -0.5565370    0.6104887  
   0.136993200    -0.4201691    0.7135085  
   0.138993100    -0.2617965    0.7894890  
   0.140993000    -0.0881933    0.8323033  
   0.142992900     0.0931922    0.8383934  
   0.144992800     0.2726388    0.8078349  
   0.146992700     0.4409658    0.7388811  
   0.148992600     0.5897106    0.6374292  
   0.150992500     0.7111295    0.5097007  
   0.152992400     0.8033974    0.3641631  
   0.154992300     0.8633505    0.2080891  
   0.156992200     0.8918231    0.0486167  
   0.158992100     0.8906168   -0.1076175  
   0.160992000     0.8626783   -0.2558917  
   0.162991900     0.8115920   -0.3917257  
   0.164991800     0.7413792   -0.5131753  
   0.166991700     0.6555864   -0.6180024  
   0.168991600     0.5579927   -0.7055221  
   0.170991500     0.4513446   -0.7756912  
   0.172991400     0.3386830   -0.8277397  
   0.174991300     0.2228688   -0.8625643  
   0.176991200     0.1048724   -0.8806105  
   0.178991100    -0.0127023   -0.8822843  
   0.180991000    -0.1276522   -0.8686841  
   0.182990900    -0.2391025   -0.8393169  
   0.184990800    -0.3456056   -0.7953417  
   0.186990700    -0.4451541   -0.7374110  
   0.188990600    -0.5169760   -0.6809968  
   0.190990500    -0.6145000   -0.5851893  
   0.192990400    -0.6867755   -0.4879671  
   0.194990300    -0.7435403   -0.3825601  
   0.196990200    -0.7856960   -0.2693351  
   0.198990100    -0.8116374   -0.1487477  
   0.200990000    -0.8198529   -0.0227745  
   0.202989900    -0.8088142    0.1064255  
   0.204989800    -0.7775412    0.2353988  
   0.206989700    -0.7262335    0.3612853  
   0.208989600    -0.6526433    0.4792838  
   0.210989500    -0.5579885    0.5865700  
   0.212989400    -0.4431172    0.6785414  
   0.214989300    -0.3116900    0.7509519  
   0.216989200    -0.1671796    0.7998319  
   0.218989100    -0.0143376    0.8222339  
   0.220989000     0.1428334    0.8159474  
   0.222988900     0.2975380    0.7810767  
   0.224988800     0.4439259    0.7171783  
   0.226988700     0.5754460    0.6275931  
   0.228988600     0.6873723    0.5164218  
   0.230988500     0.7761233    0.3879988  
   0.232988400     0.8384004    0.2468421  
   0.234988300     0.8749158    0.0993571  
   0.236988200     0.8852295   -0.0497450  
   0.238988100     0.8700280   -0.1947888  
   0.240988000     0.8315803   -0.3320057  
   0.242987900     0.7728362   -0.4572404  
   0.244987800     0.6966925   -0.5688529  
   0.246987700     0.6062314   -0.6654001  
   0.248987600     0.5040315   -0.7456220  
   0.250987500     0.3932166   -0.8081384  
   0.252987400     0.2770801   -0.8529854  
   0.254987300     0.1586541   -0.8798904  
   0.256987200     0.0397530   -0.8897574  
   0.258987100    -0.0782899   -0.8847413  
   0.260987000    -0.1935112   -0.8620387  
   0.262986900    -0.3041801   -0.8242180  
   0.264986800    -0.4084314   -0.7716003  
   0.266986700    -0.5041800   -0.7053532  
   0.268986600    -0.5902319   -0.6266999  
   0.270986500    -0.6644658   -0.5370956  
   0.272986400    -0.7263579   -0.4373520  
   0.274986300    -0.7741302   -0.3287118  
   0.276986200    -0.8065082   -0.2127364  
   0.278986100    -0.8222839   -0.0906430  
   0.280986000    -0.8195431    0.0349175  
   0.282985900    -0.7971473    0.1614369  
   0.284985800    -0.7546488    0.2859072  
   0.286985700    -0.6909879    0.4043282  
   0.288985600    -0.6073808    0.5129941  
   0.290985500    -0.5047712    0.6075951  
   0.292985400    -0.3846407    0.6846051  
   0.294985300    -0.2491852    0.7402970  
   0.296985200    -0.1027915    0.7709661  
   0.298985100     0.0500879    0.7734384  
   0.300985000     0.2023457    0.7459611  
   0.302984900     0.3470453    0.6884837  
   0.304984800     0.4774128    0.6033703  
   0.306984700     0.5872657    0.4938437  
   0.308984600     0.6713151    0.3667751  
   0.310984500     0.7266238    0.2282970  
   0.312984400     0.7521128    0.0852029  
   0.314984300     0.7491405   -0.0550172  
   0.316984200     0.7197036   -0.1859932  
   0.318984100     0.6687670   -0.3034798  
   0.320984000     0.6007465   -0.4032786  
   0.322983900     0.5225447   -0.4838935  
   0.324983800     0.4399869   -0.5455242  
   0.326983700     0.3584806   -0.5908384  
   0.328983600     0.2805074   -0.6250015  
   0.330983500     0.2072718   -0.6524550  
   0.332983400     0.1356378   -0.6776634  
   0.334983300     0.0609387   -0.7017180  
   0.336983200    -0.0214995   -0.7226821  
   0.338983100    -0.1137171   -0.7353474  
   0.340983000    -0.2144382   -0.7340800  
   0.342982900    -0.3202191   -0.7145868  
   0.344982800    -0.4253133   -0.6751212  
   0.346982700    -0.5259645   -0.6153555  
   0.348982600    -0.6149110   -0.5368018  
   0.350982500    -0.6912485   -0.4440442  
   0.352982400    -0.7515591   -0.3388826  
   0.354982300    -0.7953687   -0.2192532  
   0.356982200    -0.8203402   -0.0784964  
   0.358982100    -0.8193409    0.0635261  
   0.360982000    -0.7930065    0.2025963  
   0.362981900    -0.7424642    0.3354685  
   0.364981800    -0.6691368    0.4577511  
   0.366981700    -0.5751718    0.5660517  
   0.368981600    -0.4627413    0.6565396  
   0.370981500    -0.3353721    0.7260304  
   0.372981400    -0.1963644    0.7725088  
   0.374981300    -0.0492317    0.7936259  
   0.376981200    -0.1579580    0.7874604  
   0.378981100    -0.0037819    0.8013202  
   0.380981000     0.1517126    0.7860993  
   0.382980900     0.2906654    0.7460971  
   0.384980800     0.4166443    0.6850015  
   0.386980700     0.5311524    0.6025086  
   0.388980600     0.6302776    0.5008415  
   0.390980500     0.7102481    0.3838248  
   0.392980400     0.7684658    0.2550365  
   0.394980300     0.8036923    0.1186700  
   0.396980200     0.8148074   -0.0209216  
   0.398980100     0.8015521   -0.1597191  
   0.400980000     0.7655318   -0.2931740  
   0.402979900     0.7076768   -0.4171610  
   0.404979800     0.6313715   -0.5283674  
   0.406979700     0.5380973   -0.6241443  
   0.408979600     0.4325166   -0.7021596  
   0.410979500     0.3164715   -0.7618682  
   0.412979400     0.1934626   -0.8013173  
   0.414979300     0.0672526   -0.8194976  
   0.416979200    -0.0586442   -0.8186255  
   0.418979100    -0.1813707   -0.7988975  
   0.420979000    -0.2981175   -0.7606284  
   0.422978900    -0.4072601   -0.7057853  
   0.424978800    -0.5057209   -0.6354268  
   0.426978700    -0.5922407   -0.5515200  
   0.428978600    -0.6647998   -0.4562649  
   0.430978500    -0.7220151   -0.3518748  
   0.432978400    -0.7628910   -0.2409382  
   0.434978300    -0.7884864   -0.1261396  
   0.436978200    -0.7955492   -0.0079092  
   0.438978100    -0.7850311    0.1105573  
   0.440978000    -0.7573091    0.2264458  
   0.442977900    -0.7121563    0.3379495  
   0.444977800    -0.6506198    0.4423382  
   0.446977700    -0.5732154    0.5364407  
   0.448977600    -0.4814269    0.6188252  
   0.450977500    -0.3771692    0.6868984  
   0.452977400    -0.2620309    0.7387048  
   0.454977300    -0.1380408    0.7719331  
   0.456977200    -0.0085639    0.7851012  
   0.458977100     0.1228148    0.7770073  
   0.460977000     0.2517810    0.7473030  
   0.462976900     0.3751810    0.6963488  
   0.464976800     0.4887730    0.6248831  
   0.466976700     0.5894791    0.5348864  
   0.468976600     0.6736922    0.4290600  
   0.470976500     0.7391506    0.3104744  
   0.472976400     0.7833921    0.1824071  
   0.474976300     0.8051189    0.0492159  
   0.476976200     0.8042446   -0.0847172  
   0.478976100     0.7814974   -0.2152742  
   0.480976000     0.7380818   -0.3389279  
   0.482975900     0.6756518   -0.4519075  
   0.484975800     0.5972208   -0.5521744  
   0.486975700     0.5049253   -0.6374178  
   0.488975600     0.4014482   -0.7063743  
   0.490975500     0.2903681   -0.7576485  
   0.492975400     0.1741569   -0.7914127  
   0.494975300     0.0556856   -0.8067453  
   0.496975200    -0.0624298   -0.8041009  
   0.498975100    -0.1770065   -0.7848273  
   0.500975000    -0.2865515   -0.7494127  
   0.502974900    -0.3888752   -0.6989329  
   0.504974800    -0.4829056   -0.6350998  
   0.506974700    -0.5666672   -0.5581099  
   0.508974600    -0.6394635   -0.4695702  
   0.510974500    -0.6987503   -0.3713615  
   0.512974400    -0.7434910   -0.2654684  
   0.514974300    -0.7710970   -0.1534562  
   0.516974200    -0.7831702   -0.0381108  
   0.518974100    -0.7779140    0.0786772  
   0.520974000    -0.7546881    0.1945370  
   0.522973900    -0.7133508    0.3062914  
   0.524973800    -0.6541061    0.4110031  
   0.526973700    -0.5781313    0.5057321  
   0.528973600    -0.4873186    0.5872736  
   0.530973500    -0.3843379    0.6531522  
   0.532973400    -0.2718996    0.7013188  
   0.534973300    -0.1534501    0.7304873  
   0.536973200    -0.0319385    0.7407200  
   0.538973100     0.0887854    0.7315472  
   0.540973000     0.2059875    0.7036660  
   0.542972900     0.3169703    0.6582293  
   0.544972800     0.4197563    0.5964182  
   0.546972700     0.5120111    0.5186816  
   0.548972600     0.5911716    0.4274984  
   0.550972500     0.6551207    0.3248147  
   0.552972400     0.7027873    0.2125786  
   0.554972300     0.7318146    0.0940360  
   0.556972200     0.7414335   -0.0280340  
   0.558972100     0.7313552   -0.1502996  
   0.560972000     0.7018462   -0.2692101  
   0.562971900     0.6538386   -0.3817744  
   0.564971800     0.5887446   -0.4845658  
   0.566971700     0.5080622   -0.5753784  
   0.568971600     0.4148602   -0.6519044  
   0.570971500     0.3106795   -0.7126278  
   0.572971400     0.1989619   -0.7560869  
   0.574971300     0.0817538   -0.7813617  
   0.576971200    -0.0380007   -0.7878275  
   0.578971100    -0.1568138   -0.7759398  
   0.580971000    -0.2717987   -0.7459384  
   0.582970900    -0.3801254   -0.6991028  
   0.584970800    -0.4789825   -0.6369147  
   0.586970700    -0.5668923   -0.5608665  
   0.588970600    -0.6418894   -0.4732529  
   0.590970500    -0.7032250   -0.3757432  
   0.592970400    -0.7491999   -0.2705436  
   0.594970300    -0.7791353   -0.1599163  
   0.596970200    -0.7925823   -0.0461675  
   0.598970100    -0.7893885    0.0686095  
   0.600970000    -0.7692550    0.1818602  
   0.602969900    -0.7325267    0.2911758  
   0.604969800    -0.6799002    0.3948362  
   0.606969700    -0.6122621    0.4900962  
   0.608969600    -0.5300614    0.5748764  
   0.610969500    -0.4354518    0.6465759  
   0.612969400    -0.3301786    0.7040995  
   0.614969300    -0.2166063    0.7449228  
   0.616969200    -0.0972750    0.7679108  
   0.618969100     0.0244254    0.7719219  
   0.620969000     0.1460945    0.7572076  
   0.622968900     0.2653560    0.7229326  
   0.624968800     0.3784182    0.6699639  
   0.626968700     0.4827017    0.5983497  
   0.628968600     0.5748736    0.5099734  
   0.630968500     0.6516150    0.4070525  
   0.632968400     0.7107967    0.2923765  
   0.634968300     0.7500815    0.1688483  
   0.636968200     0.7680683    0.0402052  
   0.638968100     0.7645578   -0.0895908  
   0.640968000     0.7393177   -0.2172603  
   0.642967900     0.6929756   -0.3375837  
   0.644967800     0.6276902   -0.4483881  
   0.646967700     0.5452436   -0.5461498  
   0.648967600     0.4491059   -0.6277892  
   0.650967500     0.3420406   -0.6921794  
   0.652967400     0.2270157   -0.7375338  
   0.654967300     0.1080473   -0.7635113  
   0.656967200    -0.0124448   -0.7702467  
   0.658967100    -0.1312803   -0.7580801  
   0.660967000    -0.2455371   -0.7280098  
   0.662966900    -0.3534179   -0.6806521  
   0.664966800    -0.4521760   -0.6177300  
   0.666966700    -0.5393483   -0.5408065  
   0.668966600    -0.6133555   -0.4522509  
   0.670966500    -0.6728568   -0.3537982  
   0.672966400    -0.7174890   -0.2484965  
   0.674966300    -0.7443854   -0.1380367  
   0.676966200    -0.7544482   -0.0254966  
   0.678966100    -0.7481363    0.0871766  
   0.680966000    -0.7247894    0.1979242  
   0.682965900    -0.6849791    0.3038491  
   0.684965800    -0.6294988    0.4026522  
   0.686965700    -0.5596263    0.4929745  
   0.688965600    -0.4763480    0.5720432  
   0.690965500    -0.3806642    0.6366906  
   0.692965400    -0.2759540    0.6873093  
   0.694965300    -0.1638314    0.7211479  
   0.696965200    -0.0467984    0.7373909  
   0.698965100     0.0725286    0.7345324  
   0.700965000     0.1911974    0.7124740  
   0.702964900     0.3056629    0.6710168  
   0.704964800     0.4123083    0.6110234  
   0.706964700     0.5087647    0.5333711  
   0.708964600     0.5911724    0.4401692  
   0.710964500     0.6582640    0.3343509  
   0.712964400     0.7055091    0.2184107  
   0.714964300     0.7323005    0.0959391  
   0.716964200     0.7382711   -0.0283964  
   0.718964100     0.7232706   -0.1507515  
   0.720964000     0.6885028   -0.2670823  
   0.722963900     0.6356591   -0.3753866  
   0.724963800     0.5668875   -0.4721886  
   0.726963700     0.4847718   -0.5562768  
   0.728963600     0.3913769   -0.6251631  
   0.730963500     0.2892388   -0.6775001  
   0.732963400     0.1825350   -0.7135375  
   0.734963300     0.0723275   -0.7332330  
   0.736963200    -0.0547128   -0.7349924  
   0.738963100    -0.1792710   -0.7146331  
   0.740963000    -0.2975548   -0.6738164  
   0.742962900    -0.4065155   -0.6137336  
   0.744962800    -0.5036128   -0.5364740  
   0.746962700    -0.5859181   -0.4441071  
   0.748962600    -0.6513721   -0.3385744  
   0.750962500    -0.6083884   -0.4335524  
   0.752962400    -0.6722699   -0.3257206  
   0.754962300    -0.7167197   -0.2080029  
   0.756962200    -0.7405029   -0.0839249  
   0.758962100    -0.7421144    0.0431004  
   0.760962000    -0.7213683    0.1691247  
   0.762961900    -0.6813604    0.2846280  
   0.764961800    -0.6283078    0.3831843  
   0.766961700    -0.5605947    0.4725468  
   0.768961600    -0.4790245    0.5504410  
   0.770961500    -0.3864700    0.6146163  
   0.772961400    -0.2848032    0.6636010  
   0.774961300    -0.1767055    0.6953415  
   0.776961200    -0.0648214    0.7103212  
   0.778961100     0.0486005    0.7075706  
   0.780961000     0.1607180    0.6869425  
   0.782960900     0.2682531    0.6488298  
   0.784960800     0.3694780    0.5937474  
   0.786960700     0.4610759    0.5231134  
   0.788960600     0.5407484    0.4385871  
   0.790960500     0.6057736    0.3422916  
   0.792960400     0.6547644    0.2367181  
   0.794960300     0.6862169    0.1243450  
   0.796960200     0.6991414    0.0085495  
   0.798960100     0.6932211   -0.1079321  
   0.800960000     0.6687446   -0.2219941  
   0.802959900     0.6263284   -0.3304081  
   0.804959800     0.5670804   -0.4307462  
   0.806959700     0.4924160   -0.5198157  
   0.808959600     0.4047276   -0.5958338  
   0.810959500     0.3061085   -0.6568771  
   0.812959400     0.1990671   -0.7014974  
   0.814959300     0.0867969   -0.7284414  
   0.816959200    -0.0281924   -0.7368705  
   0.818959100    -0.1427123   -0.7272174  
   0.820959000    -0.2537470   -0.6998509  
   0.822958900    -0.3589107   -0.6553030  
   0.824958800    -0.4552491   -0.5953419  
   0.826958700    -0.5406716   -0.5213065  
   0.828958600    -0.6136893   -0.4353275  
   0.830958500    -0.6720123   -0.3396516  
   0.832958400    -0.7152454   -0.2368178  
   0.834958300    -0.7419362   -0.1288716  
   0.836958200    -0.7519106   -0.0187181  
   0.838958100    -0.7455059    0.0916133  
   0.840958000    -0.7224697    0.1996074  
   0.842957900    -0.6832109    0.3027194  
   0.844957800    -0.6289286    0.3992710  
   0.846957700    -0.5608189    0.4868990  
   0.848957600    -0.4796609    0.5633231  
   0.850957500    -0.3876908    0.6270528  
   0.852957400    -0.2866291    0.6764280  
   0.854957300    -0.1784215    0.7096080  
   0.856957200    -0.0657918    0.7260711  
   0.858957100     0.0484180    0.7244504  
   0.860957000     0.1611077    0.7052521  
   0.862956900     0.2697144    0.6683912  
   0.864956800     0.3715214    0.6147430  
   0.866956700     0.4636377    0.5456237  
   0.868956600     0.5438977    0.4617990  
   0.870956500     0.6105684    0.3656673  
   0.872956400     0.6613320    0.2596571  
   0.874956300     0.6944023    0.1457298  
   0.876956200     0.7085639    0.0269436  
   0.878956100     0.7025142   -0.0928967  
   0.880956000     0.6767604   -0.2105740  
   0.882955900     0.6312304   -0.3224555  
   0.884955800     0.5677371   -0.4253357  
   0.886955700     0.4881558   -0.5154955  
   0.888955600     0.3944734   -0.5908786  
   0.890955500     0.2902424   -0.6492326  
   0.892955400     0.1782732   -0.6893644  
   0.894955300     0.0619489   -0.7098449  
