! MS46122B
! 2250307/22442219
! 7/23/2025 8:06:33 AM
! C:\USERS\SPARKY\DOCUMENTS\VNA_DATA\JULY23_2025\3K\PORT6_MOS5_REPEAT1.S1P
! CHANNEL.1
! TR.MEASUREMENT
! RAW.DATA
# GHZ S RI R 50.0
! FREQ.GHZ         S11RE         S11IM         
!; PortSelection: Port_1
   0.001000000     1.0457340   -0.0717030  
   0.002999900     0.9642229   -0.1941777  
   0.004999800     0.9039997   -0.2992480  
   0.006999700     0.8367119   -0.3970307  
   0.008999600     0.7581725   -0.4926921  
   0.010999500     0.6649996   -0.5839850  
   0.012999400     0.5514605   -0.6681800  
   0.014999300     0.4112572   -0.7393783  
   0.016999200     0.2378539   -0.7845913  
   0.018999100     0.0255120   -0.7833413  
   0.020999000    -0.2176790   -0.6998278  
   0.022998900    -0.4525760   -0.4903853  
   0.024998800    -0.5657778   -0.1436714  
   0.026998700    -0.5081857    0.2757312  
   0.028998600    -0.2142657    0.5839849  
   0.030998500     0.1607361    0.6836223  
   0.032998400     0.4521550    0.6005038  
   0.034998300     0.7020650    0.4565902  
   0.036998200     0.8336883    0.2757413  
   0.038998100     0.8995920    0.0998898  
   0.040998000     0.9205784   -0.0607731  
   0.042997900     0.9104784   -0.2030173  
   0.044997800     0.8537924   -0.3011177  
   0.046997700     0.8319710   -0.4365749  
   0.048997600     0.7741975   -0.5305296  
   0.050997500     0.7083488   -0.6112407  
   0.052997400     0.6373785   -0.6794285  
   0.054997300     0.5593199   -0.7388645  
   0.056997200     0.4780856   -0.7875921  
   0.058997100     0.3935768   -0.8267733  
   0.060997000     0.3059517   -0.8570055  
   0.062996900     0.2157588   -0.8776188  
   0.064996800     0.1228209   -0.8885936  
   0.066996700     0.0281370   -0.8897330  
   0.068996600    -0.0679061   -0.8800942  
   0.070996500    -0.1650978   -0.8599493  
   0.072996400    -0.2615712   -0.8265022  
   0.074996300    -0.3568054   -0.7801687  
   0.076996200    -0.4491484   -0.7195953  
   0.078996100    -0.5355700   -0.6438988  
   0.080996000    -0.6149663   -0.5526248  
   0.082995900    -0.6830480   -0.4455168  
   0.084995800    -0.7359588   -0.3230465  
   0.086995700    -0.7708606   -0.1868273  
   0.088995600    -0.7824532   -0.0386381  
   0.090995500    -0.7659007    0.1168314  
   0.092995400    -0.7185428    0.2746677  
   0.094995300    -0.6355305    0.4261740  
   0.096995200    -0.5181312    0.5615686  
   0.098995100    -0.3691396    0.6719955  
   0.100995000    -0.1944120    0.7476346  
   0.102994900    -0.0063176    0.7809114  
   0.104994800     0.1845327    0.7700315  
   0.106994700     0.3652287    0.7152988  
   0.108994600     0.5258466    0.6242737  
   0.110994500     0.6582668    0.5032837  
   0.112994400     0.7581894    0.3625893  
   0.114994300     0.8244113    0.2109203  
   0.116994200     0.8580213    0.0565962  
   0.118994100     0.8620259   -0.0941726  
   0.120994000     0.8417718   -0.2369881  
   0.122993900     0.7980921   -0.3675065  
   0.124993800     0.7363037   -0.4839166  
   0.126993700     0.6605237   -0.5856349  
   0.128993600     0.5725366   -0.6700937  
   0.130993500     0.4775476   -0.7401391  
   0.132993400     0.3762901   -0.7943039  
   0.134993300     0.2711681   -0.8335536  
   0.136993200     0.1641385   -0.8580500  
   0.138993100     0.0559147   -0.8679889  
   0.140993000    -0.0514559   -0.8639159  
   0.142992900    -0.1569704   -0.8460087  
   0.144992800    -0.2596893   -0.8165321  
   0.146992700    -0.3578994   -0.7724806  
   0.148992600    -0.4503840   -0.7158058  
   0.150992500    -0.5345326   -0.6458312  
   0.152992400    -0.6112868   -0.5651034  
   0.154992300    -0.6775071   -0.4732960  
   0.156992200    -0.7319210   -0.3704286  
   0.158992100    -0.7725875   -0.2588519  
   0.160992000    -0.7972382   -0.1388430  
   0.162991900    -0.8042498   -0.0133498  
   0.164991800    -0.7917373    0.1162483  
   0.166991700    -0.7577139    0.2457119  
   0.168991600    -0.7016783    0.3719808  
   0.170991500    -0.6222824    0.4909457  
   0.172991400    -0.5212876    0.5974874  
   0.174991300    -0.3996113    0.6863196  
   0.176991200    -0.2603156    0.7536451  
   0.178991100    -0.1079191    0.7946637  
   0.180991000     0.0518562    0.8067427  
   0.182990900     0.2124581    0.7870100  
   0.184990800     0.3675875    0.7362179  
   0.186990700     0.5095673    0.6563712  
   0.188990600     0.6155711    0.5682632  
   0.190990500     0.7292121    0.4281364  
   0.192990400     0.8036293    0.2854589  
   0.194990300     0.8485216    0.1371535  
   0.196990200     0.8645043   -0.0122243  
   0.198990100     0.8543511   -0.1590960  
   0.200990000     0.8193341   -0.2979868  
   0.202989900     0.7632191   -0.4260085  
   0.204989800     0.6884553   -0.5395119  
   0.206989700     0.6001369   -0.6378464  
   0.208989600     0.4995527   -0.7176917  
   0.210989500     0.3899548   -0.7803301  
   0.212989400     0.2743892   -0.8248226  
   0.214989300     0.1558475   -0.8513195  
   0.216989200     0.0369949   -0.8603648  
   0.218989100    -0.0803318   -0.8523889  
   0.220989000    -0.1942851   -0.8280548  
   0.222988900    -0.3035643   -0.7876580  
   0.224988800    -0.4061619   -0.7326405  
   0.226988700    -0.4997576   -0.6639492  
   0.228988600    -0.5829521   -0.5824840  
   0.230988500    -0.6540756   -0.4895675  
   0.232988400    -0.7106336   -0.3852369  
   0.234988300    -0.7534191   -0.2725876  
   0.236988200    -0.7791252   -0.1525609  
   0.238988100    -0.7867260   -0.0282537  
   0.240988000    -0.7747229    0.0981584  
   0.242987900    -0.7422897    0.2233302  
   0.244987800    -0.6889112    0.3442991  
   0.246987700    -0.6143477    0.4576727  
   0.248987600    -0.5194657    0.5594959  
   0.250987500    -0.4053031    0.6450624  
   0.252987400    -0.2759000    0.7101316  
   0.254987300    -0.1345453    0.7513810  
   0.256987200     0.0137584    0.7665226  
   0.258987100     0.1644868    0.7546517  
   0.260987000     0.3114630    0.7133315  
   0.262986900     0.4489811    0.6443589  
   0.264986800     0.5709600    0.5503919  
   0.266986700     0.6726421    0.4356838  
   0.268986600     0.7498104    0.3055482  
   0.270986500     0.8009183    0.1653480  
   0.272986400     0.8250733    0.0211028  
   0.274986300     0.8233968   -0.1227255  
   0.276986200     0.7970522   -0.2611494  
   0.278986100     0.7479059   -0.3902094  
   0.280986000     0.6798696   -0.5069495  
   0.282985900     0.5955648   -0.6083530  
   0.284985800     0.4980789   -0.6931867  
   0.286985700     0.3915477   -0.7602746  
   0.288985600     0.2792555   -0.8087761  
   0.290985500     0.1636918   -0.8394408  
   0.292985400     0.0475194   -0.8527147  
   0.294985300    -0.0677479   -0.8499547  
   0.296985200    -0.1804215   -0.8309212  
   0.298985100    -0.2889919   -0.7966059  
   0.300985000    -0.3913292   -0.7478587  
   0.302984900    -0.4852770   -0.6859269  
   0.304984800    -0.5700581   -0.6122737  
   0.306984700    -0.6436600   -0.5275885  
   0.308984600    -0.7049910   -0.4338070  
   0.310984500    -0.7531826   -0.3321949  
   0.312984400    -0.7872047   -0.2231452  
   0.314984300    -0.8056390   -0.1088064  
   0.316984200    -0.8072933    0.0098039  
   0.318984100    -0.7901738    0.1304139  
   0.320984000    -0.7525696    0.2500804  
   0.322983900    -0.6938906    0.3636497  
   0.324983800    -0.6146685    0.4659443  
   0.326983700    -0.5177872    0.5519420  
   0.328983600    -0.4082856    0.6175253  
   0.330983500    -0.2930279    0.6615109  
   0.332983400    -0.1767338    0.6855708  
   0.334983300    -0.0621343    0.6931582  
   0.336983200     0.0510431    0.6862930  
   0.338983100     0.1624876    0.6650832  
   0.340983000     0.2717925    0.6287902  
   0.342982900     0.3772983    0.5760189  
   0.344982800     0.4761490    0.5054944  
   0.346982700     0.5646306    0.4170215  
   0.348982600     0.6373539    0.3123924  
   0.350982500     0.6927563    0.1951614  
   0.352982400     0.7268664    0.0682016  
   0.354982300     0.7372785   -0.0689344  
   0.356982200     0.7182354   -0.2189244  
   0.358982100     0.6694589   -0.3618057  
   0.360982000     0.5932471   -0.4919740  
   0.362981900     0.4929765   -0.6035056  
   0.364981800     0.3729485   -0.6931572  
   0.366981700     0.2386356   -0.7570528  
   0.368981600     0.0954872   -0.7930875  
   0.370981500    -0.0507863   -0.8012571  
   0.372981400    -0.1943429   -0.7820044  
   0.374981300    -0.3313287   -0.7357712  
   0.376981200    -0.2138002   -0.7776147  
   0.378981100    -0.3479680   -0.7288934  
   0.380981000    -0.4699012   -0.6567456  
   0.382980900    -0.5672695   -0.5735442  
   0.384980800    -0.6455702   -0.4815682  
   0.386980700    -0.7093428   -0.3784695  
   0.388980600    -0.7563242   -0.2670037  
   0.390980500    -0.7854695   -0.1504503  
   0.392980400    -0.7970893   -0.0311270  
   0.394980300    -0.7904165    0.0884926  
   0.396980200    -0.7659210    0.2065536  
   0.398980100    -0.7236943    0.3200125  
   0.400980000    -0.6639651    0.4266620  
   0.402979900    -0.5878780    0.5245007  
   0.404979800    -0.4968528    0.6098216  
   0.406979700    -0.3924838    0.6810825  
   0.408979600    -0.2764987    0.7353481  
   0.410979500    -0.1514223    0.7710717  
   0.412979400    -0.0197765    0.7862528  
   0.414979300     0.1141637    0.7782723  
   0.416979200     0.2466421    0.7490514  
   0.418979100     0.3733762    0.6971545  
   0.420979000     0.4904506    0.6236715  
   0.422978900     0.5941797    0.5301933  
   0.424978800     0.6804882    0.4194905  
   0.426978700     0.7463822    0.2946047  
   0.428978600     0.7894399    0.1601100  
   0.430978500     0.8078960    0.0206771  
   0.432978400     0.8017739   -0.1187373  
   0.434978300     0.7730107   -0.2548913  
   0.436978200     0.7203174   -0.3823153  
   0.438978100     0.6473548   -0.4975920  
   0.440978000     0.5566729   -0.5982929  
   0.442977900     0.4517628   -0.6810876  
   0.444977800     0.3357171   -0.7445408  
   0.446977700     0.2125851   -0.7873508  
   0.448977600     0.0855614   -0.8091789  
   0.450977500    -0.0414775   -0.8102767  
   0.452977400    -0.1663111   -0.7913111  
   0.454977300    -0.2861510   -0.7530482  
   0.456977200    -0.3976749   -0.6967486  
   0.458977100    -0.4987146   -0.6238857  
   0.460977000    -0.5859739   -0.5370082  
   0.462976900    -0.6583553   -0.4381537  
   0.464976800    -0.7148160   -0.3295372  
   0.466976700    -0.7531537   -0.2137811  
   0.468976600    -0.7734203   -0.0934498  
   0.470976500    -0.7746984    0.0292891  
   0.472976400    -0.7569059    0.1507318  
   0.474976300    -0.7192690    0.2687241  
   0.476976200    -0.6636992    0.3798660  
   0.478976100    -0.5902882    0.4814231  
   0.480976000    -0.5012841    0.5700990  
   0.482975900    -0.3981109    0.6438049  
   0.484975800    -0.2830459    0.6999053  
   0.486975700    -0.1588377    0.7366909  
   0.488975600    -0.0292006    0.7518771  
   0.490975500     0.1023653    0.7444769  
   0.492975400     0.2318731    0.7139223  
   0.494975300     0.3543396    0.6611689  
   0.496975200     0.4658932    0.5869787  
   0.498975100     0.5619406    0.4945737  
   0.500975000     0.6394756    0.3870902  
   0.502974900     0.6961792    0.2685859  
   0.504974800     0.7306168    0.1433607  
   0.506974700     0.7425128    0.0154242  
   0.508974600     0.7320615   -0.1106645  
   0.510974500     0.7010683   -0.2308986  
   0.512974400     0.6519269   -0.3414064  
   0.514974300     0.5866386   -0.4388205  
   0.516974200     0.5104136   -0.5235444  
   0.518974100     0.4244872   -0.5947199  
   0.520974000     0.3318434   -0.6515943  
   0.522973900     0.2336883   -0.6946059  
   0.524973800     0.1315620   -0.7236233  
   0.526973700     0.0265207   -0.7392269  
   0.528973600    -0.0799650   -0.7403365  
   0.530973500    -0.1872911   -0.7272223  
   0.532973400    -0.2927958   -0.6980139  
   0.534973300    -0.3949138   -0.6531221  
   0.536973200    -0.4906594   -0.5922055  
   0.538973100    -0.5768608   -0.5162287  
   0.540973000    -0.6511430   -0.4265170  
   0.542972900    -0.7106487   -0.3247778  
   0.544972800    -0.7535570   -0.2132134  
   0.546972700    -0.7780598   -0.0949212  
   0.548972600    -0.7830716    0.0269967  
   0.550972500    -0.7678980    0.1490803  
   0.552972400    -0.7325522    0.2680036  
   0.554972300    -0.6780667    0.3800686  
   0.556972200    -0.6054641    0.4824357  
   0.558972100    -0.5166471    0.5718299  
   0.560972000    -0.4139073    0.6458289  
   0.562971900    -0.3000828    0.7022282  
   0.564971800    -0.1783137    0.7393953  
   0.566971700    -0.0515909    0.7560116  
   0.568971600     0.0770190    0.7514789  
   0.570971500     0.2036591    0.7257161  
   0.572971400     0.3251201    0.6789404  
   0.574971300     0.4378438    0.6115668  
   0.576971200     0.5385765    0.5255977  
   0.578971100     0.6236399    0.4228576  
   0.580971000     0.6898484    0.3064505  
   0.582970900     0.7348397    0.1806563  
   0.584970800     0.7577808    0.0487661  
   0.586970700     0.7576607   -0.0843475  
   0.588970600     0.7346803   -0.2153403  
   0.590970500     0.6897740   -0.3398830  
   0.592970400     0.6244743   -0.4544038  
   0.594970300     0.5413641   -0.5554532  
   0.596970200     0.4427810   -0.6408161  
   0.598970100     0.3325411   -0.7075229  
   0.600970000     0.2132362   -0.7546741  
   0.602969900     0.0888235   -0.7816269  
   0.604969800    -0.0372395   -0.7878119  
   0.606969700    -0.1615614   -0.7739475  
   0.608969600    -0.2815708   -0.7399892  
   0.610969500    -0.3935851   -0.6881133  
   0.612969400    -0.4951135   -0.6195761  
   0.614969300    -0.5836524   -0.5372393  
   0.616969200    -0.6577012   -0.4429898  
   0.618969100    -0.7159343   -0.3394113  
   0.620969000    -0.7576988   -0.2290171  
   0.622968900    -0.7825828   -0.1139819  
   0.624968800    -0.7898648    0.0034043  
   0.626968700    -0.7794189    0.1209481  
   0.628968600    -0.7514486    0.2358797  
   0.630968500    -0.7065824    0.3457460  
   0.632968400    -0.6449583    0.4482136  
   0.634968300    -0.5683076    0.5406858  
   0.636968200    -0.4780017    0.6211001  
   0.638968100    -0.3753727    0.6872795  
   0.640968000    -0.2627512    0.7371636  
   0.642967900    -0.1423710    0.7690015  
   0.644967800    -0.0176883    0.7815809  
   0.646967700     0.1087280    0.7742827  
   0.648967600     0.2335460    0.7464027  
   0.650967500     0.3527220    0.6983869  
   0.652967400     0.4630696    0.6312966  
   0.654967300     0.5618246    0.5463052  
   0.656967200     0.6455297    0.4457794  
   0.658967100     0.7114328    0.3320816  
   0.660967000     0.7577492    0.2080590  
   0.662966900     0.7827929    0.0771307  
   0.664966800     0.7854131   -0.0568832  
   0.666966700     0.7651870   -0.1899149  
   0.668966600     0.7225206   -0.3169778  
   0.670966500     0.6590194   -0.4348125  
   0.672966400     0.5782464   -0.5404529  
   0.674966300     0.4807172   -0.6287937  
   0.676966200     0.3710015   -0.6989763  
   0.678966100     0.2522718   -0.7495069  
   0.680966000     0.1287816   -0.7792972  
   0.682965900     0.0033488   -0.7885731  
   0.684965800    -0.1205264   -0.7780151  
   0.686965700    -0.2397283   -0.7479828  
   0.688965600    -0.3518349   -0.7001107  
   0.690965500    -0.4530879   -0.6352975  
   0.692965400    -0.5431578   -0.5572666  
   0.694965300    -0.6192442   -0.4672061  
   0.696965200    -0.6804622   -0.3675796  
   0.698965100    -0.7257494   -0.2600314  
   0.700965000    -0.7542163   -0.1470255  
   0.702964900    -0.7651581   -0.0312491  
   0.704964800    -0.7586939    0.0849894  
   0.706964700    -0.7343507    0.1990224  
   0.708964600    -0.6924444    0.3086174  
   0.710964500    -0.6345147    0.4115044  
   0.712964400    -0.5601618    0.5044477  
   0.714964300    -0.4715534    0.5848700  
   0.716964200    -0.3709209    0.6505690  
   0.718964100    -0.2603893    0.6995352  
   0.720964000    -0.1433204    0.7301604  
   0.722963900    -0.0220676    0.7416173  
   0.724963800     0.1001175    0.7329295  
   0.726963700     0.2195777    0.7040630  
   0.728963600     0.3330468    0.6555837  
   0.730963500     0.4367221    0.5878841  
   0.732963400     0.5275514    0.5044150  
   0.734963300     0.6039250    0.4068436  
   0.736963200     0.6701167    0.2821283  
   0.738963100     0.7115775    0.1469273  
   0.740963000     0.7266675    0.0073769  
   0.742962900     0.7151929   -0.1308621  
   0.744962800     0.6786220   -0.2634515  
   0.746962700     0.6186271   -0.3857876  
   0.748962600     0.5383565   -0.4940843  
   0.750962500     0.5954133   -0.4061812  
   0.752962400     0.5135500   -0.5114489  
   0.754962300     0.4148056   -0.5993174  
   0.756962200     0.3028331   -0.6680569  
   0.758962100     0.1809311   -0.7154604  
   0.760962000     0.0529465   -0.7405958  
   0.762961900    -0.0712531   -0.7435939  
   0.764961800    -0.1842148   -0.7285776  
   0.766961700    -0.2934939   -0.6966977  
   0.768961600    -0.3972043   -0.6481375  
   0.770961500    -0.4925125   -0.5842131  
   0.772961400    -0.5771150   -0.5061170  
   0.774961300    -0.6483607   -0.4155574  
   0.776961200    -0.7051317   -0.3144754  
   0.778961100    -0.7453112   -0.2055627  
   0.780961000    -0.7679549   -0.0909731  
   0.782960900    -0.7724728    0.0263293  
   0.784960800    -0.7579758    0.1434302  
   0.786960700    -0.7247739    0.2571500  
   0.788960600    -0.6739996    0.3647932  
   0.790960500    -0.6066619    0.4631781  
   0.792960400    -0.5247872    0.5492531  
   0.794960300    -0.4296328    0.6217231  
   0.796960200    -0.3243582    0.6784166  
   0.798960100    -0.2112720    0.7176064  
   0.800960000    -0.0934354    0.7384247  
   0.802959900     0.0267672    0.7402589  
   0.804959800     0.1460383    0.7232199  
   0.806959700     0.2612534    0.6870447  
   0.808959600     0.3696865    0.6326978  
   0.810959500     0.4679331    0.5614301  
   0.812959400     0.5543374    0.4748968  
   0.814959300     0.6256686    0.3749104  
   0.816959200     0.6801558    0.2640355  
   0.818959100     0.7158799    0.1451273  
   0.820959000     0.7317421    0.0218992  
   0.822958900     0.7267081   -0.1029998  
   0.824958800     0.7010621   -0.2254400  
   0.826958700     0.6556332   -0.3419897  
   0.828958600     0.5910754   -0.4494936  
   0.830958500     0.5097270   -0.5446523  
   0.832958400     0.4140602   -0.6248764  
   0.834958300     0.3066950   -0.6882551  
   0.836958200     0.1910878   -0.7323567  
   0.838958100     0.0704545   -0.7568880  
   0.840958000    -0.0520624   -0.7613414  
   0.842957900    -0.1731075   -0.7461348  
   0.844957800    -0.2894950   -0.7116556  
   0.846957700    -0.3980043   -0.6594849  
   0.848957600    -0.4964197   -0.5912590  
   0.850957500    -0.5820167   -0.5086651  
   0.852957400    -0.6536007   -0.4142468  
   0.854957300    -0.7092122   -0.3105901  
   0.856957200    -0.7478533   -0.2000757  
   0.858957100    -0.7691090   -0.0857994  
   0.860957000    -0.7722877    0.0294647  
   0.862956900    -0.7585549    0.1429730  
   0.864956800    -0.7280578    0.2526800  
   0.866956700    -0.6820187    0.3559819  
   0.868956600    -0.6206253    0.4507595  
   0.870956500    -0.5462957    0.5360451  
   0.872956400    -0.4596393    0.6096534  
   0.874956300    -0.3627884    0.6697685  
   0.876956200    -0.2564857    0.7153510  
   0.878956100    -0.1437935    0.7439935  
   0.880956000    -0.0271373    0.7556754  
   0.882955900     0.0912211    0.7489145  
   0.884955800     0.2083506    0.7235376  
   0.886955700     0.3207009    0.6798680  
   0.888955600     0.4260702    0.6180527  
   0.890955500     0.5206743    0.5394079  
   0.892955400     0.6015300    0.4456592  
   0.894955300     0.6672105    0.3392294  
