! MS46122B
! 2250307/22442219
! 7/28/2025 2:02:05 PM
! C:\USERS\SPARKY\DOCUMENTS\VNA_DATA\JULY28_2025\3K\PORT3_MOS4.S1P
! CHANNEL.1
! TR.MEASUREMENT
! RAW.DATA
# GHZ S RI R 50.0
! FREQ.GHZ         S11RE         S11IM         
!; PortSelection: Port_1
   0.001000000     1.0460570   -0.0722035  
   0.002999900     0.9646305   -0.1945093  
   0.004999800     0.9044726   -0.2993329  
   0.006999700     0.8372635   -0.3968127  
   0.008999600     0.7587628   -0.4920594  
   0.010999500     0.6658977   -0.5827153  
   0.012999400     0.5530050   -0.6661953  
   0.014999300     0.4140354   -0.7364087  
   0.016999200     0.2429916   -0.7807825  
   0.018999100     0.0348973   -0.7797608  
   0.020999000    -0.2026460   -0.6987849  
   0.022998900    -0.4315885   -0.4978669  
   0.024998800    -0.5457352   -0.1656492  
   0.026998700    -0.5023117    0.2383642  
   0.028998600    -0.2307764    0.5462688  
   0.030998500     0.1281588    0.6602497  
   0.032998400     0.4179703    0.5938201  
   0.034998300     0.6711204    0.4627505  
   0.036998200     0.8090640    0.2893862  
   0.038998100     0.8817701    0.1173555  
   0.040998000     0.9086072   -0.0414932  
   0.042997900     0.9032452   -0.1835387  
   0.044997800     0.8502803   -0.2828993  
   0.046997700     0.8320732   -0.4181383  
   0.048997600     0.7771679   -0.5131586  
   0.050997500     0.7135684   -0.5950142  
   0.052997400     0.6438936   -0.6652430  
   0.054997300     0.5692605   -0.7244163  
   0.056997200     0.4891297   -0.7750705  
   0.058997100     0.4063214   -0.8155805  
   0.060997000     0.3202612   -0.8473073  
   0.062996900     0.2316116   -0.8696458  
   0.064996800     0.1402515   -0.8822693  
   0.066996700     0.0468634   -0.8854945  
   0.068996600    -0.0478260   -0.8781465  
   0.070996500    -0.1434613   -0.8606688  
   0.072996400    -0.2390807   -0.8302087  
   0.074996300    -0.3335595   -0.7870498  
   0.076996200    -0.4254264   -0.7304062  
   0.078996100    -0.5119516   -0.6589837  
   0.080996000    -0.5920137   -0.5725446  
   0.082995900    -0.6617896   -0.4706862  
   0.084995800    -0.7174107   -0.3537222  
   0.086995700    -0.7566659   -0.2231787  
   0.088995600    -0.7741187   -0.0802468  
   0.090995500    -0.7655143    0.0707844  
   0.092995400    -0.7277248    0.2256446  
   0.094995300    -0.6560295    0.3760506  
   0.096995200    -0.5509686    0.5142222  
   0.098995100    -0.4139315    0.6305505  
   0.100995000    -0.2498173    0.7160330  
   0.102994900    -0.0694767    0.7622899  
   0.104994800     0.1172088    0.7662226  
   0.106994700     0.2981230    0.7270213  
   0.108994600     0.4629001    0.6503562  
   0.110994500     0.6033506    0.5420260  
   0.112994400     0.7135087    0.4111818  
   0.114994300     0.7910574    0.2662952  
   0.116994200     0.8368024    0.1155742  
   0.118994100     0.8523113   -0.0339062  
   0.120994000     0.8427789   -0.1776754  
   0.122993900     0.8088654   -0.3110792  
   0.124993800     0.7555711   -0.4316285  
   0.126993700     0.6870744   -0.5376919  
   0.128993600     0.6054158   -0.6284477  
   0.130993500     0.5153809   -0.7041674  
   0.132993400     0.4182022   -0.7647694  
   0.134993300     0.3164372   -0.8102096  
   0.136993200     0.2116340   -0.8409302  
   0.138993100     0.1051296   -0.8576413  
   0.140993000    -0.0010156   -0.8602210  
   0.142992900    -0.1061308   -0.8491872  
   0.144992800    -0.2090999   -0.8264869  
   0.146992700    -0.3079421   -0.7892781  
   0.148992600    -0.4022925   -0.7396037  
   0.150992500    -0.4889763   -0.6765516  
   0.152992400    -0.5690631   -0.6027570  
   0.154992300    -0.6397036   -0.5176507  
   0.156992200    -0.6993775   -0.4218242  
   0.158992100    -0.7466286   -0.3163071  
   0.160992000    -0.7793729   -0.2021613  
   0.162991900    -0.7957157   -0.0814905  
   0.164991800    -0.7934301    0.0443636  
   0.166991700    -0.7716151    0.1719009  
   0.168991600    -0.7285982    0.2981191  
   0.170991500    -0.6630832    0.4192508  
   0.172991400    -0.5760658    0.5308562  
   0.174991300    -0.4683072    0.6284468  
   0.176991200    -0.3414379    0.7072042  
   0.178991100    -0.1993320    0.7627921  
   0.180991000    -0.0467598    0.7922477  
   0.182990900     0.1104297    0.7916803  
   0.184990800     0.2665018    0.7608753  
   0.186990700     0.4140430    0.7006397  
   0.188990600     0.5278639    0.6280993  
   0.190990500     0.6559850    0.5056407  
   0.192990400     0.7468952    0.3750265  
   0.194990300     0.8095493    0.2351360  
   0.196990200     0.8444502    0.0897688  
   0.198990100     0.8524640   -0.0559114  
   0.200990000     0.8354175   -0.1980683  
   0.202989900     0.7952208   -0.3313527  
   0.204989800     0.7353069   -0.4529614  
   0.206989700     0.6593201   -0.5606331  
   0.208989600     0.5689880   -0.6520764  
   0.210989500     0.4680842   -0.7266345  
   0.212989400     0.3587532   -0.7840787  
   0.214989300     0.2447958   -0.8238725  
   0.216989200     0.1284598   -0.8462172  
   0.218989100     0.0123240   -0.8517200  
   0.220989000    -0.1026588   -0.8407318  
   0.222988900    -0.2141981   -0.8134222  
   0.224988800    -0.3204420   -0.7713204  
   0.226988700    -0.4197577   -0.7150021  
   0.228988600    -0.5095969   -0.6456369  
   0.230988500    -0.5894460   -0.5637597  
   0.232988400    -0.6564856   -0.4698426  
   0.234988300    -0.7111059   -0.3664878  
   0.236988200    -0.7507465   -0.2545155  
   0.238988100    -0.7734573   -0.1361149  
   0.240988000    -0.7785152   -0.0139432  
   0.242987900    -0.7642127    0.1095912  
   0.244987800    -0.7300853    0.2320499  
   0.246987700    -0.6752736    0.3501664  
   0.248987600    -0.6001409    0.4605977  
   0.250987500    -0.5047537    0.5590556  
   0.252987400    -0.3919701    0.6408401  
   0.254987300    -0.2646696    0.7024413  
   0.256987200    -0.1261561    0.7410471  
   0.258987100     0.0195094    0.7555412  
   0.260987000     0.1669675    0.7412266  
   0.262986900     0.3107135    0.6995028  
   0.264986800     0.4446774    0.6307777  
   0.266986700     0.5633001    0.5384480  
   0.268986600     0.6618563    0.4262866  
   0.270986500     0.7368537    0.2995451  
   0.272986400     0.7868665    0.1625019  
   0.274986300     0.8108189    0.0216123  
   0.276986200     0.8095728   -0.1191338  
   0.278986100     0.7843257   -0.2551440  
   0.280986000     0.7367957   -0.3819625  
   0.282985900     0.6707316   -0.4969142  
   0.284985800     0.5886526   -0.5971727  
   0.286985700     0.4939233   -0.6806391  
   0.288985600     0.3906720   -0.7469580  
   0.290985500     0.2814779   -0.7955800  
   0.292985400     0.1686661   -0.8268808  
   0.294985300     0.0548158   -0.8414644  
   0.296985200    -0.0589530   -0.8401598  
   0.298985100    -0.1704481   -0.8227576  
   0.300985000    -0.2776912   -0.7905160  
   0.302984900    -0.3783842   -0.7442377  
   0.304984800    -0.4711991   -0.6850294  
   0.306984700    -0.5551460   -0.6144850  
   0.308984600    -0.6281649   -0.5336523  
   0.310984500    -0.6897629   -0.4440158  
   0.312984400    -0.7391113   -0.3456269  
   0.314984300    -0.7750922   -0.2400199  
   0.316984200    -0.7959303   -0.1290182  
   0.318984100    -0.8007563   -0.0127616  
   0.320984000    -0.7876554    0.1058000  
   0.322983900    -0.7548320    0.2234631  
   0.324983800    -0.7017485    0.3355291  
   0.326983700    -0.6289704    0.4373516  
   0.328983600    -0.5395806    0.5244114  
   0.330983500    -0.4377833    0.5933287  
   0.332983400    -0.3301712    0.6428303  
   0.334983300    -0.2186037    0.6755477  
   0.336983200    -0.1057742    0.6923229  
   0.338983100     0.0082144    0.6941724  
   0.340983000     0.1223940    0.6803638  
   0.342982900     0.2354030    0.6499940  
   0.344982800     0.3450333    0.6019127  
   0.346982700     0.4483540    0.5351506  
   0.348982600     0.5401164    0.4499461  
   0.350982500     0.6180860    0.3490631  
   0.352982400     0.6783020    0.2348616  
   0.354982300     0.7187415    0.1057941  
   0.356982200     0.7342554   -0.0419830  
   0.358982100     0.7199020   -0.1901975  
   0.360982000     0.6764882   -0.3320319  
   0.362981900     0.6059588   -0.4625675  
   0.364981800     0.5112609   -0.5762790  
   0.366981700     0.3964877   -0.6687967  
   0.368981600     0.2670760   -0.7367939  
   0.370981500     0.1277263   -0.7785908  
   0.372981400    -0.0156685   -0.7929183  
   0.374981300    -0.1585254   -0.7800434  
   0.376981200    -0.0375992   -0.7936832  
   0.378981100    -0.1779136   -0.7765558  
   0.380981000    -0.3118455   -0.7345402  
   0.382980900    -0.4240507   -0.6762536  
   0.384980800    -0.5199891   -0.6048324  
   0.386980700    -0.6034148   -0.5201259  
   0.388980600    -0.6728860   -0.4236716  
   0.390980500    -0.7265324   -0.3192729  
   0.392980400    -0.7638387   -0.2081396  
   0.394980300    -0.7840479   -0.0931502  
   0.396980200    -0.7869074    0.0234723  
   0.398980100    -0.7723475    0.1400937  
   0.400980000    -0.7407221    0.2540897  
   0.402979900    -0.6914772    0.3627185  
   0.404979800    -0.6263155    0.4633250  
   0.406979700    -0.5455750    0.5539248  
   0.408979600    -0.4512257    0.6319553  
   0.410979500    -0.3437654    0.6953137  
   0.412979400    -0.2256933    0.7419292  
   0.414979300    -0.0998464    0.7676894  
   0.416979200     0.0297629    0.7743381  
   0.418979100     0.1601206    0.7594844  
   0.420979000     0.2878715    0.7228392  
   0.422978900     0.4087288    0.6645945  
   0.424978800     0.5190106    0.5856656  
   0.426978700     0.6149582    0.4885232  
   0.428978600     0.6928092    0.3756568  
   0.430978500     0.7499952    0.2512191  
   0.432978400     0.7848224    0.1192690  
   0.434978300     0.7974980   -0.0163880  
   0.436978200     0.7854274   -0.1514751  
   0.438978100     0.7507573   -0.2818581  
   0.440978000     0.6949947   -0.4034256  
   0.442977900     0.6200123   -0.5129564  
   0.444977800     0.5286502   -0.6071703  
   0.446977700     0.4242319   -0.6847878  
   0.448977600     0.3100705   -0.7429542  
   0.450977500     0.1894720   -0.7812383  
   0.452977400     0.0650724   -0.7995376  
   0.454977300    -0.0599466   -0.7977676  
   0.456977200    -0.1823114   -0.7765628  
   0.458977100    -0.2989737   -0.7365057  
   0.460977000    -0.4066130   -0.6789734  
   0.462976900    -0.5032083   -0.6066029  
   0.464976800    -0.5872291   -0.5201829  
   0.466976700    -0.6563014   -0.4226210  
   0.468976600    -0.7097261   -0.3158005  
   0.470976500    -0.7459683   -0.2021116  
   0.472976400    -0.7643828   -0.0839030  
   0.474976300    -0.7642173    0.0360025  
   0.476976200    -0.7454762    0.1546915  
   0.478976100    -0.7077776    0.2692487  
   0.480976000    -0.6527126    0.3770663  
   0.482975900    -0.5809813    0.4751567  
   0.484975800    -0.4934787    0.5616907  
   0.486975700    -0.3922412    0.6330941  
   0.488975600    -0.2794585    0.6878332  
   0.490975500    -0.1577152    0.7232426  
   0.492975400    -0.0305725    0.7377302  
   0.494975300     0.0981944    0.7299558  
   0.496975200     0.2241676    0.6997049  
   0.498975100     0.3431068    0.6476979  
   0.500975000     0.4509352    0.5756119  
   0.502974900     0.5436317    0.4858474  
   0.504974800     0.6183810    0.3817430  
   0.506974700     0.6731237    0.2672068  
   0.508974600     0.7067324    0.1456406  
   0.510974500     0.7182404    0.0228700  
   0.512974400     0.7090458   -0.0977006  
   0.514974300     0.6799062   -0.2108278  
   0.516974200     0.6357564   -0.3158248  
   0.518974100     0.5778623   -0.4101605  
   0.520974000     0.5086600   -0.4931051  
   0.522973900     0.4301671   -0.5639873  
   0.524973800     0.3446666   -0.6227886  
   0.526973700     0.2520364   -0.6695243  
   0.528973600     0.1545858   -0.7036481  
   0.530973500     0.0525292   -0.7247720  
   0.532973400    -0.0526938   -0.7317609  
   0.534973300    -0.1589348   -0.7237290  
   0.536973200    -0.2654872   -0.6997749  
   0.538973100    -0.3680108   -0.6591517  
   0.540973000    -0.4643371   -0.6030857  
   0.542972900    -0.5522545   -0.5310713  
   0.544972800    -0.6288043   -0.4455001  
   0.546972700    -0.6912189   -0.3469725  
   0.548972600    -0.7376241   -0.2385505  
   0.550972500    -0.7659662   -0.1228746  
   0.552972400    -0.7754430   -0.0034400  
   0.554972300    -0.7653874    0.1168555  
   0.556972200    -0.7354491    0.2347723  
   0.558972100    -0.6867610    0.3467220  
   0.560972000    -0.6203884    0.4497579  
   0.562971900    -0.5379704    0.5408427  
   0.564971800    -0.4415086    0.6177357  
   0.566971700    -0.3334383    0.6784124  
   0.568971600    -0.2167159    0.7208396  
   0.570971500    -0.0939418    0.7438713  
   0.572971400     0.0322819    0.7464454  
   0.574971300     0.1581122    0.7282966  
   0.576971200     0.2804578    0.6887009  
   0.578971100     0.3953399    0.6287338  
   0.580971000     0.4990796    0.5497224  
   0.582970900     0.5881190    0.4538921  
   0.584970800     0.6594161    0.3442484  
   0.586970700     0.7107248    0.2240554  
   0.588970600     0.7410726    0.0964151  
   0.590970500     0.7489473   -0.0343245  
   0.592970400     0.7345873   -0.1639697  
   0.594970300     0.6981326   -0.2892592  
   0.596970200     0.6412848   -0.4057535  
   0.598970100     0.5657816   -0.5104020  
   0.600970000     0.4740406   -0.6007621  
   0.602969900     0.3692819   -0.6737695  
   0.604969800     0.2545788   -0.7276068  
   0.606969700     0.1334741   -0.7615743  
   0.608969600     0.0091330   -0.7753214  
   0.610969500    -0.1146760   -0.7690185  
   0.612969400    -0.2348561   -0.7426571  
   0.614969300    -0.3479621   -0.6980559  
   0.616969200    -0.4511809   -0.6369072  
   0.618969100    -0.5425454   -0.5615908  
   0.620969000    -0.6206774   -0.4739926  
   0.622968900    -0.6843547   -0.3760125  
   0.624968800    -0.7322362   -0.2701337  
   0.626968700    -0.7637721   -0.1579167  
   0.628968600    -0.7782379   -0.0424787  
   0.630968500    -0.7750163    0.0740076  
   0.632968400    -0.7543652    0.1887865  
   0.634968300    -0.7167652    0.2994723  
   0.636968200    -0.6624915    0.4036991  
   0.638968100    -0.5928171    0.4994420  
   0.640968000    -0.5088539    0.5831453  
   0.642967900    -0.4123066    0.6543330  
   0.644967800    -0.3051516    0.7101740  
   0.646967700    -0.1894180    0.7487714  
   0.648967600    -0.0685889    0.7689505  
   0.650967500     0.0550249    0.7700796  
   0.652967400     0.1779013    0.7512581  
   0.654967300     0.2973010    0.7128162  
   0.656967200     0.4098499    0.6548766  
   0.658967100     0.5122546    0.5790671  
   0.660967000     0.6014577    0.4866680  
   0.662966900     0.6749564    0.3793400  
   0.664966800     0.7300454    0.2599522  
   0.666966700     0.7643380    0.1326385  
   0.668966600     0.7767571    0.0008958  
   0.670966500     0.7668524   -0.1313142  
   0.672966400     0.7354005   -0.2594174  
   0.674966300     0.6820295   -0.3796302  
   0.676966200     0.6096134   -0.4882231  
   0.678966100     0.5212234   -0.5823625  
   0.680966000     0.4188615   -0.6598032  
   0.682965900     0.3065944   -0.7184550  
   0.684965800     0.1874812   -0.7579483  
   0.686965700     0.0647836   -0.7771990  
   0.688965600    -0.0582705   -0.7769655  
   0.690965500    -0.1775507   -0.7558835  
   0.692965400    -0.2913026   -0.7182139  
   0.694965300    -0.3965615   -0.6639213  
   0.696965200    -0.4914561   -0.5947938  
   0.698965100    -0.5738435   -0.5126092  
   0.700965000    -0.6426669   -0.4193976  
   0.702964900    -0.6961775   -0.3172896  
   0.704964800    -0.7338332   -0.2086662  
   0.706964700    -0.7545158   -0.0956871  
   0.708964600    -0.7577822    0.0190949  
   0.710964500    -0.7442139    0.1338485  
   0.712964400    -0.7125317    0.2451577  
   0.714964300    -0.6640623    0.3507710  
   0.716964200    -0.5997134    0.4476749  
   0.718964100    -0.5205082    0.5338289  
   0.720964000    -0.4289210    0.6067333  
   0.722963900    -0.3265991    0.6646447  
   0.724963800    -0.2154992    0.7058263  
   0.726963700    -0.0984924    0.7286416  
   0.728963600     0.0216282    0.7317401  
   0.730963500     0.1406185    0.7152181  
   0.732963400     0.2561579    0.6792580  
   0.734963300     0.3643843    0.6244154  
   0.736963200     0.4760515    0.5407929  
   0.738963100     0.5702940    0.4374467  
   0.740963000     0.6429431    0.3181475  
   0.742962900     0.6915804    0.1879662  
   0.744962800     0.7145531    0.0522639  
   0.746962700     0.7119915   -0.0846213  
   0.748962600     0.6842618   -0.2172554  
   0.750962500     0.6960211   -0.1099016  
   0.752962400     0.6653064   -0.2398596  
   0.754962300     0.6120155   -0.3610384  
   0.756962200     0.5385444   -0.4695564  
   0.758962100     0.4473705   -0.5629901  
   0.760962000     0.3415013   -0.6382598  
   0.762961900     0.2300838   -0.6915488  
   0.764961800     0.1217010   -0.7235070  
   0.766961700     0.0099948   -0.7387184  
   0.768961600    -0.1031816   -0.7367776  
   0.770961500    -0.2149148   -0.7175885  
   0.772961400    -0.3226186   -0.6814105  
   0.774961300    -0.4233784   -0.6292944  
   0.776961200    -0.5155947   -0.5616994  
   0.778961100    -0.5964575   -0.4802890  
   0.780961000    -0.6637166   -0.3866180  
   0.782960900    -0.7159750   -0.2834782  
   0.784960800    -0.7512865   -0.1724193  
   0.786960700    -0.7685379   -0.0567279  
   0.788960600    -0.7676345    0.0605875  
   0.790960500    -0.7476845    0.1763340  
   0.792960400    -0.7100832    0.2875520  
   0.794960300    -0.6552373    0.3916390  
   0.796960200    -0.5848479    0.4859124  
   0.798960100    -0.5003107    0.5675709  
   0.800960000    -0.4040673    0.6355054  
   0.802959900    -0.2979407    0.6874196  
   0.804959800    -0.1850996    0.7221939  
   0.806959700    -0.0677119    0.7387608  
   0.808959600     0.0511607    0.7363495  
   0.810959500     0.1684698    0.7156637  
   0.812959400     0.2816570    0.6759551  
   0.814959300     0.3876160    0.6184019  
   0.816959200     0.4835217    0.5444661  
   0.818959100     0.5664639    0.4554650  
   0.820959000     0.6344386    0.3534039  
   0.822958900     0.6849344    0.2414493  
   0.824958800     0.7165502    0.1219154  
   0.826958700     0.7284293   -0.0016838  
   0.828958600     0.7191631   -0.1255742  
   0.830958500     0.6896126   -0.2466081  
   0.832958400     0.6401427   -0.3608291  
   0.834958300     0.5727461   -0.4650047  
   0.836958200     0.4892587   -0.5567429  
   0.838958100     0.3919838   -0.6329547  
   0.840958000     0.2837559   -0.6920356  
   0.842957900     0.1674377   -0.7323843  
   0.844957800     0.0468280   -0.7528433  
   0.846957700    -0.0747665   -0.7537620  
   0.848957600    -0.1940695   -0.7349207  
   0.850957500    -0.3083064   -0.6973842  
   0.852957400    -0.4146211   -0.6424438  
   0.854957300    -0.5099355   -0.5719671  
   0.856957200    -0.5927713   -0.4877998  
   0.858957100    -0.6605232   -0.3928857  
   0.860957000    -0.7125974   -0.2892989  
   0.862956900    -0.7480165   -0.1801260  
   0.864956800    -0.7663606   -0.0680389  
   0.866956700    -0.7673641    0.0445185  
   0.868956600    -0.7517726    0.1559039  
   0.870956500    -0.7202042    0.2630578  
   0.872956400    -0.6728424    0.3647303  
   0.874956300    -0.6112407    0.4581509  
   0.876956200    -0.5358589    0.5421193  
   0.878956100    -0.4483208    0.6146682  
   0.880956000    -0.3504581    0.6732970  
   0.882955900    -0.2437029    0.7169656  
   0.884955800    -0.1310821    0.7443203  
   0.886955700    -0.0146006    0.7540322  
   0.888955600     0.1030740    0.7455231  
   0.890955500     0.2187839    0.7187586  
   0.892955400     0.3300045    0.6734866  
   0.894955300     0.4332621    0.6108500  
