! MS46122B
! 2250307/22442219
! 7/23/2025 7:51:36 AM
! C:\USERS\SPARKY\DOCUMENTS\VNA_DATA\JULY23_2025\3K\PORT1_MOS6.S1P
! CHANNEL.1
! TR.MEASUREMENT
! RAW.DATA
# GHZ S RI R 50.0
! FREQ.GHZ         S11RE         S11IM         
!; PortSelection: Port_1
   0.001000000     1.0459390   -0.0723103  
   0.002999900     0.9475234   -0.2223919  
   0.004999800     0.8223749   -0.0962272  
   0.006999700     0.5136838   -0.3843954  
   0.008999600     0.9360971   -0.0389247  
   0.010999500     0.9168408   -0.2452815  
   0.012999400     0.8767597   -0.3503205  
   0.014999300     0.8359492   -0.4312234  
   0.016999200     0.7941956   -0.5019151  
   0.018999100     0.7495880   -0.5674678  
   0.020999000     0.7004129   -0.6284810  
   0.022998900     0.6457115   -0.6843891  
   0.024998800     0.5775647   -0.7000628  
   0.026998700     0.5188580   -0.7817628  
   0.028998600     0.4447908   -0.8221146  
   0.030998500     0.3632163   -0.8554434  
   0.032998400     0.2788884   -0.8463048  
   0.034998300     0.1774287   -0.8955287  
   0.036998200     0.0731469   -0.8992563  
   0.038998100    -0.0368655   -0.8887445  
   0.040998000    -0.1518476   -0.8614912  
   0.042997900    -0.2700068   -0.8155801  
   0.044997800    -0.3637838   -0.7295967  
   0.046997700    -0.5019370   -0.6536955  
   0.048997600    -0.6053664   -0.5329780  
   0.050997500    -0.6907158   -0.3834006  
   0.052997400    -0.7469878   -0.2076606  
   0.054997300    -0.7638490   -0.0049816  
   0.056997200    -0.7277560    0.2084489  
   0.058997100    -0.6314076    0.4160161  
   0.060997000    -0.4753473    0.5964354  
   0.062996900    -0.2692291    0.7271600  
   0.064996800    -0.0347257    0.7928783  
   0.066996700     0.2035849    0.7891076  
   0.068996600     0.4221947    0.7225198  
   0.070996500     0.6057852    0.6079635  
   0.072996400     0.7455136    0.4615810  
   0.074996300     0.8407076    0.2990291  
   0.076996200     0.8945903    0.1329517  
   0.078996100     0.9135234   -0.0276099  
   0.080996000     0.9034288   -0.1784649  
   0.082995900     0.8697718   -0.3159082  
   0.084995800     0.8170033   -0.4379614  
   0.086995700     0.7512370   -0.5449567  
   0.088995600     0.6742725   -0.6368690  
   0.090995500     0.5892044   -0.7148549  
   0.092995400     0.4984212   -0.7791184  
   0.094995300     0.4021130   -0.8295121  
   0.096995200     0.3025969   -0.8668878  
   0.098995100     0.2008434   -0.8914513  
   0.100995000     0.0969056   -0.9037893  
   0.102994900    -0.0068317   -0.9038721  
   0.104994800    -0.1101943   -0.8915197  
   0.106994700    -0.2123870   -0.8662731  
   0.108994600    -0.3117310   -0.8292246  
   0.110994500    -0.4080574   -0.7793918  
   0.112994400    -0.4991125   -0.7169970  
   0.114994300    -0.5836438   -0.6412491  
   0.116994200    -0.6595756   -0.5522551  
   0.118994100    -0.7252945   -0.4507797  
   0.120994000    -0.7790838   -0.3377958  
   0.122993900    -0.8159479   -0.2125452  
   0.124993800    -0.8340544   -0.0778876  
   0.126993700    -0.8303189    0.0636203  
   0.128993600    -0.8006853    0.2079009  
   0.130993500    -0.7460362    0.3512976  
   0.132993400    -0.6634007    0.4878389  
   0.134993300    -0.5527079    0.6107813  
   0.136993200    -0.4163600    0.7133282  
   0.138993100    -0.2581196    0.7884794  
   0.140993000    -0.0847420    0.8307386  
   0.142992900     0.0961621    0.8362653  
   0.144992800     0.2753404    0.8051581  
   0.146992700     0.4429886    0.7358839  
   0.148992600     0.5912400    0.6343485  
   0.150992500     0.7119998    0.5066415  
   0.152992400     0.8036972    0.3612348  
   0.154992300     0.8631433    0.2052547  
   0.156992200     0.8911377    0.0459859  
   0.158992100     0.8895637   -0.1100000  
   0.160992000     0.8612524   -0.2579715  
   0.162991900     0.8098590   -0.3934819  
   0.164991800     0.7392883   -0.5147611  
   0.166991700     0.6533758   -0.6190246  
   0.168991600     0.5557328   -0.7060904  
   0.170991500     0.4489583   -0.7758074  
   0.172991400     0.3362457   -0.8274567  
   0.174991300     0.2202534   -0.8618311  
   0.176991200     0.1024535   -0.8794269  
   0.178991100    -0.0146882   -0.8805769  
   0.180991000    -0.1295521   -0.8666249  
   0.182990900    -0.2407881   -0.8368891  
   0.184990800    -0.3469261   -0.7925540  
   0.186990700    -0.4460250   -0.7343228  
   0.188990600    -0.5175511   -0.6776215  
   0.190990500    -0.6145242   -0.5815427  
   0.192990400    -0.6862321   -0.4842199  
   0.194990300    -0.7424392   -0.3787422  
   0.196990200    -0.7840053   -0.2655123  
   0.198990100    -0.8093892   -0.1450197  
   0.200990000    -0.8169641   -0.0191433  
   0.202989900    -0.8053392    0.1096049  
   0.204989800    -0.7735913    0.2381431  
   0.206989700    -0.7217196    0.3635413  
   0.208989600    -0.6477135    0.4810331  
   0.210989500    -0.5527878    0.5874622  
   0.212989400    -0.4378124    0.6786467  
   0.214989300    -0.3063542    0.7503009  
   0.216989200    -0.1621815    0.7981857  
   0.218989100    -0.0094007    0.8200861  
   0.220989000     0.1472740    0.8130897  
   0.222988900     0.3014235    0.7775761  
   0.224988800     0.4470153    0.7133728  
   0.226988700     0.5776870    0.6235346  
   0.228988600     0.6890345    0.5121500  
   0.230988500     0.7771029    0.3836519  
   0.232988400     0.8386734    0.2425852  
   0.234988300     0.8746091    0.0951857  
   0.236988200     0.8842341   -0.0534668  
   0.238988100     0.8684484   -0.1980603  
   0.240988000     0.8296185   -0.3349108  
   0.242987900     0.7702927   -0.4595216  
   0.244987800     0.6940481   -0.5708563  
   0.246987700     0.6032798   -0.6669000  
   0.248987600     0.5010425   -0.7464805  
   0.250987500     0.3900208   -0.8084724  
   0.252987400     0.2740867   -0.8527527  
   0.254987300     0.1555731   -0.8790749  
   0.256987200     0.0367915   -0.8884023  
   0.258987100    -0.0811926   -0.8827010  
   0.260987000    -0.1959477   -0.8595706  
   0.262986900    -0.3063325   -0.8212410  
   0.264986800    -0.4101039   -0.7682074  
   0.266986700    -0.5053428   -0.7016818  
   0.268986600    -0.5908840   -0.6226304  
   0.270986500    -0.6644983   -0.5327247  
   0.272986400    -0.7257617   -0.4327423  
   0.274986300    -0.7728394   -0.3240184  
   0.276986200    -0.8044359   -0.2079364  
   0.278986100    -0.8195233   -0.0861755  
   0.280986000    -0.8160198    0.0392082  
   0.282985900    -0.7929105    0.1655643  
   0.284985800    -0.7497239    0.2892723  
   0.286985700    -0.6855391    0.4068002  
   0.288985600    -0.6012990    0.5149850  
   0.290985500    -0.4982809    0.6087033  
   0.292985400    -0.3777535    0.6848218  
   0.294985300    -0.2425101    0.7392697  
   0.296985200    -0.0962161    0.7689804  
   0.298985100     0.0562398    0.7703485  
   0.300985000     0.2078840    0.7418608  
   0.302984900     0.3518744    0.6835004  
   0.304984800     0.4811637    0.5976251  
   0.306984700     0.5896981    0.4877476  
   0.308984600     0.6725347    0.3604503  
   0.310984500     0.7266813    0.2218824  
   0.312984400     0.7506942    0.0794599  
   0.314984300     0.7464851   -0.0601147  
   0.316984200     0.7163063   -0.1899155  
   0.318984100     0.6648007   -0.3061314  
   0.320984000     0.5967428   -0.4046316  
   0.322983900     0.5188332   -0.4840527  
   0.324983800     0.4370444   -0.5447488  
   0.326983700     0.3565041   -0.5896403  
   0.328983600     0.2794397   -0.6238886  
   0.330983500     0.2067513   -0.6519018  
   0.332983400     0.1350950   -0.6779036  
   0.334983300     0.0598096   -0.7025307  
   0.336983200    -0.0236751   -0.7235839  
   0.338983100    -0.1168559   -0.7355999  
   0.340983000    -0.2182715   -0.7332167  
   0.342982900    -0.3240837   -0.7125923  
   0.344982800    -0.4290308   -0.6718562  
   0.346982700    -0.5288786   -0.6110645  
   0.348982600    -0.6169513   -0.5314726  
   0.350982500    -0.6922501   -0.4384738  
   0.352982400    -0.7514642   -0.3329588  
   0.354982300    -0.7942631   -0.2132061  
   0.356982200    -0.8178931   -0.0727759  
   0.358982100    -0.8158585    0.0688986  
   0.360982000    -0.7884872    0.2074734  
   0.362981900    -0.7370873    0.3396223  
   0.364981800    -0.6631781    0.4608914  
   0.366981700    -0.5687148    0.5681584  
   0.368981600    -0.4562379    0.6574510  
   0.370981500    -0.3286856    0.7260443  
   0.372981400    -0.1896341    0.7713980  
   0.374981300    -0.0428883    0.7914624  
   0.376981200    -0.1512245    0.7862815  
   0.378981100     0.0026634    0.7991851  
   0.380981000     0.1576249    0.7829601  
   0.382980900     0.2961856    0.7421995  
   0.384980800     0.4214522    0.6803625  
   0.386980700     0.5351832    0.5972481  
   0.388980600     0.6336758    0.4950246  
   0.390980500     0.7127457    0.3774576  
   0.392980400     0.7698660    0.2485338  
   0.394980300     0.8040216    0.1120022  
   0.396980200     0.8140471   -0.0275604  
   0.398980100     0.7997636   -0.1661098  
   0.400980000     0.7627182   -0.2991577  
   0.402979900     0.7038503   -0.4225958  
   0.404979800     0.6264951   -0.5331527  
   0.406979700     0.5325633   -0.6279268  
   0.408979600     0.4264496   -0.7049830  
   0.410979500     0.3098021   -0.7634928  
   0.412979400     0.1867884   -0.8019180  
   0.414979300     0.0606235   -0.8187032  
   0.416979200    -0.0651264   -0.8166375  
   0.418979100    -0.1874025   -0.7958293  
   0.420979000    -0.3033191   -0.7565401  
   0.422978900    -0.4119280   -0.7007031  
   0.424978800    -0.5093583   -0.6296003  
   0.426978700    -0.5950957   -0.5450152  
   0.428978600    -0.6664699   -0.4492594  
   0.430978500    -0.7225975   -0.3447068  
   0.432978400    -0.7623683   -0.2336953  
   0.434978300    -0.7867453   -0.1189965  
   0.436978200    -0.7927276   -0.0009571  
   0.438978100    -0.7813566    0.1170919  
   0.440978000    -0.7526000    0.2322152  
   0.442977900    -0.7066688    0.3428711  
   0.444977800    -0.6443762    0.4465632  
   0.446977700    -0.5662422    0.5396571  
   0.448977600    -0.4742467    0.6210889  
   0.450977500    -0.3697897    0.6882449  
   0.452977400    -0.2543984    0.7388002  
   0.454977300    -0.1306885    0.7709917  
   0.456977200    -0.0014959    0.7830716  
   0.458977100     0.1295780    0.7740514  
   0.460977000     0.2579793    0.7434205  
   0.462976900     0.3806870    0.6916374  
   0.464976800     0.4936540    0.6194045  
   0.466976700     0.5933592    0.5286940  
   0.468976600     0.6766546    0.4223654  
   0.470976500     0.7410148    0.3034178  
   0.472976400     0.7841076    0.1751480  
   0.474976300     0.8046668    0.0419333  
   0.476976200     0.8026221   -0.0918402  
   0.478976100     0.7787129   -0.2221158  
   0.480976000     0.7341461   -0.3452559  
   0.482975900     0.6706280   -0.4576367  
   0.484975800     0.5914353   -0.5568455  
   0.486975700     0.4983299   -0.6410657  
   0.488975600     0.3942433   -0.7090184  
   0.490975500     0.2828267   -0.7590615  
   0.492975400     0.1665024   -0.7915208  
   0.494975300     0.0480111   -0.8055683  
   0.496975200    -0.0698179   -0.8017620  
   0.498975100    -0.1840441   -0.7812331  
   0.500975000    -0.2929740   -0.7446979  
   0.502974900    -0.3946862   -0.6933007  
   0.504974800    -0.4877898   -0.6285200  
   0.506974700    -0.5703684   -0.5509515  
   0.508974600    -0.6421140   -0.4618745  
   0.510974500    -0.7001946   -0.3633243  
   0.512974400    -0.7438787   -0.2571974  
   0.514974300    -0.7701181   -0.1451391  
   0.516974200    -0.7810047   -0.0298310  
   0.518974100    -0.7743986    0.0865983  
   0.520974000    -0.7499463    0.2019443  
   0.522973900    -0.7074283    0.3129077  
   0.524973800    -0.6471790    0.4167604  
   0.526973700    -0.5703486    0.5102375  
   0.528973600    -0.4790035    0.5905063  
   0.530973500    -0.3756312    0.6549789  
   0.532973400    -0.2631395    0.7018226  
   0.534973300    -0.1447856    0.7297338  
   0.536973200    -0.0235441    0.7387338  
   0.538973100     0.0967325    0.7283963  
   0.540973000     0.2134646    0.6994765  
   0.542972900     0.3237558    0.6530985  
   0.544972800     0.4258355    0.5903388  
   0.546972700     0.5172037    0.5119132  
   0.548972600     0.5952986    0.4199333  
   0.550972500     0.6581200    0.3167224  
   0.552972400     0.7047069    0.2040371  
   0.554972300     0.7323315    0.0853142  
   0.556972200     0.7404622   -0.0369047  
   0.558972100     0.7291759   -0.1588633  
   0.560972000     0.6981972   -0.2776237  
   0.562971900     0.6489373   -0.3894465  
   0.564971800     0.5825575   -0.4915627  
   0.566971700     0.5010152   -0.5812224  
   0.568971600     0.4066595   -0.6567037  
   0.570971500     0.3019666   -0.7158953  
   0.572971400     0.1898643   -0.7578627  
   0.574971300     0.0723214   -0.7815754  
   0.576971200    -0.0474075   -0.7866135  
   0.578971100    -0.1657958   -0.7731903  
   0.580971000    -0.2804263   -0.7417211  
   0.582970900    -0.3878234   -0.6935727  
   0.584970800    -0.4857610   -0.6300817  
   0.586970700    -0.5724908   -0.5530115  
   0.588970600    -0.6462664   -0.4645227  
   0.590970500    -0.7061192   -0.3663297  
   0.592970400    -0.7506154   -0.2607763  
   0.594970300    -0.7790239   -0.1498002  
   0.596970200    -0.7908740   -0.0362670  
   0.598970100    -0.7861501    0.0781901  
   0.600970000    -0.7645202    0.1909025  
   0.602969900    -0.7264671    0.2995859  
   0.604969800    -0.6725334    0.4021110  
   0.606969700    -0.6037499    0.4962978  
   0.608969600    -0.5207220    0.5796928  
   0.610969500    -0.4253812    0.6500936  
   0.612969400    -0.3198484    0.7057614  
   0.614969300    -0.2057352    0.7452968  
   0.616969200    -0.0864492    0.7665111  
   0.618969100     0.0350332    0.7689775  
   0.620969000     0.1563174    0.7527111  
   0.622968900     0.2748604    0.7168640  
   0.624968800     0.3870621    0.6625074  
   0.626968700     0.4901415    0.5895486  
   0.628968600     0.5807782    0.5003034  
   0.630968500     0.6561207    0.3964456  
   0.632968400     0.7136986    0.2810380  
   0.634968300     0.7511241    0.1572895  
   0.636968200     0.7674468    0.0286121  
   0.638968100     0.7621070   -0.1009069  
   0.640968000     0.7350176   -0.2279725  
   0.642967900     0.6870977   -0.3476861  
   0.644967800     0.6203160   -0.4574620  
   0.646967700     0.5365151   -0.5538738  
   0.648967600     0.4391063   -0.6340007  
   0.650967500     0.3311001   -0.6967490  
   0.652967400     0.2157140   -0.7403163  
   0.654967300     0.0964717   -0.7644250  
   0.656967200    -0.0239848   -0.7692751  
   0.658967100    -0.1424495   -0.7551883  
   0.660967000    -0.2561202   -0.7233696  
   0.662966900    -0.3631096   -0.6742985  
   0.664966800    -0.4606675   -0.6098954  
   0.666966700    -0.5465980   -0.5316194  
   0.668966600    -0.6188391   -0.4420108  
   0.670966500    -0.6766602   -0.3427225  
   0.672966400    -0.7193705   -0.2367615  
   0.674966300    -0.7445299   -0.1261868  
   0.676966200    -0.7525840   -0.0135844  
   0.678966100    -0.7442979    0.0988809  
   0.680966000    -0.7190960    0.2088331  
   0.682965900    -0.6775548    0.3137989  
   0.684965800    -0.6205656    0.4116525  
   0.686965700    -0.5493302    0.5004963  
   0.688965600    -0.4647712    0.5779856  
   0.690965500    -0.3682911    0.6408042  
   0.692965400    -0.2629545    0.6895947  
   0.694965300    -0.1504392    0.7214142  
   0.696965200    -0.0333810    0.7355761  
   0.698965100     0.0855898    0.7307439  
   0.700965000     0.2036517    0.7067437  
   0.702964900     0.3170473    0.6634752  
   0.704964800     0.4226004    0.6017467  
   0.706964700     0.5174761    0.5227593  
   0.708964600     0.5980715    0.4282507  
   0.710964500     0.6630714    0.3219916  
   0.712964400     0.7084732    0.2053788  
   0.714964300     0.7331688    0.0828093  
   0.716964200     0.7371251   -0.0413345  
   0.718964100     0.7202533   -0.1632026  
   0.720964000     0.6836620   -0.2786860  
   0.722963900     0.6292346   -0.3859516  
   0.724963800     0.5591507   -0.4815015  
   0.726963700     0.4757755   -0.5639561  
   0.728963600     0.3815003   -0.6312402  
   0.730963500     0.2788003   -0.6821616  
   0.732963400     0.1715352   -0.7165765  
   0.734963300     0.0612650   -0.7345040  
   0.736963200    -0.0656233   -0.7342809  
   0.738963100    -0.1897655   -0.7120151  
   0.740963000    -0.3074353   -0.6693317  
   0.742962900    -0.4155283   -0.6075803  
   0.744962800    -0.5111871   -0.5287192  
   0.746962700    -0.5920694   -0.4349414  
   0.748962600    -0.6558854   -0.3281877  
   0.750962500    -0.6142242   -0.4237391  
   0.752962400    -0.6762564   -0.3146370  
   0.754962300    -0.7186525   -0.1960480  
   0.756962200    -0.7400450   -0.0714579  
   0.758962100    -0.7392778    0.0553774  
   0.760962000    -0.7160907    0.1809912  
   0.762961900    -0.6738963    0.2958558  
   0.764961800    -0.6189840    0.3929842  
   0.766961700    -0.5495854    0.4808601  
   0.768961600    -0.4666809    0.5570637  
   0.770961500    -0.3730088    0.6193730  
   0.772961400    -0.2706213    0.6662583  
   0.774961300    -0.1621155    0.6958941  
   0.776961200    -0.0501189    0.7086988  
   0.778961100     0.0630023    0.7038619  
   0.780961000     0.1745303    0.6812139  
   0.782960900     0.2811600    0.6411541  
   0.784960800     0.3812372    0.5843061  
   0.786960700     0.4714074    0.5120245  
   0.788960600     0.5494852    0.4260362  
   0.790960500     0.6127558    0.3286608  
   0.792960400     0.6595758    0.2222584  
   0.794960300     0.6889360    0.1092146  
   0.796960200     0.6996471   -0.0067010  
   0.798960100     0.6914384   -0.1230651  
   0.800960000     0.6647740   -0.2366282  
   0.802959900     0.6201840   -0.3442625  
   0.804959800     0.5587372   -0.4435193  
   0.806959700     0.4824872   -0.5309761  
   0.808959600     0.3931560   -0.6052656  
   0.810959500     0.2932107   -0.6643484  
   0.812959400     0.1852586   -0.7067018  
   0.814959300     0.0722425   -0.7312198  
   0.816959200    -0.0429341   -0.7373755  
   0.818959100    -0.1570811   -0.7251031  
   0.820959000    -0.2675902   -0.6953939  
   0.822958900    -0.3716453   -0.6486158  
   0.824958800    -0.4665636   -0.5866120  
   0.826958700    -0.5503403   -0.5107176  
   0.828958600    -0.6214451   -0.4234204  
   0.830958500    -0.6776150   -0.3265706  
   0.832958400    -0.7185863   -0.2228555  
   0.834958300    -0.7429537   -0.1146319  
   0.836958200    -0.7506176   -0.0040762  
   0.838958100    -0.7418999    0.1056838  
   0.840958000    -0.7167292    0.2130132  
   0.842957900    -0.6752491    0.3151447  
   0.844957800    -0.6191723    0.4104234  
   0.846957700    -0.5492915    0.4965203  
   0.848957600    -0.4667487    0.5713280  
   0.850957500    -0.3735927    0.6329578  
   0.852957400    -0.2718503    0.6801201  
   0.854957300    -0.1631724    0.7111443  
   0.856957200    -0.0504112    0.7253894  
   0.858957100     0.0636843    0.7215383  
   0.860957000     0.1762008    0.7001594  
   0.862956900     0.2838963    0.6611985  
   0.864956800     0.3846351    0.6055056  
   0.866956700     0.4755135    0.5344772  
   0.868956600     0.5541261    0.4490167  
   0.870956500     0.6189413    0.3515134  
   0.872956400     0.6674588    0.2441780  
   0.874956300     0.6981467    0.1295110  
   0.876956200     0.7097777    0.0102862  
   0.878956100     0.7010272   -0.1094858  
   0.880956000     0.6724197   -0.2270536  
   0.882955900     0.6245416   -0.3376734  
   0.884955800     0.5587354   -0.4390965  
   0.886955700     0.4768632   -0.5275944  
   0.888955600     0.3815626   -0.6009192  
   0.890955500     0.2757517   -0.6569603  
   0.892955400     0.1629663   -0.6943656  
   0.894955300     0.0462875   -0.7121609  
