! MS46122B
! 2250307/22442219
! 7/22/2025 7:54:44 AM
! C:\USERS\SPARKY\DOCUMENTS\VNA_DATA\JULY22_2025\3K\PORT2_MOS2_REPEAT1.S1P
! CHANNEL.1
! TR.MEASUREMENT
! RAW.DATA
# GHZ S RI R 50.0
! FREQ.GHZ         S11RE         S11IM         
!; PortSelection: Port_1
   0.001000000     1.0459040   -0.0715583  
   0.002999900     0.9642743   -0.1941213  
   0.004999800     0.9041635   -0.2991667  
   0.006999700     0.8368847   -0.3968492  
   0.008999600     0.7585800   -0.4922858  
   0.010999500     0.6657826   -0.5831154  
   0.012999400     0.5531455   -0.6667950  
   0.014999300     0.4146720   -0.7374921  
   0.016999200     0.2442288   -0.7827847  
   0.018999100     0.0368531   -0.7834193  
   0.020999000    -0.2002768   -0.7060394  
   0.022998900    -0.4315884   -0.5105919  
   0.024998800    -0.5528666   -0.1830941  
   0.026998700    -0.5229447    0.2218237  
   0.028998600    -0.2616170    0.5411986  
   0.030998500     0.0973773    0.6697008  
   0.032998400     0.3948953    0.6127879  
   0.034998300     0.6566128    0.4872395  
   0.036998200     0.8021961    0.3144815  
   0.038998100     0.8807925    0.1409974  
   0.040998000     0.9118237   -0.0199233  
   0.042997900     0.9095374   -0.1642569  
   0.044997800     0.8582934   -0.2662944  
   0.046997700     0.8421525   -0.4030933  
   0.048997600     0.7886413   -0.5000322  
   0.050997500     0.7260872   -0.5837498  
   0.052997400     0.6573240   -0.6555881  
   0.054997300     0.5833366   -0.7163475  
   0.056997200     0.5040213   -0.7685940  
   0.058997100     0.4219043   -0.8105419  
   0.060997000     0.3364067   -0.8438470  
   0.062996900     0.2484716   -0.8677896  
   0.064996800     0.1578055   -0.8821128  
   0.066996700     0.0649279   -0.8873347  
   0.068996600    -0.0292033   -0.8820744  
   0.070996500    -0.1243387   -0.8670203  
   0.072996400    -0.2197827   -0.8393146  
   0.074996300    -0.3142162   -0.7990400  
   0.076996200    -0.4063425   -0.7458901  
   0.078996100    -0.4939278   -0.6784335  
   0.080996000    -0.5753644   -0.5961105  
   0.082995900    -0.6476594   -0.4986111  
   0.084995800    -0.7069150   -0.3864364  
   0.086995700    -0.7511909   -0.2600136  
   0.088995600    -0.7748964   -0.1211831  
   0.090995500    -0.7746319    0.0271643  
   0.092995400    -0.7463827    0.1806382  
   0.094995300    -0.6860586    0.3324536  
   0.096995200    -0.5920153    0.4751416  
   0.098995100    -0.4659002    0.5987447  
   0.100995000    -0.3105513    0.6960732  
   0.102994900    -0.1358838    0.7561452  
   0.104994800     0.0490475    0.7756475  
   0.106994700     0.2327664    0.7517903  
   0.108994600     0.4044298    0.6893845  
   0.110994500     0.5547373    0.5929212  
   0.112994400     0.6768960    0.4699642  
   0.114994300     0.7675310    0.3299870  
   0.116994200     0.8261263    0.1808301  
   0.118994100     0.8537992    0.0302429  
   0.120994000     0.8551994   -0.1164405  
   0.122993900     0.8304306   -0.2543460  
   0.124993800     0.7851456   -0.3806129  
   0.126993700     0.7227622   -0.4932443  
   0.128993600     0.6462286   -0.5903723  
   0.130993500     0.5599416   -0.6729470  
   0.132993400     0.4660502   -0.7404249  
   0.134993300     0.3661564   -0.7926158  
   0.136993200     0.2627043   -0.8301606  
   0.138993100     0.1571523   -0.8535228  
   0.140993000     0.0508881   -0.8625423  
   0.142992900    -0.0550293   -0.8581114  
   0.144992800    -0.1587019   -0.8416907  
   0.146992700    -0.2594702   -0.8110533  
   0.148992600    -0.3560741   -0.7676060  
   0.150992500    -0.4453498   -0.7109056  
   0.152992400    -0.5295194   -0.6433716  
   0.154992300    -0.6048318   -0.5646994  
   0.156992200    -0.6701521   -0.4747673  
   0.158992100    -0.7240741   -0.3748972  
   0.160992000    -0.7644674   -0.2659624  
   0.162991900    -0.7900404   -0.1493212  
   0.164991800    -0.7986297   -0.0268566  
   0.166991700    -0.7883372    0.0988473  
   0.168991600    -0.7580614    0.2253647  
   0.170991500    -0.7064349    0.3493958  
   0.172991400    -0.6328756    0.4663926  
   0.174991300    -0.5385330    0.5724446  
   0.176991200    -0.4239565    0.6628405  
   0.178991100    -0.2919856    0.7332834  
   0.180991000    -0.1468216    0.7803445  
   0.182990900     0.0070054    0.7989400  
   0.184990800     0.1638710    0.7884511  
   0.186990700     0.3168719    0.7478959  
   0.188990600     0.4388826    0.6916257  
   0.190990500     0.5821122    0.5873616  
   0.192990400     0.6900221    0.4696050  
   0.194990300     0.7709628    0.3382630  
   0.196990200     0.8255702    0.1974342  
   0.198990100     0.8533097    0.0520574  
   0.200990000     0.8546878   -0.0928154  
   0.202989900     0.8313540   -0.2321815  
   0.204989800     0.7863439   -0.3627668  
   0.206989700     0.7234255   -0.4808441  
   0.208989600     0.6437149   -0.5838380  
   0.210989500     0.5511620   -0.6715658  
   0.212989400     0.4480826   -0.7426358  
   0.214989300     0.3383588   -0.7960626  
   0.216989200     0.2245668   -0.8320622  
   0.218989100     0.1086565   -0.8512485  
   0.220989000    -0.0071231   -0.8537354  
   0.222988900    -0.1211339   -0.8399308  
   0.224988800    -0.2317749   -0.8102045  
   0.226988700    -0.3361657   -0.7661836  
   0.228988600    -0.4333206   -0.7083674  
   0.230988500    -0.5214629   -0.6377349  
   0.232988400    -0.5984076   -0.5538476  
   0.234988300    -0.6648231   -0.4597721  
   0.236988200    -0.7175250   -0.3559233  
   0.238988100    -0.7551011   -0.2440958  
   0.240988000    -0.7760070   -0.1265805  
   0.242987900    -0.7795495   -0.0053455  
   0.244987800    -0.7639582    0.1172737  
   0.246987700    -0.7288230    0.2390605  
   0.248987600    -0.6729969    0.3564432  
   0.250987500    -0.5973584    0.4657422  
   0.252987400    -0.5024252    0.5626048  
   0.254987300    -0.3907877    0.6430780  
   0.256987200    -0.2640980    0.7037951  
   0.258987100    -0.1265964    0.7436788  
   0.260987000     0.0185472    0.7565572  
   0.262986900     0.1654383    0.7424688  
   0.264986800     0.3085421    0.7013937  
   0.266986700     0.4417692    0.6336530  
   0.268986600     0.5599942    0.5426974  
   0.270986500     0.6585984    0.4320376  
   0.272986400     0.7341487    0.3065071  
   0.274986300     0.7851154    0.1707377  
   0.276986200     0.8103673    0.0303170  
   0.278986100     0.8105738   -0.1103583  
   0.280986000     0.7865884   -0.2461059  
   0.282985900     0.7406496   -0.3734889  
   0.284985800     0.6759163   -0.4886392  
   0.286985700     0.5953618   -0.5891907  
   0.288985600     0.5027355   -0.6729679  
   0.290985500     0.4009103   -0.7401583  
   0.292985400     0.2930738   -0.7900913  
   0.294985300     0.1813956   -0.8227800  
   0.296985200     0.0678290   -0.8390627  
   0.298985100    -0.0458970   -0.8393920  
   0.300985000    -0.1570697   -0.8236822  
   0.302984900    -0.2636665   -0.7935244  
   0.304984800    -0.3639418   -0.7495642  
   0.306984700    -0.4565417   -0.6929665  
   0.308984600    -0.5401374   -0.6256976  
   0.310984500    -0.6139740   -0.5480613  
   0.312984400    -0.6767949   -0.4612112  
   0.314984300    -0.7283733   -0.3661933  
   0.316984200    -0.7670231   -0.2637261  
   0.318984100    -0.7917058   -0.1544185  
   0.320984000    -0.8007813   -0.0399533  
   0.322983900    -0.7923769    0.0771770  
   0.324983800    -0.7652822    0.1942385  
   0.326983700    -0.7184566    0.3063134  
   0.328983600    -0.6526614    0.4096039  
   0.330983500    -0.5704759    0.4996835  
   0.332983400    -0.4763271    0.5735702  
   0.334983300    -0.3736869    0.6311856  
   0.336983200    -0.2652923    0.6730491  
   0.338983100    -0.1525396    0.6992496  
   0.340983000    -0.0365425    0.7096741  
   0.342982900     0.0809769    0.7033582  
   0.344982800     0.1988211    0.6789969  
   0.346982700     0.3139016    0.6356944  
   0.348982600     0.4214909    0.5723466  
   0.350982500     0.5194412    0.4920117  
   0.352982400     0.6034393    0.3943032  
   0.354982300     0.6719927    0.2783343  
   0.356982200     0.7213751    0.1384028  
   0.358982100     0.7423608   -0.0086771  
   0.360982000     0.7337506   -0.1569236  
   0.362981900     0.6960494   -0.3006966  
   0.364981800     0.6310331   -0.4343412  
   0.366981700     0.5414603   -0.5521262  
   0.368981600     0.4313554   -0.6497592  
   0.370981500     0.3050402   -0.7237481  
   0.372981400     0.1677863   -0.7720613  
   0.374981300     0.0250960   -0.7934610  
   0.376981200     0.1433690   -0.7784539  
   0.378981100     0.0022290   -0.7940969  
   0.380981000    -0.1379746   -0.7837121  
   0.382980900    -0.2607493   -0.7525886  
   0.384980800    -0.3706309   -0.7053512  
   0.386980700    -0.4707952   -0.6417657  
   0.388980600    -0.5599596   -0.5642087  
   0.390980500    -0.6355293   -0.4750813  
   0.392980400    -0.6963547   -0.3765901  
   0.394980300    -0.7416892   -0.2710802  
   0.396980200    -0.7707843   -0.1601963  
   0.398980100    -0.7837605   -0.0457151  
   0.400980000    -0.7795837    0.0695472  
   0.402979900    -0.7585417    0.1836278  
   0.404979800    -0.7206535    0.2938541  
   0.406979700    -0.6665310    0.3978588  
   0.408979600    -0.5969791    0.4936771  
   0.410979500    -0.5120606    0.5794666  
   0.412979400    -0.4137451    0.6524534  
   0.414979300    -0.3033140    0.7084636  
   0.416979200    -0.1842156    0.7482713  
   0.418979100    -0.0590760    0.7690542  
   0.420979000     0.0691560    0.7693174  
   0.422978900     0.1974447    0.7483547  
   0.424978800     0.3221080    0.7060552  
   0.426978700     0.4391330    0.6425697  
   0.428978600     0.5445626    0.5600505  
   0.430978500     0.6345573    0.4604408  
   0.432978400     0.7063575    0.3468181  
   0.434978300     0.7589034    0.2228112  
   0.436978200     0.7883636    0.0917745  
   0.438978100     0.7953905   -0.0424326  
   0.440978000     0.7796614   -0.1750610  
   0.442977900     0.7415566   -0.3022838  
   0.444977800     0.6832123   -0.4203481  
   0.446977700     0.6066579   -0.5262287  
   0.448977600     0.5149937   -0.6168285  
   0.450977500     0.4106885   -0.6906862  
   0.452977400     0.2967425   -0.7458863  
   0.454977300     0.1760869   -0.7817490  
   0.456977200     0.0520769   -0.7977825  
   0.458977100    -0.0718120   -0.7938656  
   0.460977000    -0.1918959   -0.7710151  
   0.462976900    -0.3054689   -0.7302521  
   0.464976800    -0.4104640   -0.6725599  
   0.466976700    -0.5051345   -0.6000744  
   0.468976600    -0.5868998   -0.5146895  
   0.470976500    -0.6545709   -0.4183007  
   0.472976400    -0.7064878   -0.3126372  
   0.474976300    -0.7418274   -0.2006901  
   0.476976200    -0.7595335   -0.0847356  
   0.478976100    -0.7593301    0.0324014  
   0.480976000    -0.7414011    0.1485515  
   0.482975900    -0.7053884    0.2602665  
   0.484975800    -0.6524683    0.3662166  
   0.486975700    -0.5825965    0.4636675  
   0.488975600    -0.4976713    0.5497368  
   0.490975500    -0.3987568    0.6213698  
   0.492975400    -0.2884132    0.6765260  
   0.494975300    -0.1690549    0.7129680  
   0.496975200    -0.0443149    0.7287694  
   0.498975100     0.0820019    0.7228143  
   0.500975000     0.2056064    0.6949276  
   0.502974900     0.3221744    0.6460871  
   0.504974800     0.4283110    0.5774341  
   0.506974700     0.5202914    0.4913602  
   0.508974600     0.5952401    0.3906875  
   0.510974500     0.6506121    0.2804419  
   0.512974400     0.6854730    0.1642979  
   0.514974300     0.6984549    0.0474757  
   0.516974200     0.6937149   -0.0672594  
   0.518974100     0.6720419   -0.1763364  
   0.520974000     0.6354805   -0.2784550  
   0.522973900     0.5855772   -0.3717624  
   0.524973800     0.5246943   -0.4559357  
   0.526973700     0.4537507   -0.5305456  
   0.528973600     0.3745763   -0.5945460  
   0.530973500     0.2865251   -0.6480123  
   0.532973400     0.1920881   -0.6891918  
   0.534973300     0.0915199   -0.7172650  
   0.536973200    -0.0140339   -0.7310240  
   0.538973100    -0.1211940   -0.7291942  
   0.540973000    -0.2280603   -0.7103480  
   0.542972900    -0.3323951   -0.6754663  
   0.544972800    -0.4313688   -0.6241098  
   0.546972700    -0.5224599   -0.5563985  
   0.548972600    -0.6027173   -0.4746495  
   0.550972500    -0.6690680   -0.3799641  
   0.552972400    -0.7201173   -0.2751671  
   0.554972300    -0.7537397   -0.1626024  
   0.556972200    -0.7691633   -0.0457625  
   0.558972100    -0.7657179    0.0727265  
   0.560972000    -0.7431105    0.1894651  
   0.562971900    -0.7022552    0.3011978  
   0.564971800    -0.6441483    0.4054335  
   0.566971700    -0.5700744    0.4994235  
   0.568971600    -0.4815170    0.5807254  
   0.570971500    -0.3806070    0.6473059  
   0.572971400    -0.2698562    0.6974002  
   0.574971300    -0.1511881    0.7293072  
   0.576971200    -0.0274079    0.7415491  
   0.578971100     0.0977822    0.7333669  
   0.580971000     0.2205075    0.7043511  
   0.582970900     0.3376173    0.6550866  
   0.584970800     0.4451064    0.5866231  
   0.586970700     0.5397828    0.5007828  
   0.588970600     0.6191486    0.4000596  
   0.590970500     0.6802030    0.2865833  
   0.592970400     0.7212172    0.1644397  
   0.594970300     0.7408203    0.0365504  
   0.596970200     0.7384528   -0.0922753  
   0.598970100     0.7140829   -0.2187799  
   0.600970000     0.6684514   -0.3393205  
   0.602969900     0.6034174   -0.4494438  
   0.604969800     0.5207857   -0.5468416  
   0.606969700     0.4238083   -0.6287403  
   0.608969600     0.3146283   -0.6925399  
   0.610969500     0.1974935   -0.7369965  
   0.612969400     0.0756933   -0.7610335  
   0.614969300    -0.0466952   -0.7652497  
   0.616969200    -0.1668197   -0.7494706  
   0.618969100    -0.2812642   -0.7152469  
   0.620969000    -0.3875221   -0.6645136  
   0.622968900    -0.4841103   -0.5981159  
   0.624968800    -0.5688960   -0.5184389  
   0.626968700    -0.6399209   -0.4270136  
   0.628968600    -0.6962425   -0.3264059  
   0.630968500    -0.7365631   -0.2185729  
   0.632968400    -0.7603025   -0.1064470  
   0.634968300    -0.7667249    0.0080526  
   0.636968200    -0.7561471    0.1221468  
   0.638968100    -0.7282928    0.2336292  
   0.640968000    -0.6839352    0.3402099  
   0.642967900    -0.6239157    0.4388099  
   0.644967800    -0.5492983    0.5280440  
   0.646967700    -0.4615375    0.6055230  
   0.648967600    -0.3624898    0.6688997  
   0.650967500    -0.2542214    0.7163728  
   0.652967400    -0.1393772    0.7470807  
   0.654967300    -0.0196928    0.7596369  
   0.656967200     0.1010155    0.7532166  
   0.658967100     0.2201755    0.7275113  
   0.660967000     0.3354757    0.6823167  
   0.662966900     0.4429369    0.6185233  
   0.664966800     0.5400935    0.5367581  
   0.666966700     0.6232007    0.4390382  
   0.668966600     0.6890960    0.3281465  
   0.670966500     0.7357467    0.2071261  
   0.672966400     0.7628734    0.0799786  
   0.674966300     0.7667058   -0.0496911  
   0.676966200     0.7483183   -0.1777743  
   0.678966100     0.7088776   -0.3003597  
   0.680966000     0.6499685   -0.4140798  
   0.682965900     0.5733649   -0.5159587  
   0.684965800     0.4819375   -0.6027355  
   0.686965700     0.3777460   -0.6726663  
   0.688965600     0.2649372   -0.7244322  
   0.690965500     0.1462018   -0.7556726  
   0.692965400     0.0260263   -0.7685475  
   0.694965300    -0.0936176   -0.7620469  
   0.696965200    -0.2090811   -0.7373708  
   0.698965100    -0.3184328   -0.6952840  
   0.700965000    -0.4191376   -0.6375436  
   0.702964900    -0.5092281   -0.5655956  
   0.704964800    -0.5867368   -0.4814505  
   0.706964700    -0.6501681   -0.3869537  
   0.708964600    -0.6986848   -0.2842158  
   0.710964500    -0.7313974   -0.1758014  
   0.712964400    -0.7468570   -0.0636865  
   0.714964300    -0.7452380    0.0494586  
   0.716964200    -0.7265545    0.1606910  
   0.718964100    -0.6912759    0.2678135  
   0.720964000    -0.6399509    0.3687289  
   0.722963900    -0.5739205    0.4606559  
   0.724963800    -0.4940704    0.5417365  
   0.726963700    -0.4019489    0.6097369  
   0.728963600    -0.2996396    0.6630360  
   0.730963500    -0.1891342    0.6987782  
   0.732963400    -0.0741034    0.7171510  
   0.734963300     0.0435331    0.7163897  
   0.736963200     0.1771432    0.6921101  
   0.738963100     0.3046618    0.6426185  
   0.740963000     0.4211249    0.5703542  
   0.742962900     0.5215691    0.4775847  
   0.744962800     0.6027530    0.3678514  
   0.746962700     0.6615801    0.2451344  
   0.748962600     0.6960799    0.1143213  
   0.750962500     0.6568131    0.2183194  
   0.752962400     0.6871074    0.0888854  
   0.754962300     0.6931610   -0.0429778  
   0.756962200     0.6752996   -0.1731655  
   0.758962100     0.6344725   -0.2967189  
   0.760962000     0.5726289   -0.4106551  
   0.762961900     0.4956641   -0.5067217  
   0.764961800     0.4126350   -0.5820903  
   0.766961700     0.3188075   -0.6438677  
   0.768961600     0.2167718   -0.6902404  
   0.770961500     0.1090222   -0.7206755  
   0.772961400    -0.0021762   -0.7342463  
   0.774961300    -0.1144492   -0.7307202  
   0.776961200    -0.2250656   -0.7097925  
   0.778961100    -0.3316843   -0.6720730  
   0.780961000    -0.4315562   -0.6176922  
   0.782960900    -0.5217014   -0.5482014  
   0.784960800    -0.6006165   -0.4648896  
   0.786960700    -0.6653626   -0.3698948  
   0.788960600    -0.7145398   -0.2658003  
   0.790960500    -0.7466624   -0.1549625  
   0.792960400    -0.7612306   -0.0407162  
   0.794960300    -0.7573295    0.0747090  
   0.796960200    -0.7355226    0.1880171  
   0.798960100    -0.6964077    0.2960208  
   0.800960000    -0.6410175    0.3967624  
   0.802959900    -0.5706657    0.4880535  
   0.804959800    -0.4866745    0.5666372  
   0.806959700    -0.3916412    0.6320874  
   0.808959600    -0.2872426    0.6815927  
   0.810959500    -0.1764358    0.7144657  
   0.812959400    -0.0609562    0.7297701  
   0.814959300     0.0560221    0.7268136  
   0.816959200     0.1715348    0.7054360  
   0.818959100     0.2828773    0.6655567  
   0.820959000     0.3868785    0.6083101  
   0.822958900     0.4811081    0.5347292  
   0.824958800     0.5626089    0.4463233  
   0.826958700     0.6292359    0.3450377  
   0.828958600     0.6786675    0.2337261  
   0.830958500     0.7092883    0.1157266  
   0.832958400     0.7198319   -0.0064203  
   0.834958300     0.7100069   -0.1285638  
   0.836958200     0.6802700   -0.2473595  
   0.838958100     0.6308764   -0.3598021  
   0.840958000     0.5634918   -0.4627088  
   0.842957900     0.4800897   -0.5529072  
   0.844957800     0.3831149   -0.6279231  
   0.846957700     0.2754509   -0.6852649  
   0.848957600     0.1602913   -0.7241699  
   0.850957500     0.0407827   -0.7433212  
   0.852957400    -0.0795647   -0.7430028  
   0.854957300    -0.1976777   -0.7230673  
   0.856957200    -0.3098229   -0.6847638  
   0.858957100    -0.4137466   -0.6295453  
   0.860957000    -0.5064961   -0.5595108  
   0.862956900    -0.5865856   -0.4769965  
   0.864956800    -0.6522885   -0.3838942  
   0.866956700    -0.7024226   -0.2830084  
   0.868956600    -0.7360988   -0.1767340  
   0.870956500    -0.7541084   -0.0670961  
   0.872956400    -0.7551063    0.0435702  
   0.874956300    -0.7399492    0.1528627  
   0.876956200    -0.7086253    0.2591809  
   0.878956100    -0.6619175    0.3594882  
   0.880956000    -0.6006029    0.4522840  
   0.882955900    -0.5261092    0.5351380  
   0.884955800    -0.4396779    0.6063839  
   0.886955700    -0.3429952    0.6641964  
   0.888955600    -0.2382912    0.7069474  
   0.890955500    -0.1277691    0.7336783  
   0.892955400    -0.0135009    0.7431655  
   0.894955300     0.1018821    0.7350196  
