! MS46122B
! 2250307/22442219
! 7/24/2025 7:37:45 AM
! C:\USERS\SPARKY\DOCUMENTS\VNA_DATA\JULY24_2025\3K\PORT2_MOS6.S1P
! CHANNEL.1
! TR.MEASUREMENT
! RAW.DATA
# GHZ S RI R 50.0
! FREQ.GHZ         S11RE         S11IM         
!; PortSelection: Port_1
   0.001000000     1.0453810   -0.0727922  
   0.002999900     0.9468258   -0.2229482  
   0.004999800     0.8248889   -0.0994943  
   0.006999700     0.5113648   -0.3842952  
   0.008999600     0.9355641   -0.0401268  
   0.010999500     0.9161991   -0.2457966  
   0.012999400     0.8759791   -0.3506823  
   0.014999300     0.8352796   -0.4313797  
   0.016999200     0.7935057   -0.5021076  
   0.018999100     0.7490068   -0.5673774  
   0.020999000     0.6996896   -0.6282139  
   0.022998900     0.6450936   -0.6841504  
   0.024998800     0.5768577   -0.6997826  
   0.026998700     0.5183451   -0.7812403  
   0.028998600     0.4443022   -0.8214535  
   0.030998500     0.3628514   -0.8546757  
   0.032998400     0.2784076   -0.8453547  
   0.034998300     0.1773074   -0.8945071  
   0.036998200     0.0732824   -0.8980306  
   0.038998100    -0.0366503   -0.8876274  
   0.040998000    -0.1514795   -0.8603675  
   0.042997900    -0.2695360   -0.8144346  
   0.044997800    -0.3632351   -0.7284185  
   0.046997700    -0.5011044   -0.6526381  
   0.048997600    -0.6043577   -0.5319993  
   0.050997500    -0.6895797   -0.3825336  
   0.052997400    -0.7461376   -0.2052923  
   0.054997300    -0.7622879   -0.0051411  
   0.056997200    -0.7260751    0.2088951  
   0.058997100    -0.6295593    0.4161604  
   0.060997000    -0.4733581    0.5963445  
   0.062996900    -0.2671935    0.7266856  
   0.064996800    -0.0327206    0.7919362  
   0.066996700     0.2054426    0.7876965  
   0.068996600     0.4236467    0.7207561  
   0.070996500     0.6069186    0.6059523  
   0.072996400     0.7461316    0.4593154  
   0.074996300     0.8408137    0.2967630  
   0.076996200     0.8943346    0.1308587  
   0.078996100     0.9127882   -0.0296160  
   0.080996000     0.9023713   -0.1802476  
   0.082995900     0.8684322   -0.3173774  
   0.084995800     0.8154498   -0.4391897  
   0.086995700     0.7495197   -0.5458454  
   0.088995600     0.6725181   -0.6374743  
   0.090995500     0.5873349   -0.7151624  
   0.092995400     0.4966415   -0.7791440  
   0.094995300     0.4001978   -0.8292572  
   0.096995200     0.3007769   -0.8663554  
   0.098995100     0.1991066   -0.8906158  
   0.100995000     0.0953183   -0.9026332  
   0.102994900    -0.0082822   -0.9024643  
   0.104994800    -0.1115340   -0.8898882  
   0.106994700    -0.2135074   -0.8644179  
   0.108994600    -0.3126810   -0.8271704  
   0.110994500    -0.4087603   -0.7771752  
   0.112994400    -0.4995955   -0.7145863  
   0.114994300    -0.5837728   -0.6387475  
   0.116994200    -0.6595413   -0.5496233  
   0.118994100    -0.7247218   -0.4481307  
   0.120994000    -0.7781452   -0.3352335  
   0.122993900    -0.8145874   -0.2099192  
   0.124993800    -0.8322483   -0.0753860  
   0.126993700    -0.8280717    0.0659202  
   0.128993600    -0.7980503    0.2099528  
   0.130993500    -0.7429889    0.3529297  
   0.132993400    -0.6600380    0.4889894  
   0.134993300    -0.5491824    0.6112893  
   0.136993200    -0.4126410    0.7132185  
   0.138993100    -0.2543901    0.7877136  
   0.140993000    -0.0812341    0.8292534  
   0.142992900     0.0994257    0.8341421  
   0.144992800     0.2781135    0.8024135  
   0.146992700     0.4451978    0.7326546  
   0.148992600     0.5927832    0.6307804  
   0.150992500     0.7128501    0.5028234  
   0.152992400     0.8038103    0.3573971  
   0.154992300     0.8625344    0.2015458  
   0.156992200     0.8898660    0.0424938  
   0.158992100     0.8877347   -0.1131847  
   0.160992000     0.8588834   -0.2607636  
   0.162991900     0.8070838   -0.3958226  
   0.164991800     0.7362511   -0.5164496  
   0.166991700     0.6500059   -0.6203113  
   0.168991600     0.5521595   -0.7067668  
   0.170991500     0.4453674   -0.7759368  
   0.172991400     0.3326828   -0.8270986  
   0.174991300     0.2168600   -0.8607878  
   0.176991200     0.0992795   -0.8778630  
   0.178991100    -0.0178152   -0.8784623  
   0.180991000    -0.1322996   -0.8641720  
   0.182990900    -0.2431287   -0.8340219  
   0.184990800    -0.3489189   -0.7891410  
   0.186990700    -0.4476034   -0.7306452  
   0.188990600    -0.5185966   -0.6739606  
   0.190990500    -0.6149233   -0.5777553  
   0.192990400    -0.6861147   -0.4802859  
   0.194990300    -0.7417106   -0.3748801  
   0.196990200    -0.7827798   -0.2616815  
   0.198990100    -0.8074706   -0.1415140  
   0.200990000    -0.8145297   -0.0159914  
   0.202989900    -0.8023439    0.1125516  
   0.204989800    -0.7700955    0.2405986  
   0.206989700    -0.7179245    0.3653947  
   0.208989600    -0.6434123    0.4821655  
   0.210989500    -0.5484927    0.5880470  
   0.212989400    -0.4334072    0.6785080  
   0.214989300    -0.3019937    0.7494179  
   0.216989200    -0.1577912    0.7967327  
   0.218989100    -0.0054256    0.8177090  
   0.220989000     0.1507858    0.8100452  
   0.222988900     0.3044461    0.7739045  
   0.224988800     0.4492397    0.7092335  
   0.226988700     0.5794459    0.6188479  
   0.228988600     0.6897137    0.5074357  
   0.230988500     0.7769957    0.3786969  
   0.232988400     0.8377917    0.2375825  
   0.234988300     0.8727881    0.0905020  
   0.236988200     0.8816845   -0.0577394  
   0.238988100     0.8652012   -0.2020233  
   0.240988000     0.8257622   -0.3381468  
   0.242987900     0.7658745   -0.4620716  
   0.244987800     0.6893867   -0.5726156  
   0.246987700     0.5984496   -0.6679168  
   0.248987600     0.4960489   -0.7467262  
   0.250987500     0.3850065   -0.8079216  
   0.252987400     0.2692164   -0.8514135  
   0.254987300     0.1510584   -0.8770545  
   0.256987200     0.0327197   -0.8857316  
   0.258987100    -0.0847263   -0.8795827  
   0.260987000    -0.1990759   -0.8558273  
   0.262986900    -0.3089119   -0.8170675  
   0.264986800    -0.4119879   -0.7637300  
   0.266986700    -0.5066165   -0.6967595  
   0.268986600    -0.5913710   -0.6177369  
   0.270986500    -0.6642437   -0.5278907  
   0.272986400    -0.7247682   -0.4280019  
   0.274986300    -0.7711522   -0.3194676  
   0.276986200    -0.8019964   -0.2036031  
   0.278986100    -0.8164026   -0.0821529  
   0.280986000    -0.8123164    0.0426252  
   0.282985900    -0.7886483    0.1682668  
   0.284985800    -0.7449988    0.2914267  
   0.286985700    -0.6804127    0.4085473  
   0.288985600    -0.5959692    0.5154604  
   0.290985500    -0.4928857    0.6082785  
   0.292985400    -0.3725424    0.6833742  
   0.294985300    -0.2372110    0.7370287  
   0.296985200    -0.0914011    0.7657402  
   0.298985100     0.0603767    0.7661956  
   0.300985000     0.2113721    0.7369368  
   0.302984900     0.3544466    0.6778620  
   0.304984800     0.4826928    0.5916112  
   0.306984700     0.5900102    0.4816362  
   0.308984600     0.6716704    0.3543193  
   0.310984500     0.7245382    0.2163257  
   0.312984400     0.7478615    0.0740680  
   0.314984300     0.7427277   -0.0645130  
   0.316984200     0.7120175   -0.1937289  
   0.318984100     0.6600094   -0.3093196  
   0.320984000     0.5918021   -0.4067708  
   0.322983900     0.5138270   -0.4853763  
   0.324983800     0.4320808   -0.5453467  
   0.326983700     0.3516391   -0.5896012  
   0.328983600     0.2747032   -0.6232859  
   0.330983500     0.2021817   -0.6507925  
   0.332983400     0.1307791   -0.6761786  
   0.334983300     0.0555910   -0.7002729  
   0.336983200    -0.0276998   -0.7207140  
   0.338983100    -0.1204486   -0.7320209  
   0.340983000    -0.2212875   -0.7290929  
   0.342982900    -0.3265586   -0.7076249  
   0.344982800    -0.4306532   -0.6666066  
   0.346982700    -0.5295916   -0.6054979  
   0.348982600    -0.6166061   -0.5261220  
   0.350982500    -0.6910933   -0.4329275  
   0.352982400    -0.7493376   -0.3276736  
   0.354982300    -0.7912274   -0.2084988  
   0.356982200    -0.8140089   -0.0685844  
   0.358982100    -0.8112201    0.0720051  
   0.360982000    -0.7832844    0.2098649  
   0.362981900    -0.7316254    0.3407893  
   0.364981800    -0.6574101    0.4611594  
   0.366981700    -0.5630107    0.5673142  
   0.368981600    -0.4503284    0.6557964  
   0.370981500    -0.3233332    0.7233242  
   0.372981400    -0.1848260    0.7676363  
   0.374981300    -0.0384836    0.7868111  
   0.376981200    -0.1461181    0.7822007  
   0.378981100     0.0069960    0.7942832  
   0.380981000     0.1611391    0.7770810  
   0.382980900     0.2986102    0.7356681  
   0.384980800     0.4229243    0.6734247  
   0.386980700     0.5355436    0.5900650  
   0.388980600     0.6328457    0.4878267  
   0.390980500     0.7106784    0.3704785  
   0.392980400     0.7666250    0.2420209  
   0.394980300     0.7997444    0.1061371  
   0.396980200     0.8088341   -0.0326103  
   0.398980100     0.7937633   -0.1702089  
   0.400980000     0.7561499   -0.3020456  
   0.402979900     0.6969528   -0.4244550  
   0.404979800     0.6195798   -0.5336578  
   0.406979700     0.5256318   -0.6273255  
   0.408979600     0.4197402   -0.7031534  
   0.410979500     0.3035871   -0.7607397  
   0.412979400     0.1810129   -0.7978953  
   0.414979300     0.0556821   -0.8139873  
   0.416979200    -0.0691105   -0.8112891  
   0.418979100    -0.1903748   -0.7899041  
   0.420979000    -0.3055817   -0.7502752  
   0.422978900    -0.4124493   -0.6941717  
   0.424978800    -0.5092372   -0.6230792  
   0.426978700    -0.5937166   -0.5387402  
   0.428978600    -0.6643420   -0.4430840  
   0.430978500    -0.7192448   -0.3392089  
   0.432978400    -0.7582193   -0.2286719  
   0.434978300    -0.7819205   -0.1146956  
   0.436978200    -0.7871311    0.0026195  
   0.438978100    -0.7752320    0.1196582  
   0.440978000    -0.7461079    0.2340138  
   0.442977900    -0.6999208    0.3436152  
   0.444977800    -0.6375322    0.4462183  
   0.446977700    -0.5594373    0.5383090  
   0.448977600    -0.4676399    0.6186543  
   0.450977500    -0.3633544    0.6845472  
   0.452977400    -0.2486230    0.7344263  
   0.454977300    -0.1255164    0.7656724  
   0.456977200     0.0028944    0.7769513  
   0.458977100     0.1329794    0.7672285  
   0.460977000     0.2603626    0.7360631  
   0.462976900     0.3818096    0.6837825  
   0.464976800     0.4934600    0.6115329  
   0.466976700     0.5919925    0.5209516  
   0.468976600     0.6740594    0.4149696  
   0.470976500     0.7372825    0.2964118  
   0.472976400     0.7791069    0.1691168  
   0.474976300     0.7989220    0.0367873  
   0.476976200     0.7961116   -0.0959745  
   0.478976100     0.7716463   -0.2248812  
   0.480976000     0.7267748   -0.3467250  
   0.482975900     0.6633429   -0.4579801  
   0.484975800     0.5843289   -0.5558206  
   0.486975700     0.4916150   -0.6389667  
   0.488975600     0.3881332   -0.7058389  
   0.490975500     0.2772959   -0.7549219  
   0.492975400     0.1617410   -0.7865660  
   0.494975300     0.0442021   -0.8000175  
   0.496975200    -0.0727012   -0.7955973  
   0.498975100    -0.1858798   -0.7747920  
   0.500975000    -0.2937087   -0.7379956  
   0.502974900    -0.3943804   -0.6865173  
   0.504974800    -0.4865036   -0.6217985  
   0.506974700    -0.5680839   -0.5444852  
   0.508974600    -0.6388022   -0.4556769  
   0.510974500    -0.6958777   -0.3575728  
   0.512974400    -0.7385504   -0.2520900  
   0.514974300    -0.7641165   -0.1409979  
   0.516974200    -0.7742288   -0.0264092  
   0.518974100    -0.7670445    0.0890031  
   0.520974000    -0.7421558    0.2031734  
   0.522973900    -0.6993664    0.3129250  
   0.524973800    -0.6389962    0.4154952  
   0.526973700    -0.5624667    0.5077206  
   0.528973600    -0.4715288    0.5867924  
   0.530973500    -0.3688298    0.6500574  
   0.532973400    -0.2570904    0.6958098  
   0.534973300    -0.1397865    0.7229564  
   0.536973200    -0.0197772    0.7312360  
   0.538973100     0.0992489    0.7204790  
   0.540973000     0.2144852    0.6913097  
   0.542972900     0.3235689    0.6448869  
   0.544972800     0.4243638    0.5823231  
   0.546972700     0.5145729    0.5041292  
   0.548972600     0.5914882    0.4128411  
   0.550972500     0.6533202    0.3102605  
   0.552972400     0.6988582    0.1986641  
   0.554972300     0.7257209    0.0808778  
   0.556972200     0.7332209   -0.0401505  
   0.558972100     0.7215238   -0.1609455  
   0.560972000     0.6903722   -0.2783583  
   0.562971900     0.6412998   -0.3885032  
   0.564971800     0.5751459   -0.4894403  
   0.566971700     0.4939392   -0.5779638  
   0.568971600     0.4002236   -0.6522268  
   0.570971500     0.2963679   -0.7104565  
   0.572971400     0.1851307   -0.7515952  
   0.574971300     0.0687224   -0.7743249  
   0.576971200    -0.0498838   -0.7791346  
   0.578971100    -0.1670396   -0.7652517  
   0.580971000    -0.2802916   -0.7338139  
   0.582970900    -0.3864972   -0.6855145  
   0.584970800    -0.4831878   -0.6223031  
   0.586970700    -0.5686783   -0.5456799  
   0.588970600    -0.6414223   -0.4577465  
   0.590970500    -0.7002069   -0.3603764  
   0.592970400    -0.7437720   -0.2557408  
   0.594970300    -0.7714440   -0.1458859  
   0.596970200    -0.7827274   -0.0334256  
   0.598970100    -0.7775985    0.0798594  
   0.600970000    -0.7557477    0.1912572  
   0.602969900    -0.7176170    0.2985510  
   0.604969800    -0.6639131    0.3999346  
   0.606969700    -0.5952737    0.4928477  
   0.608969600    -0.5129126    0.5749838  
   0.610969500    -0.4183697    0.6442318  
   0.612969400    -0.3137127    0.6989611  
   0.614969300    -0.2008466    0.7374002  
   0.616969200    -0.0827865    0.7580039  
   0.618969100     0.0372623    0.7598915  
   0.620969000     0.1570064    0.7433614  
   0.622968900     0.2739204    0.7075548  
   0.624968800     0.3846889    0.6533253  
   0.626968700     0.4862564    0.5809457  
   0.628968600     0.5756516    0.4922547  
   0.630968500     0.6495562    0.3894515  
   0.632968400     0.7059518    0.2753525  
   0.634968300     0.7425416    0.1529897  
   0.636968200     0.7581498    0.0258202  
   0.638968100     0.7524546   -0.1019775  
   0.640968000     0.7253758   -0.2273591  
   0.642967900     0.6776182   -0.3454309  
   0.644967800     0.6113728   -0.4533195  
   0.646967700     0.5284603   -0.5482846  
   0.648967600     0.4322805   -0.6270560  
   0.650967500     0.3253752   -0.6886119  
   0.652967400     0.2115138   -0.7313092  
   0.654967300     0.0937323   -0.7548211  
   0.656967200    -0.0250857   -0.7593853  
   0.658967100    -0.1419246   -0.7453176  
   0.660967000    -0.2540168   -0.7136559  
   0.662966900    -0.3596258   -0.6650296  
   0.664966800    -0.4557650   -0.6012309  
   0.666966700    -0.5405164   -0.5237703  
   0.668966600    -0.6115191   -0.4349073  
   0.670966500    -0.6684095   -0.3370354  
   0.672966400    -0.7103662   -0.2324687  
   0.674966300    -0.7348794   -0.1231777  
   0.676966200    -0.7425555   -0.0119814  
   0.678966100    -0.7340748    0.0987817  
   0.680966000    -0.7089660    0.2073482  
   0.682965900    -0.6677394    0.3108339  
   0.684965800    -0.6111907    0.4070337  
   0.686965700    -0.5406914    0.4945657  
   0.688965600    -0.4572485    0.5707111  
   0.690965500    -0.3617838    0.6324664  
   0.692965400    -0.2578106    0.6802361  
   0.694965300    -0.1467060    0.7112967  
   0.696965200    -0.0313974    0.7248197  
   0.698965100     0.0858045    0.7197585  
   0.700965000     0.2018607    0.6958902  
   0.702964900     0.3137115    0.6529139  
   0.704964800     0.4174354    0.5917869  
   0.706964700     0.5106562    0.5137334  
   0.708964600     0.5899138    0.4203300  
   0.710964500     0.6538164    0.3154191  
   0.712964400     0.6979624    0.2004387  
   0.714964300     0.7221117    0.0799018  
   0.716964200     0.7257660   -0.0422774  
   0.718964100     0.7088180   -0.1620630  
   0.720964000     0.6724676   -0.2756256  
   0.722963900     0.6188475   -0.3810496  
   0.724963800     0.5498293   -0.4749649  
   0.726963700     0.4675994   -0.5558638  
   0.728963600     0.3748209   -0.6223520  
   0.730963500     0.2736154   -0.6721435  
   0.732963400     0.1679126   -0.7059128  
   0.734963300     0.0591014   -0.7232919  
   0.736963200    -0.0656596   -0.7228212  
   0.738963100    -0.1877351   -0.7009766  
   0.740963000    -0.3034305   -0.6588712  
   0.742962900    -0.4097098   -0.5979271  
   0.744962800    -0.5039521   -0.5202100  
   0.746962700    -0.5833972   -0.4278145  
   0.748962600    -0.6459677   -0.3226191  
   0.750962500    -0.6050293   -0.4168705  
   0.752962400    -0.6660517   -0.3093997  
   0.754962300    -0.7075651   -0.1927695  
   0.756962200    -0.7285397   -0.0700953  
   0.758962100    -0.7276381    0.0546237  
   0.760962000    -0.7047712    0.1780985  
   0.762961900    -0.6630206    0.2909909  
   0.764961800    -0.6091645    0.3862507  
   0.766961700    -0.5407723    0.4727615  
   0.768961600    -0.4592314    0.5475481  
   0.770961500    -0.3671849    0.6087305  
   0.772961400    -0.2666988    0.6546325  
   0.774961300    -0.1599832    0.6837988  
   0.776961200    -0.0499647    0.6962847  
   0.778961100     0.0611682    0.6915077  
   0.780961000     0.1704946    0.6691246  
   0.782960900     0.2754624    0.6297852  
   0.784960800     0.3738039    0.5737904  
   0.786960700     0.4621982    0.5030059  
   0.788960600     0.5388291    0.4186477  
   0.790960500     0.6007974    0.3230481  
   0.792960400     0.6469935    0.2185484  
   0.794960300     0.6757163    0.1077481  
   0.796960200     0.6862215   -0.0060655  
   0.798960100     0.6782957   -0.1202846  
   0.800960000     0.6522154   -0.2317085  
   0.802959900     0.6085133   -0.3372048  
   0.804959800     0.5483147   -0.4346510  
   0.806959700     0.4737350   -0.5204925  
   0.808959600     0.3861878   -0.5934879  
   0.810959500     0.2881227   -0.6515702  
   0.812959400     0.1824787   -0.6934513  
   0.814959300     0.0715167   -0.7176387  
   0.816959200    -0.0413610   -0.7238730  
   0.818959100    -0.1536604   -0.7121249  
   0.820959000    -0.2621258   -0.6831032  
   0.822958900    -0.3642067   -0.6373817  
   0.824958800    -0.4574820   -0.5767542  
   0.826958700    -0.5399641   -0.5022923  
   0.828958600    -0.6097647   -0.4165916  
   0.830958500    -0.6651310   -0.3217340  
   0.832958400    -0.7055472   -0.2200822  
   0.834958300    -0.7296248   -0.1136735  
   0.836958200    -0.7372499   -0.0054130  
   0.838958100    -0.7288467    0.1022741  
   0.840958000    -0.7041251    0.2076967  
   0.842957900    -0.6635602    0.3081566  
   0.844957800    -0.6086475    0.4015345  
   0.846957700    -0.5400891    0.4860450  
   0.848957600    -0.4593051    0.5593659  
   0.850957500    -0.3679325    0.6199882  
   0.852957400    -0.2681685    0.6662908  
   0.854957300    -0.1616726    0.6967916  
   0.856957200    -0.0510809    0.7106284  
   0.858957100     0.0605630    0.7069735  
   0.860957000     0.1704927    0.6861282  
   0.862956900     0.2759523    0.6480365  
   0.864956800     0.3744734    0.5936976  
   0.866956700     0.4635353    0.5242117  
   0.868956600     0.5403160    0.4409441  
   0.870956500     0.6037022    0.3457136  
   0.872956400     0.6514384    0.2410220  
   0.874956300     0.6816232    0.1289851  
   0.876956200     0.6933634    0.0126546  
   0.878956100     0.6852630   -0.1045057  
   0.880956000     0.6576049   -0.2192900  
   0.882955900     0.6111844   -0.3277553  
   0.884955800     0.5471657   -0.4271309  
   0.886955700     0.4674651   -0.5138731  
   0.888955600     0.3747128   -0.5859448  
   0.890955500     0.2716917   -0.6410857  
   0.892955400     0.1616453   -0.6781120  
   0.894955300     0.0475923   -0.6960275  
