! MS46122B
! 2250307/22442219
! 7/27/2025 9:16:08 AM
! C:\USERS\SPARKY\DOCUMENTS\VNA_DATA\JULY27_2025\3K\PORT1_MOS3.S1P
! CHANNEL.1
! TR.MEASUREMENT
! RAW.DATA
# GHZ S RI R 50.0
! FREQ.GHZ         S11RE         S11IM         
!; PortSelection: Port_1
   0.001000000     1.0459720   -0.0721063  
   0.002999900     0.9642478   -0.1944553  
   0.004999800     0.9042321   -0.2992552  
   0.006999700     0.8371469   -0.3969117  
   0.008999600     0.7588920   -0.4923035  
   0.010999500     0.6662731   -0.5831590  
   0.012999400     0.5535986   -0.6668717  
   0.014999300     0.4151620   -0.7376010  
   0.016999200     0.2444153   -0.7830411  
   0.018999100     0.0363208   -0.7834536  
   0.020999000    -0.2015637   -0.7052366  
   0.022998900    -0.4332554   -0.5075700  
   0.024998800    -0.5526804   -0.1769466  
   0.026998700    -0.5173237    0.2297305  
   0.028998600    -0.2501551    0.5458107  
   0.030998500     0.1108664    0.6680605  
   0.032998400     0.4060368    0.6059251  
   0.034998300     0.6644063    0.4769913  
   0.036998200     0.8065127    0.3031852  
   0.038998100     0.8822188    0.1300040  
   0.040998000     0.9110839   -0.0301645  
   0.042997900     0.9073426   -0.1736990  
   0.044997800     0.8551276   -0.2745442  
   0.046997700     0.8379831   -0.4107107  
   0.048997600     0.7837418   -0.5068539  
   0.050997500     0.7207809   -0.5897270  
   0.052997400     0.6516325   -0.6608660  
   0.054997300     0.5770918   -0.7212175  
   0.056997200     0.4975901   -0.7727238  
   0.058997100     0.4151178   -0.8141089  
   0.060997000     0.3293488   -0.8468830  
   0.062996900     0.2410517   -0.8702286  
   0.064996800     0.1499675   -0.8839611  
   0.066996700     0.0567086   -0.8884515  
   0.068996600    -0.0378406   -0.8824073  
   0.070996500    -0.1333558   -0.8664379  
   0.072996400    -0.2292256   -0.8376164  
   0.074996300    -0.3240192   -0.7962029  
   0.076996200    -0.4163220   -0.7415221  
   0.078996100    -0.5038877   -0.6723164  
   0.080996000    -0.5851340   -0.5879128  
   0.082995900    -0.6567088   -0.4883490  
   0.084995800    -0.7147418   -0.3736660  
   0.086995700    -0.7572049   -0.2450084  
   0.088995600    -0.7783887   -0.1037675  
   0.090995500    -0.7746280    0.0463921  
   0.092995400    -0.7421095    0.2011706  
   0.094995300    -0.6763735    0.3533388  
   0.096995200    -0.5772176    0.4946229  
   0.098995100    -0.4456023    0.6156058  
   0.100995000    -0.2855079    0.7079455  
   0.102994900    -0.1074519    0.7619997  
   0.104994800     0.0792820    0.7745709  
   0.106994700     0.2624553    0.7432263  
   0.108994600     0.4316151    0.6740445  
   0.110994500     0.5777825    0.5717734  
   0.112994400     0.6947715    0.4444098  
   0.114994300     0.7796094    0.3015268  
   0.116994200     0.8322300    0.1513204  
   0.118994100     0.8542546    0.0008649  
   0.120994000     0.8506437   -0.1446832  
   0.122993900     0.8215916   -0.2808943  
   0.124993800     0.7725862   -0.4045601  
   0.126993700     0.7071840   -0.5146309  
   0.128993600     0.6283406   -0.6087931  
   0.130993500     0.5402146   -0.6886463  
   0.132993400     0.4448086   -0.7529979  
   0.134993300     0.3437349   -0.8023989  
   0.136993200     0.2396272   -0.8369158  
   0.138993100     0.1333030   -0.8574389  
   0.140993000     0.0271784   -0.8635233  
   0.142992900    -0.0787413   -0.8563448  
   0.144992800    -0.1824165   -0.8373811  
   0.146992700    -0.2826461   -0.8038820  
   0.148992600    -0.3786135   -0.7575695  
   0.150992500    -0.4670231   -0.6979377  
   0.152992400    -0.5498501   -0.6274881  
   0.154992300    -0.6232237   -0.5460128  
   0.156992200    -0.6866090   -0.4529959  
   0.158992100    -0.7379656   -0.3503229  
   0.160992000    -0.7754933   -0.2386492  
   0.162991900    -0.7968853   -0.1197275  
   0.164991800    -0.8008180    0.0050256  
   0.166991700    -0.7857083    0.1319557  
   0.168991600    -0.7493917    0.2589677  
   0.170991500    -0.6912675    0.3826833  
   0.172991400    -0.6115454    0.4977396  
   0.174991300    -0.5106917    0.6006401  
   0.176991200    -0.3899415    0.6863971  
   0.178991100    -0.2526346    0.7505623  
   0.180991000    -0.1033872    0.7899249  
   0.182990900     0.0528746    0.7998176  
   0.184990800     0.2102099    0.7798504  
   0.186990700     0.3613125    0.7300771  
   0.188990600     0.4801658    0.6662034  
   0.190990500     0.6173540    0.5529011  
   0.192990400     0.7178892    0.4287884  
   0.194990300     0.7908117    0.2930157  
   0.196990200     0.8364730    0.1496868  
   0.198990100     0.8550398    0.0037282  
   0.200990000     0.8482069   -0.1405392  
   0.202989900     0.8169953   -0.2776030  
   0.204989800     0.7652503   -0.4045600  
   0.206989700     0.6960890   -0.5183567  
   0.208989600     0.6115875   -0.6164241  
   0.210989500     0.5149221   -0.6982528  
   0.212989400     0.4088992   -0.7636814  
   0.214989300     0.2967696   -0.8111832  
   0.216989200     0.1815642   -0.8411977  
   0.218989100     0.0654147   -0.8544518  
   0.220989000    -0.0505003   -0.8510289  
   0.222988900    -0.1638481   -0.8313925  
   0.224988800    -0.2730494   -0.7961206  
   0.226988700    -0.3756233   -0.7465876  
   0.228988600    -0.4699489   -0.6835890  
   0.230988500    -0.5551206   -0.6075541  
   0.232988400    -0.6282597   -0.5190578  
   0.234988300    -0.6897275   -0.4203424  
   0.236988200    -0.7372199   -0.3124571  
   0.238988100    -0.7684443   -0.1970841  
   0.240988000    -0.7827353   -0.0767680  
   0.242987900    -0.7784960    0.0460903  
   0.244987800    -0.7547870    0.1696613  
   0.246987700    -0.7107503    0.2905720  
   0.248987600    -0.6458911    0.4057805  
   0.250987500    -0.5609797    0.5112908  
   0.252987400    -0.4573030    0.6020696  
   0.254987300    -0.3379789    0.6749132  
   0.256987200    -0.2049725    0.7262464  
   0.258987100    -0.0627749    0.7549118  
   0.260987000     0.0846828    0.7557324  
   0.262986900     0.2313390    0.7291002  
   0.264986800     0.3713337    0.6750673  
   0.266986700     0.4990394    0.5955868  
   0.268986600     0.6091100    0.4940295  
   0.270986500     0.6974231    0.3754919  
   0.272986400     0.7617701    0.2435816  
   0.274986300     0.8006343    0.1047347  
   0.276986200     0.8140281   -0.0367452  
   0.278986100     0.8024016   -0.1759680  
   0.280986000     0.7674247   -0.3083211  
   0.282985900     0.7121139   -0.4305434  
   0.284985800     0.6392045   -0.5395340  
   0.286985700     0.5520437   -0.6327648  
   0.288985600     0.4543647   -0.7092009  
   0.290985500     0.3486746   -0.7681444  
   0.292985400     0.2383022   -0.8100067  
   0.294985300     0.1249326   -0.8347948  
   0.296985200     0.0109034   -0.8434274  
   0.298985100    -0.1021192   -0.8359262  
   0.300985000    -0.2120410   -0.8128328  
   0.302984900    -0.3165593   -0.7755846  
   0.304984800    -0.4142325   -0.7247602  
   0.306984700    -0.5036118   -0.6618662  
   0.308984600    -0.5830262   -0.5883369  
   0.310984500    -0.6518340   -0.5051480  
   0.312984400    -0.7096082   -0.4126259  
   0.314984300    -0.7546254   -0.3126391  
   0.316984200    -0.7860780   -0.2056043  
   0.318984100    -0.8024668   -0.0925936  
   0.320984000    -0.8023331    0.0248104  
   0.322983900    -0.7833492    0.1434159  
   0.324983800    -0.7445996    0.2590046  
   0.326983700    -0.6859894    0.3680642  
   0.328983600    -0.6089088    0.4654223  
   0.330983500    -0.5171645    0.5471318  
   0.332983400    -0.4157142    0.6109108  
   0.334983300    -0.3079099    0.6580735  
   0.336983200    -0.1963537    0.6887802  
   0.338983100    -0.0818053    0.7041514  
   0.340983000     0.0343687    0.7036776  
   0.342982900     0.1509788    0.6860341  
   0.344982800     0.2659862    0.6509558  
   0.346982700     0.3767722    0.5966814  
   0.348982600     0.4780503    0.5227280  
   0.350982500     0.5679286    0.4325580  
   0.352982400     0.6416501    0.3266087  
   0.354982300     0.6981763    0.2037521  
   0.356982200     0.7328188    0.0590208  
   0.358982100     0.7380779   -0.0897694  
   0.360982000     0.7136195   -0.2366035  
   0.362981900     0.6609859   -0.3755881  
   0.364981800     0.5820187   -0.5011892  
   0.366981700     0.4805055   -0.6084872  
   0.368981600     0.3604539   -0.6937330  
   0.370981500     0.2273862   -0.7539945  
   0.372981400     0.0864494   -0.7872431  
   0.374981300    -0.0576785   -0.7934214  
   0.376981200     0.0630184   -0.7914743  
   0.378981100    -0.0787616   -0.7923724  
   0.380981000    -0.2177227   -0.7679629  
   0.382980900    -0.3364805   -0.7247895  
   0.384980800    -0.4411876   -0.6662994  
   0.386980700    -0.5349345   -0.5928016  
   0.388980600    -0.6160260   -0.5063094  
   0.390980500    -0.6827347   -0.4096243  
   0.392980400    -0.7337238   -0.3048336  
   0.394980300    -0.7682472   -0.1941382  
   0.396980200    -0.7864560   -0.0796335  
   0.398980100    -0.7873980    0.0366992  
   0.400980000    -0.7711150    0.1525408  
   0.402979900    -0.7377756    0.2656719  
   0.404979800    -0.6874378    0.3725600  
   0.406979700    -0.6211161    0.4720662  
   0.408979600    -0.5397858    0.5611118  
   0.410979500    -0.4443000    0.6381222  
   0.412979400    -0.3358810    0.7003142  
   0.414979300    -0.2175309    0.7439039  
   0.416979200    -0.0922425    0.7697634  
   0.418979100     0.0368042    0.7750536  
   0.420979000     0.1664534    0.7589313  
   0.422978900     0.2933057    0.7212769  
   0.424978800     0.4133071    0.6621964  
   0.426978700     0.5224292    0.5828720  
   0.428978600     0.6171048    0.4857542  
   0.430978500     0.6937433    0.3736376  
   0.432978400     0.7499523    0.2501655  
   0.434978300     0.7853174    0.1190777  
   0.436978200     0.7968599   -0.0154687  
   0.438978100     0.7850277   -0.1498552  
   0.440978000     0.7508055   -0.2794136  
   0.442977900     0.6956635   -0.4004119  
   0.444977800     0.6218005   -0.5092215  
   0.446977700     0.5315805   -0.6035419  
   0.448977600     0.4284427   -0.6810707  
   0.450977500     0.3155612   -0.7397249  
   0.452977400     0.1956627   -0.7789122  
   0.454977300     0.0710582   -0.7983702  
   0.456977200    -0.0533130   -0.7978268  
   0.458977100    -0.1756608   -0.7778169  
   0.460977000    -0.2918409   -0.7391898  
   0.462976900    -0.3990369   -0.6835629  
   0.464976800    -0.4962132   -0.6126446  
   0.466976700    -0.5808081   -0.5278529  
   0.468976600    -0.6510021   -0.4322145  
   0.470976500    -0.7056326   -0.3264388  
   0.472976400    -0.7433766   -0.2141784  
   0.474976300    -0.7636501   -0.0970663  
   0.476976200    -0.7654151    0.0216339  
   0.478976100    -0.7491966    0.1399184  
   0.480976000    -0.7143243    0.2538253  
   0.482975900    -0.6621264    0.3615364  
   0.484975800    -0.5931789    0.4605068  
   0.486975700    -0.5083084    0.5485604  
   0.488975600    -0.4094350    0.6219285  
   0.490975500    -0.2987548    0.6791064  
   0.492975400    -0.1787218    0.7173402  
   0.494975300    -0.0529984    0.7347658  
   0.496975200     0.0750646    0.7303159  
   0.498975100     0.2002959    0.7036082  
   0.500975000     0.3194270    0.6553017  
   0.502974900     0.4277444    0.5869716  
   0.504974800     0.5218192    0.5007077  
   0.506974700     0.5986989    0.3997593  
   0.508974600     0.6562252    0.2879238  
   0.510974500     0.6922939    0.1694873  
   0.512974400     0.7078869    0.0492166  
   0.514974300     0.7015197   -0.0681672  
   0.516974200     0.6787285   -0.1802393  
   0.518974100     0.6399882   -0.2843123  
   0.520974000     0.5878354   -0.3790215  
   0.522973900     0.5242654   -0.4638748  
   0.524973800     0.4511556   -0.5376660  
   0.526973700     0.3697111   -0.6007913  
   0.528973600     0.2808439   -0.6524035  
   0.530973500     0.1855923   -0.6919951  
   0.532973400     0.0847987   -0.7187173  
   0.534973300    -0.0199481   -0.7310379  
   0.536973200    -0.1273727   -0.7284650  
   0.538973100    -0.2343300   -0.7093215  
   0.540973000    -0.3384885   -0.6738342  
   0.542972900    -0.4375618   -0.6221318  
   0.544972800    -0.5281616   -0.5545149  
   0.546972700    -0.6083991   -0.4721439  
   0.548972600    -0.6752568   -0.3768975  
   0.550972500    -0.7262083   -0.2710803  
   0.552972400    -0.7596957   -0.1577456  
   0.554972300    -0.7747841   -0.0393481  
   0.556972200    -0.7704967    0.0805292  
   0.558972100    -0.7466360    0.1988031  
   0.560972000    -0.7041031    0.3117878  
   0.562971900    -0.6439173    0.4168925  
   0.564971800    -0.5674209    0.5113074  
   0.566971700    -0.4763623    0.5924830  
   0.568971600    -0.3732700    0.6583035  
   0.570971500    -0.2602025    0.7071237  
   0.572971400    -0.1398740    0.7371458  
   0.574971300    -0.0148991    0.7471455  
   0.576971200     0.1112368    0.7363647  
   0.578971100     0.2347476    0.7048981  
   0.580971000     0.3522068    0.6528325  
   0.582970900     0.4596079    0.5810596  
   0.584970800     0.5535021    0.4920127  
   0.586970700     0.6311928    0.3885503  
   0.588970600     0.6901013    0.2726820  
   0.590970500     0.7287002    0.1483007  
   0.592970400     0.7452911    0.0193268  
   0.594970300     0.7397901   -0.1104292  
   0.596970200     0.7121775   -0.2371660  
   0.598970100     0.6634079   -0.3572505  
   0.600970000     0.5955181   -0.4663290  
   0.602969900     0.5101175   -0.5623338  
   0.604969800     0.4108264   -0.6423157  
   0.606969700     0.3000338   -0.7035655  
   0.608969600     0.1810848   -0.7457443  
   0.610969500     0.0579790   -0.7675374  
   0.612969400    -0.0654803   -0.7691345  
   0.614969300    -0.1865361   -0.7506061  
   0.616969200    -0.3016796   -0.7136654  
   0.618969100    -0.4077194   -0.6596443  
   0.620969000    -0.5034010   -0.5906634  
   0.622968900    -0.5869994   -0.5083579  
   0.624968800    -0.6563252   -0.4149113  
   0.626968700    -0.7110217   -0.3120437  
   0.628968600    -0.7491290   -0.2024638  
   0.630968500    -0.7705963   -0.0885743  
   0.632968400    -0.7745262    0.0272308  
   0.634968300    -0.7608429    0.1423793  
   0.636968200    -0.7302415    0.2542984  
   0.638968100    -0.6830414    0.3609552  
   0.640968000    -0.6198615    0.4595216  
   0.642967900    -0.5420387    0.5480226  
   0.644967800    -0.4511220    0.6243279  
   0.646967700    -0.3486601    0.6861570  
   0.648967600    -0.2372645    0.7314063  
   0.650967500    -0.1195741    0.7592658  
   0.652967400     0.0019970    0.7683878  
   0.654967300     0.1244875    0.7582096  
   0.656967200     0.2445395    0.7282909  
   0.658967100     0.3593943    0.6790471  
   0.660967000     0.4657694    0.6112610  
   0.662966900     0.5609844    0.5258083  
   0.664966800     0.6414407    0.4248612  
   0.666966700     0.7045760    0.3105842  
   0.668966600     0.7476209    0.1870299  
   0.670966500     0.7694979    0.0574669  
   0.672966400     0.7705232   -0.0738861  
   0.674966300     0.7474456   -0.2025279  
   0.676966200     0.7035518   -0.3253829  
   0.678966100     0.6403376   -0.4377748  
   0.680966000     0.5595948   -0.5380588  
   0.682965900     0.4641542   -0.6224167  
   0.684965800     0.3572964   -0.6891770  
   0.686965700     0.2418751   -0.7373995  
   0.688965600     0.1213232   -0.7659967  
   0.690965500    -0.0005492   -0.7737913  
   0.692965400    -0.1208151   -0.7630872  
   0.694965300    -0.2366102   -0.7342714  
   0.696965200    -0.3451860   -0.6882738  
   0.698965100    -0.4445185   -0.6265543  
   0.700965000    -0.5330461   -0.5510154  
   0.702964900    -0.6082818   -0.4635729  
   0.704964800    -0.6691291   -0.3662686  
   0.706964700    -0.7141114   -0.2609796  
   0.708964600    -0.7432332   -0.1503913  
   0.710964500    -0.7555948   -0.0363017  
   0.712964400    -0.7500765    0.0779753  
   0.714964300    -0.7269228    0.1905376  
   0.716964200    -0.6870412    0.2980270  
   0.718964100    -0.6309838    0.3989646  
   0.720964000    -0.5599505    0.4894519  
   0.722963900    -0.4753538    0.5684720  
   0.724963800    -0.3792225    0.6338196  
   0.726963700    -0.2730079    0.6833333  
   0.728963600    -0.1592754    0.7152109  
   0.730963500    -0.0415706    0.7277880  
   0.732963400     0.0773561    0.7216253  
   0.734963300     0.1943726    0.6955742  
   0.736963200     0.3218150    0.6427972  
   0.738963100     0.4380055    0.5667729  
   0.740963000     0.5374669    0.4704208  
   0.742962900     0.6166847    0.3572514  
   0.744962800     0.6729320    0.2314820  
   0.746962700     0.7044007    0.0989854  
   0.748962600     0.7107431   -0.0367901  
   0.750962500     0.6941839    0.0720134  
   0.752962400     0.6965000   -0.0614656  
   0.754962300     0.6748270   -0.1921009  
   0.756962200     0.6301823   -0.3156318  
   0.758962100     0.5647296   -0.4283008  
   0.760962000     0.4804179   -0.5274338  
   0.762961900     0.3854639   -0.6058470  
   0.764961800     0.2881310   -0.6630047  
   0.766961700     0.1834974   -0.7043895  
   0.768961600     0.0736705   -0.7295429  
   0.770961500    -0.0386731   -0.7376345  
   0.772961400    -0.1512519   -0.7285908  
   0.774961300    -0.2611685   -0.7023249  
   0.776961200    -0.3665271   -0.6593700  
   0.778961100    -0.4638549   -0.6001595  
   0.780961000    -0.5513471   -0.5262258  
   0.782960900    -0.6265151   -0.4389451  
   0.784960800    -0.6874524   -0.3407040  
   0.786960700    -0.7320031   -0.2333861  
   0.788960600    -0.7593439   -0.1199721  
   0.790960500    -0.7684942   -0.0038510  
   0.792960400    -0.7589452    0.1125231  
   0.794960300    -0.7313594    0.2261784  
   0.796960200    -0.6863673    0.3336734  
   0.798960100    -0.6250905    0.4330094  
   0.800960000    -0.5486782    0.5214502  
   0.802959900    -0.4594950    0.5971562  
   0.804959800    -0.3596795    0.6580459  
   0.806959700    -0.2510790    0.7025333  
   0.808959600    -0.1368145    0.7295175  
   0.810959500    -0.0192613    0.7382481  
   0.812959400     0.0988627    0.7282869  
   0.814959300     0.2144332    0.6997928  
   0.816959200     0.3244885    0.6528447  
   0.818959100     0.4259837    0.5887094  
   0.820959000     0.5166346    0.5085927  
   0.822958900     0.5934725    0.4143587  
   0.824958800     0.6542196    0.3084201  
   0.826958700     0.6971184    0.1931457  
   0.828958600     0.7206897    0.0723271  
   0.830958500     0.7236108   -0.0515176  
   0.832958400     0.7060723   -0.1738892  
   0.834958300     0.6683208   -0.2918503  
   0.836958200     0.6115495   -0.4015748  
   0.838958100     0.5377352   -0.5003635  
   0.840958000     0.4486886   -0.5855485  
   0.842957900     0.3470082   -0.6548874  
   0.844957800     0.2356211   -0.7059730  
   0.846957700     0.1177354   -0.7382343  
   0.848957600    -0.0030217   -0.7506243  
   0.850957500    -0.1237033   -0.7432281  
   0.852957400    -0.2408844   -0.7166571  
   0.854957300    -0.3513377   -0.6718534  
   0.856957200    -0.4528668   -0.6106825  
   0.858957100    -0.5425243   -0.5347805  
   0.860957000    -0.6187811   -0.4471579  
   0.862956900    -0.6798615   -0.3494903  
   0.864956800    -0.7248800   -0.2445944  
   0.866956700    -0.7534418   -0.1354172  
   0.868956600    -0.7647103   -0.0237761  
   0.870956500    -0.7596951    0.0879712  
   0.872956400    -0.7381107    0.1973508  
   0.874956300    -0.7003452    0.3024676  
   0.876956200    -0.6476386    0.4012787  
   0.878956100    -0.5804160    0.4912867  
   0.880956000    -0.5003300    0.5708396  
   0.882955900    -0.4086449    0.6379151  
   0.884955800    -0.3073488    0.6907690  
   0.886955700    -0.1985209    0.7277538  
   0.888955600    -0.0844605    0.7481285  
   0.890955500     0.0319705    0.7506756  
   0.892955400     0.1486023    0.7349717  
   0.894955300     0.2619698    0.7012085  
