! MS46122B
! 2250307/22442219
! 7/23/2025 8:02:01 AM
! C:\USERS\SPARKY\DOCUMENTS\VNA_DATA\JULY23_2025\3K\PORT2_MOS1_REPEAT1.S1P
! CHANNEL.1
! TR.MEASUREMENT
! RAW.DATA
# GHZ S RI R 50.0
! FREQ.GHZ         S11RE         S11IM         
!; PortSelection: Port_1
   0.001000000     1.0457640   -0.0717884  
   0.002999900     0.9642761   -0.1941875  
   0.004999800     0.9041635   -0.2992552  
   0.006999700     0.8371081   -0.3968892  
   0.008999600     0.7587839   -0.4923925  
   0.010999500     0.6662806   -0.5833966  
   0.012999400     0.5539365   -0.6674169  
   0.014999300     0.4158081   -0.7387295  
   0.016999200     0.2458194   -0.7850227  
   0.018999100     0.0382145   -0.7874327  
   0.020999000    -0.1999272   -0.7128062  
   0.022998900    -0.4348415   -0.5202641  
   0.024998800    -0.5624877   -0.1930172  
   0.026998700    -0.5403832    0.2173522  
   0.028998600    -0.2806757    0.5468683  
   0.030998500     0.0835610    0.6838104  
   0.032998400     0.3881243    0.6287314  
   0.034998300     0.6561051    0.5030780  
   0.036998200     0.8055728    0.3280641  
   0.038998100     0.8864007    0.1519794  
   0.040998000     0.9182977   -0.0111793  
   0.042997900     0.9169909   -0.1573780  
   0.044997800     0.8656347   -0.2608610  
   0.046997700     0.8501184   -0.3990808  
   0.048997600     0.7965267   -0.4970876  
   0.050997500     0.7338920   -0.5817537  
   0.052997400     0.6660944   -0.6532965  
   0.054997300     0.5902796   -0.7166518  
   0.056997200     0.5117230   -0.7689456  
   0.058997100     0.4295059   -0.8115546  
   0.060997000     0.3440417   -0.8455834  
   0.062996900     0.2560515   -0.8702233  
   0.064996800     0.1653266   -0.8852667  
   0.066996700     0.0724165   -0.8913662  
   0.068996600    -0.0218344   -0.8869662  
   0.070996500    -0.1169741   -0.8729272  
   0.072996400    -0.2128849   -0.8462731  
   0.074996300    -0.3077840   -0.8073232  
   0.076996200    -0.4003333   -0.7554143  
   0.078996100    -0.4889272   -0.6894647  
   0.080996000    -0.5713944   -0.6086841  
   0.082995900    -0.6452675   -0.5123911  
   0.084995800    -0.7064155   -0.4014972  
   0.086995700    -0.7531242   -0.2761552  
   0.088995600    -0.7798005   -0.1381027  
   0.090995500    -0.7830137    0.0100019  
   0.092995400    -0.7586443    0.1640600  
   0.094995300    -0.7023348    0.3174959  
   0.096995200    -0.6123254    0.4629347  
   0.098995100    -0.4899081    0.5906774  
   0.100995000    -0.3367709    0.6930715  
   0.102994900    -0.1630536    0.7590399  
   0.104994800     0.0226086    0.7846821  
   0.106994700     0.2086265    0.7667609  
   0.108994600     0.3840400    0.7091678  
   0.110994500     0.5392653    0.6162856  
   0.112994400     0.6668016    0.4957167  
   0.114994300     0.7628640    0.3566759  
   0.116994200     0.8264778    0.2073163  
   0.118994100     0.8589334    0.0552831  
   0.120994000     0.8643006   -0.0932220  
   0.122993900     0.8428990   -0.2337996  
   0.124993800     0.8002788   -0.3626662  
   0.126993700     0.7399303   -0.4782640  
   0.128993600     0.6649158   -0.5784655  
   0.130993500     0.5797188   -0.6636794  
   0.132993400     0.4864154   -0.7342634  
   0.134993300     0.3868948   -0.7892282  
   0.136993200     0.2835228   -0.8294628  
   0.138993100     0.1780753   -0.8553694  
   0.140993000     0.0714157   -0.8669163  
   0.142992900    -0.0351367   -0.8650779  
   0.144992800    -0.1396437   -0.8510306  
   0.146992700    -0.2414031   -0.8228561  
   0.148992600    -0.3392694   -0.7817497  
   0.150992500    -0.4305806   -0.7272174  
   0.152992400    -0.5163125   -0.6618729  
   0.154992300    -0.5936419   -0.5853415  
   0.156992200    -0.6615719   -0.4973352  
   0.158992100    -0.7183314   -0.3992517  
   0.160992000    -0.7620432   -0.2918458  
   0.162991900    -0.7912807   -0.1763272  
   0.164991800    -0.8039175   -0.0545837  
   0.166991700    -0.7981336    0.0711880  
   0.168991600    -0.7725644    0.1982754  
   0.170991500    -0.7258424    0.3239608  
   0.172991400    -0.6572362    0.4435357  
   0.174991300    -0.5676392    0.5530321  
   0.176991200    -0.4572785    0.6484307  
   0.178991100    -0.3284315    0.7246763  
   0.180991000    -0.1855195    0.7783645  
   0.182990900    -0.0325662    0.8044369  
   0.184990800     0.1250746    0.8013656  
   0.186990700     0.2806872    0.7683566  
   0.188990600     0.4060245    0.7178969  
   0.190990500     0.5554944    0.6200767  
   0.192990400     0.6701070    0.5071588  
   0.194990300     0.7582431    0.3788257  
   0.196990200     0.8202606    0.2394155  
   0.198990100     0.8555423    0.0939265  
   0.200990000     0.8641750   -0.0525508  
   0.202989900     0.8475294   -0.1949444  
   0.204989800     0.8080747   -0.3287316  
   0.206989700     0.7501189   -0.4511569  
   0.208989600     0.6741827   -0.5589954  
   0.210989500     0.5844871   -0.6520293  
   0.212989400     0.4839625   -0.7282633  
   0.214989300     0.3754262   -0.7872613  
   0.216989200     0.2620722   -0.8287620  
   0.218989100     0.1463549   -0.8530154  
   0.220989000     0.0297976   -0.8607349  
   0.222988900    -0.0855464   -0.8519785  
   0.224988800    -0.1979167   -0.8271433  
   0.226988700    -0.3048629   -0.7876699  
   0.228988600    -0.4048727   -0.7341444  
   0.230988500    -0.4965457   -0.6674592  
   0.232988400    -0.5775295   -0.5870212  
   0.234988300    -0.6484015   -0.4963945  
   0.236988200    -0.7060921   -0.3952250  
   0.238988100    -0.7494569   -0.2856130  
   0.240988000    -0.7763955   -0.1693985  
   0.242987900    -0.7865234   -0.0488603  
   0.244987800    -0.7778630    0.0740931  
   0.246987700    -0.7496941    0.1971783  
   0.248987600    -0.7012273    0.3172349  
   0.250987500    -0.6323610    0.4307182  
   0.252987400    -0.5441200    0.5328461  
   0.254987300    -0.4378562    0.6203157  
   0.256987200    -0.3159835    0.6893340  
   0.258987100    -0.1815217    0.7383158  
   0.260987000    -0.0376848    0.7612587  
   0.262986900     0.1100344    0.7576426  
   0.264986800     0.2561154    0.7267175  
   0.266986700     0.3947801    0.6687484  
   0.268986600     0.5198501    0.5859871  
   0.270986500     0.6269963    0.4818090  
   0.272986400     0.7124359    0.3611065  
   0.274986300     0.7734807    0.2280739  
   0.276986200     0.8091692    0.0881787  
   0.278986100     0.8194281   -0.0540495  
   0.280986000     0.8047011   -0.1930355  
   0.282985900     0.7667920   -0.3248762  
   0.284985800     0.7090496   -0.4454839  
   0.286985700     0.6343289   -0.5526549  
   0.288985600     0.5458598   -0.6436936  
   0.290985500     0.4475878   -0.7179664  
   0.292985400     0.3415326   -0.7749963  
   0.294985300     0.2307785   -0.8151971  
   0.296985200     0.1168977   -0.8383937  
   0.298985100     0.0025600   -0.8454461  
   0.300985000    -0.1101794   -0.8364316  
   0.302984900    -0.2191671   -0.8122793  
   0.304984800    -0.3224333   -0.7741191  
   0.306984700    -0.4187217   -0.7226639  
   0.308984600    -0.5063406   -0.6602702  
   0.310984500    -0.5844423   -0.5874051  
   0.312984400    -0.6525842   -0.5044024  
   0.314984300    -0.7098862   -0.4130610  
   0.316984200    -0.7547474   -0.3138486  
   0.318984100    -0.7865469   -0.2073843  
   0.320984000    -0.8035485   -0.0946257  
   0.322983900    -0.8040906    0.0222377  
   0.324983800    -0.7861385    0.1399642  
   0.326983700    -0.7487438    0.2547432  
   0.328983600    -0.6920168    0.3634602  
   0.330983500    -0.6178601    0.4605424  
   0.332983400    -0.5298611    0.5428581  
   0.334983300    -0.4314889    0.6095361  
   0.336983200    -0.3255027    0.6610355  
   0.338983100    -0.2138900    0.6963821  
   0.340983000    -0.0982516    0.7160687  
   0.342982900     0.0203679    0.7190220  
   0.344982800     0.1404113    0.7037293  
   0.346982700     0.2591188    0.6701328  
   0.348982600     0.3720661    0.6155991  
   0.350982500     0.4767968    0.5433453  
   0.352982400     0.5694932    0.4530841  
   0.354982300     0.6482394    0.3430547  
   0.356982200     0.7102494    0.2074514  
   0.358982100     0.7446025    0.0618002  
   0.360982000     0.7496332   -0.0876699  
   0.362981900     0.7250957   -0.2353481  
   0.364981800     0.6723512   -0.3753942  
   0.366981700     0.5933267   -0.5018746  
   0.368981600     0.4916747   -0.6102459  
   0.370981500     0.3716509   -0.6965763  
   0.372981400     0.2381910   -0.7578300  
   0.374981300     0.0964071   -0.7923070  
   0.376981200     0.2127305   -0.7668464  
   0.378981100     0.0726505   -0.7952401  
   0.380981000    -0.0694245   -0.7972337  
   0.382980900    -0.1956774   -0.7770100  
   0.384980800    -0.3099958   -0.7392364  
   0.386980700    -0.4162883   -0.6845098  
   0.388980600    -0.5125698   -0.6143177  
   0.390980500    -0.5958110   -0.5317896  
   0.392980400    -0.6653525   -0.4389080  
   0.394980300    -0.7199906   -0.3374613  
   0.396980200    -0.7589397   -0.2291983  
   0.398980100    -0.7819642   -0.1164053  
   0.400980000    -0.7881953   -0.0015605  
   0.402979900    -0.7774586    0.1139199  
   0.404979800    -0.7502680    0.2269119  
   0.406979700    -0.7060306    0.3351746  
   0.408979600    -0.6460244    0.4367015  
   0.410979500    -0.5704071    0.5294698  
   0.412979400    -0.4803212    0.6112056  
   0.414979300    -0.3768198    0.6775854  
   0.416979200    -0.2629836    0.7289978  
   0.418979100    -0.1416429    0.7623036  
   0.420979000    -0.0148163    0.7761676  
   0.422978900     0.1142299    0.7692090  
   0.424978800     0.2422286    0.7410201  
   0.426978700     0.3650323    0.6914759  
   0.428978600     0.4786218    0.6212297  
   0.430978500     0.5793821    0.5328865  
   0.432978400     0.6636789    0.4283501  
   0.434978300     0.7305792    0.3114144  
   0.436978200     0.7754382    0.1842460  
   0.438978100     0.7983825    0.0514114  
   0.440978000     0.7981378   -0.0829527  
   0.442977900     0.7755581   -0.2147304  
   0.444977800     0.7313170   -0.3397456  
   0.446977700     0.6674177   -0.4547188  
   0.448977600     0.5861478   -0.5566651  
   0.450977500     0.4904061   -0.6430888  
   0.452977400     0.3827091   -0.7117421  
   0.454977300     0.2657086   -0.7621251  
   0.456977200     0.1433078   -0.7926179  
   0.458977100     0.0189140   -0.8031793  
   0.460977000    -0.1042003   -0.7940136  
   0.462976900    -0.2227243   -0.7666277  
   0.464976800    -0.3345526   -0.7210084  
   0.466976700    -0.4375549   -0.6596596  
   0.468976600    -0.5286586   -0.5839928  
   0.470976500    -0.6072659   -0.4955199  
   0.472976400    -0.6714900   -0.3968053  
   0.474976300    -0.7197144   -0.2893857  
   0.476976200    -0.7510684   -0.1765608  
   0.478976100    -0.7650016   -0.0600584  
   0.480976000    -0.7610643    0.0565232  
   0.482975900    -0.7392247    0.1717531  
   0.484975800    -0.7000364    0.2827733  
   0.486975700    -0.6436573    0.3873629  
   0.488975600    -0.5707534    0.4828191  
   0.490975500    -0.4829570    0.5666513  
   0.492975400    -0.3813678    0.6356691  
   0.494975300    -0.2690075    0.6873861  
   0.496975200    -0.1482855    0.7201179  
   0.498975100    -0.0230651    0.7317896  
   0.500975000     0.1028469    0.7219321  
   0.502974900     0.2252916    0.6901825  
   0.504974800     0.3402779    0.6377087  
   0.506974700     0.4439075    0.5657392  
   0.508974600     0.5331686    0.4765608  
   0.510974500     0.6042914    0.3747379  
   0.512974400     0.6561019    0.2638905  
   0.514974300     0.6858809    0.1490337  
   0.516974200     0.6975070    0.0336966  
   0.518974100     0.6909118   -0.0787124  
   0.520974000     0.6682993   -0.1856990  
   0.522973900     0.6314104   -0.2862533  
   0.524973800     0.5818079   -0.3783439  
   0.526973700     0.5212332   -0.4621052  
   0.528973600     0.4506577   -0.5363469  
   0.530973500     0.3709320   -0.6012517  
   0.532973400     0.2823688   -0.6548540  
   0.534973300     0.1867328   -0.6961235  
   0.536973200     0.0846817   -0.7240264  
   0.538973100    -0.0216103   -0.7368158  
   0.540973000    -0.1295198   -0.7337891  
   0.542972900    -0.2375981   -0.7135744  
   0.544972800    -0.3423570   -0.6769293  
   0.546972700    -0.4416293   -0.6235158  
   0.548972600    -0.5322643   -0.5540814  
   0.550972500    -0.6116849   -0.4707650  
   0.552972400    -0.6770408   -0.3745855  
   0.554972300    -0.7266877   -0.2687979  
   0.556972200    -0.7589904   -0.1556613  
   0.558972100    -0.7731642   -0.0384952  
   0.560972000    -0.7683120    0.0795477  
   0.562971900    -0.7447761    0.1957068  
   0.564971800    -0.7031128    0.3069513  
   0.566971700    -0.6446650    0.4104888  
   0.568971600    -0.5702985    0.5037757  
   0.570971500    -0.4816391    0.5846652  
   0.572971400    -0.3804577    0.6511918  
   0.574971300    -0.2691571    0.7010478  
   0.576971200    -0.1500704    0.7326252  
   0.578971100    -0.0260414    0.7445400  
   0.580971000     0.0989105    0.7362531  
   0.582970900     0.2214830    0.7071947  
   0.584970800     0.3382892    0.6580793  
   0.586970700     0.4457391    0.5899271  
   0.588970600     0.5406007    0.5045018  
   0.590970500     0.6200942    0.4037671  
   0.592970400     0.6813846    0.2905521  
   0.594970300     0.7229326    0.1683935  
   0.596970200     0.7430709    0.0404713  
   0.598970100     0.7412456   -0.0882736  
   0.600970000     0.7173741   -0.2154259  
   0.602969900     0.6722740   -0.3363169  
   0.604969800     0.6075915   -0.4470382  
   0.606969700     0.5253603   -0.5450989  
   0.608969600     0.4282037   -0.6277880  
   0.610969500     0.3195324   -0.6919096  
   0.612969400     0.2024000   -0.7371156  
   0.614969300     0.0809278   -0.7616859  
   0.616969200    -0.0409725   -0.7665867  
   0.618969100    -0.1608424   -0.7515868  
   0.620969000    -0.2751675   -0.7187090  
   0.622968900    -0.3819454   -0.6685041  
   0.624968800    -0.4791898   -0.6028975  
   0.626968700    -0.5647781   -0.5238351  
   0.628968600    -0.6367419   -0.4326931  
   0.630968500    -0.6939191   -0.3323848  
   0.632968400    -0.7351010   -0.2251115  
   0.634968300    -0.7595653   -0.1127212  
   0.636968200    -0.7667906    0.0014835  
   0.638968100    -0.7570409    0.1153231  
   0.640968000    -0.7303113    0.2271543  
   0.642967900    -0.6870151    0.3335926  
   0.644967800    -0.6280219    0.4327104  
   0.646967700    -0.5544712    0.5222110  
   0.648967600    -0.4679427    0.6002651  
   0.650967500    -0.3699259    0.6644452  
   0.652967400    -0.2630278    0.7128825  
   0.654967300    -0.1485970    0.7449284  
   0.656967200    -0.0298576    0.7589569  
   0.658967100     0.0903569    0.7541623  
   0.660967000     0.2101646    0.7299787  
   0.662966900     0.3258504    0.6864492  
   0.664966800     0.4348117    0.6237139  
   0.666966700     0.5329843    0.5433225  
   0.668966600     0.6171011    0.4471615  
   0.670966500     0.6844613    0.3372540  
   0.672966400     0.7338575    0.2180496  
   0.674966300     0.7615625    0.0912973  
   0.676966200     0.7673950   -0.0377546  
   0.678966100     0.7509678   -0.1653558  
   0.680966000     0.7138960   -0.2886435  
   0.682965900     0.6571369   -0.4030033  
   0.684965800     0.5828146   -0.5057054  
   0.686965700     0.4927613   -0.5942364  
   0.688965600     0.3901896   -0.6660060  
   0.690965500     0.2781315   -0.7186572  
   0.692965400     0.1608989   -0.7530874  
   0.694965300     0.0414451   -0.7683259  
   0.696965200    -0.0779072   -0.7642750  
   0.698965100    -0.1940993   -0.7420185  
   0.700965000    -0.3043258   -0.7022509  
   0.702964900    -0.4057742   -0.6467164  
   0.704964800    -0.4972436   -0.5767519  
   0.706964700    -0.5764071   -0.4943844  
   0.708964600    -0.6418551   -0.4011724  
   0.710964500    -0.6929554   -0.2999289  
   0.712964400    -0.7273471   -0.1925745  
   0.714964300    -0.7450338   -0.0810075  
   0.716964200    -0.7462035    0.0314887  
   0.718964100    -0.7303249    0.1423189  
   0.720964000    -0.6980001    0.2495741  
   0.722963900    -0.6495805    0.3510122  
   0.724963800    -0.5864230    0.4443534  
   0.726963700    -0.5090297    0.5272417  
   0.728963600    -0.4192145    0.5974955  
   0.730963500    -0.3187164    0.6527991  
   0.732963400    -0.2100588    0.6920606  
   0.734963300    -0.0957520    0.7136108  
   0.736963200     0.0388117    0.7154635  
   0.738963100     0.1727090    0.6919481  
   0.740963000     0.3003355    0.6438497  
   0.742962900     0.4165398    0.5722842  
   0.744962800     0.5171986    0.4807851  
   0.746962700     0.5989746    0.3721630  
   0.748962600     0.6586084    0.2503366  
   0.750962500     0.5989880    0.3464293  
   0.752962400     0.6541216    0.2249320  
   0.754962300     0.6856760    0.0965364  
   0.756962200     0.6934894   -0.0348025  
   0.758962100     0.6773937   -0.1647359  
   0.760962000     0.6384303   -0.2885396  
   0.762961900     0.5813816   -0.3979577  
   0.764961800     0.5136661   -0.4880993  
   0.766961700     0.4335636   -0.5661691  
   0.768961600     0.3421076   -0.6315153  
   0.770961500     0.2419344   -0.6816671  
   0.772961400     0.1353714   -0.7161028  
   0.774961300     0.0248821   -0.7338532  
   0.776961200    -0.0876799   -0.7342156  
   0.778961100    -0.1992974   -0.7175468  
   0.780961000    -0.3072305   -0.6833392  
   0.782960900    -0.4090744   -0.6325843  
   0.784960800    -0.5022771   -0.5660199  
   0.786960700    -0.5838088   -0.4855120  
   0.788960600    -0.6518510   -0.3929081  
   0.790960500    -0.7045357   -0.2907846  
   0.792960400    -0.7406211   -0.1815352  
   0.794960300    -0.7588442   -0.0681756  
   0.796960200    -0.7594976    0.0465913  
   0.798960100    -0.7420758    0.1601263  
   0.800960000    -0.7074130    0.2686661  
   0.802959900    -0.6562798    0.3715277  
   0.804959800    -0.5898997    0.4644079  
   0.806959700    -0.5100622    0.5466071  
   0.808959600    -0.4180918    0.6153616  
   0.810959500    -0.3165517    0.6688718  
   0.812959400    -0.2071541    0.7064667  
   0.814959300    -0.0935226    0.7266626  
   0.816959200     0.0228790    0.7287213  
   0.818959100     0.1389109    0.7127121  
   0.820959000     0.2513234    0.6781764  
   0.822958900     0.3577212    0.6258618  
   0.824958800     0.4548652    0.5571220  
   0.826958700     0.5401916    0.4728019  
   0.828958600     0.6113170    0.3751932  
   0.830958500     0.6657991    0.2667528  
   0.832958400     0.7017238    0.1505758  
   0.834958300     0.7181796    0.0296769  
   0.836958200     0.7142770   -0.0923027  
   0.838958100     0.6904291   -0.2120957  
   0.840958000     0.6467643   -0.3265796  
   0.842957900     0.5845746   -0.4325594  
   0.844957800     0.5058342   -0.5266737  
   0.846957700     0.4126846   -0.6060687  
   0.848957600     0.3077658   -0.6687167  
   0.850957500     0.1948089   -0.7130170  
   0.852957400     0.0763434   -0.7377955  
   0.854957300    -0.0437082   -0.7431473  
   0.856957200    -0.1622385   -0.7288495  
   0.858957100    -0.2757055   -0.6960121  
   0.860957000    -0.3816525   -0.6459715  
   0.862956900    -0.4773256   -0.5807477  
   0.864956800    -0.5608917   -0.5025266  
   0.866956700    -0.6305362   -0.4133785  
   0.868956600    -0.6848103   -0.3155122  
   0.870956500    -0.7240415   -0.2111931  
   0.872956400    -0.7472821   -0.1025845  
   0.874956300    -0.7536198    0.0073625  
   0.876956200    -0.7438728    0.1175315  
   0.878956100    -0.7174414    0.2245954  
   0.880956000    -0.6758636    0.3268275  
   0.882955900    -0.6194336    0.4220714  
   0.884955800    -0.5495247    0.5079334  
   0.886955700    -0.4668524    0.5828804  
   0.888955600    -0.3739526    0.6446199  
   0.890955500    -0.2721342    0.6924748  
   0.892955400    -0.1640132    0.7245151  
   0.894955300    -0.0515153    0.7397179  
