! MS46122B
! 2250307/22442219
! 7/23/2025 7:52:48 AM
! C:\USERS\SPARKY\DOCUMENTS\VNA_DATA\JULY23_2025\3K\PORT2_MOS1.S1P
! CHANNEL.1
! TR.MEASUREMENT
! RAW.DATA
# GHZ S RI R 50.0
! FREQ.GHZ         S11RE         S11IM         
!; PortSelection: Port_1
   0.001000000     1.0458570   -0.0715270  
   0.002999900     0.9644878   -0.1940555  
   0.004999800     0.9042757   -0.2991598  
   0.006999700     0.8372223   -0.3968651  
   0.008999600     0.7587484   -0.4924309  
   0.010999500     0.6661025   -0.5834148  
   0.012999400     0.5536302   -0.6674093  
   0.014999300     0.4155741   -0.7383920  
   0.016999200     0.2452081   -0.7845176  
   0.018999100     0.0376771   -0.7863892  
   0.020999000    -0.2000486   -0.7109430  
   0.022998900    -0.4336838   -0.5180646  
   0.024998800    -0.5596395   -0.1914249  
   0.026998700    -0.5362900    0.2167938  
   0.028998600    -0.2774963    0.5436947  
   0.030998500     0.0844014    0.6793978  
   0.032998400     0.3870457    0.6251302  
   0.034998300     0.6538696    0.5005255  
   0.036998200     0.8030180    0.3266055  
   0.038998100     0.8839143    0.1513912  
   0.040998000     0.9160911   -0.0112178  
   0.042997900     0.9150909   -0.1570161  
   0.044997800     0.8641769   -0.2602454  
   0.046997700     0.8486934   -0.3983170  
   0.048997600     0.7953804   -0.4962640  
   0.050997500     0.7329569   -0.5808466  
   0.052997400     0.6656556   -0.6518971  
   0.054997300     0.5896037   -0.7157333  
   0.056997200     0.5110782   -0.7680068  
   0.058997100     0.4290139   -0.8106233  
   0.060997000     0.3436792   -0.8446142  
   0.062996900     0.2557322   -0.8692645  
   0.064996800     0.1651192   -0.8843036  
   0.066996700     0.0722172   -0.8903790  
   0.068996600    -0.0218947   -0.8859547  
   0.070996500    -0.1170324   -0.8718669  
   0.072996400    -0.2127363   -0.8452340  
   0.074996300    -0.3075137   -0.8061749  
   0.076996200    -0.3999292   -0.7542831  
   0.078996100    -0.4883550   -0.6883087  
   0.080996000    -0.5706466   -0.6076009  
   0.082995900    -0.6442718   -0.5113225  
   0.084995800    -0.7052060   -0.4005773  
   0.086995700    -0.7516910   -0.2754216  
   0.088995600    -0.7781318   -0.1375793  
   0.090995500    -0.7811183    0.0102499  
   0.092995400    -0.7566087    0.1639018  
   0.094995300    -0.7002406    0.3168169  
   0.096995200    -0.6103664    0.4617545  
   0.098995100    -0.4880845    0.5889593  
   0.100995000    -0.3354009    0.6908742  
   0.102994900    -0.1620843    0.7565113  
   0.104994800     0.0229770    0.7819330  
   0.106994700     0.2083566    0.7641127  
   0.108994600     0.3830441    0.7065903  
   0.110994500     0.5377765    0.6140737  
   0.112994400     0.6648921    0.4939291  
   0.114994300     0.7606983    0.3553605  
   0.116994200     0.8242441    0.2064715  
   0.118994100     0.8566338    0.0549793  
   0.120994000     0.8620879   -0.0931216  
   0.122993900     0.8408673   -0.2332953  
   0.124993800     0.7984149   -0.3620192  
   0.126993700     0.7383431   -0.4772612  
   0.128993600     0.6635327   -0.5772143  
   0.130993500     0.5785644   -0.6626133  
   0.132993400     0.4855551   -0.7329063  
   0.134993300     0.3863127   -0.7878093  
   0.136993200     0.2830731   -0.8280025  
   0.138993100     0.1776589   -0.8540112  
   0.140993000     0.0711865   -0.8656710  
   0.142992900    -0.0349423   -0.8636183  
   0.144992800    -0.1392328   -0.8497181  
   0.146992700    -0.2411640   -0.8214861  
   0.148992600    -0.3386807   -0.7805069  
   0.150992500    -0.4299105   -0.7261307  
   0.152992400    -0.5154436   -0.6608195  
   0.154992300    -0.5926954   -0.5843540  
   0.156992200    -0.6604320   -0.4965029  
   0.158992100    -0.7170715   -0.3985408  
   0.160992000    -0.7606527   -0.2912525  
   0.162991900    -0.7897841   -0.1759308  
   0.164991800    -0.8023277   -0.0543944  
   0.166991700    -0.7963842    0.0710500  
   0.168991600    -0.7708518    0.1979742  
   0.170991500    -0.7241051    0.3233558  
   0.172991400    -0.6555613    0.4426035  
   0.174991300    -0.5662776    0.5517439  
   0.176991200    -0.4557150    0.6468685  
   0.178991100    -0.3270669    0.7227454  
   0.180991000    -0.1847094    0.7763008  
   0.182990900    -0.0321103    0.8022484  
   0.184990800     0.1252172    0.7990549  
   0.186990700     0.2801676    0.7660751  
   0.188990600     0.4051674    0.7156945  
   0.190990500     0.5541533    0.6180807  
   0.192990400     0.6683974    0.5055323  
   0.194990300     0.7563581    0.3775802  
   0.196990200     0.8180318    0.2386455  
   0.198990100     0.8533869    0.0935212  
   0.200990000     0.8619753   -0.0525061  
   0.202989900     0.8454761   -0.1944840  
   0.204989800     0.8060802   -0.3276985  
   0.206989700     0.7484325   -0.4501143  
   0.208989600     0.6726750   -0.5578212  
   0.210989500     0.5833927   -0.6504942  
   0.212989400     0.4829835   -0.7266939  
   0.214989300     0.3747647   -0.7856207  
   0.216989200     0.2617969   -0.8269825  
   0.218989100     0.1463707   -0.8512483  
   0.220989000     0.0299110   -0.8590490  
   0.222988900    -0.0853733   -0.8503814  
   0.224988800    -0.1975016   -0.8257402  
   0.226988700    -0.3041067   -0.7862103  
   0.228988600    -0.4040690   -0.7327551  
   0.230988500    -0.4955024   -0.6661919  
   0.232988400    -0.5763363   -0.5859427  
   0.234988300    -0.6471081   -0.4953489  
   0.236988200    -0.7045910   -0.3944375  
   0.238988100    -0.7478290   -0.2849982  
   0.240988000    -0.7746676   -0.1690088  
   0.242987900    -0.7845963   -0.0487739  
   0.244987800    -0.7759815    0.0740324  
   0.246987700    -0.7478370    0.1968434  
   0.248987600    -0.6994085    0.3166246  
   0.250987500    -0.6305757    0.4295880  
   0.252987400    -0.5424625    0.5315711  
   0.254987300    -0.4364172    0.6187156  
   0.256987200    -0.3148025    0.6874834  
   0.258987100    -0.1806843    0.7362403  
   0.260987000    -0.0372938    0.7590944  
   0.262986900     0.1100204    0.7553701  
   0.264986800     0.2556468    0.7244801  
   0.266986700     0.3937297    0.6667247  
   0.268986600     0.5186943    0.5840446  
   0.270986500     0.6252019    0.4804373  
   0.272986400     0.7105530    0.3599355  
   0.274986300     0.7714215    0.2273009  
   0.276986200     0.8070752    0.0876541  
   0.278986100     0.8173426   -0.0539867  
   0.280986000     0.8027619   -0.1927432  
   0.282985900     0.7649820   -0.3240778  
   0.284985800     0.7074974   -0.4443631  
   0.286985700     0.6329706   -0.5513626  
   0.288985600     0.5447398   -0.6422622  
   0.290985500     0.4467342   -0.7163885  
   0.292985400     0.3409489   -0.7733623  
   0.294985300     0.2304827   -0.8135088  
   0.296985200     0.1167865   -0.8367422  
   0.298985100     0.0026800   -0.8438467  
   0.300985000    -0.1098672   -0.8348950  
   0.302984900    -0.2186403   -0.8108186  
   0.304984800    -0.3217022   -0.7726894  
   0.306984700    -0.4178802   -0.7214237  
   0.308984600    -0.5054004   -0.6590474  
   0.310984500    -0.5834509   -0.5861939  
   0.312984400    -0.6514373   -0.5033987  
   0.314984300    -0.7084710   -0.4122055  
   0.316984200    -0.7533218   -0.3131554  
   0.318984100    -0.7849061   -0.2068776  
   0.320984000    -0.8019525   -0.0942103  
   0.322983900    -0.8021669    0.0220243  
   0.324983800    -0.7844263    0.1398314  
   0.326983700    -0.7470606    0.2543499  
   0.328983600    -0.6904348    0.3626977  
   0.330983500    -0.6163882    0.4595315  
   0.332983400    -0.5285835    0.5417169  
   0.334983300    -0.4303738    0.6082689  
   0.336983200    -0.3248559    0.6595775  
   0.338983100    -0.2133797    0.6949429  
   0.340983000    -0.0980451    0.7145996  
   0.342982900     0.0205177    0.7174780  
   0.344982800     0.1401484    0.7022671  
   0.346982700     0.2586944    0.6686287  
   0.348982600     0.3712962    0.6142204  
   0.350982500     0.4759494    0.5419804  
   0.352982400     0.5683265    0.4519666  
   0.354982300     0.6467193    0.3421698  
   0.356982200     0.7086548    0.2068774  
   0.358982100     0.7429001    0.0615699  
   0.360982000     0.7479103   -0.0875317  
   0.362981900     0.7234123   -0.2348734  
   0.364981800     0.6707571   -0.3745805  
   0.366981700     0.5919663   -0.5009320  
   0.368981600     0.4905414   -0.6088594  
   0.370981500     0.3707772   -0.6949832  
   0.372981400     0.2376490   -0.7561457  
   0.374981300     0.0963537   -0.7905904  
   0.376981200     0.2121818   -0.7650777  
   0.378981100     0.0724921   -0.7935190  
   0.380981000    -0.0692524   -0.7955500  
   0.382980900    -0.1951794   -0.7752510  
   0.384980800    -0.3093026   -0.7376807  
   0.386980700    -0.4152066   -0.6830375  
   0.388980600    -0.5114845   -0.6130623  
   0.390980500    -0.5944988   -0.5308256  
   0.392980400    -0.6641020   -0.4377230  
   0.394980300    -0.7185685   -0.3365887  
   0.396980200    -0.7575338   -0.2285425  
   0.398980100    -0.7804556   -0.1158836  
   0.400980000    -0.7865862   -0.0013257  
   0.402979900    -0.7758573    0.1139104  
   0.404979800    -0.7486882    0.2266952  
   0.406979700    -0.7044690    0.3347320  
   0.408979600    -0.6446187    0.4358656  
   0.410979500    -0.5690560    0.5285972  
   0.412979400    -0.4793183    0.6099095  
   0.414979300    -0.3758095    0.6762621  
   0.416979200    -0.2622541    0.7275212  
   0.418979100    -0.1411710    0.7607027  
   0.420979000    -0.0147087    0.7744191  
   0.422978900     0.1140961    0.7675083  
   0.424978800     0.2418012    0.7393371  
   0.426978700     0.3642294    0.6898651  
   0.428978600     0.4775750    0.6197640  
   0.430978500     0.5780897    0.5315842  
   0.432978400     0.6621941    0.4272990  
   0.434978300     0.7288384    0.3104223  
   0.436978200     0.7736773    0.1837254  
   0.438978100     0.7965007    0.0512302  
   0.440978000     0.7962121   -0.0828003  
   0.442977900     0.7736574   -0.2142772  
   0.444977800     0.7295761   -0.3389790  
   0.446977700     0.6657231   -0.4536745  
   0.448977600     0.5846882   -0.5554432  
   0.450977500     0.4893834   -0.6412969  
   0.452977400     0.3818095   -0.7101011  
   0.454977300     0.2650857   -0.7603949  
   0.456977200     0.1429240   -0.7908501  
   0.458977100     0.0187645   -0.8014116  
   0.460977000    -0.1040169   -0.7922978  
   0.462976900    -0.2223571   -0.7649282  
   0.464976800    -0.3339495   -0.7195333  
   0.466976700    -0.4366338   -0.6581220  
   0.468976600    -0.5276601   -0.5826700  
   0.470976500    -0.6061599   -0.4942625  
   0.472976400    -0.6703303   -0.3957151  
   0.474976300    -0.7182484   -0.2886672  
   0.476976200    -0.7495665   -0.1760719  
   0.478976100    -0.7634271   -0.0597214  
   0.480976000    -0.7594242    0.0565694  
   0.482975900    -0.7375492    0.1714538  
   0.484975800    -0.6985264    0.2824046  
   0.486975700    -0.6421758    0.3866951  
   0.488975600    -0.5694696    0.4818892  
   0.490975500    -0.4817749    0.5655342  
   0.492975400    -0.3804120    0.6343489  
   0.494975300    -0.2682122    0.6858833  
   0.496975200    -0.1478433    0.7185073  
   0.498975100    -0.0228950    0.7300895  
   0.500975000     0.1026694    0.7201974  
   0.502974900     0.2247978    0.6885315  
   0.504974800     0.3395150    0.6361501  
   0.506974700     0.4429073    0.5641622  
   0.508974600     0.5317309    0.4754236  
   0.510974500     0.6026246    0.3739323  
   0.512974400     0.6543498    0.2634249  
   0.514974300     0.6840365    0.1488778  
   0.516974200     0.6957266    0.0339035  
   0.518974100     0.6893483   -0.0782885  
   0.520974000     0.6668019   -0.1849239  
   0.522973900     0.6300753   -0.2853166  
   0.524973800     0.5807930   -0.3772648  
   0.526973700     0.5204077   -0.4609468  
   0.528973600     0.4500218   -0.5352261  
   0.530973500     0.3704385   -0.5999835  
   0.532973400     0.2820753   -0.6535487  
   0.534973300     0.1865198   -0.6949180  
   0.536973200     0.0845759   -0.7227765  
   0.538973100    -0.0215825   -0.7355545  
   0.540973000    -0.1292488   -0.7324870  
   0.542972900    -0.2373315   -0.7123512  
   0.544972800    -0.3420602   -0.6756749  
   0.546972700    -0.4409789   -0.6223772  
   0.548972600    -0.5315142   -0.5530177  
   0.550972500    -0.6107334   -0.4697493  
   0.552972400    -0.6759596   -0.3737103  
   0.554972300    -0.7255155   -0.2681532  
   0.556972200    -0.7576627   -0.1552044  
   0.558972100    -0.7717180   -0.0383820  
   0.560972000    -0.7669338    0.0795950  
   0.562971900    -0.7434227    0.1955340  
   0.564971800    -0.7018185    0.3065275  
   0.566971700    -0.6434270    0.4097726  
   0.568971600    -0.5691548    0.5029755  
   0.570971500    -0.4806134    0.5836223  
   0.572971400    -0.3796244    0.6499599  
   0.574971300    -0.2685103    0.6996827  
   0.576971200    -0.1496243    0.7311082  
   0.578971100    -0.0259953    0.7431425  
   0.580971000     0.0987818    0.7346886  
   0.582970900     0.2212201    0.7055548  
   0.584970800     0.3375753    0.6565863  
   0.586970700     0.4448336    0.5885828  
   0.588970600     0.5394080    0.5030684  
   0.590970500     0.6187414    0.4027265  
   0.592970400     0.6799920    0.2895880  
   0.594970300     0.7213465    0.1678990  
   0.596970200     0.7414002    0.0402397  
   0.598970100     0.7395667   -0.0882631  
   0.600970000     0.7156931   -0.2150410  
   0.602969900     0.6708151   -0.3354845  
   0.604969800     0.6062463   -0.4462085  
   0.606969700     0.5241206   -0.5440466  
   0.608969600     0.4274040   -0.6264157  
   0.610969500     0.3186275   -0.6907052  
   0.612969400     0.2019217   -0.7353663  
   0.614969300     0.0806003   -0.7603783  
   0.616969200    -0.0410119   -0.7651595  
   0.618969100    -0.1606979   -0.7502025  
   0.620969000    -0.2747999   -0.7174369  
   0.622968900    -0.3814809   -0.6672326  
   0.624968800    -0.4785184   -0.6018345  
   0.626968700    -0.5640290   -0.5228493  
   0.628968600    -0.6357974   -0.4319279  
   0.630968500    -0.6928623   -0.3317850  
   0.632968400    -0.7340668   -0.2246230  
   0.634968300    -0.7583867   -0.1123355  
   0.636968200    -0.7656057    0.0015355  
   0.638968100    -0.7559991    0.1152424  
   0.640968000    -0.7290475    0.2268233  
   0.642967900    -0.6858791    0.3332316  
   0.644967800    -0.6269605    0.4320522  
   0.646967700    -0.5535446    0.5214427  
   0.648967600    -0.4669159    0.5994234  
   0.650967500    -0.3693185    0.6633939  
   0.652967400    -0.2623653    0.7118719  
   0.654967300    -0.1481497    0.7437033  
   0.656967200    -0.0297506    0.7576930  
   0.658967100     0.0906434    0.7528050  
   0.660967000     0.2099500    0.7286742  
   0.662966900     0.3255785    0.6850892  
   0.664966800     0.4341192    0.6225135  
   0.666966700     0.5320795    0.5422447  
   0.668966600     0.6160681    0.4462249  
   0.670966500     0.6833489    0.3364573  
   0.672966400     0.7326553    0.2173308  
   0.674966300     0.7602085    0.0910066  
   0.676966200     0.7660167   -0.0378808  
   0.678966100     0.7496347   -0.1653022  
   0.680966000     0.7125939   -0.2882585  
   0.682965900     0.6559479   -0.4024564  
   0.684965800     0.5817818   -0.5049358  
   0.686965700     0.4918561   -0.5933519  
   0.688965600     0.3894719   -0.6649641  
   0.690965500     0.2777055   -0.7175230  
   0.692965400     0.1605645   -0.7519943  
   0.694965300     0.0412682   -0.7672145  
   0.696965200    -0.0779929   -0.7631710  
   0.698965100    -0.1938966   -0.7408928  
   0.700965000    -0.3039781   -0.7012128  
   0.702964900    -0.4052478   -0.6457634  
   0.704964800    -0.4966170   -0.5759244  
   0.706964700    -0.5756838   -0.4936488  
   0.708964600    -0.6410049   -0.4005756  
   0.710964500    -0.6920111   -0.2994765  
   0.712964400    -0.7263479   -0.1922768  
   0.714964300    -0.7440258   -0.0808648  
   0.716964200    -0.7451803    0.0313469  
   0.718964100    -0.7292725    0.1422587  
   0.720964000    -0.6969705    0.2492813  
   0.722963900    -0.6486217    0.3506221  
   0.724963800    -0.5854817    0.4438058  
   0.726963700    -0.5081139    0.5266520  
   0.728963600    -0.4184724    0.5966685  
   0.730963500    -0.3179189    0.6519620  
   0.732963400    -0.2096078    0.6910417  
   0.734963300    -0.0954706    0.7125499  
   0.736963200     0.0388765    0.7143677  
   0.738963100     0.1726103    0.6909165  
   0.740963000     0.2998739    0.6427327  
   0.742962900     0.4158292    0.5713516  
   0.744962800     0.5164613    0.4800134  
   0.746962700     0.5980625    0.3716811  
   0.748962600     0.6577105    0.2500113  
   0.750962500     0.5981948    0.3459398  
   0.752962400     0.6531909    0.2246555  
   0.754962300     0.6848330    0.0964403  
   0.756962200     0.6926743   -0.0347370  
   0.758962100     0.6765911   -0.1643984  
   0.760962000     0.6377402   -0.2882121  
   0.762961900     0.5808162   -0.3975553  
   0.764961800     0.5130756   -0.4874433  
   0.766961700     0.4331480   -0.5657146  
   0.768961600     0.3418817   -0.6309782  
   0.770961500     0.2416868   -0.6810858  
   0.772961400     0.1352191   -0.7154748  
   0.774961300     0.0247624   -0.7332230  
   0.776961200    -0.0876560   -0.7335503  
   0.778961100    -0.1991849   -0.7169166  
   0.780961000    -0.3070546   -0.6826963  
   0.782960900    -0.4087387   -0.6319444  
   0.784960800    -0.5018048   -0.5654533  
   0.786960700    -0.5832710   -0.4849657  
   0.788960600    -0.6512164   -0.3924328  
   0.790960500    -0.7038655   -0.2903857  
   0.792960400    -0.7398365   -0.1812913  
   0.794960300    -0.7580362   -0.0680600  
   0.796960200    -0.7586548    0.0465963  
   0.798960100    -0.7412301    0.1600062  
   0.800960000    -0.7065889    0.2684403  
   0.802959900    -0.6554696    0.3711463  
   0.804959800    -0.5891604    0.4639849  
   0.806959700    -0.5094348    0.5460230  
   0.808959600    -0.4174769    0.6147258  
   0.810959500    -0.3161283    0.6681558  
   0.812959400    -0.2068115    0.7056461  
   0.814959300    -0.0932188    0.7257479  
   0.816959200     0.0230593    0.7279612  
   0.818959100     0.1388910    0.7118782  
   0.820959000     0.2511638    0.6773530  
   0.822958900     0.3574550    0.6251015  
   0.824958800     0.4545180    0.5564153  
   0.826958700     0.5397371    0.4721628  
   0.828958600     0.6107624    0.3746399  
   0.830958500     0.6651647    0.2662849  
   0.832958400     0.7011222    0.1502901  
   0.834958300     0.7174450    0.0294738  
   0.836958200     0.7135264   -0.0923637  
   0.838958100     0.6895421   -0.2121679  
   0.840958000     0.6459893   -0.3263919  
   0.842957900     0.5839027   -0.4322715  
   0.844957800     0.5051613   -0.5261779  
   0.846957700     0.4121758   -0.6055431  
   0.848957600     0.3073534   -0.6681063  
   0.850957500     0.1944889   -0.7123591  
   0.852957400     0.0761713   -0.7371072  
   0.854957300    -0.0436259   -0.7424096  
   0.856957200    -0.1621345   -0.7280624  
   0.858957100    -0.2754992   -0.6953128  
   0.860957000    -0.3812918   -0.6453336  
   0.862956900    -0.4768725   -0.5801602  
   0.864956800    -0.5603957   -0.5019752  
   0.866956700    -0.6298948   -0.4128104  
   0.868956600    -0.6842295   -0.3149492  
   0.870956500    -0.7234258   -0.2107229  
   0.872956400    -0.7465779   -0.1023143  
   0.874956300    -0.7528697    0.0075034  
   0.876956200    -0.7431404    0.1176335  
   0.878956100    -0.7167901    0.2245397  
   0.880956000    -0.6752318    0.3267367  
   0.882955900    -0.6188225    0.4218225  
   0.884955800    -0.5489071    0.5076339  
   0.886955700    -0.4663075    0.5825323  
   0.888955600    -0.3733850    0.6444597  
   0.890955500    -0.2717682    0.6920245  
   0.892955400    -0.1637472    0.7240174  
   0.894955300    -0.0512769    0.7391832  
