! MS46122B
! 2250307/22442219
! 7/27/2025 9:28:26 AM
! C:\USERS\SPARKY\DOCUMENTS\VNA_DATA\JULY27_2025\3K\PORT6_MOS2_REPEAT1.S1P
! CHANNEL.1
! TR.MEASUREMENT
! RAW.DATA
# GHZ S RI R 50.0
! FREQ.GHZ         S11RE         S11IM         
!; PortSelection: Port_1
   0.001000000     1.0457500   -0.0722186  
   0.002999900     0.9642325   -0.1944589  
   0.004999800     0.9041805   -0.2992612  
   0.006999700     0.8371139   -0.3968890  
   0.008999600     0.7587595   -0.4921357  
   0.010999500     0.6661282   -0.5828058  
   0.012999400     0.5536463   -0.6663480  
   0.014999300     0.4153940   -0.7367110  
   0.016999200     0.2453737   -0.7817258  
   0.018999100     0.0385996   -0.7819475  
   0.020999000    -0.1972747   -0.7045122  
   0.022998900    -0.4268019   -0.5095301  
   0.024998800    -0.5461602   -0.1838523  
   0.026998700    -0.5154215    0.2172145  
   0.028998600    -0.2561983    0.5328604  
   0.030998500     0.0989081    0.6598845  
   0.032998400     0.3931749    0.6039948  
   0.034998300     0.6525800    0.4799874  
   0.036998200     0.7972245    0.3091107  
   0.038998100     0.8755619    0.1373382  
   0.040998000     0.9067500   -0.0223229  
   0.042997900     0.9047498   -0.1657166  
   0.044997800     0.8540393   -0.2669976  
   0.046997700     0.8383159   -0.4032796  
   0.048997600     0.7851114   -0.4998518  
   0.050997500     0.7229701   -0.5832458  
   0.052997400     0.6546354   -0.6548119  
   0.054997300     0.5807981   -0.7157332  
   0.056997200     0.5020062   -0.7677068  
   0.058997100     0.4201330   -0.8096105  
   0.060997000     0.3349150   -0.8428791  
   0.062996900     0.2471576   -0.8668863  
   0.064996800     0.1566933   -0.8812484  
   0.066996700     0.0639794   -0.8865777  
   0.068996600    -0.0300130   -0.8813273  
   0.070996500    -0.1249604   -0.8662875  
   0.072996400    -0.2204568   -0.8386334  
   0.074996300    -0.3148720   -0.7983471  
   0.076996200    -0.4069224   -0.7452109  
   0.078996100    -0.4944245   -0.6776184  
   0.080996000    -0.5757551   -0.5951734  
   0.082995900    -0.6479224   -0.4976605  
   0.084995800    -0.7069586   -0.3852247  
   0.086995700    -0.7508473   -0.2587664  
   0.088995600    -0.7741558   -0.1198427  
   0.090995500    -0.7733548    0.0284749  
   0.092995400    -0.7444002    0.1817500  
   0.094995300    -0.6833856    0.3331967  
   0.096995200    -0.5887811    0.4751563  
   0.098995100    -0.4621532    0.5979554  
   0.100995000    -0.3066305    0.6939299  
   0.102994900    -0.1321662    0.7527397  
   0.104994800     0.0521974    0.7709885  
   0.106994700     0.2349909    0.7461090  
   0.108994600     0.4053518    0.6829679  
   0.110994500     0.5542349    0.5861757  
   0.112994400     0.6750110    0.4633429  
   0.114994300     0.7644073    0.3236100  
   0.116994200     0.8219544    0.1754006  
   0.118994100     0.8488317    0.0255764  
   0.120994000     0.8497342   -0.1200486  
   0.122993900     0.8247815   -0.2570108  
   0.124993800     0.7795000   -0.3821979  
   0.126993700     0.7172168   -0.4942203  
   0.128993600     0.6408802   -0.5907161  
   0.130993500     0.5549188   -0.6727061  
   0.132993400     0.4613819   -0.7397061  
   0.134993300     0.3616578   -0.7917166  
   0.136993200     0.2587675   -0.8287632  
   0.138993100     0.1533973   -0.8519856  
   0.140993000     0.0474445   -0.8608334  
   0.142992900    -0.0578822   -0.8561651  
   0.144992800    -0.1615709   -0.8398452  
   0.146992700    -0.2620140   -0.8091388  
   0.148992600    -0.3585590   -0.7655360  
   0.150992500    -0.4478050   -0.7086251  
   0.152992400    -0.5317438   -0.6409969  
   0.154992300    -0.6068308   -0.5621644  
   0.156992200    -0.6719240   -0.4721453  
   0.158992100    -0.7255152   -0.3719017  
   0.160992000    -0.7655120   -0.2627094  
   0.162991900    -0.7906193   -0.1458697  
   0.164991800    -0.7986123   -0.0231795  
   0.166991700    -0.7876666    0.1025318  
   0.168991600    -0.7565958    0.2289400  
   0.170991500    -0.7040077    0.3527829  
   0.172991400    -0.6297323    0.4692811  
   0.174991300    -0.5345433    0.5746555  
   0.176991200    -0.4192366    0.6640724  
   0.178991100    -0.2868025    0.7333390  
   0.180991000    -0.1415230    0.7789959  
   0.182990900     0.0123183    0.7961675  
   0.184990800     0.1687002    0.7842809  
   0.186990700     0.3207964    0.7423782  
   0.188990600     0.4418037    0.6851615  
   0.190990500     0.5836322    0.5800123  
   0.192990400     0.6897654    0.4620060  
   0.194990300     0.7691708    0.3307770  
   0.196990200     0.8226100    0.1901140  
   0.198990100     0.8488956    0.0454865  
   0.200990000     0.8492280   -0.0985052  
   0.202989900     0.8251580   -0.2370465  
   0.204989800     0.7795978   -0.3663653  
   0.206989700     0.7162816   -0.4835935  
   0.208989600     0.6365951   -0.5854282  
   0.210989500     0.5440775   -0.6722113  
   0.212989400     0.4411904   -0.7424676  
   0.214989300     0.3317147   -0.7952030  
   0.216989200     0.2181496   -0.8306313  
   0.218989100     0.1029936   -0.8491658  
   0.220989000    -0.0125992   -0.8511699  
   0.222988900    -0.1262423   -0.8369815  
   0.224988800    -0.2364180   -0.8068839  
   0.226988700    -0.3405278   -0.7625245  
   0.228988600    -0.4371291   -0.7043942  
   0.230988500    -0.5250168   -0.6333277  
   0.232988400    -0.6015942   -0.5491383  
   0.234988300    -0.6673526   -0.4545535  
   0.236988200    -0.7194741   -0.3505895  
   0.238988100    -0.7563158   -0.2384405  
   0.240988000    -0.7765465   -0.1207566  
   0.242987900    -0.7791866    0.0005351  
   0.244987800    -0.7626265    0.1232148  
   0.246987700    -0.7264457    0.2447947  
   0.248987600    -0.6694970    0.3617420  
   0.250987500    -0.5927751    0.4703753  
   0.252987400    -0.4967418    0.5663213  
   0.254987300    -0.3842544    0.6456371  
   0.256987200    -0.2570284    0.7049010  
   0.258987100    -0.1193991    0.7430991  
   0.260987000     0.0258725    0.7542782  
   0.262986900     0.1722562    0.7384486  
   0.264986800     0.3145543    0.6957432  
   0.266986700     0.4466327    0.6265529  
   0.268986600     0.5631280    0.5346606  
   0.270986500     0.6599885    0.4234091  
   0.272986400     0.7338130    0.2976749  
   0.274986300     0.7830484    0.1620449  
   0.276986200     0.8067181    0.0219497  
   0.278986100     0.8055609   -0.1177009  
   0.280986000     0.7804101   -0.2523148  
   0.282985900     0.7337693   -0.3786761  
   0.284985800     0.6684765   -0.4926265  
   0.286985700     0.5876339   -0.5920063  
   0.288985600     0.4947733   -0.6747055  
   0.290985500     0.3931916   -0.7409325  
   0.292985400     0.2855624   -0.7899863  
   0.294985300     0.1740625   -0.8218048  
   0.296985200     0.0608682   -0.8375085  
   0.298985100    -0.0525282   -0.8372039  
   0.300985000    -0.1632581   -0.8209654  
   0.302984900    -0.2695771   -0.7903002  
   0.304984800    -0.3694355   -0.7458497  
   0.306984700    -0.4616695   -0.6887901  
   0.308984600    -0.5449833   -0.6210580  
   0.310984500    -0.6181478   -0.5431756  
   0.312984400    -0.6806437   -0.4556957  
   0.314984300    -0.7315204   -0.3602054  
   0.316984200    -0.7694885   -0.2572826  
   0.318984100    -0.7933031   -0.1476035  
   0.320984000    -0.8012888   -0.0328976  
   0.322983900    -0.7918910    0.0843914  
   0.324983800    -0.7635533    0.2012205  
   0.326983700    -0.7154565    0.3128610  
   0.328983600    -0.6484492    0.4154640  
   0.330983500    -0.5652065    0.5045772  
   0.332983400    -0.4702179    0.5772394  
   0.334983300    -0.3671724    0.6335412  
   0.336983200    -0.2584950    0.6740828  
   0.338983100    -0.1454684    0.6990062  
   0.340983000    -0.0299485    0.7080877  
   0.342982900     0.0873757    0.7005603  
   0.344982800     0.2046573    0.6748548  
   0.346982700     0.3189652    0.6303881  
   0.348982600     0.4255738    0.5659279  
   0.350982500     0.5222561    0.4846978  
   0.352982400     0.6049037    0.3862633  
   0.354982300     0.6718965    0.2698866  
   0.356982200     0.7194439    0.1298989  
   0.358982100     0.7386519   -0.0168750  
   0.360982000     0.7282973   -0.1646459  
   0.362981900     0.6892332   -0.3072321  
   0.364981800     0.6230778   -0.4394723  
   0.366981700     0.5326554   -0.5557763  
   0.368981600     0.4220280   -0.6517841  
   0.370981500     0.2955116   -0.7241912  
   0.372981400     0.1584432   -0.7709783  
   0.374981300     0.0161131   -0.7909164  
   0.376981200     0.1342313   -0.7776358  
   0.378981100    -0.0064027   -0.7920008  
   0.380981000    -0.1462716   -0.7804436  
   0.382980900    -0.2683649   -0.7483335  
   0.384980800    -0.3774759   -0.7002335  
   0.386980700    -0.4772960   -0.6360527  
   0.388980600    -0.5656720   -0.5578456  
   0.390980500    -0.6404241   -0.4681022  
   0.392980400    -0.7003505   -0.3694645  
   0.394980300    -0.7448784   -0.2633400  
   0.396980200    -0.7729942   -0.1521572  
   0.398980100    -0.7849520   -0.0373487  
   0.400980000    -0.7796767    0.0778685  
   0.402979900    -0.7575874    0.1919514  
   0.404979800    -0.7184582    0.3020232  
   0.406979700    -0.6630452    0.4056988  
   0.408979600    -0.5922855    0.5008254  
   0.410979500    -0.5063674    0.5855879  
   0.412979400    -0.4070461    0.6575794  
   0.414979300    -0.2956168    0.7123234  
   0.416979200    -0.1759895    0.7505729  
   0.418979100    -0.0504858    0.7697281  
   0.420979000     0.0779729    0.7682136  
   0.422978900     0.2059444    0.7455507  
   0.424978800     0.3300299    0.7014937  
   0.426978700     0.4459221    0.6363481  
   0.428978600     0.5500833    0.5523165  
   0.430978500     0.6384298    0.4516189  
   0.432978400     0.7084913    0.3371727  
   0.434978300     0.7591384    0.2126246  
   0.436978200     0.7866326    0.0815631  
   0.438978100     0.7917858   -0.0522867  
   0.440978000     0.7742801   -0.1842107  
   0.442977900     0.7345459   -0.3105223  
   0.444977800     0.6750318   -0.4273349  
   0.446977700     0.5973668   -0.5317703  
   0.448977600     0.5050851   -0.6209623  
   0.450977500     0.4002704   -0.6933598  
   0.452977400     0.2861959   -0.7470759  
   0.454977300     0.1655089   -0.7814175  
   0.456977200     0.0417426   -0.7961200  
   0.458977100    -0.0816898   -0.7909234  
   0.460977000    -0.2012695   -0.7669390  
   0.462976900    -0.3141991   -0.7251220  
   0.464976800    -0.4185610   -0.6664610  
   0.466976700    -0.5123201   -0.5931283  
   0.468976600    -0.5930802   -0.5070007  
   0.470976500    -0.6597025   -0.4101219  
   0.472976400    -0.7106311   -0.3037362  
   0.474976300    -0.7448950   -0.1912026  
   0.476976200    -0.7612723   -0.0751459  
   0.478976100    -0.7599025    0.0423685  
   0.480976000    -0.7404732    0.1582023  
   0.482975900    -0.7030447    0.2697509  
   0.484975800    -0.6487832    0.3751608  
   0.486975700    -0.5776086    0.4718654  
   0.488975600    -0.4913406    0.5569087  
   0.490975500    -0.3912906    0.6273312  
   0.492975400    -0.2800465    0.6809940  
   0.494975300    -0.1600123    0.7157526  
   0.496975200    -0.0349177    0.7297479  
   0.498975100     0.0914158    0.7218927  
   0.500975000     0.2145901    0.6920781  
   0.502974900     0.3305050    0.6414785  
   0.504974800     0.4354520    0.5710108  
   0.506974700     0.5259544    0.4838320  
   0.508974600     0.5992394    0.3821178  
   0.510974500     0.6529016    0.2711400  
   0.512974400     0.6859371    0.1548272  
   0.514974300     0.6971611    0.0380346  
   0.516974200     0.6908264   -0.0762820  
   0.518974100     0.6676824   -0.1847274  
   0.520974000     0.6297633   -0.2861304  
   0.522973900     0.5787629   -0.3784981  
   0.524973800     0.5169874   -0.4614348  
   0.526973700     0.4453217   -0.5350987  
   0.528973600     0.3655346   -0.5979236  
   0.530973500     0.2771356   -0.6501909  
   0.532973400     0.1822396   -0.6902398  
   0.534973300     0.0818067   -0.7171065  
   0.536973200    -0.0236885   -0.7296372  
   0.538973100    -0.1305246   -0.7265939  
   0.540973000    -0.2372565   -0.7066699  
   0.542972900    -0.3411889   -0.6707578  
   0.544972800    -0.4394614   -0.6183580  
   0.546972700    -0.5298107   -0.5497281  
   0.548972600    -0.6092220   -0.4671616  
   0.550972500    -0.6746400   -0.3717117  
   0.552972400    -0.7245730   -0.2662646  
   0.554972300    -0.7570029   -0.1532594  
   0.556972200    -0.7711682   -0.0360697  
   0.558972100    -0.7663449    0.0825936  
   0.560972000    -0.7423454    0.1992853  
   0.562971900    -0.7001312    0.3107987  
   0.564971800    -0.6406042    0.4145218  
   0.566971700    -0.5650895    0.5078008  
   0.568971600    -0.4753673    0.5881227  
   0.570971500    -0.3733692    0.6535707  
   0.572971400    -0.2616170    0.7023124  
   0.574971300    -0.1422091    0.7325745  
   0.576971200    -0.0179906    0.7429850  
   0.578971100     0.1070969    0.7330475  
   0.580971000     0.2295397    0.7021841  
   0.582970900     0.3457934    0.6511114  
   0.584970800     0.4525900    0.5810487  
   0.586970700     0.5459569    0.4937589  
   0.588970600     0.6237134    0.3919781  
   0.590970500     0.6830156    0.2776201  
   0.592970400     0.7222400    0.1550558  
   0.594970300     0.7400162    0.0269881  
   0.596970200     0.7358441   -0.1014607  
   0.598970100     0.7097517   -0.2275501  
   0.600970000     0.6626723   -0.3470314  
   0.602969900     0.5963256   -0.4562226  
   0.604969800     0.5126611   -0.5523189  
   0.606969700     0.4148790   -0.6328893  
   0.608969600     0.3052444   -0.6952583  
   0.610969500     0.1880408   -0.7379936  
   0.612969400     0.0660867   -0.7609706  
   0.614969300    -0.0561764   -0.7639217  
   0.616969200    -0.1760561   -0.7468915  
   0.618969100    -0.2900093   -0.7116404  
   0.620969000    -0.3958350   -0.6598063  
   0.622968900    -0.4917098   -0.5926544  
   0.624968800    -0.5757563   -0.5121111  
   0.626968700    -0.6460154   -0.4199926  
   0.628968600    -0.7015234   -0.3187345  
   0.630968500    -0.7408293   -0.2104142  
   0.632968400    -0.7635009   -0.0977277  
   0.634968300    -0.7687997    0.0171995  
   0.636968200    -0.7570677    0.1312759  
   0.638968100    -0.7280231    0.2427676  
   0.640968000    -0.6826081    0.3490970  
   0.642967900    -0.6212772    0.4475547  
   0.644967800    -0.5454655    0.5361536  
   0.646967700    -0.4565055    0.6130970  
   0.648967600    -0.3564785    0.6754151  
   0.650967500    -0.2472773    0.7218042  
   0.652967400    -0.1316666    0.7512534  
   0.654967300    -0.0114602    0.7623534  
   0.656967200     0.1093065    0.7544528  
   0.658967100     0.2286559    0.7270926  
   0.660967000     0.3434722    0.6803779  
   0.662966900     0.4506522    0.6148317  
   0.664966800     0.5466819    0.5318314  
   0.666966700     0.6286256    0.4329295  
   0.668966600     0.6932255    0.3210328  
   0.670966500     0.7382254    0.1994793  
   0.672966400     0.7637754    0.0720118  
   0.674966300     0.7658951   -0.0576297  
   0.676966200     0.7461045   -0.1855145  
   0.678966100     0.7052753   -0.3075105  
   0.680966000     0.6451228   -0.4204707  
   0.682965900     0.5674869   -0.5213992  
   0.684965800     0.4752921   -0.6071009  
   0.686965700     0.3705460   -0.6759176  
   0.688965600     0.2573490   -0.7265444  
   0.690965500     0.1385523   -0.7565694  
   0.692965400     0.0183426   -0.7684417  
   0.694965300    -0.1011450   -0.7609642  
   0.696965200    -0.2163378   -0.7353830  
   0.698965100    -0.3254780   -0.6925416  
   0.700965000    -0.4256376   -0.6340668  
   0.702964900    -0.5152974   -0.5614005  
   0.704964800    -0.5922727   -0.4766416  
   0.706964700    -0.6552235   -0.3816811  
   0.708964600    -0.7030771   -0.2783273  
   0.710964500    -0.7350912   -0.1696486  
   0.712964400    -0.7498619   -0.0569220  
   0.714964300    -0.7473815    0.0565274  
   0.716964200    -0.7278522    0.1679794  
   0.718964100    -0.6916092    0.2753103  
   0.720964000    -0.6393506    0.3762044  
   0.722963900    -0.5722860    0.4679286  
   0.724963800    -0.4913014    0.5487168  
   0.726963700    -0.3983257    0.6162271  
   0.728963600    -0.2949865    0.6687436  
   0.730963500    -0.1835931    0.7035804  
   0.732963400    -0.0680853    0.7207569  
   0.734963300     0.0499556    0.7187805  
   0.736963200     0.1837503    0.6930770  
   0.738963100     0.3109231    0.6422060  
   0.740963000     0.4271485    0.5684841  
   0.742962900     0.5267923    0.4744660  
   0.744962800     0.6070547    0.3636926  
   0.746962700     0.6647085    0.2401661  
   0.748962600     0.6978935    0.1089694  
   0.750962500     0.6590702    0.2133729  
   0.752962400     0.6881624    0.0834919  
   0.754962300     0.6929597   -0.0484460  
   0.756962200     0.6739194   -0.1784003  
   0.758962100     0.6320445   -0.3015352  
   0.760962000     0.5692729   -0.4148721  
   0.762961900     0.4916230   -0.5102390  
   0.764961800     0.4080852   -0.5849286  
   0.766961700     0.3138871   -0.6459907  
   0.768961600     0.2116677   -0.6916441  
   0.770961500     0.1036986   -0.7213981  
   0.772961400    -0.0076386   -0.7344543  
   0.774961300    -0.1197978   -0.7301582  
   0.776961200    -0.2302602   -0.7087020  
   0.778961100    -0.3368687   -0.6704265  
   0.780961000    -0.4365661   -0.6154744  
   0.782960900    -0.5266102   -0.5454750  
   0.784960800    -0.6052365   -0.4615993  
   0.786960700    -0.6696990   -0.3661948  
   0.788960600    -0.7185371   -0.2616481  
   0.790960500    -0.7502249   -0.1502997  
   0.792960400    -0.7643169   -0.0356764  
   0.794960300    -0.7598699    0.0801211  
   0.796960200    -0.7374306    0.1937660  
   0.798960100    -0.6976320    0.3020177  
   0.800960000    -0.6414843    0.4028624  
   0.802959900    -0.5703282    0.4942312  
   0.804959800    -0.4855129    0.5728018  
   0.806959700    -0.3895853    0.6380072  
   0.808959600    -0.2844515    0.6870498  
   0.810959500    -0.1728530    0.7192297  
   0.812959400    -0.0567220    0.7338322  
   0.814959300     0.0606167    0.7299753  
   0.816959200     0.1764242    0.7076560  
   0.818959100     0.2879016    0.6668159  
   0.820959000     0.3918013    0.6085675  
   0.822958900     0.4858744    0.5339239  
   0.824958800     0.5668643    0.4447144  
   0.826958700     0.6328838    0.3427474  
   0.828958600     0.6815743    0.2307251  
   0.830958500     0.7113448    0.1122224  
   0.832958400     0.7208943   -0.0101678  
   0.834958300     0.7101050   -0.1323400  
   0.836958200     0.6795501   -0.2508757  
   0.838958100     0.6294272   -0.3630300  
   0.840958000     0.5614536   -0.4655457  
   0.842957900     0.4775988   -0.5552792  
   0.844957800     0.3803053   -0.6298013  
   0.846957700     0.2723570   -0.6866012  
   0.848957600     0.1569985   -0.7250956  
   0.850957500     0.0374727   -0.7438151  
   0.852957400    -0.0829024   -0.7431262  
   0.854957300    -0.2009905   -0.7228731  
   0.856957200    -0.3130997   -0.6843243  
   0.858957100    -0.4170430   -0.6288348  
   0.860957000    -0.5098053   -0.5584981  
   0.862956900    -0.5899141   -0.4757665  
   0.864956800    -0.6555707   -0.3823630  
   0.866956700    -0.7057245   -0.2812330  
   0.868956600    -0.7393685   -0.1746048  
   0.870956500    -0.7573076   -0.0645603  
   0.872956400    -0.7582296    0.0464204  
   0.874956300    -0.7428485    0.1561397  
   0.876956200    -0.7111731    0.2627428  
   0.878956100    -0.6642170    0.3632823  
   0.880956000    -0.6026022    0.4564685  
   0.882955900    -0.5275853    0.5395334  
   0.884955800    -0.4407559    0.6109827  
   0.886955700    -0.3435182    0.6689126  
   0.888955600    -0.2381570    0.7115417  
   0.890955500    -0.1270019    0.7381637  
   0.892955400    -0.0122650    0.7474000  
   0.894955300     0.1037380    0.7387844  
