! MS46122B
! 2250307/22442219
! 7/22/2025 7:58:36 AM
! C:\USERS\SPARKY\DOCUMENTS\VNA_DATA\JULY22_2025\3K\PORT6_MOS6_REPEAT1.S1P
! CHANNEL.1
! TR.MEASUREMENT
! RAW.DATA
# GHZ S RI R 50.0
! FREQ.GHZ         S11RE         S11IM         
!; PortSelection: Port_1
   0.001000000     1.0455030   -0.0724556  
   0.002999900     0.9475412   -0.2223357  
   0.004999800     0.8225485   -0.0968447  
   0.006999700     0.5144190   -0.3844532  
   0.008999600     0.9359440   -0.0391873  
   0.010999500     0.9167146   -0.2454433  
   0.012999400     0.8765370   -0.3503961  
   0.014999300     0.8358742   -0.4312314  
   0.016999200     0.7941341   -0.5020295  
   0.018999100     0.7496631   -0.5673826  
   0.020999000     0.7003396   -0.6282457  
   0.022998900     0.6457538   -0.6842735  
   0.024998800     0.5775594   -0.7000706  
   0.026998700     0.5190398   -0.7816169  
   0.028998600     0.4449769   -0.8219537  
   0.030998500     0.3635529   -0.8552420  
   0.032998400     0.2789769   -0.8460717  
   0.034998300     0.1778585   -0.8953162  
   0.036998200     0.0736660   -0.8989401  
   0.038998100    -0.0363010   -0.8886991  
   0.040998000    -0.1513272   -0.8615198  
   0.042997900    -0.2695328   -0.8157083  
   0.044997800    -0.3634063   -0.7297370  
   0.046997700    -0.5014799   -0.6540902  
   0.048997600    -0.6050078   -0.5334674  
   0.050997500    -0.6904944   -0.3839425  
   0.052997400    -0.7473841   -0.2066819  
   0.054997300    -0.7639049   -0.0064424  
   0.056997200    -0.7280433    0.2077783  
   0.058997100    -0.6318814    0.4154609  
   0.060997000    -0.4759279    0.5960748  
   0.062996900    -0.2699210    0.7270304  
   0.064996800    -0.0354898    0.7929555  
   0.066996700     0.2029966    0.7893086  
   0.068996600     0.4215795    0.7228701  
   0.070996500     0.6053725    0.6084290  
   0.072996400     0.7451214    0.4619775  
   0.074996300     0.8404054    0.2995230  
   0.076996200     0.8943670    0.1334777  
   0.078996100     0.9133363   -0.0270348  
   0.080996000     0.9033805   -0.1779447  
   0.082995900     0.8697314   -0.3154155  
   0.084995800     0.8171569   -0.4373686  
   0.086995700     0.7512794   -0.5444322  
   0.088995600     0.6744550   -0.6363210  
   0.090995500     0.5893641   -0.7143748  
   0.092995400     0.4987007   -0.7787127  
   0.094995300     0.4021355   -0.8292261  
   0.096995200     0.3028255   -0.8665646  
   0.098995100     0.2010957   -0.8911265  
   0.100995000     0.0971428   -0.9034978  
   0.102994900    -0.0065736   -0.9036100  
   0.104994800    -0.1099742   -0.8912879  
   0.106994700    -0.2120801   -0.8661233  
   0.108994600    -0.3114962   -0.8290303  
   0.110994500    -0.4078200   -0.7792648  
   0.112994400    -0.4989441   -0.7168679  
   0.114994300    -0.5833948   -0.6412093  
   0.116994200    -0.6594611   -0.5522361  
   0.118994100    -0.7250756   -0.4507901  
   0.120994000    -0.7788739   -0.3377707  
   0.122993900    -0.8158115   -0.2126160  
   0.124993800    -0.8339654   -0.0780687  
   0.126993700    -0.8302784    0.0634066  
   0.128993600    -0.8007397    0.2077111  
   0.130993500    -0.7461752    0.3509952  
   0.132993400    -0.6637023    0.4875268  
   0.134993300    -0.5530157    0.6104860  
   0.136993200    -0.4168469    0.7129782  
   0.138993100    -0.2588514    0.7882783  
   0.140993000    -0.0855292    0.8306632  
   0.142992900     0.0953749    0.8363875  
   0.144992800     0.2744652    0.8054141  
   0.146992700     0.4421761    0.7363626  
   0.148992600     0.5904884    0.6351960  
   0.150992500     0.7113930    0.5074247  
   0.152992400     0.8031553    0.3619215  
   0.154992300     0.8628132    0.2061853  
   0.156992200     0.8909660    0.0468751  
   0.158992100     0.8895351   -0.1091342  
   0.160992000     0.8613264   -0.2571090  
   0.162991900     0.8100164   -0.3927505  
   0.164991800     0.7396197   -0.5139006  
   0.166991700     0.6535736   -0.6185634  
   0.168991600     0.5561311   -0.7054624  
   0.170991500     0.4492556   -0.7753667  
   0.172991400     0.3365594   -0.8270935  
   0.174991300     0.2207047   -0.8614317  
   0.176991200     0.1028036   -0.8791255  
   0.178991100    -0.0146020   -0.8803911  
   0.180991000    -0.1292517   -0.8664480  
   0.182990900    -0.2404344   -0.8368093  
   0.184990800    -0.3466254   -0.7924578  
   0.186990700    -0.4458483   -0.7340482  
   0.188990600    -0.5172628   -0.6776520  
   0.190990500    -0.6142312   -0.5816745  
   0.192990400    -0.6860154   -0.4843876  
   0.194990300    -0.7422408   -0.3790044  
   0.196990200    -0.7838253   -0.2658812  
   0.198990100    -0.8092489   -0.1455189  
   0.200990000    -0.8169809   -0.0197992  
   0.202989900    -0.8054192    0.1090509  
   0.204989800    -0.7737640    0.2374948  
   0.206989700    -0.7221924    0.3628109  
   0.208989600    -0.6481823    0.4801866  
   0.210989500    -0.5536544    0.5868218  
   0.212989400    -0.4388418    0.6781459  
   0.214989300    -0.3075580    0.7499648  
   0.216989200    -0.1632668    0.7982466  
   0.218989100    -0.0107055    0.8201068  
   0.220989000     0.1457427    0.8134216  
   0.222988900     0.3002564    0.7780557  
   0.224988800     0.4457852    0.7140956  
   0.226988700     0.5768600    0.6242099  
   0.228988600     0.6881206    0.5132228  
   0.230988500     0.7764201    0.3847193  
   0.232988400     0.8382383    0.2435483  
   0.234988300     0.8743040    0.0961335  
   0.236988200     0.8840576   -0.0526374  
   0.238988100     0.8684338   -0.1973329  
   0.240988000     0.8295889   -0.3342234  
   0.242987900     0.7702871   -0.4588402  
   0.244987800     0.6941350   -0.5703881  
   0.246987700     0.6034615   -0.6662937  
   0.248987600     0.5011224   -0.7460259  
   0.250987500     0.3900277   -0.8080817  
   0.252987400     0.2740576   -0.8523238  
   0.254987300     0.1557144   -0.8787091  
   0.256987200     0.0370025   -0.8880870  
   0.258987100    -0.0809963   -0.8824230  
   0.260987000    -0.1955676   -0.8595343  
   0.262986900    -0.3059894   -0.8210826  
   0.264986800    -0.4095783   -0.7683209  
   0.266986700    -0.5050275   -0.7016724  
   0.268986600    -0.5905318   -0.6227974  
   0.270986500    -0.6641525   -0.5330984  
   0.272986400    -0.7254254   -0.4332827  
   0.274986300    -0.7726451   -0.3247530  
   0.276986200    -0.8042887   -0.2087289  
   0.278986100    -0.8195740   -0.0870742  
   0.280986000    -0.8162801    0.0380575  
   0.282985900    -0.7933151    0.1643830  
   0.284985800    -0.7503856    0.2881826  
   0.286985700    -0.6864384    0.4057716  
   0.288985600    -0.6025335    0.5138084  
   0.290985500    -0.4998493    0.6077191  
   0.292985400    -0.3793592    0.6841111  
   0.294985300    -0.2443185    0.7389442  
   0.296985200    -0.0978724    0.7690259  
   0.298985100     0.0544822    0.7706701  
   0.300985000     0.2064431    0.7424545  
   0.302984900     0.3504050    0.6843640  
   0.304984800     0.4798954    0.5988332  
   0.306984700     0.5886745    0.4891762  
   0.308984600     0.6719627    0.3618164  
   0.310984500     0.7262037    0.2234565  
   0.312984400     0.7506664    0.0807374  
   0.314984300     0.7467613   -0.0589406  
   0.316984200     0.7167717   -0.1890935  
   0.318984100     0.6653449   -0.3055791  
   0.320984000     0.5972849   -0.4044164  
   0.322983900     0.5193321   -0.4840684  
   0.324983800     0.4372774   -0.5449702  
   0.326983700     0.3564697   -0.5899180  
   0.328983600     0.2792034   -0.6240806  
   0.330983500     0.2063839   -0.6518783  
   0.332983400     0.1347728   -0.6775905  
   0.334983300     0.0596466   -0.7019973  
   0.336983200    -0.0234433   -0.7230103  
   0.338983100    -0.1163344   -0.7350665  
   0.340983000    -0.2174046   -0.7330046  
   0.342982900    -0.3231939   -0.7125169  
   0.344982800    -0.4280904   -0.6720961  
   0.346982700    -0.5279624   -0.6115480  
   0.348982600    -0.6161790   -0.5321804  
   0.350982500    -0.6915792   -0.4394289  
   0.352982400    -0.7511530   -0.3340511  
   0.354982300    -0.7940056   -0.2144228  
   0.356982200    -0.8179366   -0.0740070  
   0.358982100    -0.8161113    0.0675405  
   0.360982000    -0.7890410    0.2059862  
   0.362981900    -0.7379021    0.3381701  
   0.364981800    -0.6641866    0.4596062  
   0.366981700    -0.5699064    0.5671551  
   0.368981600    -0.4574693    0.6567087  
   0.370981500    -0.3299949    0.7254214  
   0.372981400    -0.1912615    0.7710397  
   0.374981300    -0.0443402    0.7914006  
   0.376981200    -0.1526265    0.7860205  
   0.378981100     0.0013278    0.7991462  
   0.380981000     0.1563194    0.7831036  
   0.382980900     0.2949392    0.7425055  
   0.384980800     0.4203767    0.6808317  
   0.386980700     0.5342931    0.5977984  
   0.388980600     0.6328391    0.4957389  
   0.390980500     0.7119293    0.3784290  
   0.392980400     0.7692918    0.2495051  
   0.394980300     0.8036289    0.1130396  
   0.396980200     0.8138633   -0.0264930  
   0.398980100     0.7997532   -0.1650921  
   0.400980000     0.7629754   -0.2979423  
   0.402979900     0.7042395   -0.4216484  
   0.404979800     0.6272136   -0.5321660  
   0.406979700     0.5333534   -0.6271684  
   0.408979600     0.4272551   -0.7042966  
   0.410979500     0.3108258   -0.7630004  
   0.412979400     0.1877053   -0.8015477  
   0.414979300     0.0616210   -0.8185741  
   0.416979200    -0.0640971   -0.8166785  
   0.418979100    -0.1863543   -0.7960310  
   0.420979000    -0.3023700   -0.7569337  
   0.422978900    -0.4110539   -0.7012687  
   0.424978800    -0.5086380   -0.6302791  
   0.426978700    -0.5943090   -0.5458956  
   0.428978600    -0.6659794   -0.4502059  
   0.430978500    -0.7219917   -0.3458483  
   0.432978400    -0.7619632   -0.2348595  
   0.434978300    -0.7865816   -0.1202255  
   0.436978200    -0.7927455   -0.0021850  
   0.438978100    -0.7815570    0.1156163  
   0.440978000    -0.7528490    0.2310952  
   0.442977900    -0.7071267    0.3417501  
   0.444977800    -0.6449921    0.4455074  
   0.446977700    -0.5671129    0.5386491  
   0.448977600    -0.4750739    0.6202787  
   0.450977500    -0.3706487    0.6874660  
   0.452977400    -0.2553153    0.7382889  
   0.454977300    -0.1315842    0.7706499  
   0.456977200    -0.0023297    0.7829018  
   0.458977100     0.1287106    0.7739831  
   0.460977000     0.2571746    0.7434592  
   0.462976900     0.3798921    0.6918062  
   0.464976800     0.4929552    0.6196660  
   0.466976700     0.5927570    0.5291240  
   0.468976600     0.6760660    0.4228679  
   0.470976500     0.7406365    0.3038188  
   0.472976400     0.7837514    0.1758194  
   0.474976300     0.8044718    0.0426158  
   0.476976200     0.8025759   -0.0910851  
   0.478976100     0.7788072   -0.2213565  
   0.480976000     0.7344256   -0.3443635  
   0.482975900     0.6711571   -0.4567483  
   0.484975800     0.5921444   -0.5560219  
   0.486975700     0.4991909   -0.6403492  
   0.488975600     0.3952505   -0.7083941  
   0.490975500     0.2839001   -0.7585943  
   0.492975400     0.1676865   -0.7912523  
   0.494975300     0.0493033   -0.8054959  
   0.496975200    -0.0685823   -0.8017948  
   0.498975100    -0.1827473   -0.7814814  
   0.500975000    -0.2916546   -0.7451315  
   0.502974900    -0.3934824   -0.6937858  
   0.504974800    -0.4867663   -0.6291592  
   0.506974700    -0.5695161   -0.5516754  
   0.508974600    -0.6412925   -0.4627460  
   0.510974500    -0.6996219   -0.3641748  
   0.512974400    -0.7431727   -0.2581548  
   0.514974300    -0.7696888   -0.1460656  
   0.516974200    -0.7806985   -0.0308725  
   0.518974100    -0.7742174    0.0855806  
   0.520974000    -0.7499463    0.2009147  
   0.522973900    -0.7075238    0.3119618  
   0.524973800    -0.6474401    0.4158101  
   0.526973700    -0.5706834    0.5094527  
   0.528973600    -0.4793780    0.5898824  
   0.530973500    -0.3760996    0.6544272  
   0.532973400    -0.2635987    0.7013801  
   0.534973300    -0.1452752    0.7294307  
   0.536973200    -0.0241426    0.7385079  
   0.538973100     0.0961430    0.7282743  
   0.540973000     0.2128265    0.6994877  
   0.542972900     0.3230704    0.6532278  
   0.544972800     0.4251173    0.5906218  
   0.546972700     0.5165432    0.5122153  
   0.548972600     0.5946988    0.4204893  
   0.550972500     0.6575888    0.3173943  
   0.552972400     0.7043083    0.2048070  
   0.554972300     0.7320748    0.0861550  
   0.556972200     0.7402973   -0.0360376  
   0.558972100     0.7291357   -0.1580456  
   0.560972000     0.6983631   -0.2765353  
   0.562971900     0.6492500   -0.3884581  
   0.564971800     0.5830503   -0.4905637  
   0.566971700     0.5017292   -0.5802463  
   0.568971600     0.4074152   -0.6557914  
   0.570971500     0.3030301   -0.7149824  
   0.572971400     0.1907774   -0.7572542  
   0.574971300     0.0735218   -0.7808721  
   0.576971200    -0.0464110   -0.7862180  
   0.578971100    -0.1648109   -0.7728893  
   0.580971000    -0.2793614   -0.7415969  
   0.582970900    -0.3868583   -0.6934769  
   0.584970800    -0.4847952   -0.6301531  
   0.586970700    -0.5715454   -0.5531684  
   0.588970600    -0.6453283   -0.4648052  
   0.590970500    -0.7052817   -0.3666699  
   0.592970400    -0.7498400   -0.2611987  
   0.594970300    -0.7783374   -0.1502910  
   0.596970200    -0.7902514   -0.0368239  
   0.598970100    -0.7856421    0.0776279  
   0.600970000    -0.7641401    0.1902651  
   0.602969900    -0.7261829    0.2989854  
   0.604969800    -0.6723627    0.4015558  
   0.606969700    -0.6037070    0.4957176  
   0.608969600    -0.5206984    0.5791963  
   0.610969500    -0.4254415    0.6495702  
   0.612969400    -0.3197650    0.7056668  
   0.614969300    -0.2060000    0.7448956  
   0.616969200    -0.0869769    0.7662513  
   0.618969100     0.0346024    0.7687745  
   0.620969000     0.1557757    0.7526178  
   0.622968900     0.2740859    0.7169873  
   0.624968800     0.3865464    0.6626514  
   0.626968700     0.4895697    0.5898820  
   0.628968600     0.5801836    0.5007100  
   0.630968500     0.6555780    0.3969895  
   0.632968400     0.7133204    0.2818043  
   0.634968300     0.7508779    0.1580690  
   0.636968200     0.7672414    0.0293632  
   0.638968100     0.7620103   -0.1002579  
   0.640968000     0.7350864   -0.2273042  
   0.642967900     0.6871099   -0.3469958  
   0.644967800     0.6204425   -0.4565459  
   0.646967700     0.5367557   -0.5530039  
   0.648967600     0.4395530   -0.6331461  
   0.650967500     0.3315117   -0.6958982  
   0.652967400     0.2162093   -0.7394881  
   0.654967300     0.0970486   -0.7636792  
   0.656967200    -0.0234174   -0.7685359  
   0.658967100    -0.1417836   -0.7545960  
   0.660967000    -0.2554186   -0.7228652  
   0.662966900    -0.3624177   -0.6739019  
   0.664966800    -0.4599900   -0.6095446  
   0.666966700    -0.5458831   -0.5313548  
   0.668966600    -0.6182224   -0.4417517  
   0.670966500    -0.6760644   -0.3425770  
   0.672966400    -0.7188750   -0.2369138  
   0.674966300    -0.7439067   -0.1260814  
   0.676966200    -0.7520323   -0.0135486  
   0.678966100    -0.7439206    0.0986407  
   0.680966000    -0.7188448    0.2086945  
   0.682965900    -0.6773354    0.3137822  
   0.684965800    -0.6203582    0.4114906  
   0.686965700    -0.5491473    0.5003743  
   0.688965600    -0.4647399    0.5777880  
   0.690965500    -0.3682102    0.6406943  
   0.692965400    -0.2629491    0.6894383  
   0.694965300    -0.1504533    0.7212956  
   0.696965200    -0.0334490    0.7354624  
   0.698965100     0.0854699    0.7306111  
   0.700965000     0.2034835    0.7065969  
   0.702964900     0.3168069    0.6634203  
   0.704964800     0.4224062    0.6015453  
   0.706964700     0.5172126    0.5225649  
   0.708964600     0.5977303    0.4281280  
   0.710964500     0.6627556    0.3217021  
   0.712964400     0.7078193    0.2049428  
   0.714964300     0.7325612    0.0826201  
   0.716964200     0.7364563   -0.0414445  
   0.718964100     0.7193758   -0.1631210  
   0.720964000     0.6828225   -0.2783833  
   0.722963900     0.6283917   -0.3857054  
   0.724963800     0.5582203   -0.4810251  
   0.726963700     0.4748996   -0.5634223  
   0.728963600     0.3807441   -0.6306137  
   0.730963500     0.2780099   -0.6813209  
   0.732963400     0.1707644   -0.7156122  
   0.734963300     0.0603671   -0.7334324  
   0.736963200    -0.0661986   -0.7331119  
   0.738963100    -0.1901859   -0.7107878  
   0.740963000    -0.3076692   -0.6680579  
   0.742962900    -0.4156019   -0.6062564  
   0.744962800    -0.5111878   -0.5274613  
   0.746962700    -0.5918801   -0.4336804  
   0.748962600    -0.6554300   -0.3269582  
   0.750962500    -0.6141126   -0.4225244  
   0.752962400    -0.6760135   -0.3135099  
   0.754962300    -0.7182071   -0.1950779  
   0.756962200    -0.7395725   -0.0705431  
   0.758962100    -0.7387193    0.0561924  
   0.760962000    -0.7155112    0.1816628  
   0.762961900    -0.6731839    0.2963920  
   0.764961800    -0.6183091    0.3934272  
   0.766961700    -0.5489088    0.4812461  
   0.768961600    -0.4659927    0.5572584  
   0.770961500    -0.3723501    0.6194162  
   0.772961400    -0.2699597    0.6661854  
   0.774961300    -0.1615189    0.6957210  
   0.776961200    -0.0495365    0.7083070  
   0.778961100     0.0634941    0.7033696  
   0.780961000     0.1748779    0.6805600  
   0.782960900     0.2814029    0.6403120  
   0.784960800     0.3814879    0.5832220  
   0.786960700     0.4712539    0.5110528  
   0.788960600     0.5491211    0.4249981  
   0.790960500     0.6122424    0.3276268  
   0.792960400     0.6587420    0.2212961  
   0.794960300     0.6879106    0.1083852  
   0.796960200     0.6983619   -0.0073955  
   0.798960100     0.6900088   -0.1236092  
   0.800960000     0.6631826   -0.2369695  
   0.802959900     0.6185015   -0.3443641  
   0.804959800     0.5570170   -0.4433353  
   0.806959700     0.4807833   -0.5305565  
   0.808959600     0.3915054   -0.6046311  
   0.810959500     0.2915486   -0.6635402  
   0.812959400     0.1837677   -0.7057222  
   0.814959300     0.0708223   -0.7300758  
   0.816959200    -0.0442420   -0.7360576  
   0.818959100    -0.1583139   -0.7236140  
   0.820959000    -0.2686544   -0.6937978  
   0.822958900    -0.3724880   -0.6469214  
   0.824958800    -0.4672236   -0.5848233  
   0.826958700    -0.5507858   -0.5088031  
   0.828958600    -0.6215656   -0.4214315  
   0.830958500    -0.6775845   -0.3246018  
   0.832958400    -0.7183802   -0.2208785  
   0.834958300    -0.7424866   -0.1127524  
   0.836958200    -0.7498995   -0.0022607  
   0.838958100    -0.7409036    0.1074293  
   0.840958000    -0.7154505    0.2146388  
   0.842957900    -0.6737219    0.3167073  
   0.844957800    -0.6173725    0.4116614  
   0.846957700    -0.5473608    0.4974520  
   0.848957600    -0.4645935    0.5719891  
   0.850957500    -0.3712177    0.6332686  
   0.852957400    -0.2694019    0.6800911  
   0.854957300    -0.1606814    0.7106270  
   0.856957200    -0.0479260    0.7244180  
   0.858957100     0.0659921    0.7200851  
   0.860957000     0.1781856    0.6982563  
   0.862956900     0.2856067    0.6589918  
   0.864956800     0.3857434    0.6029484  
   0.866956700     0.4762037    0.5316623  
   0.868956600     0.5541799    0.4461211  
   0.870956500     0.6183656    0.3485306  
   0.872956400     0.6664963    0.2413725  
   0.874956300     0.6966375    0.1268361  
   0.876956200     0.7078019    0.0078567  
   0.878956100     0.6987771   -0.1116768  
   0.880956000     0.6697780   -0.2288995  
   0.882955900     0.6215897   -0.3391183  
   0.884955800     0.5555303   -0.4401779  
   0.886955700     0.4734879   -0.5280057  
   0.888955600     0.3782053   -0.6009038  
   0.890955500     0.2725456   -0.6563978  
   0.892955400     0.1598158   -0.6933598  
   0.894955300     0.0432135   -0.7107351  
