! MS46122B
! 2250307/22442219
! 7/23/2025 7:57:44 AM
! C:\USERS\SPARKY\DOCUMENTS\VNA_DATA\JULY23_2025\3K\PORT6_MOS5.S1P
! CHANNEL.1
! TR.MEASUREMENT
! RAW.DATA
# GHZ S RI R 50.0
! FREQ.GHZ         S11RE         S11IM         
!; PortSelection: Port_1
   0.001000000     1.0460030   -0.0715514  
   0.002999900     0.9643770   -0.1941451  
   0.004999800     0.9040376   -0.2992508  
   0.006999700     0.8368691   -0.3970032  
   0.008999600     0.7581620   -0.4927589  
   0.010999500     0.6648721   -0.5839580  
   0.012999400     0.5512162   -0.6680470  
   0.014999300     0.4109310   -0.7390295  
   0.016999200     0.2375534   -0.7839278  
   0.018999100     0.0254045   -0.7821617  
   0.020999000    -0.2170754   -0.6981218  
   0.022998900    -0.4506330   -0.4885263  
   0.024998800    -0.5623584   -0.1427737  
   0.026998700    -0.5040516    0.2740406  
   0.028998600    -0.2114955    0.5800039  
   0.030998500     0.1609124    0.6791539  
   0.032998400     0.4506933    0.5970289  
   0.034998300     0.6997032    0.4541968  
   0.036998200     0.8311534    0.2743827  
   0.038998100     0.8972216    0.0992969  
   0.040998000     0.9182718   -0.0608436  
   0.042997900     0.9086398   -0.2028670  
   0.044997800     0.8522895   -0.3006073  
   0.046997700     0.8306017   -0.4359481  
   0.048997600     0.7730226   -0.5297962  
   0.050997500     0.7073978   -0.6104116  
   0.052997400     0.6370380   -0.6780344  
   0.054997300     0.5585498   -0.7380804  
   0.056997200     0.4775163   -0.7867159  
   0.058997100     0.3931251   -0.8258808  
   0.060997000     0.3055722   -0.8560729  
   0.062996900     0.2154959   -0.8766314  
   0.064996800     0.1227046   -0.8875648  
   0.066996700     0.0280484   -0.8886904  
   0.068996600    -0.0678730   -0.8790882  
   0.070996500    -0.1648843   -0.8589227  
   0.072996400    -0.2612638   -0.8254349  
   0.074996300    -0.3563565   -0.7790853  
   0.076996200    -0.4484942   -0.7185291  
   0.078996100    -0.5347286   -0.6428645  
   0.080996000    -0.6139048   -0.5516514  
   0.082995900    -0.6818166   -0.4446190  
   0.084995800    -0.7343766   -0.3223763  
   0.086995700    -0.7691275   -0.1864010  
   0.088995600    -0.7805360   -0.0384848  
   0.090995500    -0.7638042    0.1165303  
   0.092995400    -0.7164367    0.2739096  
   0.094995300    -0.6333776    0.4249644  
   0.096995200    -0.5163565    0.5598261  
   0.098995100    -0.3677573    0.6698310  
   0.100995000    -0.1934159    0.7451221  
   0.102994900    -0.0059533    0.7781832  
   0.104994800     0.1842456    0.7672449  
   0.106994700     0.3644606    0.7127625  
   0.108994600     0.5244299    0.6219532  
   0.110994500     0.6564147    0.5014567  
   0.112994400     0.7560953    0.3612122  
   0.114994300     0.8221928    0.2100116  
   0.116994200     0.8557892    0.0561934  
   0.118994100     0.8598135   -0.0942424  
   0.120994000     0.8398065   -0.2365529  
   0.122993900     0.7962953   -0.3668741  
   0.124993800     0.7347140   -0.4829813  
   0.126993700     0.6592435   -0.5845096  
   0.128993600     0.5715140   -0.6690089  
   0.130993500     0.4765948   -0.7389361  
   0.132993400     0.3756520   -0.7929515  
   0.134993300     0.2707028   -0.8321613  
   0.136993200     0.1638504   -0.8566048  
   0.138993100     0.0558725   -0.8666130  
   0.140993000    -0.0512751   -0.8625566  
   0.142992900    -0.1565721   -0.8446266  
   0.144992800    -0.2590542   -0.8153875  
   0.146992700    -0.3572846   -0.7713237  
   0.148992600    -0.4496268   -0.7147235  
   0.150992500    -0.5336303   -0.6448470  
   0.152992400    -0.6102312   -0.5642365  
   0.154992300    -0.6763204   -0.4725883  
   0.156992200    -0.7306196   -0.3698148  
   0.158992100    -0.7710730   -0.2584697  
   0.160992000    -0.7956994   -0.1386216  
   0.162991900    -0.8026237   -0.0133341  
   0.164991800    -0.7900392    0.1159884  
   0.166991700    -0.7560291    0.2452032  
   0.168991600    -0.7000219    0.3711735  
   0.170991500    -0.6207200    0.4898500  
   0.172991400    -0.5198356    0.5961049  
   0.174991300    -0.3984280    0.6846383  
   0.176991200    -0.2594641    0.7517416  
   0.178991100    -0.1073693    0.7925487  
   0.180991000     0.0520654    0.8045496  
   0.182990900     0.2121540    0.7847537  
   0.184990800     0.3668656    0.7340759  
   0.186990700     0.5083999    0.6544303  
   0.188990600     0.6140701    0.5665374  
   0.190990500     0.7274037    0.4267904  
   0.192990400     0.8016565    0.2843398  
   0.194990300     0.8462945    0.1367451  
   0.196990200     0.8626638   -0.0126782  
   0.198990100     0.8523788   -0.1589150  
   0.200990000     0.8174331   -0.2973266  
   0.202989900     0.7615578   -0.4250960  
   0.204989800     0.6870166   -0.5385453  
   0.206989700     0.5989881   -0.6365379  
   0.208989600     0.4985123   -0.7162858  
   0.210989500     0.3894857   -0.7787269  
   0.212989400     0.2737693   -0.8233626  
   0.214989300     0.1557282   -0.8497272  
   0.216989200     0.0369838   -0.8588325  
   0.218989100    -0.0800571   -0.8509207  
   0.220989000    -0.1938171   -0.8265826  
   0.222988900    -0.3030202   -0.7862548  
   0.224988800    -0.4053745   -0.7314116  
   0.226988700    -0.4987701   -0.6628053  
   0.228988600    -0.5817661   -0.5814447  
   0.230988500    -0.6527168   -0.4887805  
   0.232988400    -0.7092443   -0.3845201  
   0.234988300    -0.7518837   -0.2720797  
   0.236988200    -0.7774866   -0.1522520  
   0.238988100    -0.7850525   -0.0281417  
   0.240988000    -0.7730169    0.0979939  
   0.242987900    -0.7405851    0.2228636  
   0.244987800    -0.6872075    0.3436149  
   0.246987700    -0.6127169    0.4566748  
   0.248987600    -0.5180233    0.5582972  
   0.250987500    -0.4041027    0.6434563  
   0.252987400    -0.2748121    0.7084329  
   0.254987300    -0.1339444    0.7494472  
   0.256987200     0.0140610    0.7644836  
   0.258987100     0.1644749    0.7526503  
   0.260987000     0.3109800    0.7113318  
   0.262986900     0.4481884    0.6424797  
   0.264986800     0.5697445    0.5488051  
   0.266986700     0.6711115    0.4344078  
   0.268986600     0.7481790    0.3044741  
   0.270986500     0.7991024    0.1647870  
   0.272986400     0.8232527    0.0209645  
   0.274986300     0.8216234   -0.1226248  
   0.276986200     0.7954187   -0.2607053  
   0.278986100     0.7464477   -0.3894095  
   0.280986000     0.6785949   -0.5059945  
   0.282985900     0.5945419   -0.6072314  
   0.284985800     0.4972719   -0.6919380  
   0.286985700     0.3909467   -0.7589574  
   0.288985600     0.2788869   -0.8074493  
   0.290985500     0.1635238   -0.8381089  
   0.292985400     0.0475017   -0.8513690  
   0.294985300    -0.0675838   -0.8486480  
   0.296985200    -0.1801093   -0.8296635  
   0.298985100    -0.2884626   -0.7954682  
   0.300985000    -0.3905931   -0.7468251  
   0.302984900    -0.4845159   -0.6849170  
   0.304984800    -0.5690348   -0.6113791  
   0.306984700    -0.6426648   -0.5267776  
   0.308984600    -0.7039233   -0.4331270  
   0.310984500    -0.7521104   -0.3316423  
   0.312984400    -0.7859462   -0.2227054  
   0.314984300    -0.8043963   -0.1084863  
   0.316984200    -0.8059211    0.0098778  
   0.318984100    -0.7886432    0.1302052  
   0.320984000    -0.7511276    0.2497147  
   0.322983900    -0.6924820    0.3630660  
   0.324983800    -0.6133289    0.4650305  
   0.326983700    -0.5168154    0.5507590  
   0.328983600    -0.4074927    0.6162789  
   0.330983500    -0.2925476    0.6601519  
   0.332983400    -0.1764359    0.6842186  
   0.334983300    -0.0620411    0.6918131  
   0.336983200     0.0509635    0.6850979  
   0.338983100     0.1621583    0.6639136  
   0.340983000     0.2714708    0.6275764  
   0.342982900     0.3766457    0.5750160  
   0.344982800     0.4753466    0.5045876  
   0.346982700     0.5636664    0.4162400  
   0.348982600     0.6362453    0.3117863  
   0.350982500     0.6915457    0.1947193  
   0.352982400     0.7255519    0.0680203  
   0.354982300     0.7359371   -0.0688705  
   0.356982200     0.7169124   -0.2185980  
   0.358982100     0.6682360   -0.3612778  
   0.360982000     0.5921674   -0.4910334  
   0.362981900     0.4920754   -0.6025116  
   0.364981800     0.3722740   -0.6919317  
   0.366981700     0.2381957   -0.7557809  
   0.368981600     0.0952590   -0.7917845  
   0.370981500    -0.0507655   -0.7999429  
   0.372981400    -0.1941576   -0.7806986  
   0.374981300    -0.3308332   -0.7346299  
   0.376981200    -0.2134850   -0.7763380  
   0.378981100    -0.3474842   -0.7277572  
   0.380981000    -0.4692484   -0.6557188  
   0.382980900    -0.5665157   -0.5726327  
   0.384980800    -0.6447392   -0.4806913  
   0.386980700    -0.7083729   -0.3778264  
   0.388980600    -0.7552432   -0.2664797  
   0.390980500    -0.7843271   -0.1500955  
   0.392980400    -0.7959337   -0.0308706  
   0.394980300    -0.7892654    0.0885886  
   0.396980200    -0.7648039    0.2064096  
   0.398980100    -0.7225044    0.3199465  
   0.400980000    -0.6628882    0.4262585  
   0.402979900    -0.5869181    0.5238881  
   0.404979800    -0.4960055    0.6090670  
   0.406979700    -0.3917470    0.6802111  
   0.408979600    -0.2760026    0.7342891  
   0.410979500    -0.1509375    0.7700537  
   0.412979400    -0.0195541    0.7850831  
   0.414979300     0.1141211    0.7770922  
   0.416979200     0.2463335    0.7478958  
   0.418979100     0.3728580    0.6960974  
   0.420979000     0.4897068    0.6226985  
   0.422978900     0.5932376    0.5294290  
   0.424978800     0.6794313    0.4188244  
   0.426978700     0.7452498    0.2941570  
   0.428978600     0.7881012    0.1599273  
   0.430978500     0.8066445    0.0206690  
   0.432978400     0.8005854   -0.1185560  
   0.434978300     0.7718474   -0.2544793  
   0.436978200     0.7192216   -0.3817227  
   0.438978100     0.6463808   -0.4968601  
   0.440978000     0.5558470   -0.5975338  
   0.442977900     0.4511068   -0.6800367  
   0.444977800     0.3351997   -0.7434909  
   0.446977700     0.2120956   -0.7862907  
   0.448977600     0.0853718   -0.8081232  
   0.450977500    -0.0414628   -0.8091753  
   0.452977400    -0.1663802   -0.7901276  
   0.454977300    -0.2858473   -0.7520589  
   0.456977200    -0.3972212   -0.6958324  
   0.458977100    -0.4980598   -0.6230832  
   0.460977000    -0.5853142   -0.5362485  
   0.462976900    -0.6575826   -0.4375503  
   0.464976800    -0.7139313   -0.3291355  
   0.466976700    -0.7522650   -0.2134029  
   0.468976600    -0.7725186   -0.0932449  
   0.470976500    -0.7737827    0.0293568  
   0.472976400    -0.7560067    0.1506464  
   0.474976300    -0.7183974    0.2684898  
   0.476976200    -0.6628519    0.3795190  
   0.478976100    -0.5895573    0.4809310  
   0.480976000    -0.5006260    0.5694778  
   0.482975900    -0.3974795    0.6430843  
   0.484975800    -0.2826003    0.6991560  
   0.486975700    -0.1586010    0.7357506  
   0.488975600    -0.0290843    0.7509807  
   0.490975500     0.1022923    0.7435729  
   0.492975400     0.2316612    0.7130579  
   0.494975300     0.3539168    0.6603072  
   0.496975200     0.4653347    0.5862048  
   0.498975100     0.5612181    0.4939229  
   0.500975000     0.6386835    0.3865450  
   0.502974900     0.6953208    0.2682149  
   0.504974800     0.7298184    0.1430622  
   0.506974700     0.7414702    0.0155573  
   0.508974600     0.7311475   -0.1105027  
   0.510974500     0.7002044   -0.2306167  
   0.512974400     0.6511757   -0.3409457  
   0.514974300     0.5859500   -0.4382675  
   0.516974200     0.5097519   -0.5231744  
   0.518974100     0.4240912   -0.5940419  
   0.520974000     0.3316939   -0.6508125  
   0.522973900     0.2335091   -0.6939570  
   0.524973800     0.1315142   -0.7229370  
   0.526973700     0.0265426   -0.7386103  
   0.528973600    -0.0800011   -0.7398196  
   0.530973500    -0.1871351   -0.7266628  
   0.532973400    -0.2925874   -0.6975504  
   0.534973300    -0.3946137   -0.6526164  
   0.536973200    -0.4903685   -0.5917956  
   0.538973100    -0.5764893   -0.5158899  
   0.540973000    -0.6507483   -0.4262752  
   0.542972900    -0.7102220   -0.3244861  
   0.544972800    -0.7530892   -0.2130195  
   0.546972700    -0.7775682   -0.0947854  
   0.548972600    -0.7825614    0.0270449  
   0.550972500    -0.7673739    0.1490588  
   0.552972400    -0.7320478    0.2678461  
   0.554972300    -0.6775682    0.3798243  
   0.556972200    -0.6050203    0.4821477  
   0.558972100    -0.5162718    0.5714254  
   0.560972000    -0.4136193    0.6453586  
   0.562971900    -0.2998222    0.7017214  
   0.564971800    -0.1781672    0.7388827  
   0.566971700    -0.0515181    0.7554173  
   0.568971600     0.0769891    0.7508679  
   0.570971500     0.2034819    0.7252667  
   0.572971400     0.3248826    0.6783725  
   0.574971300     0.4373649    0.6111599  
   0.576971200     0.5381173    0.5251728  
   0.578971100     0.6232768    0.4223239  
   0.580971000     0.6892875    0.3061304  
   0.582970900     0.7342538    0.1803565  
   0.584970800     0.7571970    0.0486082  
   0.586970700     0.7569811   -0.0845436  
   0.588970600     0.7341499   -0.2153105  
   0.590970500     0.6892613   -0.3395384  
   0.592970400     0.6239302   -0.4542601  
   0.594970300     0.5408187   -0.5551976  
   0.596970200     0.4424806   -0.6405090  
   0.598970100     0.3322318   -0.7072828  
   0.600970000     0.2129665   -0.7545059  
   0.602969900     0.0886945   -0.7812473  
   0.604969800    -0.0373167   -0.7874547  
   0.606969700    -0.1616276   -0.7736112  
   0.608969600    -0.2814944   -0.7396874  
   0.610969500    -0.3934542   -0.6878536  
   0.612969400    -0.4949556   -0.6193552  
   0.614969300    -0.5834742   -0.5370548  
   0.616969200    -0.6575498   -0.4428337  
   0.618969100    -0.7157552   -0.3392605  
   0.620969000    -0.7575085   -0.2288561  
   0.622968900    -0.7824027   -0.1139015  
   0.624968800    -0.7896699    0.0034337  
   0.626968700    -0.7792048    0.1209850  
   0.628968600    -0.7512788    0.2358567  
   0.630968500    -0.7063335    0.3457693  
   0.632968400    -0.6447410    0.4480865  
   0.634968300    -0.5680497    0.5405948  
   0.636968200    -0.4778522    0.6209361  
   0.638968100    -0.3753809    0.6869944  
   0.640968000    -0.2626054    0.7369330  
   0.642967900    -0.1422709    0.7687325  
   0.644967800    -0.0176279    0.7812837  
   0.646967700     0.1089843    0.7739290  
   0.648967600     0.2335469    0.7460759  
   0.650967500     0.3526866    0.6980854  
   0.652967400     0.4629277    0.6310248  
   0.654967300     0.5615573    0.5461295  
   0.656967200     0.6451905    0.4457172  
   0.658967100     0.7111040    0.3320420  
   0.660967000     0.7576141    0.2076875  
   0.662966900     0.7825662    0.0770054  
   0.664966800     0.7851688   -0.0569905  
   0.666966700     0.7649850   -0.1899146  
   0.668966600     0.7223251   -0.3169493  
   0.670966500     0.6588516   -0.4347798  
   0.672966400     0.5780765   -0.5403616  
   0.674966300     0.4805918   -0.6286503  
   0.676966200     0.3709132   -0.6988693  
   0.678966100     0.2522134   -0.7493922  
   0.680966000     0.1287477   -0.7791989  
   0.682965900     0.0033447   -0.7884743  
   0.684965800    -0.1205242   -0.7780036  
   0.686965700    -0.2396809   -0.7478881  
   0.688965600    -0.3517202   -0.7001359  
   0.690965500    -0.4530582   -0.6352378  
   0.692965400    -0.5430869   -0.5571889  
   0.694965300    -0.6191842   -0.4671858  
   0.696965200    -0.6804020   -0.3675003  
   0.698965100    -0.7257864   -0.2599638  
   0.700965000    -0.7540138   -0.1469222  
   0.702964900    -0.7650874   -0.0312226  
   0.704964800    -0.7585822    0.0849776  
   0.706964700    -0.7343119    0.1988010  
   0.708964600    -0.6923025    0.3084411  
   0.710964500    -0.6344271    0.4114100  
   0.712964400    -0.5600398    0.5043466  
   0.714964300    -0.4714742    0.5847118  
   0.716964200    -0.3708197    0.6504344  
   0.718964100    -0.2603316    0.6993799  
   0.720964000    -0.1432266    0.7299842  
   0.722963900    -0.0220428    0.7414710  
   0.724963800     0.1001886    0.7327809  
   0.726963700     0.2196212    0.7039056  
   0.728963600     0.3330762    0.6554055  
   0.730963500     0.4367570    0.5877249  
   0.732963400     0.5275589    0.5042386  
   0.734963300     0.6038892    0.4067540  
   0.736963200     0.6701134    0.2820561  
   0.738963100     0.7115260    0.1468965  
   0.740963000     0.7266287    0.0073975  
   0.742962900     0.7151962   -0.1308384  
   0.744962800     0.6786409   -0.2634215  
   0.746962700     0.6186920   -0.3858565  
   0.748962600     0.5384446   -0.4940878  
   0.750962500     0.5954927   -0.4061635  
   0.752962400     0.5136262   -0.5115479  
   0.754962300     0.4149559   -0.5993702  
   0.756962200     0.3029274   -0.6681774  
   0.758962100     0.1810897   -0.7155836  
   0.760962000     0.0530118   -0.7407311  
   0.762961900    -0.0711863   -0.7437363  
   0.764961800    -0.1841375   -0.7286418  
   0.766961700    -0.2935194   -0.6968033  
   0.768961600    -0.3972138   -0.6482307  
   0.770961500    -0.4925036   -0.5843206  
   0.772961400    -0.5770664   -0.5062742  
   0.774961300    -0.6483179   -0.4156061  
   0.776961200    -0.7052274   -0.3145960  
   0.778961100    -0.7453133   -0.2056953  
   0.780961000    -0.7679701   -0.0909950  
   0.782960900    -0.7724682    0.0262997  
   0.784960800    -0.7579835    0.1433371  
   0.786960700    -0.7247521    0.2571301  
   0.788960600    -0.6740097    0.3647305  
   0.790960500    -0.6066676    0.4630637  
   0.792960400    -0.5247004    0.5492532  
   0.794960300    -0.4295987    0.6216193  
   0.796960200    -0.3243335    0.6783828  
   0.798960100    -0.2112338    0.7175915  
   0.800960000    -0.0934817    0.7383733  
   0.802959900     0.0267867    0.7402191  
   0.804959800     0.1460742    0.7231967  
   0.806959700     0.2612888    0.6870265  
   0.808959600     0.3697461    0.6326497  
   0.810959500     0.4681559    0.5613772  
   0.812959400     0.5544617    0.4749015  
   0.814959300     0.6257960    0.3748878  
   0.816959200     0.6802997    0.2639923  
   0.818959100     0.7160149    0.1450954  
   0.820959000     0.7318656    0.0218430  
   0.822958900     0.7268468   -0.1030557  
   0.824958800     0.7011815   -0.2254944  
   0.826958700     0.6557098   -0.3420688  
   0.828958600     0.5911859   -0.4496130  
   0.830958500     0.5097840   -0.5447709  
   0.832958400     0.4140488   -0.6250154  
   0.834958300     0.3066587   -0.6883602  
   0.836958200     0.1910996   -0.7324456  
   0.838958100     0.0704623   -0.7569616  
   0.840958000    -0.0521154   -0.7613629  
   0.842957900    -0.1731997   -0.7461526  
   0.844957800    -0.2894971   -0.7116970  
   0.846957700    -0.3980045   -0.6595179  
   0.848957600    -0.4964176   -0.5912770  
   0.850957500    -0.5820715   -0.5086456  
   0.852957400    -0.6535892   -0.4142565  
   0.854957300    -0.7091929   -0.3105846  
   0.856957200    -0.7477944   -0.2001468  
   0.858957100    -0.7690540   -0.0859857  
   0.860957000    -0.7722946    0.0294421  
   0.862956900    -0.7585216    0.1428923  
   0.864956800    -0.7280467    0.2526846  
   0.866956700    -0.6820185    0.3560775  
   0.868956600    -0.6206499    0.4508329  
   0.870956500    -0.5462620    0.5361426  
   0.872956400    -0.4595959    0.6097757  
   0.874956300    -0.3626675    0.6699399  
   0.876956200    -0.2564087    0.7154921  
   0.878956100    -0.1437164    0.7441288  
   0.880956000    -0.0270304    0.7558481  
   0.882955900     0.0913220    0.7490641  
   0.884955800     0.2085023    0.7236817  
   0.886955700     0.3208957    0.6799763  
   0.888955600     0.4262449    0.6181459  
   0.890955500     0.5208542    0.5395100  
   0.892955400     0.6018141    0.4457011  
   0.894955300     0.6674130    0.3392090  
