! MS46122B
! 2250307/22442219
! 7/28/2025 2:07:30 PM
! C:\USERS\SPARKY\DOCUMENTS\VNA_DATA\JULY28_2025\3K\PORT1_MOS2_REPEAT1.S1P
! CHANNEL.1
! TR.MEASUREMENT
! RAW.DATA
# GHZ S RI R 50.0
! FREQ.GHZ         S11RE         S11IM         
!; PortSelection: Port_1
   0.001000000     1.0464190   -0.0722544  
   0.002999900     0.9646001   -0.1945852  
   0.004999800     0.9047184   -0.2995045  
   0.006999700     0.8377153   -0.3970804  
   0.008999600     0.7595063   -0.4925536  
   0.010999500     0.6671321   -0.5835332  
   0.012999400     0.5548521   -0.6676635  
   0.014999300     0.4168680   -0.7389696  
   0.016999200     0.2464869   -0.7855097  
   0.018999100     0.0384105   -0.7878286  
   0.020999000    -0.2005637   -0.7126359  
   0.022998900    -0.4361210   -0.5182972  
   0.024998800    -0.5627065   -0.1883094  
   0.026998700    -0.5363936    0.2240077  
   0.028998600    -0.2716338    0.5514621  
   0.030998500     0.0948440    0.6832193  
   0.032998400     0.3981695    0.6239444  
   0.034998300     0.6633990    0.4952166  
   0.036998200     0.8100237    0.3191355  
   0.038998100     0.8884800    0.1430411  
   0.040998000     0.9189482   -0.0196916  
   0.042997900     0.9158781   -0.1652869  
   0.044997800     0.8637762   -0.2680281  
   0.046997700     0.8471780   -0.4056417  
   0.048997600     0.7930065   -0.5029641  
   0.050997500     0.7299106   -0.5869918  
   0.052997400     0.6606842   -0.6591325  
   0.054997300     0.5862178   -0.7202438  
   0.056997200     0.5065643   -0.7725480  
   0.058997100     0.4240072   -0.8146772  
   0.060997000     0.3381935   -0.8481668  
   0.062996900     0.2498766   -0.8723204  
   0.064996800     0.1588080   -0.8868335  
   0.066996700     0.0654837   -0.8922529  
   0.068996600    -0.0291399   -0.8871771  
   0.070996500    -0.1247396   -0.8722549  
   0.072996400    -0.2208726   -0.8446403  
   0.074996300    -0.3160510   -0.8045320  
   0.076996200    -0.4089433   -0.7512882  
   0.078996100    -0.4973778   -0.6837059  
   0.080996000    -0.5796704   -0.6011579  
   0.082995900    -0.6528838   -0.5031240  
   0.084995800    -0.7130796   -0.3900764  
   0.086995700    -0.7581753   -0.2627438  
   0.088995600    -0.7826257   -0.1226082  
   0.090995500    -0.7828669    0.0272647  
   0.092995400    -0.7548047    0.1824746  
   0.094995300    -0.6941148    0.3362336  
   0.096995200    -0.5994138    0.4807707  
   0.098995100    -0.4718503    0.6062070  
   0.100995000    -0.3148076    0.7046080  
   0.102994900    -0.1378834    0.7654966  
   0.104994800     0.0494079    0.7850550  
   0.106994700     0.2355392    0.7608054  
   0.108994600     0.4088834    0.6971806  
   0.110994500     0.5606704    0.5991709  
   0.112994400     0.6837850    0.4746186  
   0.114994300     0.7748969    0.3328728  
   0.116994200     0.8335881    0.1821552  
   0.118994100     0.8609998    0.0301365  
   0.120994000     0.8619763   -0.1178644  
   0.122993900     0.8366770   -0.2567274  
   0.124993800     0.7907932   -0.3836458  
   0.126993700     0.7276726   -0.4970569  
   0.128993600     0.6504472   -0.5944683  
   0.130993500     0.5635120   -0.6777847  
   0.132993400     0.4688478   -0.7455670  
   0.134993300     0.3681719   -0.7981432  
   0.136993200     0.2641954   -0.8357715  
   0.138993100     0.1580735   -0.8592900  
   0.140993000     0.0513312   -0.8683565  
   0.142992900    -0.0551944   -0.8638136  
   0.144992800    -0.1597926   -0.8475863  
   0.146992700    -0.2611372   -0.8168715  
   0.148992600    -0.3586888   -0.7731750  
   0.150992500    -0.4488265   -0.7161651  
   0.152992400    -0.5335333   -0.6484091  
   0.154992300    -0.6096137   -0.5692892  
   0.156992200    -0.6756198   -0.4787766  
   0.158992100    -0.7301744   -0.3782081  
   0.160992000    -0.7712192   -0.2686019  
   0.162991900    -0.7972144   -0.1508243  
   0.164991800    -0.8060541   -0.0273438  
   0.166991700    -0.7961218    0.0996545  
   0.168991600    -0.7655759    0.2273933  
   0.170991500    -0.7135983    0.3527693  
   0.172991400    -0.6394499    0.4710348  
   0.174991300    -0.5442191    0.5783271  
   0.176991200    -0.4282911    0.6696358  
   0.178991100    -0.2950591    0.7408998  
   0.180991000    -0.1483371    0.7884195  
   0.182990900     0.0071541    0.8070863  
   0.184990800     0.1656932    0.7963091  
   0.186990700     0.3201528    0.7552012  
   0.188990600     0.4433102    0.6980658  
   0.190990500     0.5878907    0.5922822  
   0.192990400     0.6965046    0.4731893  
   0.194990300     0.7778881    0.3405086  
   0.196990200     0.8325402    0.1982992  
   0.198990100     0.8601252    0.0515951  
   0.200990000     0.8611904   -0.0945536  
   0.202989900     0.8375217   -0.2350595  
   0.204989800     0.7917541   -0.3660832  
   0.206989700     0.7279332   -0.4853275  
   0.208989600     0.6476126   -0.5886848  
   0.210989500     0.5540220   -0.6771159  
   0.212989400     0.4504487   -0.7483493  
   0.214989300     0.3395354   -0.8021585  
   0.216989200     0.2250889   -0.8382164  
   0.218989100     0.1084988   -0.8574256  
   0.220989000    -0.0081645   -0.8599378  
   0.222988900    -0.1228511   -0.8459234  
   0.224988800    -0.2345107   -0.8160649  
   0.226988700    -0.3395374   -0.7716818  
   0.228988600    -0.4374947   -0.7135576  
   0.230988500    -0.5264159   -0.6423737  
   0.232988400    -0.6040906   -0.5579399  
   0.234988300    -0.6709858   -0.4629757  
   0.236988200    -0.7242689   -0.3584531  
   0.238988100    -0.7623025   -0.2456234  
   0.240988000    -0.7834855   -0.1270966  
   0.242987900    -0.7871526   -0.0048013  
   0.244987800    -0.7714948    0.1190640  
   0.246987700    -0.7360736    0.2420441  
   0.248987600    -0.6797829    0.3606130  
   0.250987500    -0.6033521    0.4710041  
   0.252987400    -0.5074993    0.5688456  
   0.254987300    -0.3943612    0.6502283  
   0.256987200    -0.2667436    0.7114502  
   0.258987100    -0.1276523    0.7516146  
   0.260987000     0.0187685    0.7645025  
   0.262986900     0.1674418    0.7500988  
   0.264986800     0.3118069    0.7083358  
   0.266986700     0.4462039    0.6397251  
   0.268986600     0.5653980    0.5476316  
   0.270986500     0.6645883    0.4358966  
   0.272986400     0.7407234    0.3088365  
   0.274986300     0.7917306    0.1720006  
   0.276986200     0.8169724    0.0301631  
   0.278986100     0.8169045   -0.1115451  
   0.280986000     0.7924787   -0.2483682  
   0.282985900     0.7458865   -0.3764387  
   0.284985800     0.6806213   -0.4923774  
   0.286985700     0.5994205   -0.5935126  
   0.288985600     0.5058576   -0.6778605  
   0.290985500     0.4034441   -0.7454781  
   0.292985400     0.2948508   -0.7956570  
   0.294985300     0.1824437   -0.8286687  
   0.296985200     0.0679644   -0.8449730  
   0.298985100    -0.0464880   -0.8453403  
   0.300985000    -0.1584906   -0.8295548  
   0.302984900    -0.2658189   -0.7992544  
   0.304984800    -0.3669555   -0.7550129  
   0.306984700    -0.4602940   -0.6980644  
   0.308984600    -0.5447084   -0.6303228  
   0.310984500    -0.6191183   -0.5521216  
   0.312984400    -0.6828214   -0.4648740  
   0.314984300    -0.7346421   -0.3688612  
   0.316984200    -0.7737521   -0.2655074  
   0.318984100    -0.7987223   -0.1553306  
   0.320984000    -0.8081885   -0.0397861  
   0.322983900    -0.7997435    0.0787145  
   0.324983800    -0.7722842    0.1965814  
   0.326983700    -0.7250901    0.3097921  
   0.328983600    -0.6584229    0.4142993  
   0.330983500    -0.5751935    0.5052435  
   0.332983400    -0.4797908    0.5795848  
   0.334983300    -0.3762672    0.6373919  
   0.336983200    -0.2664564    0.6793100  
   0.338983100    -0.1528152    0.7053600  
   0.340983000    -0.0361535    0.7155269  
   0.342982900     0.0820202    0.7090185  
   0.344982800     0.2005566    0.6844946  
   0.346982700     0.3163573    0.6406947  
   0.348982600     0.4246273    0.5768742  
   0.350982500     0.5232898    0.4959431  
   0.352982400     0.6078101    0.3977012  
   0.354982300     0.6768674    0.2808254  
   0.356982200     0.7267093    0.1398566  
   0.358982100     0.7477770   -0.0082745  
   0.360982000     0.7391793   -0.1577522  
   0.362981900     0.7012630   -0.3025106  
   0.364981800     0.6358030   -0.4370629  
   0.366981700     0.5458660   -0.5556223  
   0.368981600     0.4348485   -0.6541134  
   0.370981500     0.3077466   -0.7288759  
   0.372981400     0.1694797   -0.7775647  
   0.374981300     0.0257561   -0.7992319  
   0.376981200     0.1449849   -0.7841725  
   0.378981100     0.0027782   -0.8000227  
   0.380981000    -0.1384743   -0.7897014  
   0.382980900    -0.2625059   -0.7588941  
   0.384980800    -0.3732630   -0.7111127  
   0.386980700    -0.4742022   -0.6472856  
   0.388980600    -0.5642549   -0.5692440  
   0.390980500    -0.6405663   -0.4795418  
   0.392980400    -0.7020611   -0.3804216  
   0.394980300    -0.7480420   -0.2738877  
   0.396980200    -0.7776116   -0.1620332  
   0.398980100    -0.7907646   -0.0467912  
   0.400980000    -0.7867472    0.0695875  
   0.402979900    -0.7658244    0.1848146  
   0.404979800    -0.7276312    0.2960335  
   0.406979700    -0.6731043    0.4011699  
   0.408979600    -0.6030742    0.4978737  
   0.410979500    -0.5174895    0.5844565  
   0.412979400    -0.4182388    0.6582939  
   0.414979300    -0.3068928    0.7148446  
   0.416979200    -0.1868000    0.7550448  
   0.418979100    -0.0605532    0.7760819  
   0.420979000     0.0689214    0.7764247  
   0.422978900     0.1982770    0.7554599  
   0.424978800     0.3241070    0.7127606  
   0.426978700     0.4420571    0.6488709  
   0.428978600     0.5483422    0.5655220  
   0.430978500     0.6390890    0.4651456  
   0.432978400     0.7115104    0.3506394  
   0.434978300     0.7645574    0.2256654  
   0.436978200     0.7943258    0.0936356  
   0.438978100     0.8014135   -0.0415519  
   0.440978000     0.7855572   -0.1752598  
   0.442977900     0.7474454   -0.3033022  
   0.444977800     0.6888272   -0.4223104  
   0.446977700     0.6118828   -0.5290120  
   0.448977600     0.5197776   -0.6204333  
   0.450977500     0.4149182   -0.6949581  
   0.452977400     0.3002825   -0.7508591  
   0.454977300     0.1788248   -0.7872059  
   0.456977200     0.0540798   -0.8036509  
   0.458977100    -0.0706257   -0.8000880  
   0.460977000    -0.1918365   -0.7774103  
   0.462976900    -0.3063817   -0.7366580  
   0.464976800    -0.4122891   -0.6789338  
   0.466976700    -0.5080239   -0.6062155  
   0.468976600    -0.5906666   -0.5203968  
   0.470976500    -0.6592659   -0.4234216  
   0.472976400    -0.7119959   -0.3170761  
   0.474976300    -0.7478946   -0.2042655  
   0.476976200    -0.7662788   -0.0874473  
   0.478976100    -0.7666063    0.0309681  
   0.480976000    -0.7488806    0.1479782  
   0.482975900    -0.7128008    0.2607980  
   0.484975800    -0.6597522    0.3678715  
   0.486975700    -0.5895750    0.4664507  
   0.488975600    -0.5041701    0.5534758  
   0.490975500    -0.4045539    0.6261004  
   0.492975400    -0.2933055    0.6821563  
   0.494975300    -0.1731458    0.7192579  
   0.496975200    -0.0471551    0.7355146  
   0.498975100     0.0801712    0.7298609  
   0.500975000     0.2048305    0.7021609  
   0.502974900     0.3229521    0.6530095  
   0.504974800     0.4302433    0.5839971  
   0.506974700     0.5232012    0.4972943  
   0.508974600     0.5990092    0.3959107  
   0.510974500     0.6551231    0.2846934  
   0.512974400     0.6904581    0.1675512  
   0.514974300     0.7036986    0.0496906  
   0.516974200     0.6989834   -0.0658392  
   0.518974100     0.6772546   -0.1759975  
   0.520974000     0.6404606   -0.2788453  
   0.522973900     0.5902416   -0.3727645  
   0.524973800     0.5290245   -0.4572900  
   0.526973700     0.4577950   -0.5325558  
   0.528973600     0.3783300   -0.5969763  
   0.530973500     0.2900631   -0.6508214  
   0.532973400     0.1953205   -0.6924530  
   0.534973300     0.0944888   -0.7210591  
   0.536973200    -0.0114250   -0.7352870  
   0.538973100    -0.1187994   -0.7339997  
   0.540973000    -0.2264442   -0.7158437  
   0.542972900    -0.3315884   -0.6813264  
   0.544972800    -0.4315186   -0.6302325  
   0.546972700    -0.5234874   -0.5627668  
   0.548972600    -0.6046047   -0.4811007  
   0.550972500    -0.6722393   -0.3863266  
   0.552972400    -0.7243939   -0.2809760  
   0.554972300    -0.7590048   -0.1679019  
   0.556972200    -0.7752891   -0.0501467  
   0.558972100    -0.7725434    0.0693199  
   0.560972000    -0.7504795    0.1871132  
   0.562971900    -0.7099875    0.3000182  
   0.564971800    -0.6520166    0.4054510  
   0.566971700    -0.5778471    0.5006830  
   0.568971600    -0.4889826    0.5831077  
   0.570971500    -0.3877903    0.6508223  
   0.572971400    -0.2761892    0.7019649  
   0.574971300    -0.1566491    0.7346966  
   0.576971200    -0.0320442    0.7476163  
   0.578971100     0.0941507    0.7400666  
   0.580971000     0.2180073    0.7114859  
   0.582970900     0.3359067    0.6624742  
   0.584970800     0.4448590    0.5940538  
   0.586970700     0.5407670    0.5079330  
   0.588970600     0.6212021    0.4068858  
   0.590970500     0.6832489    0.2929529  
   0.592970400     0.7252954    0.1699908  
   0.594970300     0.7455806    0.0417001  
   0.596970200     0.7439149   -0.0882515  
   0.598970100     0.7200847   -0.2155167  
   0.600970000     0.6747813   -0.3372768  
   0.602969900     0.6100746   -0.4483337  
   0.604969800     0.5273644   -0.5469331  
   0.606969700     0.4303130   -0.6299431  
   0.608969600     0.3210562   -0.6946167  
   0.610969500     0.2033960   -0.7403437  
   0.612969400     0.0809371   -0.7652330  
   0.614969300    -0.0420822   -0.7702820  
   0.616969200    -0.1629936   -0.7552705  
   0.618969100    -0.2782596   -0.7217074  
   0.620969000    -0.3855176   -0.6715581  
   0.622968900    -0.4832562   -0.6054482  
   0.624968800    -0.5692726   -0.5259400  
   0.626968700    -0.6414846   -0.4344509  
   0.628968600    -0.6989175   -0.3335490  
   0.630968500    -0.7403230   -0.2253855  
   0.632968400    -0.7650286   -0.1126063  
   0.634968300    -0.7722791    0.0025951  
   0.636968200    -0.7623950    0.1174739  
   0.638968100    -0.7352453    0.2296774  
   0.640968000    -0.6915302    0.3371204  
   0.642967900    -0.6322144    0.4367658  
   0.644967800    -0.5579031    0.5273161  
   0.646967700    -0.4702412    0.6061414  
   0.648967600    -0.3708553    0.6708695  
   0.650967500    -0.2623907    0.7195458  
   0.652967400    -0.1468435    0.7513732  
   0.654967300    -0.0266016    0.7650530  
   0.656967200     0.0949798    0.7596429  
   0.658967100     0.2154123    0.7346777  
   0.660967000     0.3316860    0.6901684  
   0.662966900     0.4406327    0.6266335  
   0.664966800     0.5388389    0.5453124  
   0.666966700     0.6232919    0.4474840  
   0.668966600     0.6906192    0.3363744  
   0.670966500     0.7383980    0.2149406  
   0.672966400     0.7666826    0.0872418  
   0.674966300     0.7715574   -0.0431730  
   0.676966200     0.7540852   -0.1722336  
   0.678966100     0.7153711   -0.2960588  
   0.680966000     0.6570649   -0.4107191  
   0.682965900     0.5808251   -0.5139136  
   0.684965800     0.4896028   -0.6018731  
   0.686965700     0.3853945   -0.6730695  
   0.688965600     0.2724108   -0.7260623  
   0.690965500     0.1534360   -0.7583794  
   0.692965400     0.0326573   -0.7724194  
   0.694965300    -0.0875975   -0.7669710  
   0.696965200    -0.2039177   -0.7432641  
   0.698965100    -0.3140931   -0.7020782  
   0.700965000    -0.4159362   -0.6450591  
   0.702964900    -0.5071957   -0.5736200  
   0.704964800    -0.5858913   -0.4898835  
   0.706964700    -0.6507107   -0.3956849  
   0.708964600    -0.7004668   -0.2930721  
   0.710964500    -0.7346032   -0.1842350  
   0.712964400    -0.7512333   -0.0718128  
   0.714964300    -0.7510521    0.0420739  
   0.716964200    -0.7335902    0.1540695  
   0.718964100    -0.6993279    0.2622571  
   0.720964000    -0.6489356    0.3643975  
   0.722963900    -0.5835787    0.4576372  
   0.724963800    -0.5042080    0.5401519  
   0.726963700    -0.4123486    0.6097419  
   0.728963600    -0.3101188    0.6645006  
   0.730963500    -0.1992962    0.7018526  
   0.732963400    -0.0836825    0.7216505  
   0.734963300     0.0347209    0.7222717  
   0.736963200     0.1694573    0.6994345  
   0.738963100     0.2985597    0.6514862  
   0.740963000     0.4163737    0.5797940  
   0.742962900     0.5185606    0.4875260  
   0.744962800     0.6016228    0.3779324  
   0.746962700     0.6621154    0.2552301  
   0.748962600     0.6983598    0.1239221  
   0.750962500     0.6571962    0.2278906  
   0.752962400     0.6891263    0.0981950  
   0.754962300     0.6967003   -0.0343858  
   0.756962200     0.6802055   -0.1654460  
   0.758962100     0.6404844   -0.2899686  
   0.760962000     0.5796317   -0.4050569  
   0.762961900     0.5034090   -0.5023391  
   0.764961800     0.4209773   -0.5790400  
   0.766961700     0.3275183   -0.6419569  
   0.768961600     0.2256446   -0.6897535  
   0.770961500     0.1178786   -0.7215965  
   0.772961400     0.0064639   -0.7366147  
   0.774961300    -0.1061603   -0.7344976  
   0.776961200    -0.2174582   -0.7149517  
   0.778961100    -0.3249164   -0.6785428  
   0.780961000    -0.4258483   -0.6252859  
   0.782960900    -0.5172454   -0.5567958  
   0.784960800    -0.5976278   -0.4742007  
   0.786960700    -0.6639606   -0.3798593  
   0.788960600    -0.7148389   -0.2759843  
   0.790960500    -0.7486641   -0.1653442  
   0.792960400    -0.7650028   -0.0507254  
   0.794960300    -0.7627516    0.0653283  
   0.796960200    -0.7425259    0.1795020  
   0.798960100    -0.7048002    0.2886068  
   0.800960000    -0.6505981    0.3906558  
   0.802959900    -0.5812138    0.4834158  
   0.804959800    -0.4979579    0.5636087  
   0.806959700    -0.4033504    0.6308176  
   0.808959600    -0.2991754    0.6820496  
   0.810959500    -0.1881699    0.7167459  
   0.812959400    -0.0722032    0.7338825  
   0.814959300     0.0452954    0.7324700  
   0.816959200     0.1616940    0.7125964  
   0.818959100     0.2740875    0.6742147  
   0.820959000     0.3795191    0.6180757  
   0.822958900     0.4751927    0.5456333  
   0.824958800     0.5583910    0.4578832  
   0.826958700     0.6268231    0.3571952  
   0.828958600     0.6780962    0.2459961  
   0.830958500     0.7105772    0.1279457  
   0.832958400     0.7229000    0.0054219  
   0.834958300     0.7148377   -0.1173751  
   0.836958200     0.6867003   -0.2370706  
   0.838958100     0.6389363   -0.3505335  
   0.840958000     0.5728766   -0.4549024  
   0.842957900     0.4905838   -0.5467372  
   0.844957800     0.3945551   -0.6233920  
   0.846957700     0.2873013   -0.6827729  
   0.848957600     0.1723934   -0.7237367  
   0.850957500     0.0527155   -0.7448928  
   0.852957400    -0.0679234   -0.7465871  
   0.854957300    -0.1867382   -0.7286201  
   0.856957200    -0.2999917   -0.6921111  
   0.858957100    -0.4051410   -0.6385000  
   0.860957000    -0.4996374   -0.5697638  
   0.862956900    -0.5816014   -0.4880235  
   0.864956800    -0.6490591   -0.3957350  
   0.866956700    -0.7011267   -0.2954422  
   0.868956600    -0.7368830   -0.1891173  
   0.870956500    -0.7568012   -0.0793150  
   0.872956400    -0.7597538    0.0318354  
   0.874956300    -0.7463893    0.1418879  
   0.876956200    -0.7167357    0.2491594  
   0.878956100    -0.6715263    0.3507732  
   0.880956000    -0.6117030    0.4450140  
   0.882955900    -0.5383122    0.5295603  
   0.884955800    -0.4526919    0.6026003  
   0.886955700    -0.3564660    0.6623534  
   0.888955600    -0.2518761    0.7070165  
   0.890955500    -0.1412905    0.7358226  
   0.892955400    -0.0266966    0.7472405  
   0.894955300     0.0894450    0.7409043  
