! MS46122B
! 2250307/22442219
! 7/22/2025 7:45:51 AM
! C:\USERS\SPARKY\DOCUMENTS\VNA_DATA\JULY22_2025\3K\PORT2_MOS2.S1P
! CHANNEL.1
! TR.MEASUREMENT
! RAW.DATA
# GHZ S RI R 50.0
! FREQ.GHZ         S11RE         S11IM         
!; PortSelection: Port_1
   0.001000000     1.0458860   -0.0715910  
   0.002999900     0.9642297   -0.1941629  
   0.004999800     0.9041305   -0.2991288  
   0.006999700     0.8369693   -0.3967119  
   0.008999600     0.7583901   -0.4920653  
   0.010999500     0.6656032   -0.5828069  
   0.012999400     0.5528646   -0.6663327  
   0.014999300     0.4144070   -0.7367357  
   0.016999200     0.2442483   -0.7814972  
   0.018999100     0.0372406   -0.7815405  
   0.020999000    -0.1988500   -0.7037891  
   0.022998900    -0.4283987   -0.5085022  
   0.024998800    -0.5479854   -0.1825348  
   0.026998700    -0.5173870    0.2192438  
   0.028998600    -0.2580367    0.5358523  
   0.030998500     0.0979311    0.6635809  
   0.032998400     0.3932148    0.6077698  
   0.034998300     0.6536216    0.4836420  
   0.036998200     0.7988912    0.3121819  
   0.038998100     0.8775425    0.1398766  
   0.040998000     0.9088733   -0.0202980  
   0.042997900     0.9068763   -0.1641286  
   0.044997800     0.8559694   -0.2658036  
   0.046997700     0.8402102   -0.4023696  
   0.048997600     0.7868770   -0.4991062  
   0.050997500     0.7245467   -0.5826429  
   0.052997400     0.6559194   -0.6544468  
   0.054997300     0.5822605   -0.7149659  
   0.056997200     0.5030901   -0.7671797  
   0.058997100     0.4211443   -0.8090692  
   0.060997000     0.3358315   -0.8422977  
   0.062996900     0.2480600   -0.8662190  
   0.064996800     0.1575778   -0.8804647  
   0.066996700     0.0648930   -0.8857039  
   0.068996600    -0.0290439   -0.8804024  
   0.070996500    -0.1239072   -0.8653133  
   0.072996400    -0.2192065   -0.8375890  
   0.074996300    -0.3134107   -0.7973535  
   0.076996200    -0.4052715   -0.7442474  
   0.078996100    -0.4925469   -0.6767493  
   0.080996000    -0.5736915   -0.5945876  
   0.082995900    -0.6457283   -0.4973873  
   0.084995800    -0.7046576   -0.3853813  
   0.086995700    -0.7486771   -0.2593610  
   0.088995600    -0.7721403   -0.1209530  
   0.090995500    -0.7716994    0.0269034  
   0.092995400    -0.7433883    0.1798051  
   0.094995300    -0.6830957    0.3309709  
   0.096995200    -0.5894044    0.4729541  
   0.098995100    -0.4636063    0.5959904  
   0.100995000    -0.3089370    0.6927720  
   0.102994900    -0.1350151    0.7524764  
   0.104994800     0.0490992    0.7718602  
   0.106994700     0.2321573    0.7481959  
   0.108994600     0.4028334    0.6860127  
   0.110994500     0.5525678    0.5898898  
   0.112994400     0.6742666    0.4676837  
   0.114994300     0.7645985    0.3282829  
   0.116994200     0.8230807    0.1798277  
   0.118994100     0.8507532    0.0298214  
   0.120994000     0.8522317   -0.1162619  
   0.122993900     0.8277161   -0.2537492  
   0.124993800     0.7826949   -0.3795307  
   0.126993700     0.7206029   -0.4918926  
   0.128993600     0.6443477   -0.5888193  
   0.130993500     0.5583783   -0.6711733  
   0.132993400     0.4647545   -0.7385086  
   0.134993300     0.3652163   -0.7906235  
   0.136993200     0.2620308   -0.8280955  
   0.138993100     0.1567439   -0.8513615  
   0.140993000     0.0508029   -0.8603362  
   0.142992900    -0.0547635   -0.8558656  
   0.144992800    -0.1581381   -0.8397158  
   0.146992700    -0.2587925   -0.8091050  
   0.148992600    -0.3549801   -0.7658092  
   0.150992500    -0.4445050   -0.7091649  
   0.152992400    -0.5281424   -0.6417740  
   0.154992300    -0.6031619   -0.5632827  
   0.156992200    -0.6683255   -0.4735956  
   0.158992100    -0.7220545   -0.3739190  
   0.160992000    -0.7622563   -0.2652577  
   0.162991900    -0.7877380   -0.1492073  
   0.164991800    -0.7961161   -0.0266863  
   0.166991700    -0.7858419    0.0985147  
   0.168991600    -0.7555495    0.2245967  
   0.170991500    -0.7038370    0.3482271  
   0.172991400    -0.6306183    0.4647742  
   0.174991300    -0.5364978    0.5704092  
   0.176991200    -0.4223023    0.6603907  
   0.178991100    -0.2907330    0.7305259  
   0.180991000    -0.1460976    0.7773402  
   0.182990900     0.0072044    0.7957903  
   0.184990800     0.1634773    0.7853011  
   0.186990700     0.3158537    0.7448234  
   0.188990600     0.4374063    0.6888108  
   0.190990500     0.5801756    0.5848087  
   0.192990400     0.6875987    0.4675340  
   0.194990300     0.7682409    0.3367610  
   0.196990200     0.8228375    0.1963967  
   0.198990100     0.8503245    0.0516109  
   0.200990000     0.8517454   -0.0926905  
   0.202989900     0.8284471   -0.2316005  
   0.204989800     0.7837347   -0.3614873  
   0.206989700     0.7210937   -0.4794439  
   0.208989600     0.6417225   -0.5820967  
   0.210989500     0.5494594   -0.6696483  
   0.212989400     0.4467608   -0.7404630  
   0.214989300     0.3372525   -0.7938119  
   0.216989200     0.2237207   -0.8297707  
   0.218989100     0.1085958   -0.8488643  
   0.220989000    -0.0069229   -0.8512654  
   0.222988900    -0.1206197   -0.8375438  
   0.224988800    -0.2310737   -0.8079499  
   0.226988700    -0.3350798   -0.7640568  
   0.228988600    -0.4320144   -0.7064238  
   0.230988500    -0.5199084   -0.6359431  
   0.232988400    -0.5965073   -0.5522193  
   0.234988300    -0.6627714   -0.4583381  
   0.236988200    -0.7153163   -0.3549082  
   0.238988100    -0.7526990   -0.2433712  
   0.240988000    -0.7735307   -0.1262688  
   0.242987900    -0.7770237   -0.0053532  
   0.244987800    -0.7613871    0.1168264  
   0.246987700    -0.7263077    0.2381862  
   0.248987600    -0.6706830    0.3550798  
   0.250987500    -0.5951459    0.4640271  
   0.252987400    -0.5005136    0.5605043  
   0.254987300    -0.3890738    0.6407531  
   0.256987200    -0.2629817    0.7010962  
   0.258987100    -0.1259530    0.7407583  
   0.260987000     0.0185485    0.7535825  
   0.262986900     0.1649806    0.7394637  
   0.264986800     0.3075937    0.6984676  
   0.266986700     0.4404674    0.6308625  
   0.268986600     0.5582004    0.5401881  
   0.270986500     0.6562821    0.4301169  
   0.272986400     0.7316598    0.3049279  
   0.274986300     0.7824258    0.1696883  
   0.276986200     0.8076123    0.0297379  
   0.278986100     0.8077980   -0.1102665  
   0.280986000     0.7839046   -0.2455623  
   0.282985900     0.7381392   -0.3725259  
   0.284985800     0.6736977   -0.4873558  
   0.286985700     0.5934238   -0.5876048  
   0.288985600     0.5010220   -0.6711564  
   0.290985500     0.3996215   -0.7381642  
   0.292985400     0.2921214   -0.7879946  
   0.294985300     0.1807449   -0.8206065  
   0.296985200     0.0675280   -0.8368792  
   0.298985100    -0.0459061   -0.8372323  
   0.300985000    -0.1567910   -0.8215843  
   0.302984900    -0.2631146   -0.7914987  
   0.304984800    -0.3631102   -0.7476482  
   0.306984700    -0.4554305   -0.6912268  
   0.308984600    -0.5389329   -0.6240515  
   0.310984500    -0.6123754   -0.5468792  
   0.312984400    -0.6751369   -0.4599984  
   0.314984300    -0.7264654   -0.3652013  
   0.316984200    -0.7650137   -0.2629652  
   0.318984100    -0.7895108   -0.1540097  
   0.320984000    -0.7985795   -0.0398606  
   0.322983900    -0.7900812    0.0768823  
   0.324983800    -0.7630209    0.1935580  
   0.326983700    -0.7163799    0.3050940  
   0.328983600    -0.6506845    0.4081899  
   0.330983500    -0.5687706    0.4979448  
   0.332983400    -0.4749366    0.5715395  
   0.334983300    -0.3727881    0.6289255  
   0.336983200    -0.2646509    0.6707422  
   0.338983100    -0.1521287    0.6968928  
   0.340983000    -0.0365795    0.7072920  
   0.342982900     0.0806693    0.7010137  
   0.344982800     0.1980303    0.6767380  
   0.346982700     0.3127998    0.6335562  
   0.348982600     0.4200839    0.5703667  
   0.350982500     0.5177838    0.4902221  
   0.352982400     0.6013997    0.3928794  
   0.354982300     0.6697567    0.2772560  
   0.356982200     0.7189600    0.1377791  
   0.358982100     0.7398930   -0.0088551  
   0.360982000     0.7311936   -0.1567562  
   0.362981900     0.6936773   -0.2999024  
   0.364981800     0.6288903   -0.4331159  
   0.366981700     0.5396112   -0.5505245  
   0.368981600     0.4298252   -0.6478291  
   0.370981500     0.3039026   -0.7216211  
   0.372981400     0.1671322   -0.7697881  
   0.374981300     0.0248144   -0.7910989  
   0.376981200     0.1428193   -0.7762746  
   0.378981100     0.0022260   -0.7918212  
   0.380981000    -0.1377381   -0.7814803  
   0.382980900    -0.2601100   -0.7504225  
   0.384980800    -0.3698085   -0.7032939  
   0.386980700    -0.4696050   -0.6399294  
   0.388980600    -0.5585285   -0.5625767  
   0.390980500    -0.6337578   -0.4736896  
   0.392980400    -0.6945187   -0.3754860  
   0.394980300    -0.7397347   -0.2702382  
   0.396980200    -0.7686897   -0.1597021  
   0.398980100    -0.7815670   -0.0454507  
   0.400980000    -0.7774008    0.0694136  
   0.402979900    -0.7564848    0.1832013  
   0.404979800    -0.7186288    0.2931210  
   0.406979700    -0.6645524    0.3968965  
   0.408979600    -0.5950986    0.4924166  
   0.410979500    -0.5105135    0.5777997  
   0.412979400    -0.4125194    0.6505569  
   0.414979300    -0.3021805    0.7064527  
   0.416979200    -0.1835289    0.7460263  
   0.418979100    -0.0587515    0.7667239  
   0.420979000     0.0692096    0.7668757  
   0.422978900     0.1970114    0.7460016  
   0.424978800     0.3212927    0.7037861  
   0.426978700     0.4379434    0.6404721  
   0.428978600     0.5429872    0.5581091  
   0.430978500     0.6327071    0.4588438  
   0.432978400     0.7042556    0.3455360  
   0.434978300     0.7566392    0.2218480  
   0.436978200     0.7859676    0.0912611  
   0.438978100     0.7929398   -0.0425195  
   0.440978000     0.7771606   -0.1747932  
   0.442977900     0.7392423   -0.3015002  
   0.444977800     0.6810800   -0.4192515  
   0.446977700     0.6046693   -0.5247262  
   0.448977600     0.5133763   -0.6151731  
   0.450977500     0.4093738   -0.6888118  
   0.452977400     0.2957895   -0.7438051  
   0.454977300     0.1755040   -0.7795924  
   0.456977200     0.0519132   -0.7955557  
   0.458977100    -0.0715673   -0.7917717  
   0.460977000    -0.1914266   -0.7689009  
   0.462976900    -0.3046882   -0.7282401  
   0.464976800    -0.4094010   -0.6707479  
   0.466976700    -0.5037955   -0.5984535  
   0.468976600    -0.5853176   -0.5132728  
   0.470976500    -0.6527269   -0.4172813  
   0.472976400    -0.7045847   -0.3117753  
   0.474976300    -0.7397797   -0.2000130  
   0.476976200    -0.7574015   -0.0845040  
   0.478976100    -0.7573545    0.0325989  
   0.480976000    -0.7393977    0.1482075  
   0.482975900    -0.7033659    0.2595955  
   0.484975800    -0.6505171    0.3653851  
   0.486975700    -0.5810509    0.4623470  
   0.488975600    -0.4961507    0.5481771  
   0.490975500    -0.3975153    0.6194615  
   0.492975400    -0.2874945    0.6745260  
   0.494975300    -0.1684715    0.7108542  
   0.496975200    -0.0440515    0.7265429  
   0.498975100     0.0818499    0.7206128  
   0.500975000     0.2050186    0.6928107  
   0.502974900     0.3213217    0.6440296  
   0.504974800     0.4271592    0.5754187  
   0.506974700     0.5188834    0.4896591  
   0.508974600     0.5934843    0.3894125  
   0.510974500     0.6487942    0.2793334  
   0.512974400     0.6835202    0.1636585  
   0.514974300     0.6964544    0.0471255  
   0.516974200     0.6917632   -0.0672559  
   0.518974100     0.6701468   -0.1760263  
   0.520974000     0.6335310   -0.2777434  
   0.522973900     0.5838879   -0.3709625  
   0.524973800     0.5231311   -0.4549964  
   0.526973700     0.4523913   -0.5293389  
   0.528973600     0.3733855   -0.5932715  
   0.530973500     0.2855987   -0.6464274  
   0.532973400     0.1913829   -0.6874979  
   0.534973300     0.0911160   -0.7154630  
   0.536973200    -0.0142521   -0.7291985  
   0.538973100    -0.1210820   -0.7273614  
   0.540973000    -0.2276837   -0.7085417  
   0.542972900    -0.3317420   -0.6737900  
   0.544972800    -0.4304266   -0.6224697  
   0.546972700    -0.5213797   -0.5549341  
   0.548972600    -0.6013181   -0.4734069  
   0.550972500    -0.6674808   -0.3789312  
   0.552972400    -0.7184007   -0.2744004  
   0.554972300    -0.7519491   -0.1622116  
   0.556972200    -0.7672682   -0.0455740  
   0.558972100    -0.7638068    0.0726135  
   0.560972000    -0.7412293    0.1890248  
   0.562971900    -0.7005225    0.3005096  
   0.564971800    -0.6424742    0.4044475  
   0.566971700    -0.5685669    0.4981959  
   0.568971600    -0.4802583    0.5792676  
   0.570971500    -0.3795894    0.6456646  
   0.572971400    -0.2690637    0.6956334  
   0.574971300    -0.1505871    0.7274420  
   0.576971200    -0.0271887    0.7395238  
   0.578971100     0.0975424    0.7312827  
   0.580971000     0.2200183    0.7024167  
   0.582970900     0.3366857    0.6531993  
   0.584970800     0.4439372    0.5850253  
   0.586970700     0.5382966    0.4994992  
   0.588970600     0.6174954    0.3989433  
   0.590970500     0.6784064    0.2856460  
   0.592970400     0.7193844    0.1637404  
   0.594970300     0.7388853    0.0364413  
   0.596970200     0.7365228   -0.0922208  
   0.598970100     0.7121831   -0.2183063  
   0.600970000     0.6666993   -0.3385943  
   0.602969900     0.6017773   -0.4484506  
   0.604969800     0.5193763   -0.5455957  
   0.606969700     0.4226097   -0.6273521  
   0.608969600     0.3137348   -0.6910105  
   0.610969500     0.1968641   -0.7354534  
   0.612969400     0.0752743   -0.7593310  
   0.614969300    -0.0467623   -0.7635025  
   0.616969200    -0.1665745   -0.7477699  
   0.618969100    -0.2807386   -0.7136195  
   0.620969000    -0.3867741   -0.6629807  
   0.622968900    -0.4831522   -0.5967832  
   0.624968800    -0.5677604   -0.5171492  
   0.626968700    -0.6387255   -0.4259776  
   0.628968600    -0.6948587   -0.3256104  
   0.630968500    -0.7350493   -0.2181202  
   0.632968400    -0.7587488   -0.1061409  
   0.634968300    -0.7651737    0.0081554  
   0.636968200    -0.7544791    0.1220758  
   0.638968100    -0.7267814    0.2332246  
   0.640968000    -0.6825230    0.3396362  
   0.642967900    -0.6226596    0.4380207  
   0.644967800    -0.5481344    0.5270475  
   0.646967700    -0.4606017    0.6042997  
   0.648967600    -0.3616569    0.6675972  
   0.650967500    -0.2537627    0.7149273  
   0.652967400    -0.1389861    0.7455629  
   0.654967300    -0.0195332    0.7580967  
   0.656967200     0.1008862    0.7516690  
   0.658967100     0.2199449    0.7259543  
   0.660967000     0.3346861    0.6810216  
   0.662966900     0.4423405    0.6170356  
   0.664966800     0.5389924    0.5356694  
   0.666966700     0.6219897    0.4380485  
   0.668966600     0.6878126    0.3273696  
   0.670966500     0.7341942    0.2068238  
   0.672966400     0.7612227    0.0799553  
   0.674966300     0.7649537   -0.0493409  
   0.676966200     0.7467940   -0.1775296  
   0.678966100     0.7074116   -0.2998526  
   0.680966000     0.6486378   -0.4133349  
   0.682965900     0.5721698   -0.5150272  
   0.684965800     0.4808694   -0.6017621  
   0.686965700     0.3769480   -0.6714382  
   0.688965600     0.2643597   -0.7231007  
   0.690965500     0.1459909   -0.7542132  
   0.692965400     0.0258950   -0.7671807  
   0.694965300    -0.0935395   -0.7606713  
   0.696965200    -0.2087719   -0.7360426  
   0.698965100    -0.3179389   -0.6940585  
   0.700965000    -0.4184627   -0.6364210  
   0.702964900    -0.5084190   -0.5645911  
   0.704964800    -0.5857885   -0.4805930  
   0.706964700    -0.6491641   -0.3863832  
   0.708964600    -0.6974666   -0.2837328  
   0.710964500    -0.7301887   -0.1754482  
   0.712964400    -0.7456090   -0.0635783  
   0.714964300    -0.7439801    0.0494373  
   0.716964200    -0.7253700    0.1604376  
   0.718964100    -0.6900430    0.2675193  
   0.720964000    -0.6389073    0.3681571  
   0.722963900    -0.5729566    0.4599156  
   0.724963800    -0.4932215    0.5408342  
   0.726963700    -0.4012541    0.6087186  
   0.728963600    -0.2992176    0.6618612  
   0.730963500    -0.1887302    0.6976143  
   0.732963400    -0.0739534    0.7159345  
   0.734963300     0.0434921    0.7151527  
   0.736963200     0.1768896    0.6909219  
   0.738963100     0.3041284    0.6415076  
   0.740963000     0.4204035    0.5693194  
   0.742962900     0.5206920    0.4767702  
   0.744962800     0.6017692    0.3671654  
   0.746962700     0.6604953    0.2446322  
   0.748962600     0.6949782    0.1141124  
   0.750962500     0.6556599    0.2179852  
   0.752962400     0.6858792    0.0887183  
   0.754962300     0.6919736   -0.0429660  
   0.756962200     0.6741391   -0.1729777  
   0.758962100     0.6333917   -0.2963229  
   0.760962000     0.5716296   -0.4101051  
   0.762961900     0.4948083   -0.5060841  
   0.764961800     0.4119021   -0.5813122  
   0.766961700     0.3183109   -0.6428525  
   0.768961600     0.2163506   -0.6892505  
   0.770961500     0.1087222   -0.7196211  
   0.772961400    -0.0022890   -0.7332522  
   0.774961300    -0.1143698   -0.7296607  
   0.776961200    -0.2248966   -0.7087621  
   0.778961100    -0.3312837   -0.6710864  
   0.780961000    -0.4309923   -0.6168090  
   0.782960900    -0.5210195   -0.5474191  
   0.784960800    -0.5998437   -0.4642197  
   0.786960700    -0.6644996   -0.3693672  
   0.788960600    -0.7136227   -0.2653294  
   0.790960500    -0.7457023   -0.1547327  
   0.792960400    -0.7601792   -0.0406303  
   0.794960300    -0.7562993    0.0746133  
   0.796960200    -0.7345842    0.1876957  
   0.798960100    -0.6954752    0.2957069  
   0.800960000    -0.6401669    0.3962437  
   0.802959900    -0.5698785    0.4874088  
   0.804959800    -0.4860584    0.5659229  
   0.806959700    -0.3911124    0.6313087  
   0.808959600    -0.2868732    0.6806864  
   0.810959500    -0.1762348    0.7135183  
   0.812959400    -0.0608741    0.7287650  
   0.814959300     0.0559015    0.7258260  
   0.816959200     0.1712637    0.7044107  
   0.818959100     0.2825336    0.6646816  
   0.820959000     0.3863629    0.6074536  
   0.822958900     0.4805024    0.5339538  
   0.824958800     0.5618716    0.4457114  
   0.826958700     0.6284015    0.3445939  
   0.828958600     0.6777186    0.2333923  
   0.830958500     0.7083088    0.1155493  
   0.832958400     0.7188597   -0.0064123  
   0.834958300     0.7090595   -0.1283823  
   0.836958200     0.6792825   -0.2469526  
   0.838958100     0.6300414   -0.3593175  
   0.840958000     0.5627065   -0.4620623  
   0.842957900     0.4794563   -0.5522370  
   0.844957800     0.3826787   -0.6271193  
   0.846957700     0.2750201   -0.6844467  
   0.848957600     0.1600112   -0.7233168  
   0.850957500     0.0405679   -0.7424244  
   0.852957400    -0.0796166   -0.7420958  
   0.854957300    -0.1975304   -0.7222121  
   0.856957200    -0.3094230   -0.6840240  
   0.858957100    -0.4133150   -0.6288084  
   0.860957000    -0.5059658   -0.5588714  
   0.862956900    -0.5860246   -0.4763695  
   0.864956800    -0.6516262   -0.3834507  
   0.866956700    -0.7016751   -0.2827584  
   0.868956600    -0.7353322   -0.1765619  
   0.870956500    -0.7533435   -0.0669809  
   0.872956400    -0.7543635    0.0434676  
   0.874956300    -0.7391923    0.1527094  
   0.876956200    -0.7078957    0.2589257  
   0.878956100    -0.6612918    0.3591058  
   0.880956000    -0.6000934    0.4518241  
   0.882955900    -0.5256082    0.5345972  
   0.884955800    -0.4392300    0.6057551  
   0.886955700    -0.3426544    0.6635302  
   0.888955600    -0.2381102    0.7062048  
   0.890955500    -0.1276456    0.7329371  
   0.892955400    -0.0135258    0.7423970  
   0.894955300     0.1018023    0.7341747  
