! MS46122B
! 2250307/22442219
! 7/22/2025 7:55:42 AM
! C:\USERS\SPARKY\DOCUMENTS\VNA_DATA\JULY22_2025\3K\PORT3_MOS3_REPEAT1.S1P
! CHANNEL.1
! TR.MEASUREMENT
! RAW.DATA
# GHZ S RI R 50.0
! FREQ.GHZ         S11RE         S11IM         
!; PortSelection: Port_1
   0.001000000     1.0458080   -0.0715971  
   0.002999900     0.9642839   -0.1941518  
   0.004999800     0.9041263   -0.2991402  
   0.006999700     0.8369336   -0.3969118  
   0.008999600     0.7584859   -0.4924512  
   0.010999500     0.6656504   -0.5834341  
   0.012999400     0.5527371   -0.6673115  
   0.014999300     0.4139451   -0.7381231  
   0.016999200     0.2426423   -0.7835045  
   0.018999100     0.0338790   -0.7836828  
   0.020999000    -0.2048407   -0.7050759  
   0.022998900    -0.4373014   -0.5063114  
   0.024998800    -0.5570330   -0.1740614  
   0.026998700    -0.5208800    0.2349981  
   0.028998600    -0.2514978    0.5524888  
   0.030998500     0.1120209    0.6747788  
   0.032998400     0.4086639    0.6111605  
   0.034998300     0.6680748    0.4808814  
   0.036998200     0.8103642    0.3058039  
   0.038998100     0.8860036    0.1315571  
   0.040998000     0.9146516   -0.0294240  
   0.042997900     0.9103921   -0.1734349  
   0.044997800     0.8577397   -0.2746632  
   0.046997700     0.8403373   -0.4111714  
   0.048997600     0.7857303   -0.5074900  
   0.050997500     0.7222557   -0.5905527  
   0.052997400     0.6526877   -0.6617843  
   0.054997300     0.5779946   -0.7219303  
   0.056997200     0.4980666   -0.7734891  
   0.058997100     0.4152956   -0.8148188  
   0.060997000     0.3292956   -0.8474139  
   0.062996900     0.2407764   -0.8705664  
   0.064996800     0.1495578   -0.8840774  
   0.066996700     0.0561596   -0.8884302  
   0.068996600    -0.0385017   -0.8821410  
   0.070996500    -0.1341199   -0.8658900  
   0.072996400    -0.2299168   -0.8368750  
   0.074996300    -0.3246723   -0.7951087  
   0.076996200    -0.4169445   -0.7402837  
   0.078996100    -0.5043886   -0.6708398  
   0.080996000    -0.5854765   -0.5862703  
   0.082995900    -0.6569267   -0.4866009  
   0.084995800    -0.7147799   -0.3716897  
   0.086995700    -0.7570316   -0.2430670  
   0.088995600    -0.7780921   -0.1017846  
   0.090995500    -0.7741673    0.0483966  
   0.092995400    -0.7414432    0.2032308  
   0.094995300    -0.6757604    0.3553961  
   0.096995200    -0.5764481    0.4968676  
   0.098995100    -0.4447392    0.6181126  
   0.100995000    -0.2843524    0.7105232  
   0.102994900    -0.1059718    0.7647129  
   0.104994800     0.0812408    0.7773029  
   0.106994700     0.2649276    0.7460257  
   0.108994600     0.4344977    0.6765496  
   0.110994500     0.5811326    0.5737795  
   0.112994400     0.6985589    0.4460278  
   0.114994300     0.7835573    0.3025290  
   0.116994200     0.8362247    0.1516569  
   0.118994100     0.8581697    0.0005464  
   0.120994000     0.8542607   -0.1454760  
   0.122993900     0.8247475   -0.2821851  
   0.124993800     0.7753592   -0.4062008  
   0.126993700     0.7094957   -0.5163167  
   0.128993600     0.6300268   -0.6107097  
   0.130993500     0.5414453   -0.6904980  
   0.132993400     0.4455192   -0.7548110  
   0.134993300     0.3442348   -0.8038907  
   0.136993200     0.2396079   -0.8382770  
   0.138993100     0.1330124   -0.8585618  
   0.140993000     0.0268060   -0.8641393  
   0.142992900    -0.0792313   -0.8566311  
   0.144992800    -0.1831138   -0.8373858  
   0.146992700    -0.2833069   -0.8035352  
   0.148992600    -0.3792409   -0.7568963  
   0.150992500    -0.4675276   -0.6969587  
   0.152992400    -0.5501712   -0.6262577  
   0.154992300    -0.6234977   -0.5444415  
   0.156992200    -0.6864986   -0.4514704  
   0.158992100    -0.7375534   -0.3485636  
   0.160992000    -0.7747568   -0.2366692  
   0.162991900    -0.7959462   -0.1178894  
   0.164991800    -0.7997054    0.0068040  
   0.166991700    -0.7844049    0.1336107  
   0.168991600    -0.7479805    0.2605429  
   0.170991500    -0.6897975    0.3842553  
   0.172991400    -0.6099709    0.4992264  
   0.174991300    -0.5089855    0.6020942  
   0.176991200    -0.3879417    0.6878269  
   0.178991100    -0.2506453    0.7521025  
   0.180991000    -0.1013291    0.7915453  
   0.182990900     0.0552231    0.8014560  
   0.184990800     0.2128515    0.7814283  
   0.186990700     0.3643598    0.7316719  
   0.188990600     0.4834954    0.6674280  
   0.190990500     0.6210926    0.5537161  
   0.192990400     0.7217937    0.4291518  
   0.194990300     0.7946118    0.2928981  
   0.196990200     0.8403904    0.1489414  
   0.198990100     0.8588468    0.0022321  
   0.200990000     0.8515307   -0.1422415  
   0.202989900     0.8200326   -0.2803976  
   0.204989800     0.7676880   -0.4073175  
   0.206989700     0.6978927   -0.5213221  
   0.208989600     0.6128008   -0.6193677  
   0.210989500     0.5153042   -0.7013138  
   0.212989400     0.4089297   -0.7662907  
   0.214989300     0.2960564   -0.8136455  
   0.216989200     0.1808704   -0.8431112  
   0.218989100     0.0641541   -0.8559399  
   0.220989000    -0.0519020   -0.8520488  
   0.222988900    -0.1652474   -0.8318029  
   0.224988800    -0.2745297   -0.7960653  
   0.226988700    -0.3770140   -0.7459828  
   0.228988600    -0.4712810   -0.6824933  
   0.230988500    -0.5560784   -0.6061403  
   0.232988400    -0.6288994   -0.5173133  
   0.234988300    -0.6899306   -0.4184363  
   0.236988200    -0.7371192   -0.3102992  
   0.238988100    -0.7680013   -0.1948449  
   0.240988000    -0.7818393   -0.0745227  
   0.242987900    -0.7772655    0.0482875  
   0.244987800    -0.7531860    0.1716856  
   0.246987700    -0.7089324    0.2926715  
   0.248987600    -0.6439111    0.4076373  
   0.250987500    -0.5587155    0.5129844  
   0.252987400    -0.4548626    0.6036791  
   0.254987300    -0.3352519    0.6763420  
   0.256987200    -0.2021714    0.7275878  
   0.258987100    -0.0597904    0.7560810  
   0.260987000     0.0878690    0.7567189  
   0.262986900     0.2350304    0.7297878  
   0.264986800     0.3751155    0.6755277  
   0.266986700     0.5031403    0.5955605  
   0.268986600     0.6131656    0.4936346  
   0.270986500     0.7015837    0.3744996  
   0.272986400     0.7657542    0.2421326  
   0.274986300     0.8043904    0.1026710  
   0.276986200     0.8174078   -0.0395485  
   0.278986100     0.8052736   -0.1789593  
   0.280986000     0.7697498   -0.3118720  
   0.282985900     0.7137140   -0.4340849  
   0.284985800     0.6400949   -0.5431433  
   0.286985700     0.5523738   -0.6362380  
   0.288985600     0.4537890   -0.7123972  
   0.290985500     0.3477108   -0.7709647  
   0.292985400     0.2369261   -0.8123767  
   0.294985300     0.1232090   -0.8366170  
   0.296985200     0.0089637   -0.8446396  
   0.298985100    -0.1041626   -0.8365175  
   0.300985000    -0.2141017   -0.8129229  
   0.302984900    -0.3184654   -0.7749959  
   0.304984800    -0.4159631   -0.7236372  
   0.306984700    -0.5050333   -0.6602880  
   0.308984600    -0.5840413   -0.5864140  
   0.310984500    -0.6524965   -0.5026240  
   0.312984400    -0.7098401   -0.4103525  
   0.314984300    -0.7544882   -0.3098252  
   0.316984200    -0.7853169   -0.2028979  
   0.318984100    -0.8013390   -0.0898334  
   0.320984000    -0.8005054    0.0271710  
   0.322983900    -0.7812614    0.1459587  
   0.324983800    -0.7420281    0.2614617  
   0.326983700    -0.6830995    0.3701719  
   0.328983600    -0.6055982    0.4672115  
   0.330983500    -0.5137388    0.5485509  
   0.332983400    -0.4120933    0.6121249  
   0.334983300    -0.3042824    0.6590067  
   0.336983200    -0.1924095    0.6894251  
   0.338983100    -0.0778848    0.7045843  
   0.340983000     0.0384702    0.7037078  
   0.342982900     0.1550579    0.6857387  
   0.344982800     0.2701944    0.6503064  
   0.346982700     0.3810485    0.5956160  
   0.348982600     0.4822553    0.5212435  
   0.350982500     0.5721010    0.4305459  
   0.352982400     0.6456521    0.3241563  
   0.354982300     0.7018470    0.2007636  
   0.356982200     0.7360377    0.0554750  
   0.358982100     0.7406803   -0.0937907  
   0.360982000     0.7155237   -0.2409328  
   0.362981900     0.6620566   -0.3801591  
   0.364981800     0.5822364   -0.5058362  
   0.366981700     0.4798474   -0.6128278  
   0.368981600     0.3590534   -0.6977583  
   0.370981500     0.2252464   -0.7573210  
   0.372981400     0.0836784   -0.7898803  
   0.374981300    -0.0608437   -0.7951767  
   0.376981200     0.0603315   -0.7933491  
   0.378981100    -0.0818053   -0.7933713  
   0.380981000    -0.2207179   -0.7680163  
   0.382980900    -0.3395406   -0.7240956  
   0.384980800    -0.4434688   -0.6649290  
   0.386980700    -0.5369202   -0.5907724  
   0.388980600    -0.6174685   -0.5037361  
   0.390980500    -0.6836168   -0.4066253  
   0.392980400    -0.7338668   -0.3017464  
   0.394980300    -0.7677130   -0.1908066  
   0.396980200    -0.7853087   -0.0761047  
   0.398980100    -0.7855381    0.0397998  
   0.400980000    -0.7687326    0.1555671  
   0.402979900    -0.7348126    0.2684107  
   0.404979800    -0.6840813    0.3749877  
   0.406979700    -0.6174278    0.4740702  
   0.408979600    -0.5356690    0.5628815  
   0.410979500    -0.4401966    0.6392448  
   0.412979400    -0.3316419    0.7009270  
   0.414979300    -0.2130953    0.7442085  
   0.416979200    -0.0876886    0.7696525  
   0.418979100     0.0413990    0.7745328  
   0.420979000     0.1710979    0.7580205  
   0.422978900     0.2978302    0.7199078  
   0.424978800     0.4178311    0.6603354  
   0.426978700     0.5267720    0.5806530  
   0.428978600     0.6212541    0.4830690  
   0.430978500     0.6976703    0.3703861  
   0.432978400     0.7534655    0.2465234  
   0.434978300     0.7883945    0.1149976  
   0.436978200     0.7993926   -0.0200601  
   0.438978100     0.7869460   -0.1546201  
   0.440978000     0.7519028   -0.2842814  
   0.442977900     0.6961040   -0.4051760  
   0.444977800     0.6214276   -0.5139698  
   0.446977700     0.5304951   -0.6076105  
   0.448977600     0.4265884   -0.6850025  
   0.450977500     0.3132897   -0.7430348  
   0.452977400     0.1925633   -0.7815687  
   0.454977300     0.0678470   -0.8001969  
   0.456977200    -0.0568515   -0.7988068  
   0.458977100    -0.1788865   -0.7778724  
   0.460977000    -0.2950604   -0.7383847  
   0.462976900    -0.4018910   -0.6819685  
   0.464976800    -0.4984986   -0.6104355  
   0.466976700    -0.5825456   -0.5250437  
   0.468976600    -0.6521014   -0.4289525  
   0.470976500    -0.7060471   -0.3228469  
   0.472976400    -0.7429327   -0.2104191  
   0.474976300    -0.7624869   -0.0932977  
   0.476976200    -0.7635103    0.0253487  
   0.478976100    -0.7466496    0.1433916  
   0.480976000    -0.7110344    0.2567483  
   0.482975900    -0.6583930    0.3641755  
   0.484975800    -0.5889897    0.4626600  
   0.486975700    -0.5037150    0.5502275  
   0.488975600    -0.4046346    0.6229879  
   0.490975500    -0.2937858    0.6795224  
   0.492975400    -0.1735830    0.7172486  
   0.494975300    -0.0479961    0.7341408  
   0.496975200     0.0798629    0.7290372  
   0.498975100     0.2051426    0.7018273  
   0.500975000     0.3239880    0.6530250  
   0.502974900     0.4319865    0.5842598  
   0.504974800     0.5256698    0.4975653  
   0.506974700     0.6020669    0.3963970  
   0.508974600     0.6591707    0.2841790  
   0.510974500     0.6947236    0.1655987  
   0.512974400     0.7098206    0.0452269  
   0.514974300     0.7029821   -0.0721606  
   0.516974200     0.6796983   -0.1841802  
   0.518974100     0.6406620   -0.2883237  
   0.520974000     0.5880312   -0.3826512  
   0.522973900     0.5240493   -0.4674948  
   0.524973800     0.4505009   -0.5411011  
   0.526973700     0.3686802   -0.6039705  
   0.528973600     0.2794479   -0.6552215  
   0.530973500     0.1837419   -0.6945846  
   0.532973400     0.0825072   -0.7208790  
   0.534973300    -0.0225409   -0.7325889  
   0.536973200    -0.1301816   -0.7293445  
   0.538973100    -0.2373783   -0.7096995  
   0.540973000    -0.3411693   -0.6731287  
   0.542972900    -0.4399624   -0.6207373  
   0.544972800    -0.5303244   -0.5523157  
   0.546972700    -0.6098683   -0.4694296  
   0.548972600    -0.6759843   -0.3737202  
   0.550972500    -0.7261119   -0.2676801  
   0.552972400    -0.7589532   -0.1539706  
   0.554972300    -0.7730702   -0.0358070  
   0.556972200    -0.7680477    0.0838469  
   0.558972100    -0.7435051    0.2017100  
   0.560972000    -0.7004163    0.3142569  
   0.562971900    -0.6397613    0.4188204  
   0.564971800    -0.5629514    0.5126211  
   0.566971700    -0.4716421    0.5932365  
   0.568971600    -0.3683553    0.6584215  
   0.570971500    -0.2553946    0.7066602  
   0.572971400    -0.1350735    0.7361999  
   0.574971300    -0.0102150    0.7456899  
   0.576971200     0.1157715    0.7346818  
   0.578971100     0.2391091    0.7024591  
   0.580971000     0.3561041    0.6497546  
   0.582970900     0.4633774    0.5777414  
   0.584970800     0.5568537    0.4883877  
   0.586970700     0.6341228    0.3846646  
   0.588970600     0.6926121    0.2684903  
   0.590970500     0.7306246    0.1440225  
   0.592970400     0.7467316    0.0146791  
   0.594970300     0.7406709   -0.1149304  
   0.596970200     0.7124251   -0.2418385  
   0.598970100     0.6630962   -0.3616189  
   0.600970000     0.5943982   -0.4707140  
   0.602969900     0.5086991   -0.5660707  
   0.604969800     0.4087408   -0.6456330  
   0.606969700     0.2975024   -0.7063181  
   0.608969600     0.1783400   -0.7477790  
   0.610969500     0.0549742   -0.7689095  
   0.612969400    -0.0685068   -0.7697545  
   0.614969300    -0.1893542   -0.7504290  
   0.616969200    -0.3041157   -0.7126417  
   0.618969100    -0.4097621   -0.6582133  
   0.620969000    -0.5049129   -0.5887106  
   0.622968900    -0.5878469   -0.5061178  
   0.624968800    -0.6565512   -0.4124469  
   0.626968700    -0.7105669   -0.3095085  
   0.628968600    -0.7480471   -0.1999762  
   0.630968500    -0.7689451   -0.0860934  
   0.632968400    -0.7722788    0.0292874  
   0.634968300    -0.7582971    0.1439390  
   0.636968200    -0.7271050    0.2556758  
   0.638968100    -0.6795974    0.3618023  
   0.640968000    -0.6161512    0.4599123  
   0.642967900    -0.5382196    0.5477301  
   0.644967800    -0.4472381    0.6236830  
   0.646967700    -0.3449553    0.6847887  
   0.648967600    -0.2339746    0.7295135  
   0.650967500    -0.1165606    0.7570506  
   0.652967400     0.0046679    0.7659393  
   0.654967300     0.1267317    0.7555473  
   0.656967200     0.2464071    0.7256048  
   0.658967100     0.3610135    0.6762943  
   0.660967000     0.4671116    0.6086255  
   0.662966900     0.5620530    0.5231106  
   0.664966800     0.6424346    0.4220735  
   0.666966700     0.7051952    0.3080121  
   0.668966600     0.7480996    0.1845489  
   0.670966500     0.7698759    0.0549358  
   0.672966400     0.7705874   -0.0762532  
   0.674966300     0.7474755   -0.2049499  
   0.676966200     0.7034388   -0.3278384  
   0.678966100     0.6398082   -0.4401748  
   0.680966000     0.5588674   -0.5401897  
   0.682965900     0.4632289   -0.6242055  
   0.684965800     0.3563237   -0.6906499  
   0.686965700     0.2405032   -0.7385874  
   0.688965600     0.1198699   -0.7667563  
   0.690965500    -0.0019087   -0.7741296  
   0.692965400    -0.1222165   -0.7629814  
   0.694965300    -0.2377027   -0.7337674  
   0.696965200    -0.3461068   -0.6873870  
   0.698965100    -0.4449340   -0.6253969  
   0.700965000    -0.5330180   -0.5496341  
   0.702964900    -0.6077584   -0.4620911  
   0.704964800    -0.6680939   -0.3646864  
   0.706964700    -0.7126029   -0.2596372  
   0.708964600    -0.7412017   -0.1490763  
   0.710964500    -0.7532325   -0.0355023  
   0.712964400    -0.7473115    0.0784087  
   0.714964300    -0.7239666    0.1904415  
   0.716964200    -0.6839527    0.2974515  
   0.718964100    -0.6279979    0.3976195  
   0.720964000    -0.5570397    0.4877597  
   0.722963900    -0.4728463    0.5662298  
   0.724963800    -0.3769757    0.6312442  
   0.726963700    -0.2712253    0.6804819  
   0.728963600    -0.1580953    0.7122717  
   0.730963500    -0.0407924    0.7248932  
   0.732963400     0.0775298    0.7189141  
   0.734963300     0.1941161    0.6931179  
   0.736963200     0.3212216    0.6407140  
   0.738963100     0.4372503    0.5651750  
   0.740963000     0.5367439    0.4691758  
   0.742962900     0.6159908    0.3564474  
   0.744962800     0.6724532    0.2310754  
   0.746962700     0.7040778    0.0985752  
   0.748962600     0.7106609   -0.0370999  
   0.750962500     0.6943445    0.0718376  
   0.752962400     0.6967716   -0.0615482  
   0.754962300     0.6754141   -0.1921532  
   0.756962200     0.6308680   -0.3157100  
   0.758962100     0.5655671   -0.4283880  
   0.760962000     0.4813924   -0.5277170  
   0.762961900     0.3865461   -0.6061524  
   0.764961800     0.2892651   -0.6633962  
   0.766961700     0.1847450   -0.7048178  
   0.768961600     0.0749017   -0.7301648  
   0.770961500    -0.0374576   -0.7381788  
   0.772961400    -0.1499808   -0.7290893  
   0.774961300    -0.2597425   -0.7028466  
   0.776961200    -0.3648625   -0.6598440  
   0.778961100    -0.4621806   -0.6007555  
   0.780961000    -0.5494557   -0.5269203  
   0.782960900    -0.6244687   -0.4398108  
   0.784960800    -0.6853137   -0.3415495  
   0.786960700    -0.7296053   -0.2346418  
   0.788960600    -0.7568641   -0.1215171  
   0.790960500    -0.7659870   -0.0059705  
   0.792960400    -0.7564944    0.1100755  
   0.794960300    -0.7290533    0.2232614  
   0.796960200    -0.6844398    0.3302483  
   0.798960100    -0.6235489    0.4294834  
   0.800960000    -0.5477402    0.5173620  
   0.802959900    -0.4593366    0.5928795  
   0.804959800    -0.3601658    0.6537185  
   0.806959700    -0.2522722    0.6983805  
   0.808959600    -0.1387040    0.7255991  
   0.810959500    -0.0218295    0.7349227  
   0.812959400     0.0958339    0.7256182  
   0.814959300     0.2110311    0.6978706  
   0.816959200     0.3208936    0.6517134  
   0.818959100     0.4224369    0.5884414  
   0.820959000     0.5132642    0.5091856  
   0.822958900     0.5902415    0.4157797  
   0.824958800     0.6516944    0.3103216  
   0.826958700     0.6951298    0.1956909  
   0.828958600     0.7194032    0.0753329  
   0.830958500     0.7231748   -0.0481455  
   0.832958400     0.7063788   -0.1704744  
   0.834958300     0.6697493   -0.2883708  
   0.836958200     0.6137922   -0.3985389  
   0.838958100     0.5406016   -0.4976135  
   0.840958000     0.4520461   -0.5834591  
   0.842957900     0.3506456   -0.6534053  
   0.844957800     0.2396179   -0.7049657  
   0.846957700     0.1217998   -0.7377596  
   0.848957600     0.0011746   -0.7504652  
   0.850957500    -0.1195235   -0.7436748  
   0.852957400    -0.2365168   -0.7176272  
   0.854957300    -0.3469723   -0.6734198  
   0.856957200    -0.4484865   -0.6127195  
   0.858957100    -0.5383080   -0.5373066  
   0.860957000    -0.6147502   -0.4499266  
   0.862956900    -0.6759416   -0.3527533  
   0.864956800    -0.7211279   -0.2484637  
   0.866956700    -0.7499474   -0.1399868  
   0.868956600    -0.7616504   -0.0288935  
   0.870956500    -0.7570391    0.0825345  
   0.872956400    -0.7360733    0.1914394  
   0.874956300    -0.6990436    0.2960742  
   0.876956200    -0.6471480    0.3946845  
   0.878956100    -0.5809038    0.4845791  
   0.880956000    -0.5017132    0.5640365  
   0.882955900    -0.4110934    0.6314238  
   0.884955800    -0.3107112    0.6846166  
   0.886955700    -0.2029468    0.7222645  
   0.888955600    -0.0899688    0.7434773  
   0.890955500     0.0258838    0.7469741  
   0.892955400     0.1418876    0.7326013  
   0.894955300     0.2549740    0.7000753  
