! MS46122B
! 2250307/22442219
! 7/25/2025 1:51:04 PM
! C:\USERS\SPARKY\DOCUMENTS\VNA_DATA\JULY25_2025\3K\PORT5_MOS2_REPEAT1.S1P
! CHANNEL.1
! TR.MEASUREMENT
! RAW.DATA
# GHZ S RI R 50.0
! FREQ.GHZ         S11RE         S11IM         
!; PortSelection: Port_1
   0.001000000     1.0446850   -0.0717115  
   0.002999900     0.9634480   -0.1941861  
   0.004999800     0.9032154   -0.2991138  
   0.006999700     0.8358801   -0.3968231  
   0.008999600     0.7573588   -0.4921273  
   0.010999500     0.6644347   -0.5827511  
   0.012999400     0.5515607   -0.6661357  
   0.014999300     0.4129818   -0.7363529  
   0.016999200     0.2426487   -0.7808582  
   0.018999100     0.0355983   -0.7804558  
   0.020999000    -0.2003288   -0.7023473  
   0.022998900    -0.4296585   -0.5067248  
   0.024998800    -0.5490570   -0.1806390  
   0.026998700    -0.5182617    0.2214258  
   0.028998600    -0.2585526    0.5383672  
   0.030998500     0.0980412    0.6664034  
   0.032998400     0.3939650    0.6103421  
   0.034998300     0.6550555    0.4858100  
   0.036998200     0.8005382    0.3138927  
   0.038998100     0.8792759    0.1409396  
   0.040998000     0.9104519   -0.0196857  
   0.042997900     0.9082798   -0.1638796  
   0.044997800     0.8570969   -0.2657205  
   0.046997700     0.8410563   -0.4023518  
   0.048997600     0.7874826   -0.4991919  
   0.050997500     0.7249188   -0.5827157  
   0.052997400     0.6560444   -0.6545117  
   0.054997300     0.5824543   -0.7147772  
   0.056997200     0.5028762   -0.7669328  
   0.058997100     0.4207694   -0.8086749  
   0.060997000     0.3354046   -0.8417038  
   0.062996900     0.2475995   -0.8653905  
   0.064996800     0.1570924   -0.8794131  
   0.066996700     0.0645065   -0.8843631  
   0.068996600    -0.0293403   -0.8787920  
   0.070996500    -0.1241684   -0.8635271  
   0.072996400    -0.2191329   -0.8355916  
   0.074996300    -0.3130507   -0.7951609  
   0.076996200    -0.4045779   -0.7419897  
   0.078996100    -0.4915493   -0.6744584  
   0.080996000    -0.5723590   -0.5923828  
   0.082995900    -0.6440527   -0.4953940  
   0.084995800    -0.7026929   -0.3835534  
   0.086995700    -0.7464286   -0.2578863  
   0.088995600    -0.7697408   -0.1198828  
   0.090995500    -0.7692798    0.0275195  
   0.092995400    -0.7410131    0.1799819  
   0.094995300    -0.6809712    0.3307140  
   0.096995200    -0.5877977    0.4724568  
   0.098995100    -0.4625952    0.5955220  
   0.100995000    -0.3082645    0.6922418  
   0.102994900    -0.1346957    0.7523088  
   0.104994800     0.0492452    0.7720865  
   0.106994700     0.2322597    0.7488598  
   0.108994600     0.4031781    0.6871026  
   0.110994500     0.5532420    0.5911773  
   0.112994400     0.6752991    0.4690427  
   0.114994300     0.7661189    0.3292986  
   0.116994200     0.8247236    0.1808982  
   0.118994100     0.8525205    0.0306088  
   0.120994000     0.8540480   -0.1158154  
   0.122993900     0.8294333   -0.2535622  
   0.124993800     0.7842644   -0.3794731  
   0.126993700     0.7219169   -0.4920760  
   0.128993600     0.6453739   -0.5889894  
   0.130993500     0.5591537   -0.6714382  
   0.132993400     0.4653041   -0.7386436  
   0.134993300     0.3655105   -0.7906068  
   0.136993200     0.2622095   -0.8278351  
   0.138993100     0.1569031   -0.8508381  
   0.140993000     0.0508536   -0.8596241  
   0.142992900    -0.0546063   -0.8546885  
   0.144992800    -0.1578273   -0.8383742  
   0.146992700    -0.2582639   -0.8075366  
   0.148992600    -0.3541785   -0.7640075  
   0.150992500    -0.4432498   -0.7071850  
   0.152992400    -0.5267291   -0.6398247  
   0.154992300    -0.6013579   -0.5613641  
   0.156992200    -0.6661441   -0.4718549  
   0.158992100    -0.7195556   -0.3723395  
   0.160992000    -0.7594973   -0.2640252  
   0.162991900    -0.7846652   -0.1480237  
   0.164991800    -0.7929533   -0.0263068  
   0.166991700    -0.7826810    0.0985224  
   0.168991600    -0.7524915    0.2241285  
   0.170991500    -0.7009662    0.3473193  
   0.172991400    -0.6281850    0.4634738  
   0.174991300    -0.5345032    0.5688983  
   0.176991200    -0.4205738    0.6587176  
   0.178991100    -0.2898017    0.7289421  
   0.180991000    -0.1455939    0.7759534  
   0.182990900     0.0072894    0.7947839  
   0.184990800     0.1633573    0.7847385  
   0.186990700     0.3156815    0.7447991  
   0.188990600     0.4372621    0.6892772  
   0.190990500     0.5803331    0.5854990  
   0.192990400     0.6881285    0.4684950  
   0.194990300     0.7690312    0.3378008  
   0.196990200     0.8235798    0.1974784  
   0.198990100     0.8516575    0.0525412  
   0.200990000     0.8533396   -0.0921943  
   0.202989900     0.8303038   -0.2314637  
   0.204989800     0.7853831   -0.3614918  
   0.206989700     0.7224480   -0.4796885  
   0.208989600     0.6429822   -0.5822672  
   0.210989500     0.5504670   -0.6698705  
   0.212989400     0.4477206   -0.7405518  
   0.214989300     0.3378873   -0.7938715  
   0.216989200     0.2244032   -0.8296009  
   0.218989100     0.1088612   -0.8485025  
   0.220989000    -0.0065367   -0.8506880  
   0.222988900    -0.1200942   -0.8366918  
   0.224988800    -0.2304763   -0.8069595  
   0.226988700    -0.3341340   -0.7628130  
   0.228988600    -0.4307596   -0.7050586  
   0.230988500    -0.5183749   -0.6345150  
   0.232988400    -0.5946050   -0.5508119  
   0.234988300    -0.6606050   -0.4570333  
   0.236988200    -0.7128408   -0.3538845  
   0.238988100    -0.7499299   -0.2426315  
   0.240988000    -0.7706526   -0.1258719  
   0.242987900    -0.7740473   -0.0053706  
   0.244987800    -0.7584673    0.1164035  
   0.246987700    -0.7235178    0.2373900  
   0.248987600    -0.6680684    0.3539278  
   0.250987500    -0.5929325    0.4625401  
   0.252987400    -0.4986999    0.5588416  
   0.254987300    -0.3875941    0.6389913  
   0.256987200    -0.2622447    0.6994748  
   0.258987100    -0.1256371    0.7393208  
   0.260987000     0.0185489    0.7524665  
   0.262986900     0.1650207    0.7387496  
   0.264986800     0.3074413    0.6982287  
   0.266986700     0.4403877    0.6310126  
   0.268986600     0.5582289    0.5407575  
   0.270986500     0.6566089    0.4309019  
   0.272986400     0.7323197    0.3058263  
   0.274986300     0.7833303    0.1706617  
   0.276986200     0.8088150    0.0304804  
   0.278986100     0.8091946   -0.1097741  
   0.280986000     0.7852596   -0.2452591  
   0.282985900     0.7395098   -0.3723665  
   0.284985800     0.6750487   -0.4873292  
   0.286985700     0.5945783   -0.5876443  
   0.288985600     0.5020446   -0.6711695  
   0.290985500     0.4005978   -0.7381279  
   0.292985400     0.2930096   -0.7877195  
   0.294985300     0.1814675   -0.8202484  
   0.296985200     0.0682921   -0.8362780  
   0.298985100    -0.0450762   -0.8364596  
   0.300985000    -0.1558411   -0.8205797  
   0.302984900    -0.2618149   -0.7903650  
   0.304984800    -0.3616630   -0.7463812  
   0.306984700    -0.4537087   -0.6898925  
   0.308984600    -0.5367571   -0.6227848  
   0.310984500    -0.6100025   -0.5457435  
   0.312984400    -0.6724485   -0.4590297  
   0.314984300    -0.7235624   -0.3644982  
   0.316984200    -0.7619319   -0.2625878  
   0.318984100    -0.7863237   -0.1539174  
   0.320984000    -0.7951951   -0.0402495  
   0.322983900    -0.7870814    0.0764273  
   0.324983800    -0.7600642    0.1924017  
   0.326983700    -0.7137035    0.3035693  
   0.328983600    -0.6484295    0.4063182  
   0.330983500    -0.5670583    0.4959901  
   0.332983400    -0.4737015    0.5696132  
   0.334983300    -0.3719615    0.6273162  
   0.336983200    -0.2642004    0.6694407  
   0.338983100    -0.1517668    0.6959971  
   0.340983000    -0.0362012    0.7067030  
   0.342982900     0.0811178    0.7007563  
   0.344982800     0.1985684    0.6767618  
   0.346982700     0.3134618    0.6337300  
   0.348982600     0.4208520    0.5707510  
   0.350982500     0.5188147    0.4906897  
   0.352982400     0.6027089    0.3933475  
   0.354982300     0.6712863    0.2777715  
   0.356982200     0.7206923    0.1381617  
   0.358982100     0.7417704   -0.0086362  
   0.360982000     0.7332770   -0.1568184  
   0.362981900     0.6957695   -0.3003158  
   0.364981800     0.6309277   -0.4336719  
   0.366981700     0.5415457   -0.5512604  
   0.368981600     0.4316097   -0.6487164  
   0.370981500     0.3055128   -0.7225945  
   0.372981400     0.1685435   -0.7707162  
   0.374981300     0.0261172   -0.7919915  
   0.376981200     0.1442737   -0.7766551  
   0.378981100     0.0034507   -0.7920539  
   0.380981000    -0.1361980   -0.7815054  
   0.382980900    -0.2587577   -0.7505377  
   0.384980800    -0.3681930   -0.7031829  
   0.386980700    -0.4676980   -0.6397894  
   0.388980600    -0.5564238   -0.5625215  
   0.390980500    -0.6315016   -0.4737417  
   0.392980400    -0.6918727   -0.3758078  
   0.394980300    -0.7369247   -0.2708315  
   0.396980200    -0.7658243   -0.1602690  
   0.398980100    -0.7786110   -0.0467447  
   0.400980000    -0.7745302    0.0679575  
   0.402979900    -0.7538449    0.1813594  
   0.404979800    -0.7161188    0.2908673  
   0.406979700    -0.6623654    0.3944704  
   0.408979600    -0.5933093    0.4897679  
   0.410979500    -0.5091923    0.5750149  
   0.412979400    -0.4115030    0.6478746  
   0.414979300    -0.3018565    0.7038057  
   0.416979200    -0.1836129    0.7436318  
   0.418979100    -0.0592550    0.7646421  
   0.420979000     0.0684844    0.7652965  
   0.422978900     0.1961183    0.7448924  
   0.424978800     0.3203954    0.7031441  
   0.426978700     0.4371187    0.6403766  
   0.428978600     0.5424522    0.5584995  
   0.430978500     0.6324040    0.4595613  
   0.432978400     0.7044357    0.3465014  
   0.434978300     0.7572267    0.2229221  
   0.436978200     0.7869728    0.0923418  
   0.438978100     0.7943164   -0.0415543  
   0.440978000     0.7788492   -0.1740423  
   0.442977900     0.7411710   -0.3010281  
   0.444977800     0.6831096   -0.4190163  
   0.446977700     0.6067365   -0.5247368  
   0.448977600     0.5154244   -0.6154466  
   0.450977500     0.4114585   -0.6890377  
   0.452977400     0.2975614   -0.7443057  
   0.454977300     0.1771602   -0.7800971  
   0.456977200     0.0535163   -0.7960252  
   0.458977100    -0.0700430   -0.7920845  
   0.460977000    -0.1898917   -0.7692577  
   0.462976900    -0.3030562   -0.7284871  
   0.464976800    -0.4075609   -0.6709888  
   0.466976700    -0.5018644   -0.5987614  
   0.468976600    -0.5832103   -0.5136605  
   0.470976500    -0.6505482   -0.4175788  
   0.472976400    -0.7021579   -0.3125082  
   0.474976300    -0.7371671   -0.2010436  
   0.476976200    -0.7548550   -0.0858084  
   0.478976100    -0.7548372    0.0308637  
   0.480976000    -0.7369959    0.1460935  
   0.482975900    -0.7012802    0.2571838  
   0.484975800    -0.6487896    0.3626084  
   0.486975700    -0.5796143    0.4594698  
   0.488975600    -0.4953414    0.5451444  
   0.490975500    -0.3972314    0.6164385  
   0.492975400    -0.2876101    0.6717837  
   0.494975300    -0.1693394    0.7083364  
   0.496975200    -0.0452173    0.7243946  
   0.498975100     0.0803185    0.7189367  
   0.500975000     0.2034094    0.6916688  
   0.502974900     0.3195527    0.6435199  
   0.504974800     0.4254690    0.5755369  
   0.506974700     0.5172927    0.4904117  
   0.508974600     0.5922628    0.3905766  
   0.510974500     0.6479509    0.2810386  
   0.512974400     0.6831447    0.1655906  
   0.514974300     0.6967068    0.0492781  
   0.516974200     0.6925453   -0.0648744  
   0.518974100     0.6715876   -0.1737575  
   0.520974000     0.6355222   -0.2756397  
   0.522973900     0.5864127   -0.3690344  
   0.524973800     0.5261042   -0.4532725  
   0.526973700     0.4556537   -0.5282974  
   0.528973600     0.3768329   -0.5926334  
   0.530973500     0.2890701   -0.6464087  
   0.532973400     0.1947232   -0.6878687  
   0.534973300     0.0942732   -0.7161415  
   0.536973200    -0.0112521   -0.7301584  
   0.538973100    -0.1183289   -0.7284492  
   0.540973000    -0.2251423   -0.7096713  
   0.542972900    -0.3291844   -0.6748785  
   0.544972800    -0.4280843   -0.6235424  
   0.546972700    -0.5188200   -0.5561115  
   0.548972600    -0.5987875   -0.4746490  
   0.550972500    -0.6648744   -0.3803310  
   0.552972400    -0.7157283   -0.2759643  
   0.554972300    -0.7492872   -0.1641295  
   0.556972200    -0.7646812   -0.0477413  
   0.558972100    -0.7613569    0.0701078  
   0.560972000    -0.7390424    0.1862229  
   0.562971900    -0.6986341    0.2974065  
   0.564971800    -0.6410232    0.4010861  
   0.566971700    -0.5676369    0.4946894  
   0.568971600    -0.4798166    0.5757527  
   0.570971500    -0.3798470    0.6422753  
   0.572971400    -0.2697337    0.6924981  
   0.574971300    -0.1517678    0.7245961  
   0.576971200    -0.0287889    0.7372099  
   0.578971100     0.0956273    0.7295862  
   0.580971000     0.2179442    0.7013782  
   0.582970900     0.3345173    0.6527428  
   0.584970800     0.4419886    0.5853247  
   0.586970700     0.5366293    0.5004485  
   0.588970600     0.6163144    0.4002563  
   0.590970500     0.6776218    0.2877055  
   0.592970400     0.7192833    0.1659932  
   0.594970300     0.7394244    0.0388299  
   0.596970200     0.7376798   -0.0899377  
   0.598970100     0.7140089   -0.2160729  
   0.600970000     0.6689454   -0.3367635  
   0.602969900     0.6045792   -0.4468281  
   0.604969800     0.5223063   -0.5445092  
   0.606969700     0.4257016   -0.6266646  
   0.608969600     0.3170021   -0.6905500  
   0.610969500     0.2002003   -0.7351992  
   0.612969400     0.0785491   -0.7596336  
   0.614969300    -0.0435854   -0.7640230  
   0.616969200    -0.1634572   -0.7485623  
   0.618969100    -0.2774720   -0.7146761  
   0.620969000    -0.3836875   -0.6641984  
   0.622968900    -0.4800594   -0.5981917  
   0.624968800    -0.5647805   -0.5187306  
   0.626968700    -0.6358082   -0.4277018  
   0.628968600    -0.6919519   -0.3275044  
   0.630968500    -0.7321802   -0.2202272  
   0.632968400    -0.7558971   -0.1084584  
   0.634968300    -0.7624081    0.0054403  
   0.636968200    -0.7519181    0.1190333  
   0.638968100    -0.7245051    0.2298771  
   0.640968000    -0.6805941    0.3359879  
   0.642967900    -0.6212016    0.4341076  
   0.644967800    -0.5472120    0.5230724  
   0.646967700    -0.4601109    0.6002373  
   0.648967600    -0.3617995    0.6636089  
   0.650967500    -0.2545214    0.7111136  
   0.652967400    -0.1402786    0.7420677  
   0.654967300    -0.0217408    0.7550801  
   0.656967200     0.0984585    0.7492673  
   0.658967100     0.2172667    0.7242446  
   0.660967000     0.3320185    0.6799255  
   0.662966900     0.4393773    0.6169600  
   0.664966800     0.5363668    0.5363035  
   0.666966700     0.6197460    0.4393140  
   0.668966600     0.6861057    0.3292413  
   0.670966500     0.7331972    0.2090144  
   0.672966400     0.7609294    0.0825715  
   0.674966300     0.7655040   -0.0467078  
   0.676966200     0.7479351   -0.1746477  
   0.678966100     0.7092239   -0.2972812  
   0.680966000     0.6510822   -0.4108780  
   0.682965900     0.5751376   -0.5129723  
   0.684965800     0.4842873   -0.6000476  
   0.686965700     0.3806122   -0.6702962  
   0.688965600     0.2682291   -0.7224630  
   0.690965500     0.1499600   -0.7539943  
   0.692965400     0.0299880   -0.7673536  
   0.694965300    -0.0894193   -0.7612865  
   0.696965200    -0.2047515   -0.7370436  
   0.698965100    -0.3139589   -0.6954749  
   0.700965000    -0.4144937   -0.6382138  
   0.702964900    -0.5045208   -0.5667320  
   0.704964800    -0.5818674   -0.4831052  
   0.706964700    -0.6455505   -0.3892467  
   0.708964600    -0.6941162   -0.2869521  
   0.710964500    -0.7270600   -0.1791957  
   0.712964400    -0.7427178   -0.0675478  
   0.714964300    -0.7415718    0.0451711  
   0.716964200    -0.7233963    0.1558630  
   0.718964100    -0.6887069    0.2625674  
   0.720964000    -0.6380946    0.3631422  
   0.722963900    -0.5727327    0.4549437  
   0.724963800    -0.4937810    0.5358433  
   0.726963700    -0.4024448    0.6039979  
   0.728963600    -0.3011579    0.6574123  
   0.730963500    -0.1911995    0.6936452  
   0.732963400    -0.0771828    0.7125366  
   0.734963300     0.0397724    0.7124842  
   0.736963200     0.1725796    0.6891282  
   0.738963100     0.2998963    0.6408299  
   0.740963000     0.4162012    0.5697299  
   0.742962900     0.5168017    0.4782541  
   0.744962800     0.5984752    0.3696574  
   0.746962700     0.6580713    0.2479590  
   0.748962600     0.6935684    0.1180299  
   0.750962500     0.6538835    0.2218554  
   0.752962400     0.6852174    0.0932078  
   0.754962300     0.6925288   -0.0383307  
   0.756962200     0.6758549   -0.1683902  
   0.758962100     0.6362034   -0.2920581  
   0.760962000     0.5754020   -0.4064079  
   0.762961900     0.4993033   -0.5029628  
   0.764961800     0.4170010   -0.5790323  
   0.766961700     0.3237970   -0.6413189  
   0.768961600     0.2220835   -0.6885139  
   0.770961500     0.1146017   -0.7196215  
   0.772961400     0.0036583   -0.7339713  
   0.774961300    -0.1085622   -0.7310603  
   0.776961200    -0.2191780   -0.7108194  
   0.778961100    -0.3258949   -0.6737799  
   0.780961000    -0.4259179   -0.6200090  
   0.782960900    -0.5162250   -0.5510844  
   0.784960800    -0.5953687   -0.4683710  
   0.786960700    -0.6604613   -0.3739041  
   0.788960600    -0.7099797   -0.2703684  
   0.790960500    -0.7424803   -0.1600612  
   0.792960400    -0.7574837   -0.0463172  
   0.794960300    -0.7542214    0.0686802  
   0.796960200    -0.7330821    0.1816347  
   0.798960100    -0.6947879    0.2893609  
   0.800960000    -0.6403205    0.3898729  
   0.802959900    -0.5708757    0.4810989  
   0.804959800    -0.4879374    0.5598088  
   0.806959700    -0.3937494    0.6255592  
   0.808959600    -0.2903060    0.6753080  
   0.810959500    -0.1803912    0.7089332  
   0.812959400    -0.0655946    0.7251334  
   0.814959300     0.0506074    0.7230320  
   0.816959200     0.1656546    0.7026661  
   0.818959100     0.2767730    0.6641403  
   0.820959000     0.3807369    0.6081626  
   0.822958900     0.4751534    0.5358771  
   0.824958800     0.5571569    0.4487187  
   0.826958700     0.6245306    0.3486433  
   0.828958600     0.6749411    0.2382033  
   0.830958500     0.7066008    0.1209462  
   0.832958400     0.7183440   -0.0006815  
   0.834958300     0.7097635   -0.1224851  
   0.836958200     0.6813504   -0.2412037  
   0.838958100     0.6333446   -0.3538076  
   0.840958000     0.5671692   -0.4571399  
   0.842957900     0.4849532   -0.5479327  
   0.844957800     0.3889025   -0.6238184  
   0.846957700     0.2818740   -0.6822171  
   0.848957600     0.1672347   -0.7221589  
   0.850957500     0.0480246   -0.7423541  
   0.852957400    -0.0721254   -0.7430844  
   0.854957300    -0.1901646   -0.7241730  
   0.856957200    -0.3022375   -0.6869605  
   0.858957100    -0.4063525   -0.6326726  
   0.860957000    -0.4995211   -0.5634990  
   0.862956900    -0.5800989   -0.4816394  
   0.864956800    -0.6462160   -0.3894852  
   0.866956700    -0.6968796   -0.2893679  
   0.868956600    -0.7312468   -0.1837531  
   0.870956500    -0.7500449   -0.0747695  
   0.872956400    -0.7518816    0.0355254  
   0.874956300    -0.7376417    0.1444316  
   0.876956200    -0.7072335    0.2502850  
   0.878956100    -0.6617285    0.3505517  
   0.880956000    -0.6017001    0.4433137  
   0.882955900    -0.5283106    0.5264537  
   0.884955800    -0.4429547    0.5979829  
   0.886955700    -0.3475063    0.6564445  
   0.888955600    -0.2438850    0.6998992  
   0.890955500    -0.1343847    0.7275668  
   0.892955400    -0.0210265    0.7382183  
   0.894955300     0.0936870    0.7313941  
