! MS46122B
! 2250307/22442219
! 7/22/2025 7:56:44 AM
! C:\USERS\SPARKY\DOCUMENTS\VNA_DATA\JULY22_2025\3K\PORT4_MOS4_REPEAT1.S1P
! CHANNEL.1
! TR.MEASUREMENT
! RAW.DATA
# GHZ S RI R 50.0
! FREQ.GHZ         S11RE         S11IM         
!; PortSelection: Port_1
   0.001000000     1.0457660   -0.0717439  
   0.002999900     0.9642588   -0.1942231  
   0.004999800     0.9040617   -0.2991941  
   0.006999700     0.8369921   -0.3970543  
   0.008999600     0.7583339   -0.4926355  
   0.010999500     0.6652549   -0.5836600  
   0.012999400     0.5520229   -0.6675332  
   0.014999300     0.4127523   -0.7382538  
   0.016999200     0.2406065   -0.7832856  
   0.018999100     0.0306995   -0.7824543  
   0.020999000    -0.2089784   -0.7014986  
   0.022998900    -0.4410622   -0.4986403  
   0.024998800    -0.5568393   -0.1620909  
   0.026998700    -0.5120701    0.2485014  
   0.028998600    -0.2350608    0.5603306  
   0.030998500     0.1302009    0.6735418  
   0.032998400     0.4235367    0.6035782  
   0.034998300     0.6784052    0.4692755  
   0.036998200     0.8163322    0.2931188  
   0.038998100     0.8884979    0.1190420  
   0.040998000     0.9146224   -0.0412358  
   0.042997900     0.9083890   -0.1842120  
   0.044997800     0.8545675   -0.2841182  
   0.046997700     0.8356685   -0.4199609  
   0.048997600     0.7800009   -0.5153630  
   0.050997500     0.7158805   -0.5973679  
   0.052997400     0.6456783   -0.6677139  
   0.054997300     0.5704532   -0.7270223  
   0.056997200     0.4899091   -0.7776944  
   0.058997100     0.4066268   -0.8181620  
   0.060997000     0.3201370   -0.8499213  
   0.062996900     0.2310546   -0.8720590  
   0.064996800     0.1393949   -0.8846518  
   0.066996700     0.0455589   -0.8877131  
   0.068996600    -0.0495006   -0.8801682  
   0.070996500    -0.1455680   -0.8624635  
   0.072996400    -0.2414744   -0.8317410  
   0.074996300    -0.3361927   -0.7883316  
   0.076996200    -0.4284095   -0.7314400  
   0.078996100    -0.5151988   -0.6596031  
   0.080996000    -0.5955404   -0.5727465  
   0.082995900    -0.6654987   -0.4704720  
   0.084995800    -0.7212870   -0.3528834  
   0.086995700    -0.7607071   -0.2217150  
   0.088995600    -0.7781797   -0.0780778  
   0.090995500    -0.7695365    0.0736975  
   0.092995400    -0.7314383    0.2294719  
   0.094995300    -0.6593499    0.3806781  
   0.096995200    -0.5534180    0.5196928  
   0.098995100    -0.4158727    0.6369008  
   0.100995000    -0.2504155    0.7226920  
   0.102994900    -0.0686720    0.7692237  
   0.104994800     0.1193558    0.7730333  
   0.106994700     0.3015941    0.7333096  
   0.108994600     0.4675607    0.6557401  
   0.110994500     0.6089584    0.5463849  
   0.112994400     0.7196577    0.4142515  
   0.114994300     0.7974200    0.2680176  
   0.116994200     0.8431336    0.1160265  
   0.118994100     0.8583410   -0.0346759  
   0.120994000     0.8482764   -0.1792200  
   0.122993900     0.8136466   -0.3135295  
   0.124993800     0.7596491   -0.4346465  
   0.126993700     0.6903634   -0.5413380  
   0.128993600     0.6078559   -0.6322335  
   0.130993500     0.5170628   -0.7081315  
   0.132993400     0.4191638   -0.7687284  
   0.134993300     0.3168298   -0.8139431  
   0.136993200     0.2112171   -0.8446299  
   0.138993100     0.1042199   -0.8611331  
   0.140993000    -0.0025384   -0.8633571  
   0.142992900    -0.1080163   -0.8517687  
   0.144992800    -0.2112355   -0.8287984  
   0.146992700    -0.3105875   -0.7912051  
   0.148992600    -0.4051755   -0.7410137  
   0.150992500    -0.4919508   -0.6774567  
   0.152992400    -0.5722254   -0.6031878  
   0.154992300    -0.6428789   -0.5177466  
   0.156992200    -0.7028458   -0.4213993  
   0.158992100    -0.7499268   -0.3153050  
   0.160992000    -0.7825466   -0.2006205  
   0.162991900    -0.7986898   -0.0791942  
   0.164991800    -0.7963477    0.0468678  
   0.166991700    -0.7742510    0.1748991  
   0.168991600    -0.7309220    0.3016119  
   0.170991500    -0.6650829    0.4232001  
   0.172991400    -0.5775332    0.5353370  
   0.174991300    -0.4691164    0.6332593  
   0.176991200    -0.3416590    0.7123995  
   0.178991100    -0.1986006    0.7680925  
   0.180991000    -0.0451936    0.7976409  
   0.182990900     0.1129416    0.7969663  
   0.184990800     0.2699338    0.7657540  
   0.186990700     0.4183983    0.7049621  
   0.188990600     0.5328991    0.6316234  
   0.190990500     0.6618429    0.5083417  
   0.192990400     0.7529706    0.3766333  
   0.194990300     0.8156407    0.2358175  
   0.196990200     0.8504159    0.0894353  
   0.198990100     0.8583837   -0.0577370  
   0.200990000     0.8407443   -0.2004349  
   0.202989900     0.7998829   -0.3346505  
   0.204989800     0.7392177   -0.4569758  
   0.206989700     0.6623573   -0.5649813  
   0.208989600     0.5712672   -0.6565607  
   0.210989500     0.4693280   -0.7313973  
   0.212989400     0.3594392   -0.7886350  
   0.214989300     0.2443585   -0.8283697  
   0.216989200     0.1275669   -0.8503565  
   0.218989100     0.0106727   -0.8555036  
   0.220989000    -0.1048313   -0.8441064  
   0.222988900    -0.2168035   -0.8162777  
   0.224988800    -0.3236454   -0.7736071  
   0.226988700    -0.4230271   -0.7166690  
   0.228988600    -0.5131701   -0.6466905  
   0.230988500    -0.5930044   -0.5642072  
   0.232988400    -0.6600131   -0.4698206  
   0.234988300    -0.7147620   -0.3656638  
   0.236988200    -0.7541640   -0.2532118  
   0.238988100    -0.7766829   -0.1342873  
   0.240988000    -0.7815300   -0.0114872  
   0.242987900    -0.7667278    0.1125349  
   0.244987800    -0.7323160    0.2355379  
   0.246987700    -0.6770852    0.3540967  
   0.248987600    -0.6013144    0.4649145  
   0.250987500    -0.5052771    0.5636356  
   0.252987400    -0.3917254    0.6457787  
   0.254987300    -0.2636212    0.7074304  
   0.256987200    -0.1242533    0.7459567  
   0.258987100     0.0222372    0.7602194  
   0.260987000     0.1705561    0.7455753  
   0.262986900     0.3152641    0.7031394  
   0.264986800     0.4496258    0.6338214  
   0.266986700     0.5687791    0.5406844  
   0.268986600     0.6677551    0.4275652  
   0.270986500     0.7429109    0.2994216  
   0.272986400     0.7926736    0.1616309  
   0.274986300     0.8163495    0.0194686  
   0.276986200     0.8145587   -0.1221123  
   0.278986100     0.7885919   -0.2587408  
   0.280986000     0.7402502   -0.3861728  
   0.282985900     0.6733012   -0.5014040  
   0.284985800     0.5901576   -0.6018039  
   0.286985700     0.4948975   -0.6853068  
   0.288985600     0.3907259   -0.7514964  
   0.290985500     0.2806617   -0.7998390  
   0.292985400     0.1672991   -0.8307500  
   0.294985300     0.0528640   -0.8448156  
   0.296985200    -0.0613713   -0.8429830  
   0.298985100    -0.1731104   -0.8251143  
   0.300985000    -0.2806787   -0.7921508  
   0.302984900    -0.3815289   -0.7453445  
   0.304984800    -0.4743734   -0.6855389  
   0.306984700    -0.5582643   -0.6145110  
   0.308984600    -0.6312292   -0.5331138  
   0.310984500    -0.6927751   -0.4428933  
   0.312984400    -0.7419330   -0.3442540  
   0.314984300    -0.7775792   -0.2379985  
   0.316984200    -0.7984283   -0.1265696  
   0.318984100    -0.8030363   -0.0100299  
   0.320984000    -0.7892519    0.1089405  
   0.322983900    -0.7559316    0.2271097  
   0.324983800    -0.7022504    0.3393412  
   0.326983700    -0.6289274    0.4411439  
   0.328983600    -0.5389647    0.5283618  
   0.330983500    -0.4368127    0.5972276  
   0.332983400    -0.3285495    0.6468513  
   0.334983300    -0.2165187    0.6794909  
   0.336983200    -0.1029443    0.6961811  
   0.338983100     0.0116817    0.6978147  
   0.340983000     0.1266269    0.6835728  
   0.342982900     0.2402938    0.6526437  
   0.344982800     0.3503929    0.6037831  
   0.346982700     0.4543071    0.5360504  
   0.348982600     0.5460160    0.4499488  
   0.350982500     0.6240061    0.3480265  
   0.352982400     0.6840401    0.2328247  
   0.354982300     0.7240386    0.1028091  
   0.356982200     0.7389264   -0.0459979  
   0.358982100     0.7236349   -0.1948729  
   0.360982000     0.6791116   -0.3373640  
   0.362981900     0.6074567   -0.4682023  
   0.364981800     0.5115597   -0.5820383  
   0.366981700     0.3959033   -0.6742773  
   0.368981600     0.2652183   -0.7419500  
   0.370981500     0.1248859   -0.7829871  
   0.372981400    -0.0193508   -0.7964641  
   0.374981300    -0.1626041   -0.7826802  
   0.376981200    -0.0412199   -0.7966520  
   0.378981100    -0.1819303   -0.7785941  
   0.380981000    -0.3161453   -0.7355883  
   0.382980900    -0.4283446   -0.6764120  
   0.384980800    -0.5240711   -0.6042351  
   0.386980700    -0.6072524   -0.5187073  
   0.388980600    -0.6763007   -0.4216312  
   0.390980500    -0.7295709   -0.3164973  
   0.392980400    -0.7662696   -0.2051494  
   0.394980300    -0.7859058   -0.0897363  
   0.396980200    -0.7881910    0.0272474  
   0.398980100    -0.7730128    0.1438806  
   0.400980000    -0.7407243    0.2580165  
   0.402979900    -0.6909500    0.3666366  
   0.404979800    -0.6252102    0.4671873  
   0.406979700    -0.5438590    0.5577293  
   0.408979600    -0.4489700    0.6354892  
   0.410979500    -0.3409989    0.6985503  
   0.412979400    -0.2224643    0.7448893  
   0.414979300    -0.0961914    0.7704221  
   0.416979200     0.0339792    0.7765493  
   0.418979100     0.1646469    0.7610859  
   0.420979000     0.2926889    0.7238300  
   0.422978900     0.4138445    0.6649168  
   0.424978800     0.5241842    0.5852002  
   0.426978700     0.6201938    0.4872370  
   0.428978600     0.6979512    0.3735735  
   0.430978500     0.7547524    0.2484286  
   0.432978400     0.7890116    0.1155759  
   0.434978300     0.8010886   -0.0207841  
   0.436978200     0.7882710   -0.1565076  
   0.438978100     0.7526575   -0.2873636  
   0.440978000     0.6958492   -0.4091086  
   0.442977900     0.6199229   -0.5186090  
   0.444977800     0.5274736   -0.6128556  
   0.446977700     0.4222791   -0.6895659  
   0.448977600     0.3071000   -0.7475510  
   0.450977500     0.1857047   -0.7850825  
   0.452977400     0.0605207   -0.8025541  
   0.454977300    -0.0647701   -0.7998109  
   0.456977200    -0.1875334   -0.7776262  
   0.458977100    -0.3039659   -0.7365869  
   0.460977000    -0.4116539   -0.6780652  
   0.462976900    -0.5079570   -0.6047434  
   0.464976800    -0.5915293   -0.5174974  
   0.466976700    -0.6600659   -0.4192156  
   0.468976600    -0.7128236   -0.3117820  
   0.470976500    -0.7482865   -0.1975815  
   0.472976400    -0.7659174   -0.0790812  
   0.474976300    -0.7649435    0.0410782  
   0.476976200    -0.7451576    0.1597835  
   0.478976100    -0.7068269    0.2743146  
   0.480976000    -0.6510595    0.3817992  
   0.482975900    -0.5783761    0.4797666  
   0.484975800    -0.4903143    0.5658873  
   0.486975700    -0.3884437    0.6368554  
   0.488975600    -0.2750597    0.6909752  
   0.490975500    -0.1529094    0.7256468  
   0.492975400    -0.0253794    0.7394412  
   0.494975300     0.1035417    0.7308394  
   0.496975200     0.2296139    0.6997499  
   0.498975100     0.3484836    0.6469440  
   0.500975000     0.4560903    0.5740216  
   0.502974900     0.5483605    0.4836249  
   0.504974800     0.6227519    0.3787434  
   0.506974700     0.6768461    0.2637297  
   0.508974600     0.7096921    0.1418129  
   0.510974500     0.7205045    0.0187150  
   0.512974400     0.7106494   -0.1020291  
   0.514974300     0.6808384   -0.2150549  
   0.516974200     0.6361132   -0.3200399  
   0.518974100     0.5777406   -0.4143287  
   0.520974000     0.5080727   -0.4970410  
   0.522973900     0.4290392   -0.5677980  
   0.524973800     0.3431122   -0.6263034  
   0.526973700     0.2498602   -0.6730670  
   0.528973600     0.1517667   -0.7068294  
   0.530973500     0.0490177   -0.7276002  
   0.532973400    -0.0568285   -0.7339521  
   0.534973300    -0.1636114   -0.7251822  
   0.536973200    -0.2704819   -0.7002888  
   0.538973100    -0.3733236   -0.6586285  
   0.540973000    -0.4694300   -0.6014656  
   0.542972900    -0.5569641   -0.5283607  
   0.544972800    -0.6330514   -0.4417067  
   0.546972700    -0.6946922   -0.3423263  
   0.548972600    -0.7401395   -0.2333187  
   0.550972500    -0.7674916   -0.1172442  
   0.552972400    -0.7760021    0.0025057  
   0.554972300    -0.7647896    0.1228793  
   0.556972200    -0.7338492    0.2405945  
   0.558972100    -0.6840399    0.3523925  
   0.560972000    -0.6169074    0.4548686  
   0.562971900    -0.5337546    0.5453275  
   0.564971800    -0.4365748    0.6215979  
   0.566971700    -0.3280497    0.6814384  
   0.568971600    -0.2109269    0.7230638  
   0.570971500    -0.0878415    0.7451920  
   0.572971400     0.0384875    0.7469416  
   0.574971300     0.1644564    0.7278021  
   0.576971200     0.2866390    0.6873130  
   0.578971100     0.4012552    0.6264974  
   0.580971000     0.5045406    0.5466150  
   0.582970900     0.5930704    0.4500193  
   0.584970800     0.6636418    0.3397150  
   0.586970700     0.7142221    0.2189480  
   0.588970600     0.7437650    0.0908035  
   0.590970500     0.7507290   -0.0402422  
   0.592970400     0.7354140   -0.1701430  
   0.594970300     0.6977710   -0.2952426  
   0.596970200     0.6398392   -0.4119255  
   0.598970100     0.5634361   -0.5160451  
   0.600970000     0.4706868   -0.6058659  
   0.602969900     0.3653015   -0.6779788  
   0.604969800     0.2497136   -0.7311522  
   0.606969700     0.1280399   -0.7641702  
   0.608969600     0.0031243   -0.7768742  
   0.610969500    -0.1207088   -0.7694365  
   0.612969400    -0.2407724   -0.7419065  
   0.614969300    -0.3536866   -0.6962071  
   0.616969200    -0.4565589   -0.6340010  
   0.618969100    -0.5473188   -0.5578185  
   0.620969000    -0.6246418   -0.4693578  
   0.622968900    -0.6874356   -0.3706690  
   0.624968800    -0.7343402   -0.2641006  
   0.626968700    -0.7648226   -0.1516427  
   0.628968600    -0.7782186   -0.0360709  
   0.630968500    -0.7739232    0.0804952  
   0.632968400    -0.7522393    0.1949100  
   0.634968300    -0.7137156    0.3052110  
   0.636968200    -0.6583843    0.4090150  
   0.638968100    -0.5880433    0.5039480  
   0.640968000    -0.5033211    0.5870740  
   0.642967900    -0.4061459    0.6573995  
   0.644967800    -0.2984600    0.7123567  
   0.646967700    -0.1826721    0.7498932  
   0.648967600    -0.0616367    0.7690626  
   0.650967500     0.0618268    0.7692415  
   0.652967400     0.1847956    0.7493929  
   0.654967300     0.3035584    0.7100934  
   0.656967200     0.4157149    0.6511669  
   0.658967100     0.5173587    0.5745621  
   0.660967000     0.6059645    0.4812578  
   0.662966900     0.6786006    0.3735474  
   0.664966800     0.7327253    0.2537479  
   0.666966700     0.7660448    0.1260447  
   0.668966600     0.7773970   -0.0058109  
   0.670966500     0.7662937   -0.1378407  
   0.672966400     0.7339203   -0.2657343  
   0.674966300     0.6795380   -0.3857882  
   0.676966200     0.6061001   -0.4939285  
   0.678966100     0.5168855   -0.5872747  
   0.680966000     0.4137818   -0.6639004  
   0.682965900     0.3008771   -0.7215938  
   0.684965800     0.1816267   -0.7599852  
   0.686965700     0.0583428   -0.7781201  
   0.688965600    -0.0647467   -0.7767174  
   0.690965500    -0.1838843   -0.7544847  
   0.692965400    -0.2973894   -0.7156823  
   0.694965300    -0.4021577   -0.6603239  
   0.696965200    -0.4964015   -0.5901776  
   0.698965100    -0.5779451   -0.5071458  
   0.700965000    -0.6458015   -0.4131534  
   0.702964900    -0.6982909   -0.3105752  
   0.704964800    -0.7347671   -0.2015397  
   0.706964700    -0.7540848   -0.0883982  
   0.708964600    -0.7562713    0.0264540  
   0.710964500    -0.7415074    0.1409387  
   0.712964400    -0.7085920    0.2519115  
   0.714964300    -0.6589646    0.3569503  
   0.716964200    -0.5936296    0.4530681  
   0.718964100    -0.5136880    0.5381585  
   0.720964000    -0.4213034    0.6100788  
   0.722963900    -0.3183123    0.6669172  
   0.724963800    -0.2069223    0.7067147  
   0.726963700    -0.0898536    0.7282668  
   0.728963600     0.0299928    0.7300915  
   0.730963500     0.1490255    0.7123028  
   0.732963400     0.2636444    0.6750970  
   0.734963300     0.3712649    0.6193122  
   0.736963200     0.4819150    0.5345954  
   0.738963100     0.5749679    0.4301733  
   0.740963000     0.6462039    0.3105510  
   0.742962900     0.6934219    0.1800898  
   0.744962800     0.7151389    0.0441752  
   0.746962700     0.7111882   -0.0922589  
   0.748962600     0.6822903   -0.2245438  
   0.750962500     0.6953576   -0.1173330  
   0.752962400     0.6634933   -0.2468912  
   0.754962300     0.6091007   -0.3675956  
   0.756962200     0.5346611   -0.4754132  
   0.758962100     0.4425479   -0.5681260  
   0.760962000     0.3358619   -0.6424599  
   0.762961900     0.2238721   -0.6947277  
   0.764961800     0.1149872   -0.7256726  
   0.766961700     0.0029337   -0.7397596  
   0.768961600    -0.1103270   -0.7364744  
   0.770961500    -0.2220565   -0.7161855  
   0.772961400    -0.3294806   -0.6787565  
   0.774961300    -0.4296832   -0.6253141  
   0.776961200    -0.5213290   -0.5564701  
   0.778961100    -0.6011158   -0.4740853  
   0.780961000    -0.6672839   -0.3796495  
   0.782960900    -0.7181693   -0.2757438  
   0.784960800    -0.7521049   -0.1642146  
   0.786960700    -0.7678546   -0.0484143  
   0.788960600    -0.7654112    0.0688651  
   0.790960500    -0.7440863    0.1841368  
   0.792960400    -0.7050638    0.2947901  
   0.794960300    -0.6489601    0.3980799  
   0.796960200    -0.5774708    0.4914493  
   0.798960100    -0.4920301    0.5719524  
   0.800960000    -0.3951107    0.6384470  
   0.802959900    -0.2886673    0.6888658  
   0.804959800    -0.1754156    0.7223234  
   0.806959700    -0.0582475    0.7373937  
   0.808959600     0.0603665    0.7335536  
   0.810959500     0.1773157    0.7114531  
   0.812959400     0.2897415    0.6705725  
   0.814959300     0.3949681    0.6118478  
   0.816959200     0.4897065    0.5370048  
   0.818959100     0.5715315    0.4471854  
   0.820959000     0.6382590    0.3445137  
   0.822958900     0.6874456    0.2321035  
   0.824958800     0.7177120    0.1122428  
   0.826958700     0.7280704   -0.0113918  
   0.828958600     0.7174298   -0.1350368  
   0.830958500     0.6864645   -0.2557567  
   0.832958400     0.6356586   -0.3693528  
   0.834958300     0.5670009   -0.4727896  
   0.836958200     0.4823220   -0.5636432  
   0.838958100     0.3839774   -0.6385825  
   0.840958000     0.2748270   -0.6961986  
   0.842957900     0.1582638   -0.7349669  
   0.844957800     0.0371995   -0.7538172  
   0.846957700    -0.0843958   -0.7530537  
   0.848957600    -0.2037120   -0.7324903  
   0.850957500    -0.3173947   -0.6932746  
   0.852957400    -0.4226484   -0.6369063  
   0.854957300    -0.5169883   -0.5648966  
   0.856957200    -0.5984273   -0.4797040  
   0.858957100    -0.6647568   -0.3837000  
   0.860957000    -0.7152203   -0.2795938  
   0.862956900    -0.7489741   -0.1699739  
   0.864956800    -0.7655609   -0.0578417  
   0.866956700    -0.7648169    0.0544874  
   0.868956600    -0.7475489    0.1653637  
   0.870956500    -0.7143633    0.2717508  
   0.872956400    -0.6657501    0.3725450  
   0.874956300    -0.6030767    0.4647020  
   0.876956200    -0.5266109    0.5474464  
   0.878956100    -0.4383175    0.6187303  
   0.880956000    -0.3399615    0.6759465  
   0.882955900    -0.2328267    0.7181656  
   0.884955800    -0.1200760    0.7438713  
   0.886955700    -0.0037026    0.7519336  
   0.888955600     0.1138268    0.7418137  
   0.890955500     0.2290746    0.7133185  
   0.892955400     0.3393070    0.6667048  
   0.894955300     0.4414953    0.6028177  
