! MS46122B
! 2250307/22442219
! 7/24/2025 7:46:04 AM
! C:\USERS\SPARKY\DOCUMENTS\VNA_DATA\JULY24_2025\3K\PORT1_MOS5_REPEAT1.S1P
! CHANNEL.1
! TR.MEASUREMENT
! RAW.DATA
# GHZ S RI R 50.0
! FREQ.GHZ         S11RE         S11IM         
!; PortSelection: Port_1
   0.001000000     1.0454870   -0.0719796  
   0.002999900     0.9639167   -0.1944304  
   0.004999800     0.9036360   -0.2993993  
   0.006999700     0.8363991   -0.3970819  
   0.008999600     0.7575869   -0.4926295  
   0.010999500     0.6642924   -0.5835783  
   0.012999400     0.5506465   -0.6673532  
   0.014999300     0.4104190   -0.7377729  
   0.016999200     0.2373620   -0.7819024  
   0.018999100     0.0261197   -0.7792663  
   0.020999000    -0.2145998   -0.6945570  
   0.022998900    -0.4451798   -0.4854040  
   0.024998800    -0.5541604   -0.1426893  
   0.026998700    -0.4956116    0.2685523  
   0.028998600    -0.2068843    0.5703266  
   0.030998500     0.1600852    0.6692099  
   0.032998400     0.4467872    0.5894438  
   0.034998300     0.6940268    0.4492269  
   0.036998200     0.8251448    0.2716693  
   0.038998100     0.8914999    0.0982553  
   0.040998000     0.9136285   -0.0608365  
   0.042997900     0.9041760   -0.2019783  
   0.044997800     0.8483772   -0.2995212  
   0.046997700     0.8272853   -0.4341217  
   0.048997600     0.7700773   -0.5277066  
   0.050997500     0.7048814   -0.6080304  
   0.052997400     0.6336744   -0.6768922  
   0.054997300     0.5574679   -0.7347425  
   0.056997200     0.4761008   -0.7838534  
   0.058997100     0.3920201   -0.8228793  
   0.060997000     0.3048753   -0.8530215  
   0.062996900     0.2150481   -0.8735182  
   0.064996800     0.1226547   -0.8843542  
   0.066996700     0.0283774   -0.8854371  
   0.068996600    -0.0671311   -0.8757807  
   0.070996500    -0.1637931   -0.8556312  
   0.072996400    -0.2597387   -0.8220918  
   0.074996300    -0.3542068   -0.7759567  
   0.076996200    -0.4459192   -0.7156524  
   0.078996100    -0.5316033   -0.6402463  
   0.080996000    -0.6102199   -0.5494675  
   0.082995900    -0.6776076   -0.4430375  
   0.084995800    -0.7297109   -0.3214274  
   0.086995700    -0.7640982   -0.1862207  
   0.088995600    -0.7753027   -0.0394276  
   0.090995500    -0.7586561    0.1145539  
   0.092995400    -0.7115676    0.2706230  
   0.094995300    -0.6292709    0.4204449  
   0.096995200    -0.5131162    0.5542526  
   0.098995100    -0.3661591    0.6634890  
   0.100995000    -0.1933306    0.7383566  
   0.102994900    -0.0075707    0.7715424  
   0.104994800     0.1809836    0.7612092  
   0.106994700     0.3598288    0.7077299  
   0.108994600     0.5189536    0.6183168  
   0.110994500     0.6504153    0.4991902  
   0.112994400     0.7499438    0.3603674  
   0.114994300     0.8162044    0.2104740  
   0.116994200     0.8502059    0.0576981  
   0.118994100     0.8547001   -0.0917838  
   0.120994000     0.8354937   -0.2334411  
   0.122993900     0.7927059   -0.3631961  
   0.124993800     0.7318644   -0.4789163  
   0.126993700     0.6569480   -0.5803186  
   0.128993600     0.5699036   -0.6646445  
   0.130993500     0.4757437   -0.7343693  
   0.132993400     0.3753375   -0.7885280  
   0.134993300     0.2709319   -0.8278046  
   0.136993200     0.1645530   -0.8522183  
   0.138993100     0.0570584   -0.8623988  
   0.140993000    -0.0496163   -0.8586378  
   0.142992900    -0.1544738   -0.8409930  
   0.144992800    -0.2564557   -0.8119457  
   0.146992700    -0.3542205   -0.7682054  
   0.148992600    -0.4460791   -0.7120339  
   0.150992500    -0.5297570   -0.6425759  
   0.152992400    -0.6060238   -0.5624976  
   0.154992300    -0.6718149   -0.4714059  
   0.156992200    -0.7258532   -0.3693368  
   0.158992100    -0.7660140   -0.2587707  
   0.160992000    -0.7907959   -0.1399529  
   0.162991900    -0.7977746   -0.0152390  
   0.164991800    -0.7853056    0.1131848  
   0.166991700    -0.7518601    0.2415517  
   0.168991600    -0.6965166    0.3666358  
   0.170991500    -0.6180270    0.4845755  
   0.172991400    -0.5182515    0.5902215  
   0.174991300    -0.3981118    0.6783593  
   0.176991200    -0.2604647    0.7454252  
   0.178991100    -0.1095199    0.7861031  
   0.180991000     0.0484652    0.7988491  
   0.182990900     0.2074427    0.7799184  
   0.184990800     0.3610625    0.7300847  
   0.186990700     0.5021346    0.6518388  
   0.188990600     0.6074075    0.5651593  
   0.190990500     0.7206873    0.4268999  
   0.192990400     0.7950976    0.2858198  
   0.194990300     0.8403494    0.1391800  
   0.196990200     0.8571681   -0.0089683  
   0.198990100     0.8477756   -0.1546644  
   0.200990000     0.8137909   -0.2928585  
   0.202989900     0.7587045   -0.4199248  
   0.204989800     0.6851290   -0.5328247  
   0.206989700     0.5980062   -0.6307877  
   0.208989600     0.4983757   -0.7105986  
   0.210989500     0.3900520   -0.7732632  
   0.212989400     0.2752047   -0.8180219  
   0.214989300     0.1578948   -0.8447030  
   0.216989200     0.0395946   -0.8542479  
   0.218989100    -0.0765007   -0.8465488  
   0.220989000    -0.1899198   -0.8229018  
   0.222988900    -0.2985282   -0.7832361  
   0.224988800    -0.4005312   -0.7289187  
   0.226988700    -0.4936497   -0.6610700  
   0.228988600    -0.5763704   -0.5805182  
   0.230988500    -0.6472068   -0.4886087  
   0.232988400    -0.7036440   -0.3852980  
   0.234988300    -0.7463492   -0.2738755  
   0.236988200    -0.7722248   -0.1548944  
   0.238988100    -0.7801738   -0.0316793  
   0.240988000    -0.7687313    0.0935272  
   0.242987900    -0.7370430    0.2175315  
   0.244987800    -0.6846237    0.3375478  
   0.246987700    -0.6112188    0.4500468  
   0.248987600    -0.5177732    0.5513545  
   0.250987500    -0.4051251    0.6364141  
   0.252987400    -0.2770985    0.7015519  
   0.254987300    -0.1376329    0.7431265  
   0.256987200     0.0090845    0.7588487  
   0.258987100     0.1583358    0.7480802  
   0.260987000     0.3042039    0.7079439  
   0.262986900     0.4408950    0.6405173  
   0.264986800     0.5622182    0.5481944  
   0.266986700     0.6636924    0.4352670  
   0.268986600     0.7411318    0.3066979  
   0.270986500     0.7926514    0.1681771  
   0.272986400     0.8176270    0.0251133  
   0.274986300     0.8169178   -0.1174284  
   0.276986200     0.7916929   -0.2550207  
   0.278986100     0.7437574   -0.3833467  
   0.280986000     0.6768941   -0.4998661  
   0.282985900     0.5937401   -0.6010814  
   0.284985800     0.4976154   -0.6858665  
   0.286985700     0.3920161   -0.7530824  
   0.288985600     0.2807745   -0.8018970  
   0.290985500     0.1662054   -0.8329238  
   0.292985400     0.0508453   -0.8466996  
   0.294985300    -0.0636000   -0.8444784  
   0.296985200    -0.1756793   -0.8261666  
   0.298985100    -0.2836123   -0.7926175  
   0.300985000    -0.3855388   -0.7446320  
   0.302984900    -0.4790241   -0.6835583  
   0.304984800    -0.5634669   -0.6108286  
   0.306984700    -0.6368683   -0.5270988  
   0.308984600    -0.6980742   -0.4343782  
   0.310984500    -0.7463476   -0.3338157  
   0.312984400    -0.7805564   -0.2258215  
   0.314984300    -0.7995184   -0.1124611  
   0.316984200    -0.8015596    0.0049553  
   0.318984100    -0.7851251    0.1245753  
   0.320984000    -0.7486253    0.2432242  
   0.322983900    -0.6911528    0.3561237  
   0.324983800    -0.6133599    0.4579223  
   0.326983700    -0.5182944    0.5436301  
   0.328983600    -0.4102815    0.6096278  
   0.330983500    -0.2965727    0.6540631  
   0.332983400    -0.1816338    0.6792485  
   0.334983300    -0.0678544    0.6878630  
   0.336983200     0.0447699    0.6822193  
   0.338983100     0.1558961    0.6620493  
   0.340983000     0.2650670    0.6266677  
   0.342982900     0.3702235    0.5749766  
   0.344982800     0.4690115    0.5055025  
   0.346982700     0.5575142    0.4181258  
   0.348982600     0.6304296    0.3145958  
   0.350982500     0.6861277    0.1985109  
   0.352982400     0.7208500    0.0726628  
   0.354982300     0.7320603   -0.0633814  
   0.356982200     0.7142113   -0.2124363  
   0.358982100     0.6667315   -0.3546023  
   0.360982000     0.5920179   -0.4840566  
   0.362981900     0.4932905   -0.5956742  
   0.364981800     0.3747633   -0.6853887  
   0.366981700     0.2418784   -0.7498430  
   0.368981600     0.1000867   -0.7866961  
   0.370981500    -0.0450752   -0.7958883  
   0.372981400    -0.1878449   -0.7776399  
   0.374981300    -0.3241235   -0.7328992  
   0.376981200    -0.2070722   -0.7735103  
   0.378981100    -0.3403688   -0.7261723  
   0.380981000    -0.4623697   -0.6553773  
   0.382980900    -0.5596079   -0.5734340  
   0.384980800    -0.6380910   -0.4824554  
   0.386980700    -0.7019579   -0.3807287  
   0.388980600    -0.7493198   -0.2703696  
   0.390980500    -0.7791609   -0.1548017  
   0.392980400    -0.7913911   -0.0364146  
   0.394980300    -0.7855918    0.0819384  
   0.396980200    -0.7619326    0.1994041  
   0.398980100    -0.7209052    0.3125372  
   0.400980000    -0.6624146    0.4186563  
   0.402979900    -0.5875348    0.5162033  
   0.404979800    -0.4979049    0.6015462  
   0.406979700    -0.3948870    0.6729456  
   0.408979600    -0.2802107    0.7275853  
   0.410979500    -0.1563038    0.7641101  
   0.412979400    -0.0258298    0.7800571  
   0.414979300     0.1070232    0.7731633  
   0.416979200     0.2386492    0.7451732  
   0.418979100     0.3646453    0.6946949  
   0.420979000     0.4815951    0.6228305  
   0.422978900     0.5852747    0.5309449  
   0.424978800     0.6718562    0.4218201  
   0.426978700     0.7382997    0.2984745  
   0.428978600     0.7820775    0.1654085  
   0.430978500     0.8017684    0.0272196  
   0.432978400     0.7969787   -0.1112090  
   0.434978300     0.7697894   -0.2464841  
   0.436978200     0.7185482   -0.3735882  
   0.438978100     0.6470834   -0.4887645  
   0.440978000     0.5579817   -0.5896838  
   0.442977900     0.4543636   -0.6729964  
   0.444977800     0.3397878   -0.7368985  
   0.446977700     0.2178228   -0.7805016  
   0.448977600     0.0919413   -0.8033175  
   0.450977500    -0.0346148   -0.8055962  
   0.452977400    -0.1588810   -0.7876962  
   0.454977300    -0.2781419   -0.7508091  
   0.456977200    -0.3894472   -0.6958097  
   0.458977100    -0.4904604   -0.6242236  
   0.460977000    -0.5778664   -0.5385184  
   0.462976900    -0.6506348   -0.4409245  
   0.464976800    -0.7075422   -0.3335951  
   0.466976700    -0.7466795   -0.2187122  
   0.468976600    -0.7677480   -0.0993737  
   0.470976500    -0.7699731    0.0223711  
   0.472976400    -0.7532624    0.1433575  
   0.474976300    -0.7168508    0.2608107  
   0.476976200    -0.6624994    0.3715803  
   0.478976100    -0.5904818    0.4730215  
   0.480976000    -0.5028687    0.5617900  
   0.482975900    -0.4010472    0.6357506  
   0.484975800    -0.2873448    0.6925566  
   0.486975700    -0.1643841    0.7299047  
   0.488975600    -0.0358110    0.7463128  
   0.490975500     0.0948641    0.7401676  
   0.492975400     0.2237676    0.7110284  
   0.494975300     0.3458147    0.6597437  
   0.496975200     0.4572825    0.5871129  
   0.498975100     0.5535315    0.4962494  
   0.500975000     0.6314554    0.3903072  
   0.502974900     0.6890525    0.2730562  
   0.504974800     0.7245480    0.1488658  
   0.506974700     0.7374011    0.0220614  
   0.508974600     0.7282893   -0.1035108  
   0.510974500     0.6986056   -0.2232772  
   0.512974400     0.6507831   -0.3335930  
   0.514974300     0.5867360   -0.4309706  
   0.516974200     0.5116800   -0.5162389  
   0.518974100     0.4270203   -0.5875334  
   0.520974000     0.3354164   -0.6449791  
   0.522973900     0.2381697   -0.6886762  
   0.524973800     0.1369489   -0.7184153  
   0.526973700     0.0325000   -0.7348394  
   0.528973600    -0.0735272   -0.7369041  
   0.530973500    -0.1803765   -0.7247188  
   0.532973400    -0.2856172   -0.6965911  
   0.534973300    -0.3872621   -0.6525684  
   0.536973200    -0.4832387   -0.5929710  
   0.538973100    -0.5695135   -0.5179973  
   0.540973000    -0.6441331   -0.4294226  
   0.542972900    -0.7041349   -0.3287836  
   0.544972800    -0.7475710   -0.2183426  
   0.546972700    -0.7730108   -0.1008049  
   0.548972600    -0.7789835    0.0204115  
   0.550972500    -0.7649660    0.1419492  
   0.552972400    -0.7308154    0.2604562  
   0.554972300    -0.6775153    0.3723084  
   0.556972200    -0.6062453    0.4746647  
   0.558972100    -0.5186937    0.5644181  
   0.560972000    -0.4171604    0.6388338  
   0.562971900    -0.3044498    0.6959749  
   0.564971800    -0.1836264    0.7339574  
   0.566971700    -0.0577447    0.7515471  
   0.568971600     0.0702069    0.7481846  
   0.570971500     0.1963912    0.7238104  
   0.572971400     0.3176245    0.6781678  
   0.574971300     0.4302124    0.6121946  
   0.576971200     0.5314624    0.5273527  
   0.578971100     0.6169411    0.4258187  
   0.580971000     0.6837645    0.3107768  
   0.582970900     0.7297013    0.1857245  
   0.584970800     0.7536083    0.0548464  
   0.586970700     0.7544916   -0.0776461  
   0.588970600     0.7329376   -0.2082507  
   0.590970500     0.6892846   -0.3326054  
   0.592970400     0.6250765   -0.4474044  
   0.594970300     0.5431393   -0.5486532  
   0.596970200     0.4456809   -0.6344995  
   0.598970100     0.3362782   -0.7019792  
   0.600970000     0.2177873   -0.7499642  
   0.602969900     0.0940567   -0.7774687  
   0.604969800    -0.0315794   -0.7845594  
   0.606969700    -0.1556612   -0.7716261  
   0.608969600    -0.2754017   -0.7385867  
   0.610969500    -0.3873810   -0.6876389  
   0.612969400    -0.4889100   -0.6201079  
   0.614969300    -0.5777208   -0.5385237  
   0.616969200    -0.6520847   -0.4451032  
   0.618969100    -0.7105784   -0.3423835  
   0.620969000    -0.7529614   -0.2326567  
   0.622968900    -0.7782987   -0.1182350  
   0.624968800    -0.7864245   -0.0013061  
   0.626968700    -0.7767696    0.1157999  
   0.628968600    -0.7496412    0.2304285  
   0.630968500    -0.7055764    0.3401447  
   0.632968400    -0.6448255    0.4425270  
   0.634968300    -0.5691072    0.5351030  
   0.636968200    -0.4796226    0.6157930  
   0.638968100    -0.3777623    0.6822771  
   0.640968000    -0.2659486    0.7326375  
   0.642967900    -0.1462622    0.7650774  
   0.644967800    -0.0222011    0.7783651  
   0.646967700     0.1039684    0.7718800  
   0.648967600     0.2283171    0.7448480  
   0.650967500     0.3471915    0.6978040  
   0.652967400     0.4573828    0.6317732  
   0.654967300     0.5562133    0.5477713  
   0.656967200     0.6402218    0.4483360  
   0.658967100     0.7067916    0.3353213  
   0.660967000     0.7538286    0.2118372  
   0.662966900     0.7795790    0.0816037  
   0.664966800     0.7830814   -0.0520660  
   0.666966700     0.7637197   -0.1847186  
   0.668966600     0.7219306   -0.3116707  
   0.670966500     0.6593322   -0.4295402  
   0.672966400     0.5795879   -0.5352718  
   0.674966300     0.4826461   -0.6239888  
   0.676966200     0.3736391   -0.6946132  
   0.678966100     0.2556592   -0.7455587  
   0.680966000     0.1325778   -0.7760491  
   0.682965900     0.0075252   -0.7859723  
   0.684965800    -0.1160643   -0.7761297  
   0.686965700    -0.2350571   -0.7467667  
   0.688965600    -0.3470564   -0.6997136  
   0.690965500    -0.4483864   -0.6355590  
   0.692965400    -0.5386627   -0.5580980  
   0.694965300    -0.6149956   -0.4687316  
   0.696965200    -0.6764916   -0.3696498  
   0.698965100    -0.7222108   -0.2626356  
   0.700965000    -0.7510800   -0.1501470  
   0.702964900    -0.7624694   -0.0348580  
   0.704964800    -0.7566383    0.0810734  
   0.706964700    -0.7329799    0.1949388  
   0.708964600    -0.6916374    0.3044862  
   0.710964500    -0.6343899    0.4073444  
   0.712964400    -0.5606725    0.5003583  
   0.714964300    -0.4727152    0.5809135  
   0.716964200    -0.3726653    0.6468930  
   0.718964100    -0.2629014    0.6961502  
   0.720964000    -0.1462475    0.7272846  
   0.722963900    -0.0255277    0.7392973  
   0.724963800     0.0965191    0.7312135  
   0.726963700     0.2157723    0.7029567  
   0.728963600     0.3290513    0.6551009  
   0.730963500     0.4327604    0.5880314  
   0.732963400     0.5236753    0.5051585  
   0.734963300     0.6000540    0.4081714  
   0.736963200     0.6667431    0.2840787  
   0.738963100     0.7085949    0.1494738  
   0.740963000     0.7240351    0.0106054  
   0.742962900     0.7133293   -0.1273938  
   0.744962800     0.6774641   -0.2596729  
   0.746962700     0.6182633   -0.3819806  
   0.748962600     0.5387647   -0.4902350  
   0.750962500     0.5952616   -0.4023502  
   0.752962400     0.5140665   -0.5077418  
   0.754962300     0.4160567   -0.5959219  
   0.756962200     0.3045985   -0.6650440  
   0.758962100     0.1831678   -0.7128507  
   0.760962000     0.0553830   -0.7385147  
   0.762961900    -0.0685222   -0.7419640  
   0.764961800    -0.1813419   -0.7273626  
   0.766961700    -0.2907156   -0.6958773  
   0.768961600    -0.3943785   -0.6477613  
   0.770961500    -0.4897273   -0.5841982  
   0.772961400    -0.5743955   -0.5064306  
   0.774961300    -0.6457321   -0.4161661  
   0.776961200    -0.7026153   -0.3154299  
   0.778961100    -0.7429602   -0.2068065  
   0.780961000    -0.7657918   -0.0925674  
   0.782960900    -0.7705847    0.0244433  
   0.784960800    -0.7564233    0.1412749  
   0.786960700    -0.7234854    0.2549033  
   0.788960600    -0.6730629    0.3623752  
   0.790960500    -0.6061674    0.4606653  
   0.792960400    -0.5246681    0.5467915  
   0.794960300    -0.4298450    0.6192613  
   0.796960200    -0.3250179    0.6759998  
   0.798960100    -0.2121846    0.7154519  
   0.800960000    -0.0946800    0.7363234  
   0.802959900     0.0252541    0.7384521  
   0.804959800     0.1442908    0.7216789  
   0.806959700     0.2593221    0.6857840  
   0.808959600     0.3675878    0.6316547  
   0.810959500     0.4657209    0.5608035  
   0.812959400     0.5520647    0.4746161  
   0.814959300     0.6233833    0.3749850  
   0.816959200     0.6779296    0.2644741  
   0.818959100     0.7138222    0.1459128  
   0.820959000     0.7299201    0.0229836  
   0.822958900     0.7251527   -0.1017088  
   0.824958800     0.6997332   -0.2240459  
   0.826958700     0.6544136   -0.3405540  
   0.828958600     0.5900760   -0.4479348  
   0.830958500     0.5088131   -0.5429584  
   0.832958400     0.4132616   -0.6231775  
   0.834958300     0.3064362   -0.6861264  
   0.836958200     0.1911535   -0.7301688  
   0.838958100     0.0709402   -0.7547795  
   0.840958000    -0.0512794   -0.7592865  
   0.842957900    -0.1719970   -0.7443913  
   0.844957800    -0.2881376   -0.7102006  
   0.846957700    -0.3964471   -0.6582543  
   0.848957600    -0.4948209   -0.5903851  
   0.850957500    -0.5803472   -0.5080612  
   0.852957400    -0.6520420   -0.4138406  
   0.854957300    -0.7076287   -0.3103712  
   0.856957200    -0.7462865   -0.2000426  
   0.858957100    -0.7675074   -0.0860964  
   0.860957000    -0.7708373    0.0291294  
   0.862956900    -0.7571560    0.1423378  
   0.864956800    -0.7269167    0.2519105  
   0.866956700    -0.6808796    0.3551418  
   0.868956600    -0.6195877    0.4497304  
   0.870956500    -0.5453776    0.5349069  
   0.872956400    -0.4588691    0.6083558  
   0.874956300    -0.3620885    0.6684495  
   0.876956200    -0.2559293    0.7139155  
   0.878956100    -0.1433714    0.7424642  
   0.880956000    -0.0268881    0.7540929  
   0.882955900     0.0912813    0.7472977  
   0.884955800     0.2081256    0.7220073  
   0.886955700     0.3204564    0.6782700  
   0.888955600     0.4256724    0.6164731  
   0.890955500     0.5201919    0.5378403  
   0.892955400     0.6010526    0.4439741  
   0.894955300     0.6664156    0.3374548  
