! MS46122B
! 2250307/22442219
! 7/28/2025 2:00:32 PM
! C:\USERS\SPARKY\DOCUMENTS\VNA_DATA\JULY28_2025\3K\PORT1_MOS2.S1P
! CHANNEL.1
! TR.MEASUREMENT
! RAW.DATA
# GHZ S RI R 50.0
! FREQ.GHZ         S11RE         S11IM         
!; PortSelection: Port_1
   0.001000000     1.0463790   -0.0721798  
   0.002999900     0.9644887   -0.1945047  
   0.004999800     0.9044840   -0.2992761  
   0.006999700     0.8372456   -0.3967086  
   0.008999600     0.7589025   -0.4916741  
   0.010999500     0.6662459   -0.5821555  
   0.012999400     0.5539725   -0.6654745  
   0.014999300     0.4160647   -0.7352102  
   0.016999200     0.2463757   -0.7797993  
   0.018999100     0.0407907   -0.7797496  
   0.020999000    -0.1937711   -0.7021527  
   0.022998900    -0.4212879   -0.5082746  
   0.024998800    -0.5397233   -0.1852366  
   0.026998700    -0.5099588    0.2119696  
   0.028998600    -0.2542874    0.5257299  
   0.030998500     0.0973008    0.6536127  
   0.032998400     0.3899655    0.5999340  
   0.034998300     0.6488012    0.4779900  
   0.036998200     0.7937968    0.3086054  
   0.038998100     0.8727083    0.1377266  
   0.040998000     0.9044713   -0.0213323  
   0.042997900     0.9030044   -0.1643525  
   0.044997800     0.8526492   -0.2656277  
   0.046997700     0.8372118   -0.4015439  
   0.048997600     0.7844426   -0.4980734  
   0.050997500     0.7225338   -0.5813810  
   0.052997400     0.6543252   -0.6529824  
   0.054997300     0.5810152   -0.7134888  
   0.056997200     0.5021668   -0.7655783  
   0.058997100     0.4205357   -0.8074692  
   0.060997000     0.3355571   -0.8407140  
   0.062996900     0.2480967   -0.8646613  
   0.064996800     0.1579054   -0.8789825  
   0.066996700     0.0654317   -0.8843029  
   0.068996600    -0.0282343   -0.8791031  
   0.070996500    -0.1228499   -0.8640794  
   0.072996400    -0.2180086   -0.8364459  
   0.074996300    -0.3119700   -0.7963412  
   0.076996200    -0.4035859   -0.7433938  
   0.078996100    -0.4907431   -0.6761314  
   0.080996000    -0.5717486   -0.5941830  
   0.082995900    -0.6436384   -0.4972566  
   0.084995800    -0.7023975   -0.3854574  
   0.086995700    -0.7462336   -0.2596546  
   0.088995600    -0.7696019   -0.1215620  
   0.090995500    -0.7689639    0.0259058  
   0.092995400    -0.7404940    0.1783164  
   0.094995300    -0.6801650    0.3289050  
   0.096995200    -0.5865968    0.4702666  
   0.098995100    -0.4612334    0.5927215  
   0.100995000    -0.3068657    0.6886774  
   0.102994900    -0.1336568    0.7477833  
   0.104994800     0.0496316    0.7667166  
   0.106994700     0.2317005    0.7430018  
   0.108994600     0.4013480    0.6809023  
   0.110994500     0.5500523    0.5851977  
   0.112994400     0.6709527    0.4635729  
   0.114994300     0.7606440    0.3248205  
   0.116994200     0.8186899    0.1772661  
   0.118994100     0.8462223    0.0282487  
   0.120994000     0.8477383   -0.1170696  
   0.122993900     0.8234227   -0.2536953  
   0.124993800     0.7786797   -0.3787313  
   0.126993700     0.7170439   -0.4906386  
   0.128993600     0.6412413   -0.5871336  
   0.130993500     0.5558111   -0.6691607  
   0.132993400     0.4626877   -0.7363383  
   0.134993300     0.3636147   -0.7883198  
   0.136993200     0.2608404   -0.8257224  
   0.138993100     0.1559857   -0.8489842  
   0.140993000     0.0504156   -0.8581014  
   0.142992900    -0.0548126   -0.8539425  
   0.144992800    -0.1578028   -0.8377240  
   0.146992700    -0.2579674   -0.8073965  
   0.148992600    -0.3540989   -0.7642208  
   0.150992500    -0.4435171   -0.7078276  
   0.152992400    -0.5269256   -0.6406365  
   0.154992300    -0.6017914   -0.5623105  
   0.156992200    -0.6668457   -0.4729858  
   0.158992100    -0.7204705   -0.3734176  
   0.160992000    -0.7606851   -0.2651663  
   0.162991900    -0.7858893   -0.1488364  
   0.164991800    -0.7942235   -0.0268028  
   0.166991700    -0.7838604    0.0980954  
   0.168991600    -0.7534441    0.2238961  
   0.170991500    -0.7017196    0.3471409  
   0.172991400    -0.6284596    0.4633380  
   0.174991300    -0.5344480    0.5685291  
   0.176991200    -0.4201220    0.6579955  
   0.178991100    -0.2889573    0.7276497  
   0.180991000    -0.1446317    0.7739443  
   0.182990900     0.0080810    0.7919278  
   0.184990800     0.1637330    0.7811002  
   0.186990700     0.3153901    0.7404106  
   0.188990600     0.4362272    0.6842986  
   0.190990500     0.5780283    0.5805134  
   0.192990400     0.6846293    0.4636219  
   0.194990300     0.7647885    0.3333262  
   0.196990200     0.8185706    0.1937235  
   0.198990100     0.8458256    0.0496678  
   0.200990000     0.8470801   -0.0939529  
   0.202989900     0.8238558   -0.2322833  
   0.204989800     0.7791452   -0.3610162  
   0.206989700     0.7168548   -0.4784006  
   0.208989600     0.6378604   -0.5804415  
   0.210989500     0.5459868   -0.6675665  
   0.212989400     0.4439235   -0.7379991  
   0.214989300     0.3349429   -0.7910929  
   0.216989200     0.2218162   -0.8269842  
   0.218989100     0.1071289   -0.8459826  
   0.220989000    -0.0078653   -0.8483969  
   0.222988900    -0.1210568   -0.8347486  
   0.224988800    -0.2312803   -0.8054063  
   0.226988700    -0.3347777   -0.7615359  
   0.228988600    -0.4312368   -0.7041871  
   0.230988500    -0.5189860   -0.6338341  
   0.232988400    -0.5953260   -0.5503547  
   0.234988300    -0.6613733   -0.4566971  
   0.236988200    -0.7137223   -0.3536031  
   0.238988100    -0.7508625   -0.2422369  
   0.240988000    -0.7715922   -0.1254995  
   0.242987900    -0.7749561   -0.0048957  
   0.244987800    -0.7592073    0.1169797  
   0.246987700    -0.7239968    0.2379555  
   0.248987600    -0.6682782    0.3545212  
   0.250987500    -0.5927340    0.4628639  
   0.252987400    -0.4981694    0.5588820  
   0.254987300    -0.3868231    0.6385881  
   0.256987200    -0.2611739    0.6985418  
   0.258987100    -0.1245481    0.7376243  
   0.260987000     0.0193939    0.7500129  
   0.262986900     0.1652493    0.7356467  
   0.264986800     0.3070461    0.6944912  
   0.266986700     0.4390003    0.6270009  
   0.268986600     0.5561379    0.5364121  
   0.270986500     0.6534639    0.4267600  
   0.272986400     0.7282650    0.3020733  
   0.274986300     0.7785460    0.1675535  
   0.276986200     0.8034790    0.0281619  
   0.278986100     0.8035626   -0.1110359  
   0.280986000     0.7797751   -0.2456237  
   0.282985900     0.7341555   -0.3718308  
   0.284985800     0.6700295   -0.4861428  
   0.286985700     0.5901962   -0.5859573  
   0.288985600     0.4983884   -0.6691688  
   0.290985500     0.3973407   -0.7359350  
   0.292985400     0.2903852   -0.7855703  
   0.294985300     0.1793165   -0.8181723  
   0.296985200     0.0665807   -0.8345315  
   0.298985100    -0.0463956   -0.8349995  
   0.300985000    -0.1568870   -0.8194780  
   0.302984900    -0.2629090   -0.7896047  
   0.304984800    -0.3628833   -0.7458751  
   0.306984700    -0.4550656   -0.6896323  
   0.308984600    -0.5382965   -0.6226498  
   0.310984500    -0.6117862   -0.5455544  
   0.312984400    -0.6745369   -0.4589794  
   0.314984300    -0.7256189   -0.3641701  
   0.316984200    -0.7640285   -0.2620697  
   0.318984100    -0.7883301   -0.1532441  
   0.320984000    -0.7972487   -0.0392701  
   0.322983900    -0.7886844    0.0772461  
   0.324983800    -0.7614690    0.1935568  
   0.326983700    -0.7147498    0.3048110  
   0.328983600    -0.6490094    0.4075669  
   0.330983500    -0.5670793    0.4969161  
   0.332983400    -0.4732732    0.5701048  
   0.334983300    -0.3712730    0.6270148  
   0.336983200    -0.2635327    0.6682835  
   0.338983100    -0.1514550    0.6940559  
   0.340983000    -0.0365407    0.7042136  
   0.342982900     0.0801105    0.6978022  
   0.344982800     0.1967640    0.6734801  
   0.346982700     0.3109612    0.6305594  
   0.348982600     0.4176536    0.5676289  
   0.350982500     0.5148204    0.4878626  
   0.352982400     0.5981117    0.3909446  
   0.354982300     0.6661136    0.2759435  
   0.356982200     0.7150888    0.1371683  
   0.358982100     0.7359126   -0.0087578  
   0.360982000     0.7272516   -0.1558789  
   0.362981900     0.6900591   -0.2985025  
   0.364981800     0.6256691   -0.4310307  
   0.366981700     0.5369091   -0.5479169  
   0.368981600     0.4277783   -0.6448848  
   0.370981500     0.3024791   -0.7184407  
   0.372981400     0.1663773   -0.7665901  
   0.374981300     0.0247299   -0.7880417  
   0.376981200     0.1423408   -0.7734870  
   0.378981100     0.0021086   -0.7891886  
   0.380981000    -0.1372596   -0.7791319  
   0.382980900    -0.2594469   -0.7485220  
   0.384980800    -0.3686547   -0.7016141  
   0.386980700    -0.4684030   -0.6386211  
   0.388980600    -0.5572386   -0.5616025  
   0.390980500    -0.6325343   -0.4729635  
   0.392980400    -0.6932978   -0.3750912  
   0.394980300    -0.7385081   -0.2702216  
   0.396980200    -0.7676302   -0.1595254  
   0.398980100    -0.7805507   -0.0458747  
   0.400980000    -0.7765455    0.0690307  
   0.402979900    -0.7557379    0.1827093  
   0.404979800    -0.7179267    0.2924309  
   0.406979700    -0.6639808    0.3960624  
   0.408979600    -0.5946923    0.4913721  
   0.410979500    -0.5101328    0.5767335  
   0.412979400    -0.4121221    0.6494411  
   0.414979300    -0.3021744    0.7050519  
   0.416979200    -0.1835779    0.7445485  
   0.418979100    -0.0591092    0.7650906  
   0.420979000     0.0686218    0.7651278  
   0.422978900     0.1960689    0.7442007  
   0.424978800     0.3199395    0.7019457  
   0.426978700     0.4362035    0.6387801  
   0.428978600     0.5407898    0.5565541  
   0.430978500     0.6302366    0.4576454  
   0.432978400     0.7015020    0.3447076  
   0.434978300     0.7536556    0.2214538  
   0.436978200     0.7828305    0.0914231  
   0.438978100     0.7898468   -0.0417968  
   0.440978000     0.7741476   -0.1734829  
   0.442977900     0.7365673   -0.2998110  
   0.444977800     0.6788373   -0.4170097  
   0.446977700     0.6029496   -0.5220777  
   0.448977600     0.5121859   -0.6124150  
   0.450977500     0.4087483   -0.6859319  
   0.452977400     0.2958018   -0.7409884  
   0.454977300     0.1760218   -0.7769095  
   0.456977200     0.0529237   -0.7931914  
   0.458977100    -0.0701223   -0.7897185  
   0.460977000    -0.1896599   -0.7673694  
   0.462976900    -0.3028300   -0.7271463  
   0.464976800    -0.4072590   -0.6702272  
   0.466976700    -0.5016730   -0.5983883  
   0.468976600    -0.5833197   -0.5136721  
   0.470976500    -0.6509528   -0.4179875  
   0.472976400    -0.7029957   -0.3129368  
   0.474976300    -0.7383797   -0.2015004  
   0.476976200    -0.7564043   -0.0861642  
   0.478976100    -0.7566526    0.0307032  
   0.480976000    -0.7390506    0.1462322  
   0.482975900    -0.7033639    0.2575825  
   0.484975800    -0.6507922    0.3633296  
   0.486975700    -0.5814694    0.4603499  
   0.488975600    -0.4970397    0.5462154  
   0.490975500    -0.3986977    0.6175775  
   0.492975400    -0.2889062    0.6727564  
   0.494975300    -0.1702953    0.7093182  
   0.496975200    -0.0459827    0.7251795  
   0.498975100     0.0796740    0.7194396  
   0.500975000     0.2028448    0.6918867  
   0.502974900     0.3189687    0.6434935  
   0.504974800     0.4247018    0.5751351  
   0.506974700     0.5164269    0.4897412  
   0.508974600     0.5910829    0.3897366  
   0.510974500     0.6464775    0.2800314  
   0.512974400     0.6813276    0.1644359  
   0.514974300     0.6944315    0.0480347  
   0.516974200     0.6897991   -0.0660499  
   0.518974100     0.6682730   -0.1746738  
   0.520974000     0.6318098   -0.2762945  
   0.522973900     0.5822899   -0.3691169  
   0.524973800     0.5217391   -0.4527392  
   0.526973700     0.4513129   -0.5268957  
   0.528973600     0.3727714   -0.5905311  
   0.530973500     0.2855483   -0.6435659  
   0.532973400     0.1919022   -0.6845998  
   0.534973300     0.0923742   -0.7126164  
   0.536973200    -0.0123549   -0.7267185  
   0.538973100    -0.1186082   -0.7253847  
   0.540973000    -0.2247809   -0.7072502  
   0.542972900    -0.3285573   -0.6731644  
   0.544972800    -0.4271138   -0.6225790  
   0.546972700    -0.5180522   -0.5560331  
   0.548972600    -0.5983660   -0.4752930  
   0.550972500    -0.6649110   -0.3812465  
   0.552972400    -0.7163742   -0.2773031  
   0.554972300    -0.7505215   -0.1655782  
   0.556972200    -0.7665141   -0.0491793  
   0.558972100    -0.7637331    0.0688679  
   0.560972000    -0.7418514    0.1852960  
   0.562971900    -0.7017452    0.2968753  
   0.564971800    -0.6442595    0.4009992  
   0.566971700    -0.5709180    0.4950197  
   0.568971600    -0.4830148    0.5764339  
   0.570971500    -0.3827734    0.6431947  
   0.572971400    -0.2726091    0.6936448  
   0.574971300    -0.1544741    0.7258998  
   0.576971200    -0.0313275    0.7385027  
   0.578971100     0.0932390    0.7307984  
   0.580971000     0.2157102    0.7026355  
   0.582970900     0.3324758    0.6539784  
   0.584970800     0.4397372    0.5863652  
   0.586970700     0.5344481    0.5012789  
   0.588970600     0.6137861    0.4013388  
   0.590970500     0.6749662    0.2888584  
   0.592970400     0.7164260    0.1674649  
   0.594970300     0.7365454    0.0404474  
   0.596970200     0.7348568   -0.0876954  
   0.598970100     0.7112777   -0.2137780  
   0.600970000     0.6666051   -0.3337376  
   0.602969900     0.6025425   -0.4437420  
   0.604969800     0.5208735   -0.5412099  
   0.606969700     0.4249230   -0.6232432  
   0.608969600     0.3169176   -0.6873075  
   0.610969500     0.2005210   -0.7325640  
   0.612969400     0.0794294   -0.7572231  
   0.614969300    -0.0422572   -0.7621458  
   0.616969200    -0.1619632   -0.7474078  
   0.618969100    -0.2759080   -0.7142525  
   0.620969000    -0.3822234   -0.6645291  
   0.622968900    -0.4789877   -0.5991361  
   0.624968800    -0.5640982   -0.5203581  
   0.626968700    -0.6356986   -0.4298374  
   0.628968600    -0.6925448   -0.3299139  
   0.630968500    -0.7334850   -0.2228149  
   0.632968400    -0.7579743   -0.1110561  
   0.634968300    -0.7651175    0.0030509  
   0.636968200    -0.7552297    0.1169026  
   0.638968100    -0.7283100    0.2280252  
   0.640968000    -0.6850095    0.3344694  
   0.642967900    -0.6261404    0.4331533  
   0.644967800    -0.5524494    0.5227883  
   0.646967700    -0.4654787    0.6008396  
   0.648967600    -0.3669887    0.6649531  
   0.650967500    -0.2596449    0.7130195  
   0.652967400    -0.1451240    0.7445374  
   0.654967300    -0.0259761    0.7579941  
   0.656967200     0.0944326    0.7525387  
   0.658967100     0.2139427    0.7277171  
   0.660967000     0.3290954    0.6835140  
   0.662966900     0.4369415    0.6204626  
   0.664966800     0.5343192    0.5397527  
   0.666966700     0.6178395    0.4428299  
   0.668966600     0.6843911    0.3327905  
   0.670966500     0.7317176    0.2124497  
   0.672966400     0.7595679    0.0861399  
   0.674966300     0.7645551   -0.0433871  
   0.676966200     0.7471957   -0.1712267  
   0.678966100     0.7088336   -0.2937181  
   0.680966000     0.6509916   -0.4075706  
   0.682965900     0.5754386   -0.5097348  
   0.684965800     0.4850270   -0.5970777  
   0.686965700     0.3817516   -0.6676129  
   0.688965600     0.2697411   -0.7201586  
   0.690965500     0.1517373   -0.7522433  
   0.692965400     0.0319669   -0.7662232  
   0.694965300    -0.0872189   -0.7607921  
   0.696965200    -0.2027614   -0.7373171  
   0.698965100    -0.3119571   -0.6964892  
   0.700965000    -0.4129633   -0.6399170  
   0.702964900    -0.5035591   -0.5690566  
   0.704964800    -0.5817047   -0.4859533  
   0.706964700    -0.6459493   -0.3924652  
   0.708964600    -0.6952705   -0.2905187  
   0.710964500    -0.7292103   -0.1826024  
   0.712964400    -0.7457603   -0.0709721  
   0.714964300    -0.7454501    0.0419935  
   0.716964200    -0.7280604    0.1531814  
   0.718964100    -0.6939978    0.2606300  
   0.720964000    -0.6439146    0.3617918  
   0.722963900    -0.5789825    0.4544649  
   0.724963800    -0.5002315    0.5362289  
   0.726963700    -0.4090401    0.6052330  
   0.728963600    -0.3075441    0.6595400  
   0.730963500    -0.1973237    0.6965854  
   0.732963400    -0.0828490    0.7161507  
   0.734963300     0.0347045    0.7167401  
   0.736963200     0.1684370    0.6940143  
   0.738963100     0.2962455    0.6460997  
   0.740963000     0.4134637    0.5750276  
   0.742962900     0.5148404    0.4835228  
   0.744962800     0.5972292    0.3747526  
   0.746962700     0.6573699    0.2527720  
   0.748962600     0.6932418    0.1225276  
   0.750962500     0.6525079    0.2259153  
   0.752962400     0.6840534    0.0969631  
   0.754962300     0.6915580   -0.0346714  
   0.756962200     0.6749802   -0.1646909  
   0.758962100     0.6356423   -0.2884319  
   0.760962000     0.5751609   -0.4026971  
   0.762961900     0.4994723   -0.4992585  
   0.764961800     0.4175775   -0.5753883  
   0.766961700     0.3247294   -0.6379018  
   0.768961600     0.2235710   -0.6853378  
   0.770961500     0.1165299   -0.7169353  
   0.772961400     0.0058873   -0.7317845  
   0.774961300    -0.1059643   -0.7295849  
   0.776961200    -0.2165301   -0.7102214  
   0.778961100    -0.3232834   -0.6740620  
   0.780961000    -0.4236239   -0.6211461  
   0.782960900    -0.5144414   -0.5530964  
   0.784960800    -0.5942186   -0.4711120  
   0.786960700    -0.6601474   -0.3772668  
   0.788960600    -0.7106972   -0.2740876  
   0.790960500    -0.7443196   -0.1639896  
   0.792960400    -0.7604195   -0.0501978  
   0.794960300    -0.7583291    0.0651496  
   0.796960200    -0.7382086    0.1784975  
   0.798960100    -0.7006068    0.2871796  
   0.800960000    -0.6467600    0.3885189  
   0.802959900    -0.5777255    0.4807378  
   0.804959800    -0.4950540    0.5604301  
   0.806959700    -0.4009713    0.6271510  
   0.808959600    -0.2972845    0.6780804  
   0.810959500    -0.1869385    0.7126071  
   0.812959400    -0.0716646    0.7295539  
   0.814959300     0.0451525    0.7281352  
   0.816959200     0.1609093    0.7083761  
   0.818959100     0.2725452    0.6700770  
   0.820959000     0.3773614    0.6143815  
   0.822958900     0.4725539    0.5422776  
   0.824958800     0.5552476    0.4550464  
   0.826958700     0.6232539    0.3549118  
   0.828958600     0.6741956    0.2444106  
   0.830958500     0.7063628    0.1269195  
   0.832958400     0.7187222    0.0051538  
   0.834958300     0.7106900   -0.1169373  
   0.836958200     0.6826412   -0.2360263  
   0.838958100     0.6351188   -0.3487714  
   0.840958000     0.5694633   -0.4525596  
   0.842957900     0.4876595   -0.5439284  
   0.844957800     0.3921515   -0.6201705  
   0.846957700     0.2854294   -0.6793005  
   0.848957600     0.1712296   -0.7199879  
   0.850957500     0.0522128   -0.7410675  
   0.852957400    -0.0680004   -0.7427697  
   0.854957300    -0.1861188   -0.7249305  
   0.856957200    -0.2988302   -0.6885754  
   0.858957100    -0.4035094   -0.6351998  
   0.860957000    -0.4975260   -0.5668294  
   0.862956900    -0.5790415   -0.4856057  
   0.864956800    -0.6462641   -0.3937477  
   0.866956700    -0.6980752   -0.2939141  
   0.868956600    -0.7336513   -0.1880712  
   0.870956500    -0.7535517   -0.0788394  
   0.872956400    -0.7564958    0.0318531  
   0.874956300    -0.7431930    0.1414869  
   0.876956200    -0.7136382    0.2483117  
   0.878956100    -0.6686272    0.3494290  
   0.880956000    -0.6089692    0.4432897  
   0.882955900    -0.5358159    0.5274748  
   0.884955800    -0.4505000    0.6001528  
   0.886955700    -0.3547620    0.6595309  
   0.888955600    -0.2507165    0.7041095  
   0.890955500    -0.1405519    0.7327268  
   0.892955400    -0.0264122    0.7441056  
   0.894955300     0.0892136    0.7377380  
