! MS46122B
! 2250307/22442219
! 7/24/2025 7:50:32 AM
! C:\USERS\SPARKY\DOCUMENTS\VNA_DATA\JULY24_2025\3K\PORT5_MOS3_REPEAT1.S1P
! CHANNEL.1
! TR.MEASUREMENT
! RAW.DATA
# GHZ S RI R 50.0
! FREQ.GHZ         S11RE         S11IM         
!; PortSelection: Port_1
   0.001000000     1.0455550   -0.0718877  
   0.002999900     0.9639027   -0.1943474  
   0.004999800     0.9037361   -0.2993171  
   0.006999700     0.8364750   -0.3969385  
   0.008999600     0.7581053   -0.4923437  
   0.010999500     0.6653756   -0.5832000  
   0.012999400     0.5525906   -0.6670343  
   0.014999300     0.4138635   -0.7377877  
   0.016999200     0.2429405   -0.7831684  
   0.018999100     0.0344174   -0.7836184  
   0.020999000    -0.2040869   -0.7054916  
   0.022998900    -0.4368539   -0.5075198  
   0.024998800    -0.5576344   -0.1756779  
   0.026998700    -0.5229822    0.2339906  
   0.028998600    -0.2540642    0.5531532  
   0.030998500     0.1103742    0.6766914  
   0.032998400     0.4081778    0.6133348  
   0.034998300     0.6685751    0.4828880  
   0.036998200     0.8113527    0.3072882  
   0.038998100     0.8870956    0.1325202  
   0.040998000     0.9157332   -0.0288320  
   0.042997900     0.9114865   -0.1731230  
   0.044997800     0.8586351   -0.2744663  
   0.046997700     0.8412087   -0.4111753  
   0.048997600     0.7864754   -0.5075532  
   0.050997500     0.7230294   -0.5905932  
   0.052997400     0.6533887   -0.6619112  
   0.054997300     0.5786466   -0.7220241  
   0.056997200     0.4987114   -0.7735492  
   0.058997100     0.4159858   -0.8148585  
   0.060997000     0.3299706   -0.8475370  
   0.062996900     0.2414933   -0.8706768  
   0.064996800     0.1501958   -0.8843015  
   0.066996700     0.0569436   -0.8885673  
   0.068996600    -0.0376232   -0.8823395  
   0.070996500    -0.1332015   -0.8661648  
   0.072996400    -0.2289466   -0.8372707  
   0.074996300    -0.3236747   -0.7956706  
   0.076996200    -0.4159620   -0.7410222  
   0.078996100    -0.5033803   -0.6717556  
   0.080996000    -0.5845335   -0.5874597  
   0.082995900    -0.6560730   -0.4879985  
   0.084995800    -0.7141743   -0.3734843  
   0.086995700    -0.7567282   -0.2449394  
   0.088995600    -0.7780960   -0.1039183  
   0.090995500    -0.7746938    0.0463029  
   0.092995400    -0.7426516    0.2011601  
   0.094995300    -0.6774108    0.3535075  
   0.096995200    -0.5785142    0.4953355  
   0.098995100    -0.4472694    0.6170562  
   0.100995000    -0.2872630    0.7101811  
   0.102994900    -0.1089397    0.7651702  
   0.104994800     0.0784324    0.7785074  
   0.106994700     0.2626323    0.7480373  
   0.108994600     0.4326890    0.6789916  
   0.110994500     0.5799933    0.5767741  
   0.112994400     0.6979808    0.4490392  
   0.114994300     0.7836936    0.3053731  
   0.116994200     0.8369089    0.1544149  
   0.118994100     0.8593057    0.0029820  
   0.120994000     0.8557319   -0.1433987  
   0.122993900     0.8264707   -0.2804309  
   0.124993800     0.7773451   -0.4047971  
   0.126993700     0.7114531   -0.5153679  
   0.128993600     0.6321140   -0.6098031  
   0.130993500     0.5435897   -0.6899231  
   0.132993400     0.4476544   -0.7544677  
   0.134993300     0.3461453   -0.8039138  
   0.136993200     0.2416589   -0.8383781  
   0.138993100     0.1350334   -0.8588818  
   0.140993000     0.0285784   -0.8649335  
   0.142992900    -0.0773370   -0.8572429  
   0.144992800    -0.1809733   -0.8382873  
   0.146992700    -0.2812955   -0.8046554  
   0.148992600    -0.3774240   -0.7581985  
   0.150992500    -0.4659663   -0.6985599  
   0.152992400    -0.5484490   -0.6281320  
   0.154992300    -0.6220739   -0.5464634  
   0.156992200    -0.6852815   -0.4536520  
   0.158992100    -0.7366407   -0.3510770  
   0.160992000    -0.7742544   -0.2395662  
   0.162991900    -0.7957472   -0.1207474  
   0.164991800    -0.8000016    0.0037593  
   0.166991700    -0.7852219    0.1305609  
   0.168991600    -0.7493528    0.2575579  
   0.170991500    -0.6918057    0.3814586  
   0.172991400    -0.6124432    0.4967561  
   0.174991300    -0.5120664    0.6000774  
   0.176991200    -0.3914467    0.6864105  
   0.178991100    -0.2546014    0.7514290  
   0.180991000    -0.1053384    0.7916555  
   0.182990900     0.0512009    0.8024398  
   0.184990800     0.2091208    0.7832829  
   0.186990700     0.3610377    0.7341817  
   0.188990600     0.4807382    0.6706796  
   0.190990500     0.6191461    0.5574998  
   0.192990400     0.7206544    0.4332883  
   0.194990300     0.7943162    0.2970598  
   0.196990200     0.8410609    0.1528697  
   0.198990100     0.8602533    0.0060933  
   0.200990000     0.8535072   -0.1388795  
   0.202989900     0.8224977   -0.2771689  
   0.204989800     0.7705328   -0.4046035  
   0.206989700     0.7010865   -0.5191204  
   0.208989600     0.6161133   -0.6178170  
   0.210989500     0.5189747   -0.7000408  
   0.212989400     0.4126054   -0.7656428  
   0.214989300     0.2998508   -0.8134005  
   0.216989200     0.1843664   -0.8434518  
   0.218989100     0.0675174   -0.8567039  
   0.220989000    -0.0485120   -0.8532202  
   0.222988900    -0.1622352   -0.8334427  
   0.224988800    -0.2715150   -0.7980039  
   0.226988700    -0.3741792   -0.7484276  
   0.228988600    -0.4685888   -0.6853154  
   0.230988500    -0.5538862   -0.6092029  
   0.232988400    -0.6271005   -0.5206776  
   0.234988300    -0.6886374   -0.4220065  
   0.236988200    -0.7362666   -0.3141746  
   0.238988100    -0.7676786   -0.1988174  
   0.240988000    -0.7821034   -0.0787224  
   0.242987900    -0.7782319    0.0441474  
   0.244987800    -0.7548131    0.1676079  
   0.246987700    -0.7113068    0.2888080  
   0.248987600    -0.6468488    0.4041638  
   0.250987500    -0.5624191    0.5100697  
   0.252987400    -0.4591487    0.6013815  
   0.254987300    -0.3401854    0.6748925  
   0.256987200    -0.2071900    0.7270547  
   0.258987100    -0.0650155    0.7566211  
   0.260987000     0.0829219    0.7582002  
   0.262986900     0.2302266    0.7323252  
   0.264986800     0.3710193    0.6789161  
   0.266986700     0.4997245    0.5997086  
   0.268986600     0.6106473    0.4983885  
   0.270986500     0.7000191    0.3794946  
   0.272986400     0.7652967    0.2473948  
   0.274986300     0.8049079    0.1076502  
   0.276986200     0.8188086   -0.0345076  
   0.278986100     0.8075504   -0.1746031  
   0.280986000     0.7725687   -0.3077669  
   0.282985900     0.7170862   -0.4307156  
   0.284985800     0.6438675   -0.5403775  
   0.286985700     0.5564452   -0.6340566  
   0.288985600     0.4580796   -0.7109722  
   0.290985500     0.3520373   -0.7700403  
   0.292985400     0.2412491   -0.8120505  
   0.294985300     0.1275225   -0.8368528  
   0.296985200     0.0131098   -0.8454126  
   0.298985100    -0.1001265   -0.8377825  
   0.300985000    -0.2102934   -0.8145392  
   0.302984900    -0.3149056   -0.7772269  
   0.304984800    -0.4125475   -0.7263909  
   0.306984700    -0.5020573   -0.6633257  
   0.308984600    -0.5814573   -0.5898051  
   0.310984500    -0.6502428   -0.5066371  
   0.312984400    -0.7080802   -0.4142309  
   0.314984300    -0.7532270   -0.3142587  
   0.316984200    -0.7847790   -0.2075091  
   0.318984100    -0.8014068   -0.0945920  
   0.320984000    -0.8013488    0.0225883  
   0.322983900    -0.7827502    0.1410858  
   0.324983800    -0.7445757    0.2571557  
   0.326983700    -0.6863596    0.3664286  
   0.328983600    -0.6098335    0.4639308  
   0.330983500    -0.5183911    0.5461037  
   0.332983400    -0.4172224    0.6104682  
   0.334983300    -0.3095196    0.6583029  
   0.336983200    -0.1977438    0.6896484  
   0.338983100    -0.0829260    0.7057006  
   0.340983000     0.0336574    0.7056690  
   0.342982900     0.1508216    0.6884066  
   0.344982800     0.2663684    0.6536933  
   0.346982700     0.3777808    0.5996363  
   0.348982600     0.4797332    0.5257123  
   0.350982500     0.5702889    0.4355792  
   0.352982400     0.6447679    0.3294328  
   0.354982300     0.7019284    0.2061731  
   0.356982200     0.7372105    0.0608646  
   0.358982100     0.7428723   -0.0887146  
   0.360982000     0.7186205   -0.2363874  
   0.362981900     0.6660125   -0.3761998  
   0.364981800     0.5868652   -0.5027246  
   0.366981700     0.4849576   -0.6106743  
   0.368981600     0.3644682   -0.6966051  
   0.370981500     0.2307871   -0.7571601  
   0.372981400     0.0891077   -0.7906870  
   0.374981300    -0.0556842   -0.7968525  
   0.376981200     0.0655511   -0.7941264  
   0.378981100    -0.0768213   -0.7950531  
   0.380981000    -0.2159222   -0.7703770  
   0.382980900    -0.3352827   -0.7271912  
   0.384980800    -0.4399157   -0.6685404  
   0.386980700    -0.5337077   -0.5948512  
   0.388980600    -0.6149397   -0.5082437  
   0.390980500    -0.6817244   -0.4113855  
   0.392980400    -0.7326301   -0.3068287  
   0.394980300    -0.7673012   -0.1959055  
   0.396980200    -0.7855052   -0.0815141  
   0.398980100    -0.7865792    0.0348180  
   0.400980000    -0.7705979    0.1505866  
   0.402979900    -0.7373745    0.2636395  
   0.404979800    -0.6873051    0.3705578  
   0.406979700    -0.6213325    0.4701749  
   0.408979600    -0.5401750    0.5595537  
   0.410979500    -0.4452575    0.6366640  
   0.412979400    -0.3369253    0.6993561  
   0.414979300    -0.2188027    0.7434385  
   0.416979200    -0.0935272    0.7698303  
   0.418979100     0.0356358    0.7757665  
   0.420979000     0.1654780    0.7601981  
   0.422978900     0.2927979    0.7231452  
   0.424978800     0.4133075    0.6646649  
   0.426978700     0.5231549    0.5855265  
   0.428978600     0.6186061    0.4885646  
   0.430978500     0.6960331    0.3763891  
   0.432978400     0.7529720    0.2526619  
   0.434978300     0.7890002    0.1211354  
   0.436978200     0.8010660   -0.0140031  
   0.438978100     0.7896953   -0.1490913  
   0.440978000     0.7555258   -0.2793753  
   0.442977900     0.7004946   -0.4009495  
   0.444977800     0.6264584   -0.5106598  
   0.446977700     0.5358670   -0.6054765  
   0.448977600     0.4322321   -0.6834565  
   0.450977500     0.3188892   -0.7424613  
   0.452977400     0.1984287   -0.7817600  
   0.454977300     0.0733765   -0.8012953  
   0.456977200    -0.0514953   -0.8006524  
   0.458977100    -0.1741769   -0.7805402  
   0.460977000    -0.2906291   -0.7417310  
   0.462976900    -0.3980687   -0.6858970  
   0.464976800    -0.4954257   -0.6147010  
   0.466976700    -0.5800436   -0.5297464  
   0.468976600    -0.6502450   -0.4340201  
   0.470976500    -0.7047762   -0.3282819  
   0.472976400    -0.7425552   -0.2158618  
   0.474976300    -0.7629008   -0.0987728  
   0.476976200    -0.7647694    0.0199745  
   0.478976100    -0.7484985    0.1381265  
   0.480976000    -0.7138391    0.2519428  
   0.482975900    -0.6619592    0.3597765  
   0.484975800    -0.5932308    0.4588704  
   0.486975700    -0.5087048    0.5470471  
   0.488975600    -0.4099365    0.6207456  
   0.490975500    -0.2994258    0.6783608  
   0.492975400    -0.1794273    0.7169026  
   0.494975300    -0.0538001    0.7348300  
   0.496975200     0.0742864    0.7307804  
   0.498975100     0.1998954    0.7045411  
   0.500975000     0.3194045    0.6565977  
   0.502974900     0.4281943    0.5885834  
   0.504974800     0.5227806    0.5024559  
   0.506974700     0.6001050    0.4016667  
   0.508974600     0.6582024    0.2896449  
   0.510974500     0.6947654    0.1709779  
   0.512974400     0.7108275    0.0504487  
   0.514974300     0.7048050   -0.0673059  
   0.516974200     0.6822292   -0.1797968  
   0.518974100     0.6437227   -0.2844829  
   0.520974000     0.5916401   -0.3796269  
   0.522973900     0.5280715   -0.4648245  
   0.524973800     0.4548120   -0.5389362  
   0.526973700     0.3731703   -0.6026501  
   0.528973600     0.2840407   -0.6544287  
   0.530973500     0.1883773   -0.6944758  
   0.532973400     0.0871761   -0.7213727  
   0.534973300    -0.0180488   -0.7338226  
   0.536973200    -0.1258173   -0.7312456  
   0.538973100    -0.2332090   -0.7122180  
   0.540973000    -0.3373947   -0.6761641  
   0.542972900    -0.4366980   -0.6243349  
   0.544972800    -0.5274336   -0.5563899  
   0.546972700    -0.6076956   -0.4738423  
   0.548972600    -0.6744934   -0.3784364  
   0.550972500    -0.7253366   -0.2725873  
   0.552972400    -0.7588285   -0.1590829  
   0.554972300    -0.7738354   -0.0407054  
   0.556972200    -0.7695304    0.0791034  
   0.558972100    -0.7456971    0.1973251  
   0.560972000    -0.7032973    0.3101588  
   0.562971900    -0.6432315    0.4153216  
   0.564971800    -0.5669183    0.5097665  
   0.566971700    -0.4760395    0.5910356  
   0.568971600    -0.3730930    0.6570178  
   0.570971500    -0.2601502    0.7061077  
   0.572971400    -0.1398930    0.7364138  
   0.574971300    -0.0149152    0.7467955  
   0.576971200     0.1114043    0.7365291  
   0.578971100     0.2351371    0.7050522  
   0.580971000     0.3525643    0.6529605  
   0.582970900     0.4605661    0.5816216  
   0.584970800     0.5548324    0.4928258  
   0.586970700     0.6330668    0.3889878  
   0.588970600     0.6922701    0.2732401  
   0.590970500     0.7312300    0.1485179  
   0.592970400     0.7480671    0.0191224  
   0.594970300     0.7427255   -0.1111627  
   0.596970200     0.7152880   -0.2381074  
   0.598970100     0.6664397   -0.3586073  
   0.600970000     0.5982579   -0.4682423  
   0.602969900     0.5126616   -0.5644363  
   0.604969800     0.4129427   -0.6447715  
   0.606969700     0.3017422   -0.7060837  
   0.608969600     0.1823917   -0.7484969  
   0.610969500     0.0589246   -0.7699922  
   0.612969400    -0.0648437   -0.7714211  
   0.614969300    -0.1860179   -0.7526287  
   0.616969200    -0.3011831   -0.7152005  
   0.618969100    -0.4073201   -0.6611558  
   0.620969000    -0.5030811   -0.5918141  
   0.622968900    -0.5864868   -0.5094318  
   0.624968800    -0.6556587   -0.4157739  
   0.626968700    -0.7101453   -0.3128033  
   0.628968600    -0.7480787   -0.2031883  
   0.630968500    -0.7693650   -0.0893332  
   0.632968400    -0.7731122    0.0263299  
   0.634968300    -0.7594212    0.1413192  
   0.636968200    -0.7286971    0.2530874  
   0.638968100    -0.6814719    0.3596221  
   0.640968000    -0.6183100    0.4579659  
   0.642967900    -0.5405535    0.5463619  
   0.644967800    -0.4497227    0.6226462  
   0.646967700    -0.3475632    0.6841899  
   0.648967600    -0.2366566    0.7294060  
   0.650967500    -0.1189567    0.7573548  
   0.652967400     0.0021721    0.7667422  
   0.654967300     0.1245805    0.7567227  
   0.656967200     0.2443808    0.7271360  
   0.658967100     0.3594515    0.6781404  
   0.660967000     0.4660313    0.6105036  
   0.662966900     0.5612792    0.5254530  
   0.664966800     0.6421275    0.4245156  
   0.666966700     0.7054523    0.3102437  
   0.668966600     0.7489054    0.1866590  
   0.670966500     0.7710894    0.0568843  
   0.672966400     0.7720959   -0.0744186  
   0.674966300     0.7493427   -0.2034347  
   0.676966200     0.7055215   -0.3267422  
   0.678966100     0.6421426   -0.4393145  
   0.680966000     0.5612512   -0.5398189  
   0.682965900     0.4656381   -0.6242757  
   0.684965800     0.3585690   -0.6911108  
   0.686965700     0.2427061   -0.7394098  
   0.688965600     0.1218753   -0.7678876  
   0.690965500    -0.0002136   -0.7754999  
   0.692965400    -0.1206864   -0.7645601  
   0.694965300    -0.2364297   -0.7354789  
   0.696965200    -0.3450221   -0.6892256  
   0.698965100    -0.4442453   -0.6273085  
   0.700965000    -0.5325897   -0.5514990  
   0.702964900    -0.6075770   -0.4639333  
   0.704964800    -0.6682250   -0.3665289  
   0.706964700    -0.7129027   -0.2612881  
   0.708964600    -0.7416890   -0.1506024  
   0.710964500    -0.7538482   -0.0367273  
   0.712964400    -0.7481024    0.0772420  
   0.714964300    -0.7248511    0.1894631  
   0.716964200    -0.6848945    0.2967404  
   0.718964100    -0.6290357    0.3970776  
   0.720964000    -0.5579845    0.4875257  
   0.722963900    -0.4738529    0.5660855  
   0.724963800    -0.3779335    0.6313539  
   0.726963700    -0.2720550    0.6808000  
   0.728963600    -0.1586916    0.7127060  
   0.730963500    -0.0413332    0.7254295  
   0.732963400     0.0773740    0.7194865  
   0.734963300     0.1941843    0.6938358  
   0.736963200     0.3212977    0.6413625  
   0.738963100     0.4377276    0.5657350  
   0.740963000     0.5373540    0.4696397  
   0.742962900     0.6167428    0.3567099  
   0.744962800     0.6733046    0.2311531  
   0.746962700     0.7049260    0.0983299  
   0.748962600     0.7115708   -0.0373947  
   0.750962500     0.6953352    0.0716881  
   0.752962400     0.6978144   -0.0619935  
   0.754962300     0.6764024   -0.1928063  
   0.756962200     0.6317781   -0.3165236  
   0.758962100     0.5662590   -0.4295016  
   0.760962000     0.4818863   -0.5288221  
   0.762961900     0.3868150   -0.6074159  
   0.764961800     0.2892788   -0.6646858  
   0.766961700     0.1845808   -0.7061078  
   0.768961600     0.0744379   -0.7312701  
   0.770961500    -0.0380559   -0.7392402  
   0.772961400    -0.1507796   -0.7300369  
   0.774961300    -0.2607372   -0.7035614  
   0.776961200    -0.3659323   -0.6603758  
   0.778961100    -0.4632068   -0.6010431  
   0.780961000    -0.5505512   -0.5269995  
   0.782960900    -0.6254919   -0.4395947  
   0.784960800    -0.6862894   -0.3411779  
   0.786960700    -0.7304655   -0.2340275  
   0.788960600    -0.7575510   -0.1208640  
   0.790960500    -0.7664872   -0.0048587  
   0.792960400    -0.7567532    0.1112095  
   0.794960300    -0.7290866    0.2244800  
   0.796960200    -0.6841697    0.3314837  
   0.798960100    -0.6230238    0.4306372  
   0.800960000    -0.5469752    0.5185191  
   0.802959900    -0.4581740    0.5939397  
   0.804959800    -0.3588799    0.6546665  
   0.806959700    -0.2507816    0.6991796  
   0.808959600    -0.1370259    0.7262698  
   0.810959500    -0.0199101    0.7353044  
   0.812959400     0.0978607    0.7257039  
   0.814959300     0.2131088    0.6976965  
   0.816959200     0.3230676    0.6511984  
   0.818959100     0.4245354    0.5875528  
   0.820959000     0.5153178    0.5079489  
   0.822958900     0.5924199    0.4140838  
   0.824958800     0.6535202    0.3083609  
   0.826958700     0.6966875    0.1934167  
   0.828958600     0.7206322    0.0727703  
   0.830958500     0.7239301   -0.0509767  
   0.832958400     0.7067162   -0.1734397  
   0.834958300     0.6696249   -0.2914397  
   0.836958200     0.6131669   -0.4015189  
   0.838958100     0.5395815   -0.5004777  
   0.840958000     0.4505371   -0.5861592  
   0.842957900     0.3486989   -0.6558704  
   0.844957800     0.2371331   -0.7071765  
   0.846957700     0.1191335   -0.7395347  
   0.848957600    -0.0017973   -0.7519687  
   0.850957500    -0.1227225   -0.7444943  
   0.852957400    -0.2398673   -0.7178375  
   0.854957300    -0.3503523   -0.6728429  
   0.856957200    -0.4518718   -0.6115309  
   0.858957100    -0.5413032   -0.5354592  
   0.860957000    -0.6172875   -0.4476689  
   0.862956900    -0.6779857   -0.3502518  
   0.864956800    -0.7227025   -0.2455494  
   0.866956700    -0.7509556   -0.1368772  
   0.868956600    -0.7621613   -0.0255850  
   0.870956500    -0.7570460    0.0858037  
   0.872956400    -0.7355629    0.1947497  
   0.874956300    -0.6980428    0.2993551  
   0.876956200    -0.6455835    0.3978013  
   0.878956100    -0.5788262    0.4874832  
   0.880956000    -0.4994213    0.5666666  
   0.882955900    -0.4080229    0.6336573  
   0.884955800    -0.3072195    0.6863737  
   0.886955700    -0.1991600    0.7234299  
   0.888955600    -0.0857518    0.7440206  
   0.890955500     0.0299718    0.7469123  
   0.892955400     0.1459695    0.7319810  
   0.894955300     0.2591354    0.6988019  
