! MS46122B
! 2250307/22442219
! 7/22/2025 7:53:49 AM
! C:\USERS\SPARKY\DOCUMENTS\VNA_DATA\JULY22_2025\3K\PORT1_MOS1_REPEAT1.S1P
! CHANNEL.1
! TR.MEASUREMENT
! RAW.DATA
# GHZ S RI R 50.0
! FREQ.GHZ         S11RE         S11IM         
!; PortSelection: Port_1
   0.001000000     1.0457960   -0.0716441  
   0.002999900     0.9642506   -0.1941772  
   0.004999800     0.9041767   -0.2991493  
   0.006999700     0.8370739   -0.3967654  
   0.008999600     0.7585765   -0.4921599  
   0.010999500     0.6658768   -0.5829089  
   0.012999400     0.5533324   -0.6664415  
   0.014999300     0.4154164   -0.7368526  
   0.016999200     0.2454167   -0.7820748  
   0.018999100     0.0389327   -0.7828314  
   0.020999000    -0.1967395   -0.7065817  
   0.022998900    -0.4269182   -0.5136487  
   0.024998800    -0.5491179   -0.1899125  
   0.026998700    -0.5238223    0.2114365  
   0.028998600    -0.2688938    0.5318310  
   0.030998500     0.0862614    0.6652355  
   0.032998400     0.3839743    0.6133036  
   0.034998300     0.6473033    0.4916596  
   0.036998200     0.7954099    0.3208697  
   0.038998100     0.8763489    0.1481839  
   0.040998000     0.9093451   -0.0125611  
   0.042997900     0.9085886   -0.1571395  
   0.044997800     0.8583845   -0.2597530  
   0.046997700     0.8434120   -0.3967028  
   0.048997600     0.7906903   -0.4943117  
   0.050997500     0.7288876   -0.5784279  
   0.052997400     0.6607152   -0.6507418  
   0.054997300     0.5873321   -0.7119800  
   0.056997200     0.5084766   -0.7646710  
   0.058997100     0.4268767   -0.8071592  
   0.060997000     0.3418368   -0.8409316  
   0.062996900     0.2543380   -0.8654923  
   0.064996800     0.1641046   -0.8804593  
   0.066996700     0.0716307   -0.8864026  
   0.068996600    -0.0220837   -0.8818907  
   0.070996500    -0.1167782   -0.8676852  
   0.072996400    -0.2119849   -0.8409802  
   0.074996300    -0.3061808   -0.8017721  
   0.076996200    -0.3981111   -0.7499601  
   0.078996100    -0.4858305   -0.6840009  
   0.080996000    -0.5674956   -0.6033937  
   0.082995900    -0.6404461   -0.5076450  
   0.084995800    -0.7006598   -0.3972980  
   0.086995700    -0.7463351   -0.2727724  
   0.088995600    -0.7721316   -0.1357080  
   0.090995500    -0.7744718    0.0110337  
   0.092995400    -0.7495488    0.1633996  
   0.094995300    -0.6930711    0.3148774  
   0.096995200    -0.6034070    0.4581662  
   0.098995100    -0.4816636    0.5837187  
   0.100995000    -0.3301509    0.6842399  
   0.102994900    -0.1585021    0.7486767  
   0.104994800     0.0246547    0.7733003  
   0.106994700     0.2081075    0.7552334  
   0.108994600     0.3807631    0.6982593  
   0.110994500     0.5337754    0.6065707  
   0.112994400     0.6595525    0.4876586  
   0.114994300     0.7543862    0.3504583  
   0.116994200     0.8173469    0.2030492  
   0.118994100     0.8494798    0.0530066  
   0.120994000     0.8550260   -0.0937279  
   0.122993900     0.8340484   -0.2327985  
   0.124993800     0.7920908   -0.3603586  
   0.126993700     0.7325236   -0.4748648  
   0.128993600     0.6582801   -0.5742241  
   0.130993500     0.5739369   -0.6589909  
   0.132993400     0.4815307   -0.7287972  
   0.134993300     0.3829528   -0.7833963  
   0.136993200     0.2804152   -0.8232703  
   0.138993100     0.1754717   -0.8489957  
   0.140993000     0.0698568   -0.8602903  
   0.142992900    -0.0358542   -0.8584076  
   0.144992800    -0.1397429   -0.8444396  
   0.146992700    -0.2409274   -0.8163122  
   0.148992600    -0.3378587   -0.7753536  
   0.150992500    -0.4282268   -0.7210042  
   0.152992400    -0.5133808   -0.6559243  
   0.154992300    -0.5899974   -0.5797123  
   0.156992200    -0.6571394   -0.4922861  
   0.158992100    -0.7131332   -0.3946230  
   0.160992000    -0.7560937   -0.2878492  
   0.162991900    -0.7846987   -0.1731418  
   0.164991800    -0.7967666   -0.0524317  
   0.166991700    -0.7904559    0.0722405  
   0.168991600    -0.7646040    0.1981703  
   0.170991500    -0.7177503    0.3224849  
   0.172991400    -0.6492394    0.4406204  
   0.174991300    -0.5600871    0.5486333  
   0.176991200    -0.4502286    0.6425094  
   0.178991100    -0.3226393    0.7174375  
   0.180991000    -0.1812138    0.7698950  
   0.182990900    -0.0296992    0.7951609  
   0.184990800     0.1261917    0.7916247  
   0.186990700     0.2797526    0.7584273  
   0.188990600     0.4034494    0.7082825  
   0.190990500     0.5508257    0.6112285  
   0.192990400     0.6638647    0.4993632  
   0.194990300     0.7507560    0.3723671  
   0.196990200     0.8118939    0.2343834  
   0.198990100     0.8465118    0.0906775  
   0.200990000     0.8548487   -0.0542009  
   0.202989900     0.8382503   -0.1950342  
   0.204989800     0.7990670   -0.3273262  
   0.206989700     0.7415799   -0.4482897  
   0.208989600     0.6662711   -0.5552375  
   0.210989500     0.5776235   -0.6470672  
   0.212989400     0.4777451   -0.7226295  
   0.214989300     0.3702420   -0.7807373  
   0.216989200     0.2580936   -0.8217633  
   0.218989100     0.1432863   -0.8456250  
   0.220989000     0.0277766   -0.8531888  
   0.222988900    -0.0868343   -0.8443936  
   0.224988800    -0.1978224   -0.8194937  
   0.226988700    -0.3039418   -0.7801802  
   0.228988600    -0.4028099   -0.7268410  
   0.230988500    -0.4934517   -0.6604232  
   0.232988400    -0.5735198   -0.5806026  
   0.234988300    -0.6434747   -0.4906352  
   0.236988200    -0.7004040   -0.3901149  
   0.238988100    -0.7430024   -0.2812012  
   0.240988000    -0.7693245   -0.1660805  
   0.242987900    -0.7788053   -0.0467602  
   0.244987800    -0.7698565    0.0750241  
   0.246987700    -0.7414915    0.1968676  
   0.248987600    -0.6929375    0.3155277  
   0.250987500    -0.6242197    0.4275448  
   0.252987400    -0.5366731    0.5283195  
   0.254987300    -0.4314792    0.6143270  
   0.256987200    -0.3101479    0.6820128  
   0.258987100    -0.1774421    0.7300525  
   0.260987000    -0.0350211    0.7522752  
   0.262986900     0.1108449    0.7482149  
   0.264986800     0.2553807    0.7171100  
   0.266986700     0.3921633    0.6594489  
   0.268986600     0.5157249    0.5771600  
   0.270986500     0.6212035    0.4741198  
   0.272986400     0.7054560    0.3544463  
   0.274986300     0.7654340    0.2228385  
   0.276986200     0.8005317    0.0845266  
   0.278986100     0.8104103   -0.0562033  
   0.280986000     0.7956182   -0.1935690  
   0.282985900     0.7580293   -0.3241238  
   0.284985800     0.7006432   -0.4433161  
   0.286985700     0.6265097   -0.5493078  
   0.288985600     0.5389394   -0.6393431  
   0.290985500     0.4414407   -0.7127408  
   0.292985400     0.3363450   -0.7690575  
   0.294985300     0.2265815   -0.8087507  
   0.296985200     0.1136697   -0.8316045  
   0.298985100     0.0003072   -0.8384179  
   0.300985000    -0.1116366   -0.8293051  
   0.302984900    -0.2194562   -0.8051669  
   0.304984800    -0.3217505   -0.7670770  
   0.306984700    -0.4171891   -0.7158779  
   0.308984600    -0.5038278   -0.6537578  
   0.310984500    -0.5811225   -0.5815232  
   0.312984400    -0.6485574   -0.4988762  
   0.314984300    -0.7050418   -0.4081150  
   0.316984200    -0.7492961   -0.3095328  
   0.318984100    -0.7803721   -0.2037431  
   0.320984000    -0.7967175   -0.0921349  
   0.322983900    -0.7967053    0.0236325  
   0.324983800    -0.7786795    0.1401688  
   0.326983700    -0.7411938    0.2539834  
   0.328983600    -0.6847998    0.3610753  
   0.330983500    -0.6109838    0.4568505  
   0.332983400    -0.5238421    0.5381603  
   0.334983300    -0.4261385    0.6040900  
   0.336983200    -0.3214019    0.6547021  
   0.338983100    -0.2107924    0.6895883  
   0.340983000    -0.0962993    0.7088274  
   0.342982900     0.0215525    0.7114606  
   0.344982800     0.1401975    0.6960863  
   0.346982700     0.2577867    0.6624517  
   0.348982600     0.3695000    0.6081322  
   0.350982500     0.4730687    0.5362394  
   0.352982400     0.5645735    0.4466445  
   0.354982300     0.6421273    0.3374669  
   0.356982200     0.7031710    0.2031008  
   0.358982100     0.7367354    0.0588433  
   0.360982000     0.7413877   -0.0890458  
   0.362981900     0.7166966   -0.2350040  
   0.364981800     0.6640542   -0.3733600  
   0.366981700     0.5856915   -0.4986346  
   0.368981600     0.4849005   -0.6054603  
   0.370981500     0.3658699   -0.6906061  
   0.372981400     0.2337382   -0.7510307  
   0.374981300     0.0932980   -0.7848505  
   0.376981200     0.2085871   -0.7600272  
   0.378981100     0.0697950   -0.7879504  
   0.380981000    -0.0708948   -0.7899052  
   0.382980900    -0.1956777   -0.7694294  
   0.384980800    -0.3090833   -0.7320067  
   0.386980700    -0.4140083   -0.6775548  
   0.388980600    -0.5093563   -0.6079046  
   0.390980500    -0.5916971   -0.5260298  
   0.392980400    -0.6604787   -0.4336911  
   0.394980300    -0.7143776   -0.3331406  
   0.396980200    -0.7527818   -0.2257390  
   0.398980100    -0.7754450   -0.1138372  
   0.400980000    -0.7813091   -0.0001862  
   0.402979900    -0.7704490    0.1143248  
   0.404979800    -0.7432728    0.2262624  
   0.406979700    -0.6991183    0.3334717  
   0.408979600    -0.6394418    0.4339305  
   0.410979500    -0.5641026    0.5258564  
   0.412979400    -0.4748151    0.6063865  
   0.414979300    -0.3718684    0.6719939  
   0.416979200    -0.2589416    0.7226125  
   0.418979100    -0.1385882    0.7552689  
   0.420979000    -0.0129673    0.7685905  
   0.422978900     0.1148902    0.7613330  
   0.424978800     0.2416033    0.7330077  
   0.426978700     0.3629977    0.6835958  
   0.428978600     0.4752879    0.6137580  
   0.430978500     0.5747870    0.5260335  
   0.432978400     0.6579042    0.4224280  
   0.434978300     0.7237172    0.3062979  
   0.436978200     0.7679529    0.1806797  
   0.438978100     0.7904041    0.0492292  
   0.440978000     0.7899280   -0.0836461  
   0.442977900     0.7671806   -0.2139920  
   0.444977800     0.7235291   -0.3376001  
   0.446977700     0.6600955   -0.4512680  
   0.448977600     0.5795646   -0.5518907  
   0.450977500     0.4848237   -0.6376072  
   0.452977400     0.3780861   -0.7055930  
   0.454977300     0.2623583   -0.7552835  
   0.456977200     0.1410951   -0.7854855  
   0.458977100     0.0181181   -0.7958851  
   0.460977000    -0.1040300   -0.7867771  
   0.462976900    -0.2213900   -0.7595657  
   0.464976800    -0.3322723   -0.7143000  
   0.466976700    -0.4341622   -0.6533610  
   0.468976600    -0.5244430   -0.5783958  
   0.470976500    -0.6022640   -0.4907059  
   0.472976400    -0.6657845   -0.3927987  
   0.474976300    -0.7134638   -0.2864038  
   0.476976200    -0.7445131   -0.1744221  
   0.478976100    -0.7581730   -0.0588544  
   0.480976000    -0.7540610    0.0565860  
   0.482975900    -0.7322578    0.1706710  
   0.484975800    -0.6933157    0.2807103  
   0.486975700    -0.6372792    0.3842437  
   0.488975600    -0.5649390    0.4787137  
   0.490975500    -0.4777804    0.5616326  
   0.492975400    -0.3771382    0.6297531  
   0.494975300    -0.2655438    0.6808189  
   0.496975200    -0.1461624    0.7130736  
   0.498975100    -0.0222116    0.7244503  
   0.500975000     0.1024672    0.7145444  
   0.502974900     0.2236313    0.6829885  
   0.504974800     0.3374337    0.6309655  
   0.506974700     0.4398648    0.5596600  
   0.508974600     0.5281120    0.4713961  
   0.510974500     0.5984437    0.3705264  
   0.512974400     0.6497430    0.2609157  
   0.514974300     0.6791418    0.1473297  
   0.516974200     0.6907997    0.0331485  
   0.518974100     0.6842949   -0.0781161  
   0.520974000     0.6621392   -0.1842564  
   0.522973900     0.6255236   -0.2837489  
   0.524973800     0.5765892   -0.3750447  
   0.526973700     0.5166532   -0.4580831  
   0.528973600     0.4467656   -0.5317233  
   0.530973500     0.3677588   -0.5961061  
   0.532973400     0.2800226   -0.6493318  
   0.534973300     0.1850909   -0.6904019  
   0.536973200     0.0840041   -0.7180082  
   0.538973100    -0.0213448   -0.7307330  
   0.540973000    -0.1284359   -0.7276924  
   0.542972900    -0.2354353   -0.7079291  
   0.544972800    -0.3392589   -0.6713614  
   0.546972700    -0.4378005   -0.6184106  
   0.548972600    -0.5276110   -0.5498298  
   0.550972500    -0.6063864   -0.4671688  
   0.552972400    -0.6711831   -0.3718515  
   0.554972300    -0.7204541   -0.2670541  
   0.556972200    -0.7525790   -0.1549189  
   0.558972100    -0.7667069   -0.0388205  
   0.560972000    -0.7620003    0.0781879  
   0.562971900    -0.7387056    0.1933379  
   0.564971800    -0.6975298    0.3036647  
   0.566971700    -0.6396573    0.4063484  
   0.568971600    -0.5660605    0.4988447  
   0.570971500    -0.4782305    0.5790460  
   0.572971400    -0.3780507    0.6448964  
   0.574971300    -0.2678064    0.6946252  
   0.576971200    -0.1497053    0.7258939  
   0.578971100    -0.0269967    0.7379615  
   0.580971000     0.0968357    0.7299737  
   0.582970900     0.2183985    0.7013578  
   0.584970800     0.3340931    0.6529025  
   0.586970700     0.4405431    0.5856175  
   0.588970600     0.5346962    0.5010895  
   0.590970500     0.6138101    0.4013557  
   0.592970400     0.6746715    0.2894332  
   0.594970300     0.7161826    0.1682902  
   0.596970200     0.7363338    0.0418870  
   0.598970100     0.7348862   -0.0860795  
   0.600970000     0.7114228   -0.2117514  
   0.602969900     0.6672626   -0.3315720  
   0.604969800     0.6033279   -0.4417036  
   0.606969700     0.5220740   -0.5391447  
   0.608969600     0.4261270   -0.6213603  
   0.610969500     0.3182637   -0.6854913  
   0.612969400     0.2024537   -0.7305734  
   0.614969300     0.0820087   -0.7552072  
   0.616969200    -0.0388543   -0.7603427  
   0.618969100    -0.1577320   -0.7458124  
   0.620969000    -0.2711512   -0.7134776  
   0.622968900    -0.3772630   -0.6640370  
   0.624968800    -0.4737354   -0.5993990  
   0.626968700    -0.5589151   -0.5212470  
   0.628968600    -0.6305163   -0.4312427  
   0.630968500    -0.6875907   -0.3319940  
   0.632968400    -0.7288777   -0.2257484  
   0.634968300    -0.7537418   -0.1142123  
   0.636968200    -0.7614212   -0.0008462  
   0.638968100    -0.7521996    0.1122161  
   0.640968000    -0.7258145    0.2232448  
   0.642967900    -0.6834421    0.3291452  
   0.644967800    -0.6251577    0.4275216  
   0.646967700    -0.5524764    0.5168800  
   0.648967600    -0.4667099    0.5945458  
   0.650967500    -0.3698496    0.6586043  
   0.652967400    -0.2639765    0.7070301  
   0.654967300    -0.1506204    0.7392721  
   0.656967200    -0.0327350    0.7536834  
   0.658967100     0.0865733    0.7493967  
   0.660967000     0.2054224    0.7258646  
   0.662966900     0.3207317    0.6830297  
   0.664966800     0.4287873    0.6214005  
   0.666966700     0.5266840    0.5420081  
   0.668966600     0.6106399    0.4468978  
   0.670966500     0.6779288    0.3382802  
   0.672966400     0.7276264    0.2198564  
   0.674966300     0.7556569    0.0944171  
   0.676966200     0.7619472   -0.0335459  
   0.678966100     0.7464408   -0.1604392  
   0.680966000     0.7102461   -0.2829556  
   0.682965900     0.6545916   -0.3968078  
   0.684965800     0.5811455   -0.4992201  
   0.686965700     0.4922900   -0.5876312  
   0.688965600     0.3907732   -0.6593645  
   0.690965500     0.2798449   -0.7122059  
   0.692965400     0.1635229   -0.7471375  
   0.694965300     0.0449246   -0.7629110  
   0.696965200    -0.0736098   -0.7594913  
   0.698965100    -0.1889510   -0.7379181  
   0.700965000    -0.2988100   -0.6991532  
   0.702964900    -0.3998811   -0.6445747  
   0.704964800    -0.4911536   -0.5756249  
   0.706964700    -0.5700439   -0.4942246  
   0.708964600    -0.6358026   -0.4020512  
   0.710964500    -0.6871499   -0.3018028  
   0.712964400    -0.7220101   -0.1953910  
   0.714964300    -0.7402942   -0.0847002  
   0.716964200    -0.7421964    0.0269264  
   0.718964100    -0.7271702    0.1372041  
   0.720964000    -0.6957216    0.2439530  
   0.722963900    -0.6483413    0.3449929  
   0.724963800    -0.5861706    0.4382174  
   0.726963700    -0.5099854    0.5209814  
   0.728963600    -0.4212398    0.5913759  
   0.730963500    -0.3218594    0.6470597  
   0.732963400    -0.2141630    0.6868351  
   0.734963300    -0.1007649    0.7090011  
   0.736963200     0.0329299    0.7119165  
   0.738963100     0.1661076    0.6895962  
   0.740963000     0.2933067    0.6427660  
   0.742962900     0.4094820    0.5726865  
   0.744962800     0.5101510    0.4824255  
   0.746962700     0.5921555    0.3752382  
   0.748962600     0.6525478    0.2545790  
   0.750962500     0.5923175    0.3496587  
   0.752962400     0.6479191    0.2293549  
   0.754962300     0.6805663    0.1020272  
   0.756962200     0.6894291   -0.0284027  
   0.758962100     0.6744894   -0.1575747  
   0.760962000     0.6368583   -0.2811155  
   0.762961900     0.5810985   -0.3903963  
   0.764961800     0.5144540   -0.4803692  
   0.766961700     0.4356049   -0.5589607  
   0.768961600     0.3454150   -0.6244731  
   0.770961500     0.2460612   -0.6753822  
   0.772961400     0.1403493   -0.7105874  
   0.774961300     0.0307281   -0.7291340  
   0.776961200    -0.0811050   -0.7304607  
   0.778961100    -0.1923960   -0.7148334  
   0.780961000    -0.2999730   -0.6818794  
   0.782960900    -0.4015889   -0.6323108  
   0.784960800    -0.4948584   -0.5669611  
   0.786960700    -0.5766646   -0.4877394  
   0.788960600    -0.6452013   -0.3963715  
   0.790960500    -0.6986327   -0.2952137  
   0.792960400    -0.7354587   -0.1870566  
   0.794960300    -0.7547370   -0.0744464  
   0.796960200    -0.7564623    0.0396368  
   0.798960100    -0.7402852    0.1527099  
   0.800960000    -0.7068578    0.2610646  
   0.802959900    -0.6569612    0.3638946  
   0.804959800    -0.5919763    0.4572715  
   0.806959700    -0.5131814    0.5394421  
   0.808959600    -0.4223547    0.6086776  
   0.810959500    -0.3219618    0.6627970  
   0.812959400    -0.2135786    0.7012364  
   0.814959300    -0.1007419    0.7223274  
   0.816959200     0.0147928    0.7255657  
   0.818959100     0.1302622    0.7108032  
   0.820959000     0.2421493    0.6775542  
   0.822958900     0.3485490    0.6270272  
   0.824958800     0.4458489    0.5598093  
   0.826958700     0.5317292    0.4769483  
   0.828958600     0.6034710    0.3807710  
   0.830958500     0.6587196    0.2739476  
   0.832958400     0.6959670    0.1586684  
   0.834958300     0.7138884    0.0386750  
   0.836958200     0.7115613   -0.0826664  
   0.838958100     0.6893156   -0.2020781  
   0.840958000     0.6471808   -0.3165430  
   0.842957900     0.5867218   -0.4227163  
   0.844957800     0.5095769   -0.5173724  
   0.846957700     0.4178453   -0.5974061  
   0.848957600     0.3144518   -0.6610386  
   0.850957500     0.2025924   -0.7066067  
   0.852957400     0.0851004   -0.7328246  
   0.854957300    -0.0342433   -0.7398027  
   0.856957200    -0.1523299   -0.7271397  
   0.858957100    -0.2660103   -0.6960521  
   0.860957000    -0.3719529   -0.6477940  
   0.862956900    -0.4680903   -0.5841939  
   0.864956800    -0.5523826   -0.5073621  
   0.866956700    -0.6228860   -0.4193918  
   0.868956600    -0.6783857   -0.3225386  
   0.870956500    -0.7188034   -0.2192632  
   0.872956400    -0.7434084   -0.1114250  
   0.874956300    -0.7510456   -0.0020546  
   0.876956200    -0.7427232    0.1077411  
   0.878956100    -0.7178990    0.2146971  
   0.880956000    -0.6777403    0.3172074  
   0.882955900    -0.6228552    0.4126437  
   0.884955800    -0.5540281    0.4990319  
   0.886955700    -0.4727140    0.5746983  
   0.888955600    -0.3811382    0.6374435  
   0.890955500    -0.2804300    0.6864264  
   0.892955400    -0.1732458    0.7197385  
   0.894955300    -0.0614361    0.7363232  
