! MS46122B
! 2250307/22442219
! 7/25/2025 1:37:32 PM
! C:\USERS\SPARKY\DOCUMENTS\VNA_DATA\JULY25_2025\3K\PORT3_MOS6.S1P
! CHANNEL.1
! TR.MEASUREMENT
! RAW.DATA
# GHZ S RI R 50.0
! FREQ.GHZ         S11RE         S11IM         
!; PortSelection: Port_1
   0.001000000     1.0449790   -0.0723337  
   0.002999900     0.9465935   -0.2224993  
   0.004999800     0.8243325   -0.0992927  
   0.006999700     0.5098242   -0.3843404  
   0.008999600     0.9351253   -0.0393259  
   0.010999500     0.9158217   -0.2452090  
   0.012999400     0.8755525   -0.3500659  
   0.014999300     0.8349129   -0.4308395  
   0.016999200     0.7930572   -0.5014775  
   0.018999100     0.7486190   -0.5668033  
   0.020999000     0.6991663   -0.6274668  
   0.022998900     0.6445683   -0.6832588  
   0.024998800     0.5763972   -0.6988497  
   0.026998700     0.5178276   -0.7801630  
   0.028998600     0.4438637   -0.8202280  
   0.030998500     0.3624723   -0.8532271  
   0.032998400     0.2780930   -0.8438021  
   0.034998300     0.1770343   -0.8925744  
   0.036998200     0.0734889   -0.8959053  
   0.038998100    -0.0359884   -0.8855128  
   0.040998000    -0.1504590   -0.8581595  
   0.042997900    -0.2679589   -0.8123205  
   0.044997800    -0.3611235   -0.7265126  
   0.046997700    -0.4982851   -0.6511481  
   0.048997600    -0.6009889   -0.5312450  
   0.050997500    -0.6857520   -0.3827572  
   0.052997400    -0.7423036   -0.2067149  
   0.054997300    -0.7588651   -0.0083695  
   0.056997200    -0.7238396    0.2044349  
   0.058997100    -0.6291335    0.4108111  
   0.060997000    -0.4751166    0.5907673  
   0.062996900    -0.2712310    0.7219288  
   0.064996800    -0.0385412    0.7888373  
   0.066996700     0.1987470    0.7868924  
   0.068996600     0.4169550    0.7222027  
   0.070996500     0.6009841    0.6093227  
   0.072996400     0.7414176    0.4641486  
   0.074996300     0.8374965    0.3024331  
   0.076996200     0.8923306    0.1368410  
   0.078996100     0.9119964   -0.0235054  
   0.080996000     0.9026977   -0.1743465  
   0.082995900     0.8695948   -0.3118704  
   0.084995800     0.8173043   -0.4340341  
   0.086995700     0.7518620   -0.5411518  
   0.088995600     0.6752250   -0.6330894  
   0.090995500     0.5904065   -0.7112017  
   0.092995400     0.4999039   -0.7755388  
   0.094995300     0.4037435   -0.8259863  
   0.096995200     0.3045008   -0.8633349  
   0.098995100     0.2030794   -0.8879027  
   0.100995000     0.0994121   -0.9003147  
   0.102994900    -0.0039157   -0.9004316  
   0.104994800    -0.1069066   -0.8881950  
   0.106994700    -0.2085416   -0.8631485  
   0.108994600    -0.3074706   -0.8262075  
   0.110994500    -0.4032700   -0.7768018  
   0.112994400    -0.4938377   -0.7148676  
   0.114994300    -0.5777682   -0.6397485  
   0.116994200    -0.6534267   -0.5514618  
   0.118994100    -0.7187454   -0.4508909  
   0.120994000    -0.7721695   -0.3390504  
   0.122993900    -0.8092307   -0.2149592  
   0.124993800    -0.8276408   -0.0816066  
   0.126993700    -0.8245415    0.0583668  
   0.128993600    -0.7959903    0.2015435  
   0.130993500    -0.7427393    0.3439298  
   0.132993400    -0.6618930    0.4796346  
   0.134993300    -0.5531420    0.6023039  
   0.136993200    -0.4190357    0.7048781  
   0.138993100    -0.2629526    0.7810808  
   0.140993000    -0.0915294    0.8248454  
   0.142992900     0.0879957    0.8323783  
   0.144992800     0.2663260    0.8035109  
   0.146992700     0.4338698    0.7367067  
   0.148992600     0.5826193    0.6375764  
   0.150992500     0.7044303    0.5117462  
   0.152992400     0.7975759    0.3677586  
   0.154992300     0.8586294    0.2128156  
   0.156992200     0.8882868    0.0541055  
   0.158992100     0.8881876   -0.1016854  
   0.160992000     0.8613698   -0.2497886  
   0.162991900     0.8112296   -0.3856345  
   0.164991800     0.7417398   -0.5071830  
   0.166991700     0.6564862   -0.6122717  
   0.168991600     0.5595381   -0.6997299  
   0.170991500     0.4534139   -0.7700168  
   0.172991400     0.3412598   -0.8220701  
   0.174991300     0.2258529   -0.8570045  
   0.176991200     0.1082010   -0.8751916  
   0.178991100    -0.0084247   -0.8768536  
   0.180991000    -0.1228721   -0.8634027  
   0.182990900    -0.2336930   -0.8343607  
   0.184990800    -0.3393164   -0.7906768  
   0.186990700    -0.4383450   -0.7330064  
   0.188990600    -0.5094348   -0.6771835  
   0.190990500    -0.6061984   -0.5823123  
   0.192990400    -0.6778545   -0.4860620  
   0.194990300    -0.7341152   -0.3818234  
   0.196990200    -0.7758671   -0.2698796  
   0.198990100    -0.8017965   -0.1507320  
   0.200990000    -0.8101507   -0.0262616  
   0.202989900    -0.7995793    0.1013793  
   0.204989800    -0.7690392    0.2288551  
   0.206989700    -0.7190803    0.3532566  
   0.208989600    -0.6470357    0.4699138  
   0.210989500    -0.5542949    0.5764210  
   0.212989400    -0.4415452    0.6679758  
   0.214989300    -0.3123657    0.7404570  
   0.216989200    -0.1701753    0.7897317  
   0.218989100    -0.0193216    0.8133913  
   0.220989000     0.1362313    0.8087556  
   0.222988900     0.2896451    0.7757193  
   0.224988800     0.4351047    0.7140542  
   0.226988700     0.5664528    0.6266465  
   0.228988600     0.6785465    0.5176365  
   0.230988500     0.7679754    0.3912072  
   0.232988400     0.8313868    0.2513690  
   0.234988300     0.8691044    0.1051312  
   0.236988200     0.8806251   -0.0431268  
   0.238988100     0.8668143   -0.1875207  
   0.240988000     0.8296012   -0.3243997  
   0.242987900     0.7717974   -0.4492162  
   0.244987800     0.6969450   -0.5610840  
   0.246987700     0.6074209   -0.6577024  
   0.248987600     0.5061820   -0.7380576  
   0.250987500     0.3961280   -0.8007634  
   0.252987400     0.2808960   -0.8458151  
   0.254987300     0.1632366   -0.8729637  
   0.256987200     0.0451392   -0.8831220  
   0.258987100    -0.0722252   -0.8782881  
   0.260987000    -0.1864144   -0.8561752  
   0.262986900    -0.2961923   -0.8187401  
   0.264986800    -0.3996364   -0.7670256  
   0.266986700    -0.4946215   -0.7017220  
   0.268986600    -0.5799759   -0.6239893  
   0.270986500    -0.6535187   -0.5356732  
   0.272986400    -0.7148168   -0.4371863  
   0.274986300    -0.7624802   -0.3301073  
   0.276986200    -0.7947952   -0.2157239  
   0.278986100    -0.8108753   -0.0954737  
   0.280986000    -0.8087011    0.0283693  
   0.282985900    -0.7872664    0.1532541  
   0.284985800    -0.7461259    0.2760114  
   0.286985700    -0.6842940    0.3928574  
   0.288985600    -0.6027346    0.5005064  
   0.290985500    -0.5025982    0.5943874  
   0.292985400    -0.3847913    0.6712202  
   0.294985300    -0.2519584    0.7274660  
   0.296985200    -0.1080468    0.7592289  
   0.298985100     0.0425680    0.7632402  
   0.300985000     0.1930048    0.7377684  
   0.302984900     0.3363118    0.6827143  
   0.304984800     0.4660453    0.6000433  
   0.306984700     0.5756624    0.4931014  
   0.308984600     0.6599823    0.3684221  
   0.310984500     0.7160553    0.2319875  
   0.312984400     0.7425202    0.0910050  
   0.314984300     0.7405512   -0.0476291  
   0.316984200     0.7126621   -0.1769645  
   0.318984100     0.6632298   -0.2929561  
   0.320984000     0.5971422   -0.3918126  
   0.322983900     0.5210923   -0.4714845  
   0.324983800     0.4409274   -0.5327064  
   0.326983700     0.3619473   -0.5782699  
   0.328983600     0.2863470   -0.6133325  
   0.330983500     0.2149847   -0.6422935  
   0.332983400     0.1444984   -0.6692972  
   0.334983300     0.0701869   -0.6949810  
   0.336983200    -0.0122115   -0.7169849  
   0.338983100    -0.1045345   -0.7303213  
   0.340983000    -0.2051568   -0.7293313  
   0.342982900    -0.3103003   -0.7101852  
   0.344982800    -0.4145152   -0.6712493  
   0.346982700    -0.5141444   -0.6123180  
   0.348982600    -0.6022370   -0.5349856  
   0.350982500    -0.6777350   -0.4438815  
   0.352982400    -0.7376911   -0.3405592  
   0.354982300    -0.7814684   -0.2229221  
   0.356982200    -0.8069472   -0.0845786  
   0.358982100    -0.8068990    0.0551799  
   0.360982000    -0.7820041    0.1921416  
   0.362981900    -0.7333319    0.3231545  
   0.364981800    -0.6622466    0.4440149  
   0.366981700    -0.5707830    0.5513272  
   0.368981600    -0.4612470    0.6411645  
   0.370981500    -0.3365533    0.7108017  
   0.372981400    -0.2004545    0.7578756  
   0.374981300    -0.0560008    0.7800106  
   0.376981200    -0.1630162    0.7734057  
   0.378981100    -0.0114056    0.7888659  
   0.380981000     0.1417955    0.7757554  
   0.382980900     0.2792536    0.7381466  
   0.384980800     0.4039713    0.6795775  
   0.386980700     0.5181557    0.5996525  
   0.388980600     0.6169817    0.5007901  
   0.390980500     0.6976189    0.3862965  
   0.392980400     0.7568257    0.2599682  
   0.394980300     0.7933576    0.1256608  
   0.396980200     0.8060855   -0.0121943  
   0.398980100     0.7946981   -0.1495954  
   0.400980000     0.7606218   -0.2819739  
   0.402979900     0.7047555   -0.4053638  
   0.404979800     0.6301862   -0.5163625  
   0.406979700     0.5390711   -0.6118448  
   0.408979600     0.4353455   -0.6901340  
   0.410979500     0.3209577   -0.7501560  
   0.412979400     0.1996236   -0.7899648  
   0.414979300     0.0749768   -0.8091694  
   0.416979200    -0.0494446   -0.8092039  
   0.418979100    -0.1706349   -0.7902992  
   0.420979000    -0.2862440   -0.7534271  
   0.422978900    -0.3940711   -0.6998919  
   0.424978800    -0.4918522   -0.6313579  
   0.426978700    -0.5776736   -0.5491068  
   0.428978600    -0.6494715   -0.4557584  
   0.430978500    -0.7063934   -0.3536393  
   0.432978400    -0.7473507   -0.2447700  
   0.434978300    -0.7733414   -0.1319736  
   0.436978200    -0.7809649   -0.0158901  
   0.438978100    -0.7716698    0.1000548  
   0.440978000    -0.7453738    0.2141038  
   0.442977900    -0.7021362    0.3237532  
   0.444977800    -0.6427043    0.4269021  
   0.446977700    -0.5674751    0.5198429  
   0.448977600    -0.4785376    0.6015722  
   0.450977500    -0.3770051    0.6694233  
   0.452977400    -0.2645446    0.7215704  
   0.454977300    -0.1435022    0.7556558  
   0.456977200    -0.0165654    0.7702138  
   0.458977100     0.1123481    0.7639507  
   0.460977000     0.2393494    0.7364998  
   0.462976900     0.3611070    0.6879537  
   0.464976800     0.4738459    0.6194748  
   0.466976700     0.5740064    0.5322554  
   0.468976600     0.6584290    0.4294155  
   0.470976500     0.7245002    0.3136388  
   0.472976400     0.7696022    0.1881787  
   0.474976300     0.7929382    0.0572124  
   0.476976200     0.7939103   -0.0748173  
   0.478976100     0.7729459   -0.2039240  
   0.480976000     0.7315853   -0.3262239  
   0.482975900     0.6714981   -0.4385868  
   0.484975800     0.5953609   -0.5382245  
   0.486975700     0.5051319   -0.6232806  
   0.488975600     0.4036755   -0.6924326  
   0.490975500     0.2945729   -0.7440610  
   0.492975400     0.1803518   -0.7782986  
   0.494975300     0.0636520   -0.7943867  
   0.496975200    -0.0526956   -0.7927636  
   0.498975100    -0.1657525   -0.7746137  
   0.500975000    -0.2737415   -0.7404000  
   0.502974900    -0.3748153   -0.6915956  
   0.504974800    -0.4675159   -0.6294692  
   0.506974700    -0.5505298   -0.5544334  
   0.508974600    -0.6226832   -0.4680377  
   0.510974500    -0.6813399   -0.3722543  
   0.512974400    -0.7261215   -0.2686152  
   0.514974300    -0.7540347   -0.1590903  
   0.516974200    -0.7667412   -0.0461906  
   0.518974100    -0.7626048    0.0682195  
   0.520974000    -0.7409366    0.1818043  
   0.522973900    -0.7014818    0.2913684  
   0.524973800    -0.6445437    0.3943500  
   0.526973700    -0.5714324    0.4877819  
   0.528973600    -0.4837049    0.5686358  
   0.530973500    -0.3838670    0.6342216  
   0.532973400    -0.2745599    0.6826777  
   0.534973300    -0.1591830    0.7131432  
   0.536973200    -0.0404011    0.7249748  
   0.538973100     0.0779460    0.7177508  
   0.540973000     0.1931364    0.6923178  
   0.542972900     0.3028561    0.6495250  
   0.544972800     0.4048333    0.5903993  
   0.546972700     0.4965330    0.5154721  
   0.548972600     0.5756262    0.4271300  
   0.550972500     0.6401619    0.3270740  
   0.552972400     0.6885413    0.2173621  
   0.554972300     0.7189019    0.1013434  
   0.556972200     0.7299615   -0.0190035  
   0.558972100     0.7218269   -0.1393189  
   0.560972000     0.6942800   -0.2568955  
   0.562971900     0.6483736   -0.3683589  
   0.564971800     0.5853845   -0.4705621  
   0.566971700     0.5070592   -0.5607579  
   0.568971600     0.4160387   -0.6371692  
   0.570971500     0.3140382   -0.6980812  
   0.572971400     0.2046844   -0.7416463  
   0.574971300     0.0891843   -0.7678369  
   0.576971200    -0.0284165   -0.7752895  
   0.578971100    -0.1455196   -0.7645388  
   0.580971000    -0.2588155   -0.7359941  
   0.582970900    -0.3655399   -0.6907818  
   0.584970800    -0.4632901   -0.6303771  
   0.586970700    -0.5501603   -0.5563259  
   0.588970600    -0.6243573   -0.4708941  
   0.590970500    -0.6851304   -0.3755981  
   0.592970400    -0.7308385   -0.2727946  
   0.594970300    -0.7608926   -0.1647121  
   0.596970200    -0.7748808   -0.0534264  
   0.598970100    -0.7725099    0.0588978  
   0.600970000    -0.7537333    0.1697475  
   0.602969900    -0.7186118    0.2769209  
   0.604969800    -0.6679963    0.3784486  
   0.606969700    -0.6026440    0.4719048  
   0.608969600    -0.5232546    0.5556089  
   0.610969500    -0.4316231    0.6263632  
   0.612969400    -0.3297161    0.6832025  
   0.614969300    -0.2193807    0.7242945  
   0.616969200    -0.1033352    0.7481821  
   0.618969100     0.0152816    0.7534996  
   0.620969000     0.1340006    0.7407143  
   0.622968900     0.2506390    0.7088850  
   0.624968800     0.3616863    0.6587454  
   0.626968700     0.4643989    0.5903607  
   0.628968600     0.5556762    0.5055612  
   0.630968500     0.6320060    0.4064468  
   0.632968400     0.6914527    0.2952162  
   0.634968300     0.7320148    0.1749000  
   0.636968200     0.7515140    0.0496239  
   0.638968100     0.7500945   -0.0772476  
   0.640968000     0.7272903   -0.2022429  
   0.642967900     0.6838990   -0.3211487  
   0.644967800     0.6217499   -0.4306731  
   0.646967700     0.5424840   -0.5276132  
   0.648967600     0.4493837   -0.6089861  
   0.650967500     0.3451870   -0.6732964  
   0.652967400     0.2334884   -0.7195678  
   0.654967300     0.1170446   -0.7466659  
   0.656967200    -0.0009618   -0.7547796  
   0.658967100    -0.1175902   -0.7442518  
   0.660967000    -0.2299680   -0.7162099  
   0.662966900    -0.3361175   -0.6709445  
   0.664966800    -0.4334739   -0.6103294  
   0.666966700    -0.5196694   -0.5359597  
   0.668966600    -0.5928144   -0.4498815  
   0.670966500    -0.6520489   -0.3542800  
   0.672966400    -0.6964088   -0.2517291  
   0.674966300    -0.7239014   -0.1442676  
   0.676966200    -0.7345730   -0.0344490  
   0.678966100    -0.7292406    0.0754724  
   0.680966000    -0.7075428    0.1835002  
   0.682965900    -0.6697789    0.2870050  
   0.684965800    -0.6166582    0.3838815  
   0.686965700    -0.5494621    0.4722954  
   0.688965600    -0.4693610    0.5499215  
   0.690965500    -0.3769754    0.6138784  
   0.692965400    -0.2757955    0.6640291  
   0.694965300    -0.1673314    0.6982030  
   0.696965200    -0.0537401    0.7152250  
   0.698965100     0.0620309    0.7139065  
   0.700965000     0.1774822    0.6941099  
   0.702964900     0.2890475    0.6553349  
   0.704964800     0.3935565    0.5983690  
   0.706964700     0.4882003    0.5245225  
   0.708964600     0.5696850    0.4348870  
   0.710964500     0.6362941    0.3334725  
   0.712964400     0.6839903    0.2214079  
   0.714964300     0.7120015    0.1029062  
   0.716964200     0.7197838   -0.0178647  
   0.718964100     0.7072241   -0.1370917  
   0.720964000     0.6751308   -0.2506382  
   0.722963900     0.6255932   -0.3569474  
   0.724963800     0.5603226   -0.4523631  
   0.726963700     0.4815328   -0.5356767  
   0.728963600     0.3918382   -0.6040819  
   0.730963500     0.2929950   -0.6567165  
   0.732963400     0.1894615   -0.6939820  
   0.734963300     0.0821434   -0.7145008  
   0.736963200    -0.0417915   -0.7182567  
   0.738963100    -0.1636710   -0.7005724  
   0.740963000    -0.2796257   -0.6623659  
   0.742962900    -0.3867919   -0.6052628  
   0.744962800    -0.4824386   -0.5312074  
   0.746962700    -0.5639841   -0.4421125  
   0.748962600    -0.6290408   -0.3400723  
   0.750962500    -0.5855493   -0.4312326  
   0.752962400    -0.6491385   -0.3269922  
   0.754962300    -0.6937597   -0.2128615  
   0.756962200    -0.7181354   -0.0924393  
   0.758962100    -0.7212225    0.0310801  
   0.760962000    -0.7023072    0.1538408  
   0.762961900    -0.6645305    0.2660721  
   0.764961800    -0.6143628    0.3625336  
   0.766961700    -0.5496085    0.4498821  
   0.768961600    -0.4715528    0.5262042  
   0.770961500    -0.3825363    0.5896680  
   0.772961400    -0.2847404    0.6383163  
   0.774961300    -0.1804139    0.6705733  
   0.776961200    -0.0721391    0.6865239  
   0.778961100     0.0376060    0.6853616  
   0.780961000     0.1463833    0.6670169  
   0.782960900     0.2514167    0.6317528  
   0.784960800     0.3504184    0.5798258  
   0.786960700     0.4402155    0.5128083  
   0.788960600     0.5187795    0.4318814  
   0.790960500     0.5834424    0.3395962  
   0.792960400     0.6326902    0.2378837  
   0.794960300     0.6647506    0.1293844  
   0.796960200     0.6792606    0.0170323  
   0.798960100     0.6754061   -0.0962585  
   0.800960000     0.6532902   -0.2074779  
   0.802959900     0.6137971   -0.3135293  
   0.804959800     0.5575854   -0.4117901  
   0.806959700     0.4863294   -0.4997660  
   0.808959600     0.4019410   -0.5749436  
   0.810959500     0.3069162   -0.6358151  
   0.812959400     0.2033286   -0.6806535  
   0.814959300     0.0944199   -0.7082422  
   0.816959200    -0.0172913   -0.7179798  
   0.818959100    -0.1291371   -0.7098975  
   0.820959000    -0.2373418   -0.6844212  
   0.822958900    -0.3401856   -0.6424892  
   0.824958800    -0.4346717   -0.5852091  
   0.826958700    -0.5184251   -0.5140666  
   0.828958600    -0.5901945   -0.4313195  
   0.830958500    -0.6479771   -0.3388543  
   0.832958400    -0.6908224   -0.2393830  
   0.834958300    -0.7176734   -0.1348401  
   0.836958200    -0.7284834   -0.0280442  
   0.838958100    -0.7232046    0.0789133  
   0.840958000    -0.7019355    0.1837761  
   0.842957900    -0.6647472    0.2837873  
   0.844957800    -0.6132616    0.3778910  
   0.846957700    -0.5479963    0.4632684  
   0.848957600    -0.4704686    0.5380407  
   0.850957500    -0.3821833    0.6005255  
   0.852957400    -0.2850262    0.6490726  
   0.854957300    -0.1810741    0.6824192  
   0.856957200    -0.0725497    0.6994773  
   0.858957100     0.0375077    0.6994494  
   0.860957000     0.1464086    0.6824690  
   0.862956900     0.2516168    0.6484083  
   0.864956800     0.3505495    0.5980962  
   0.866956700     0.4403358    0.5327638  
   0.868956600     0.5190491    0.4531028  
   0.870956500     0.5847896    0.3613091  
   0.872956400     0.6353967    0.2596921  
   0.874956300     0.6689558    0.1502644  
   0.876956200     0.6848637    0.0356910  
   0.878956100     0.6808681   -0.0802180  
   0.880956000     0.6576036   -0.1943622  
   0.882955900     0.6156610   -0.3032289  
   0.884955800     0.5557044   -0.4036677  
   0.886955700     0.4800387   -0.4923492  
   0.888955600     0.3907759   -0.5669336  
   0.890955500     0.2907920   -0.6249383  
   0.892955400     0.1829988   -0.6654950  
   0.894955300     0.0706147   -0.6871318  
