! MS46122B
! 2250307/22442219
! 7/28/2025 2:08:53 PM
! C:\USERS\SPARKY\DOCUMENTS\VNA_DATA\JULY28_2025\3K\PORT3_MOS4_REPEAT1.S1P
! CHANNEL.1
! TR.MEASUREMENT
! RAW.DATA
# GHZ S RI R 50.0
! FREQ.GHZ         S11RE         S11IM         
!; PortSelection: Port_1
   0.001000000     1.0460960   -0.0722444  
   0.002999900     0.9646642   -0.1946000  
   0.004999800     0.9046156   -0.2995071  
   0.006999700     0.8376088   -0.3972188  
   0.008999600     0.7593679   -0.4927874  
   0.010999500     0.6667212   -0.5840055  
   0.012999400     0.5540246   -0.6684775  
   0.014999300     0.4148918   -0.7398942  
   0.016999200     0.2431163   -0.7861622  
   0.018999100     0.0326785   -0.7874171  
   0.020999000    -0.2091583   -0.7088414  
   0.022998900    -0.4459554   -0.5073927  
   0.024998800    -0.5677772   -0.1681868  
   0.026998700    -0.5272148    0.2505858  
   0.028998600    -0.2464103    0.5715746  
   0.030998500     0.1268874    0.6881030  
   0.032998400     0.4264524    0.6159198  
   0.034998300     0.6852790    0.4782946  
   0.036998200     0.8244101    0.2986159  
   0.038998100     0.8966342    0.1218402  
   0.040998000     0.9221087   -0.0402779  
   0.042997900     0.9152541   -0.1847363  
   0.044997800     0.8604380   -0.2853959  
   0.046997700     0.8411747   -0.4220264  
   0.048997600     0.7849432   -0.5179363  
   0.050997500     0.7203113   -0.6003680  
   0.052997400     0.6496755   -0.6710486  
   0.054997300     0.5740185   -0.7306903  
   0.056997200     0.4931042   -0.7816033  
   0.058997100     0.4094644   -0.8223285  
   0.060997000     0.3226044   -0.8543361  
   0.062996900     0.2331578   -0.8767841  
   0.064996800     0.1410335   -0.8896043  
   0.066996700     0.0468421   -0.8930171  
   0.068996600    -0.0487283   -0.8857632  
   0.070996500    -0.1453533   -0.8682628  
   0.072996400    -0.2419283   -0.8378513  
   0.074996300    -0.3375164   -0.7946122  
   0.076996200    -0.4305172   -0.7377344  
   0.078996100    -0.5183365   -0.6659929  
   0.080996000    -0.5996833   -0.5788001  
   0.082995900    -0.6707896   -0.4761282  
   0.084995800    -0.7276958   -0.3578425  
   0.086995700    -0.7682098   -0.2257090  
   0.088995600    -0.7866954   -0.0807460  
   0.090995500    -0.7787880    0.0726755  
   0.092995400    -0.7412084    0.2302811  
   0.094995300    -0.6689893    0.3837404  
   0.096995200    -0.5625166    0.5249132  
   0.098995100    -0.4234773    0.6443326  
   0.100995000    -0.2564235    0.7315709  
   0.102994900    -0.0722935    0.7792143  
   0.104994800     0.1182180    0.7835453  
   0.106994700     0.3030171    0.7434471  
   0.108994600     0.4710849    0.6649900  
   0.110994500     0.6142996    0.5544827  
   0.112994400     0.7261941    0.4205169  
   0.114994300     0.8047369    0.2726158  
   0.116994200     0.8508009    0.1189972  
   0.118994100     0.8660505   -0.0332172  
   0.120994000     0.8559221   -0.1790979  
   0.122993900     0.8208943   -0.3146456  
   0.124993800     0.7664019   -0.4367212  
   0.126993700     0.6967278   -0.5443611  
   0.128993600     0.6134396   -0.6359290  
   0.130993500     0.5219558   -0.7124867  
   0.132993400     0.4234591   -0.7736767  
   0.134993300     0.3202665   -0.8194211  
   0.136993200     0.2141492   -0.8506070  
   0.138993100     0.1064556   -0.8673031  
   0.140993000    -0.0010012   -0.8698506  
   0.142992900    -0.1073233   -0.8585912  
   0.144992800    -0.2113782   -0.8355253  
   0.146992700    -0.3115255   -0.7981247  
   0.148992600    -0.4068655   -0.7478309  
   0.150992500    -0.4946165   -0.6841148  
   0.152992400    -0.5757260   -0.6096373  
   0.154992300    -0.6472629   -0.5238733  
   0.156992200    -0.7082054   -0.4269901  
   0.158992100    -0.7561224   -0.3202503  
   0.160992000    -0.7895823   -0.2047634  
   0.162991900    -0.8064092   -0.0823364  
   0.164991800    -0.8046685    0.0449015  
   0.166991700    -0.7830911    0.1742036  
   0.168991600    -0.7398005    0.3024088  
   0.170991500    -0.6739411    0.4255234  
   0.172991400    -0.5859597    0.5393032  
   0.174991300    -0.4767879    0.6385469  
   0.176991200    -0.3482510    0.7190315  
   0.178991100    -0.2037648    0.7759054  
   0.180991000    -0.0487875    0.8064575  
   0.182990900     0.1111246    0.8059707  
   0.184990800     0.2699552    0.7748468  
   0.186990700     0.4201750    0.7137232  
   0.188990600     0.5360621    0.6397815  
   0.190990500     0.6665663    0.5153888  
   0.192990400     0.7588036    0.3824751  
   0.194990300     0.8223765    0.2402816  
   0.196990200     0.8578216    0.0923134  
   0.198990100     0.8658063   -0.0560780  
   0.200990000     0.8481926   -0.2000147  
   0.202989900     0.8070760   -0.3354598  
   0.204989800     0.7459963   -0.4589905  
   0.206989700     0.6686924   -0.5679919  
   0.208989600     0.5769954   -0.6604374  
   0.210989500     0.4743368   -0.7361544  
   0.212989400     0.3638100   -0.7940227  
   0.214989300     0.2478736   -0.8343433  
   0.216989200     0.1301526   -0.8567776  
   0.218989100     0.0124162   -0.8622448  
   0.220989000    -0.1039614   -0.8511147  
   0.222988900    -0.2169234   -0.8235026  
   0.224988800    -0.3245967   -0.7808136  
   0.226988700    -0.4251045   -0.7237979  
   0.228988600    -0.5163407   -0.6535811  
   0.230988500    -0.5971065   -0.5708154  
   0.232988400    -0.6651224   -0.4758796  
   0.234988300    -0.7207086   -0.3712271  
   0.236988200    -0.7610312   -0.2578860  
   0.238988100    -0.7842385   -0.1380121  
   0.240988000    -0.7896664   -0.0142290  
   0.242987900    -0.7755103    0.1111826  
   0.244987800    -0.7412304    0.2354797  
   0.246987700    -0.6860184    0.3554876  
   0.248987600    -0.6099896    0.4677489  
   0.250987500    -0.5134441    0.5679215  
   0.252987400    -0.3991394    0.6513565  
   0.254987300    -0.2699012    0.7142127  
   0.256987200    -0.1292618    0.7537476  
   0.258987100     0.0187422    0.7687159  
   0.260987000     0.1685380    0.7544714  
   0.262986900     0.3149055    0.7120153  
   0.264986800     0.4509849    0.6424893  
   0.266986700     0.5716539    0.5487213  
   0.268986600     0.6719626    0.4347364  
   0.270986500     0.7481534    0.3058309  
   0.272986400     0.7987590    0.1666719  
   0.274986300     0.8230276    0.0234321  
   0.276986200     0.8216437   -0.1196102  
   0.278986100     0.7958347   -0.2574700  
   0.280986000     0.7474228   -0.3861809  
   0.282985900     0.6802858   -0.5025702  
   0.284985800     0.5968120   -0.6039110  
   0.286985700     0.5010363   -0.6885163  
   0.288985600     0.3962030   -0.7556188  
   0.290985500     0.2855782   -0.8046730  
   0.292985400     0.1713859   -0.8363374  
   0.294985300     0.0560472   -0.8509005  
   0.296985200    -0.0590645   -0.8494942  
   0.298985100    -0.1717257   -0.8319575  
   0.300985000    -0.2802790   -0.7991952  
   0.302984900    -0.3821107   -0.7524492  
   0.304984800    -0.4759819   -0.6926263  
   0.306984700    -0.5608578   -0.6214012  
   0.308984600    -0.6348213   -0.5396690  
   0.310984500    -0.6973056   -0.4488891  
   0.312984400    -0.7474154   -0.3497846  
   0.314984300    -0.7838728   -0.2428265  
   0.316984200    -0.8055438   -0.1305578  
   0.318984100    -0.8108420   -0.0130595  
   0.320984000    -0.7973158    0.1068030  
   0.322983900    -0.7644628    0.2265104  
   0.324983800    -0.7108750    0.3402770  
   0.326983700    -0.6373479    0.4436886  
   0.328983600    -0.5464466    0.5322221  
   0.330983500    -0.4431797    0.6021391  
   0.332983400    -0.3338237    0.6525328  
   0.334983300    -0.2207966    0.6852930  
   0.336983200    -0.1062203    0.7021863  
   0.338983100     0.0090945    0.7038983  
   0.340983000     0.1246533    0.6898877  
   0.342982900     0.2391822    0.6591401  
   0.344982800     0.3502039    0.6102989  
   0.346982700     0.4548706    0.5427058  
   0.348982600     0.5476385    0.4564921  
   0.350982500     0.6266253    0.3544684  
   0.352982400     0.6876901    0.2386963  
   0.354982300     0.7286813    0.1079529  
   0.356982200     0.7445140   -0.0418290  
   0.358982100     0.7299600   -0.1918653  
   0.360982000     0.6859336   -0.3356765  
   0.362981900     0.6145520   -0.4679580  
   0.364981800     0.5185817   -0.5831959  
   0.366981700     0.4026532   -0.6769692  
   0.368981600     0.2713724   -0.7459130  
   0.370981500     0.1300892   -0.7880386  
   0.372981400    -0.0150799   -0.8025915  
   0.374981300    -0.1597245   -0.7894521  
   0.376981200    -0.0373323   -0.8029447  
   0.378981100    -0.1794280   -0.7856752  
   0.380981000    -0.3148459   -0.7431071  
   0.382980900    -0.4283109   -0.6841755  
   0.384980800    -0.5253639   -0.6118838  
   0.386980700    -0.6097472   -0.5262160  
   0.388980600    -0.6800513   -0.4287352  
   0.390980500    -0.7344158   -0.3231782  
   0.392980400    -0.7721195   -0.2109718  
   0.394980300    -0.7926193   -0.0945687  
   0.396980200    -0.7956614    0.0234310  
   0.398980100    -0.7809948    0.1412333  
   0.400980000    -0.7491564    0.2565552  
   0.402979900    -0.6994883    0.3664227  
   0.404979800    -0.6337126    0.4682941  
   0.406979700    -0.5521536    0.5600214  
   0.408979600    -0.4568345    0.6389830  
   0.410979500    -0.3484560    0.7031894  
   0.412979400    -0.2289777    0.7505385  
   0.414979300    -0.1019446    0.7769889  
   0.416979200     0.0294515    0.7837709  
   0.418979100     0.1613621    0.7688866  
   0.420979000     0.2906471    0.7319523  
   0.422978900     0.4130524    0.6731866  
   0.424978800     0.5247316    0.5934099  
   0.426978700     0.6220132    0.4952025  
   0.428978600     0.7009535    0.3810523  
   0.430978500     0.7588837    0.2552839  
   0.432978400     0.7941445    0.1215891  
   0.434978300     0.8071103   -0.0157526  
   0.436978200     0.7950624   -0.1526561  
   0.438978100     0.7599033   -0.2845353  
   0.440978000     0.7034184   -0.4074744  
   0.442977900     0.6276769   -0.5183842  
   0.444977800     0.5352620   -0.6138231  
   0.446977700     0.4295454   -0.6919973  
   0.448977600     0.3140362   -0.7509074  
   0.450977500     0.1920266   -0.7895901  
   0.452977400     0.0661012   -0.8080676  
   0.454977300    -0.0602124   -0.8062307  
   0.456977200    -0.1839575   -0.7847900  
   0.458977100    -0.3017660   -0.7442355  
   0.460977000    -0.4105305   -0.6861602  
   0.462976900    -0.5081580   -0.6129786  
   0.464976800    -0.5930153   -0.5256900  
   0.466976700    -0.6629401   -0.4271532  
   0.468976600    -0.7168747   -0.3192129  
   0.470976500    -0.7535054   -0.2044415  
   0.472976400    -0.7721822   -0.0850101  
   0.474976300    -0.7720766    0.0361296  
   0.476976200    -0.7531933    0.1560055  
   0.478976100    -0.7152446    0.2717641  
   0.480976000    -0.6598379    0.3805783  
   0.482975900    -0.5873401    0.4798867  
   0.484975800    -0.4992400    0.5673112  
   0.486975700    -0.3968364    0.6397111  
   0.488975600    -0.2829121    0.6951047  
   0.490975500    -0.1599577    0.7309731  
   0.492975400    -0.0313514    0.7457975  
   0.494975300     0.0986761    0.7380489  
   0.496975200     0.2260423    0.7075416  
   0.498975100     0.3462625    0.6551018  
   0.500975000     0.4553091    0.5822386  
   0.502974900     0.5490195    0.4916925  
   0.504974800     0.6246895    0.3863977  
   0.506974700     0.6799939    0.2707129  
   0.508974600     0.7140169    0.1480171  
   0.510974500     0.7254683    0.0238622  
   0.512974400     0.7161728   -0.0980847  
   0.514974300     0.6867124   -0.2121598  
   0.516974200     0.6421841   -0.3182458  
   0.518974100     0.5837056   -0.4134438  
   0.520974000     0.5138491   -0.4970274  
   0.522973900     0.4346191   -0.5685348  
   0.524973800     0.3483960   -0.6278470  
   0.526973700     0.2551449   -0.6750954  
   0.528973600     0.1567577   -0.7094291  
   0.530973500     0.0537849   -0.7308522  
   0.532973400    -0.0521263   -0.7379048  
   0.534973300    -0.1595244   -0.7299287  
   0.536973200    -0.2669707   -0.7059314  
   0.538973100    -0.3704304   -0.6650285  
   0.540973000    -0.4676974   -0.6084394  
   0.542972900    -0.5563501   -0.5358922  
   0.544972800    -0.6336231   -0.4496399  
   0.546972700    -0.6966972   -0.3503200  
   0.548972600    -0.7434832   -0.2409037  
   0.550972500    -0.7721059   -0.1244085  
   0.552972400    -0.7818353   -0.0038501  
   0.554972300    -0.7716826    0.1175021  
   0.556972200    -0.7415895    0.2364394  
   0.558972100    -0.6925332    0.3493291  
   0.560972000    -0.6256683    0.4533480  
   0.562971900    -0.5426557    0.5451629  
   0.564971800    -0.4454055    0.6227311  
   0.566971700    -0.3364848    0.6839700  
   0.568971600    -0.2188093    0.7268782  
   0.570971500    -0.0950310    0.7501142  
   0.572971400     0.0322380    0.7528174  
   0.574971300     0.1592140    0.7345124  
   0.576971200     0.2825634    0.6946841  
   0.578971100     0.3984222    0.6343853  
   0.580971000     0.5030206    0.5546497  
   0.582970900     0.5927088    0.4582185  
   0.584970800     0.6646622    0.3475529  
   0.586970700     0.7164306    0.2264107  
   0.588970600     0.7470716    0.0978753  
   0.590970500     0.7550429   -0.0337922  
   0.592970400     0.7405893   -0.1647474  
   0.594970300     0.7039177   -0.2908438  
   0.596970200     0.6463962   -0.4086081  
   0.598970100     0.5704062   -0.5138548  
   0.600970000     0.4779482   -0.6048702  
   0.602969900     0.3723840   -0.6783722  
   0.604969800     0.2568614   -0.7326211  
   0.606969700     0.1348879   -0.7667621  
   0.608969600     0.0095176   -0.7806282  
   0.610969500    -0.1149645   -0.7741906  
   0.612969400    -0.2359695   -0.7475964  
   0.614969300    -0.3498048   -0.7027681  
   0.616969200    -0.4537239   -0.6411057  
   0.618969100    -0.5456232   -0.5653525  
   0.620969000    -0.6241862   -0.4771815  
   0.622968900    -0.6881964   -0.3785792  
   0.624968800    -0.7364303   -0.2720650  
   0.626968700    -0.7681659   -0.1591747  
   0.628968600    -0.7826964   -0.0430515  
   0.630968500    -0.7795131    0.0742277  
   0.632968400    -0.7587213    0.1894989  
   0.634968300    -0.7209255    0.3009822  
   0.636968200    -0.6664276    0.4057254  
   0.638968100    -0.5964067    0.5017880  
   0.640968000    -0.5119493    0.5862014  
   0.642967900    -0.4149946    0.6577852  
   0.644967800    -0.3070174    0.7140368  
   0.646967700    -0.1906394    0.7529255  
   0.648967600    -0.0692402    0.7732108  
   0.650967500     0.0549438    0.7744114  
   0.652967400     0.1787798    0.7554655  
   0.654967300     0.2987752    0.7168999  
   0.656967200     0.4117746    0.6587246  
   0.658967100     0.5148615    0.5824250  
   0.660967000     0.6045831    0.4894618  
   0.662966900     0.6783811    0.3819042  
   0.664966800     0.7339376    0.2616908  
   0.666966700     0.7684147    0.1336511  
   0.668966600     0.7809216    0.0012436  
   0.670966500     0.7709526   -0.1317046  
   0.672966400     0.7393211   -0.2604970  
   0.674966300     0.6856897   -0.3813199  
   0.676966200     0.6128354   -0.4905654  
   0.678966100     0.5240856   -0.5850445  
   0.680966000     0.4211572   -0.6629330  
   0.682965900     0.3082924   -0.7218056  
   0.684965800     0.1886351   -0.7614669  
   0.686965700     0.0652936   -0.7807630  
   0.688965600    -0.0583171   -0.7805492  
   0.690965500    -0.1780435   -0.7593186  
   0.692965400    -0.2924371   -0.7214438  
   0.694965300    -0.3981454   -0.6669047  
   0.696965200    -0.4934217   -0.5975405  
   0.698965100    -0.5761985   -0.5149255  
   0.700965000    -0.6452700   -0.4212964  
   0.702964900    -0.6990244   -0.3187391  
   0.704964800    -0.7368155   -0.2096538  
   0.706964700    -0.7575167   -0.0961923  
   0.708964600    -0.7608729    0.0190154  
   0.710964500    -0.7472565    0.1341801  
   0.712964400    -0.7154608    0.2459849  
   0.714964300    -0.6667439    0.3521238  
   0.716964200    -0.6021447    0.4494401  
   0.718964100    -0.5228187    0.5357753  
   0.720964000    -0.4307424    0.6090835  
   0.722963900    -0.3278832    0.6673433  
   0.724963800    -0.2164502    0.7085931  
   0.726963700    -0.0989144    0.7315841  
   0.728963600     0.0215814    0.7346858  
   0.730963500     0.1413049    0.7181020  
   0.732963400     0.2570588    0.6819732  
   0.734963300     0.3657636    0.6269455  
   0.736963200     0.4778219    0.5430286  
   0.738963100     0.5724855    0.4392822  
   0.740963000     0.6453903    0.3197478  
   0.742962900     0.6941682    0.1888540  
   0.744962800     0.7173331    0.0524791  
   0.746962700     0.7146488   -0.0847498  
   0.748962600     0.6868072   -0.2178314  
   0.750962500     0.6985945   -0.1101235  
   0.752962400     0.6677793   -0.2404613  
   0.754962300     0.6142702   -0.3621252  
   0.756962200     0.5405514   -0.4709484  
   0.758962100     0.4490287   -0.5647300  
   0.760962000     0.3428362   -0.6402807  
   0.762961900     0.2310707   -0.6937149  
   0.764961800     0.1223287   -0.7257645  
   0.766961700     0.0102271   -0.7410483  
   0.768961600    -0.1032486   -0.7390447  
   0.770961500    -0.2153667   -0.7197984  
   0.772961400    -0.3233208   -0.6835414  
   0.774961300    -0.4244235   -0.6312117  
   0.776961200    -0.5169845   -0.5634018  
   0.778961100    -0.5980909   -0.4818521  
   0.780961000    -0.6654532   -0.3879522  
   0.782960900    -0.7179203   -0.2844231  
   0.784960800    -0.7533313   -0.1730475  
   0.786960700    -0.7706471   -0.0570332  
   0.788960600    -0.7697062    0.0605990  
   0.790960500    -0.7497902    0.1766912  
   0.792960400    -0.7120411    0.2881622  
   0.794960300    -0.6570576    0.3926027  
   0.796960200    -0.5864234    0.4871911  
   0.798960100    -0.5016161    0.5691358  
   0.800960000    -0.4051419    0.6371624  
   0.802959900    -0.2987680    0.6891679  
   0.804959800    -0.1855980    0.7241096  
   0.806959700    -0.0679288    0.7406828  
   0.808959600     0.0512222    0.7383032  
   0.810959500     0.1689492    0.7175335  
   0.812959400     0.2823499    0.6777661  
   0.814959300     0.3886884    0.6199524  
   0.816959200     0.4847342    0.5459580  
   0.818959100     0.5679044    0.4567029  
   0.820959000     0.6360549    0.3544087  
   0.822958900     0.6866882    0.2421507  
   0.824958800     0.7183747    0.1223386  
   0.826958700     0.7303078   -0.0015471  
   0.828958600     0.7209992   -0.1257665  
   0.830958500     0.6914378   -0.2470909  
   0.832958400     0.6417654   -0.3616291  
   0.834958300     0.5742783   -0.4661258  
   0.836958200     0.4905479   -0.5580363  
   0.838958100     0.3929895   -0.6343511  
   0.840958000     0.2844684   -0.6935821  
   0.842957900     0.1681416   -0.7339848  
   0.844957800     0.0471397   -0.7544870  
   0.846957700    -0.0748636   -0.7553682  
   0.848957600    -0.1945067   -0.7364802  
   0.850957500    -0.3088118   -0.6988912  
   0.852957400    -0.4152686   -0.6439009  
   0.854957300    -0.5109620   -0.5731704  
   0.856957200    -0.5937975   -0.4890126  
   0.858957100    -0.6617577   -0.3936988  
   0.860957000    -0.7139436   -0.2898850  
   0.862956900    -0.7494256   -0.1804865  
   0.864956800    -0.7677895   -0.0681859  
   0.866956700    -0.7687644    0.0445324  
   0.868956600    -0.7531396    0.1560601  
   0.870956500    -0.7214025    0.2634050  
   0.872956400    -0.6740251    0.3653531  
   0.874956300    -0.6123599    0.4588816  
   0.876956200    -0.5368097    0.5430450  
   0.878956100    -0.4490938    0.6157296  
   0.880956000    -0.3510748    0.6744217  
   0.882955900    -0.2441375    0.7182148  
   0.884955800    -0.1314207    0.7456132  
   0.886955700    -0.0146609    0.7553619  
   0.888955600     0.1032091    0.7468271  
   0.890955500     0.2193450    0.7198600  
   0.892955400     0.3305784    0.6746903  
   0.894955300     0.4339883    0.6119750  
