! MS46122B
! 2250307/22442219
! 7/28/2025 2:03:00 PM
! C:\USERS\SPARKY\DOCUMENTS\VNA_DATA\JULY28_2025\3K\PORT4_MOS5.S1P
! CHANNEL.1
! TR.MEASUREMENT
! RAW.DATA
# GHZ S RI R 50.0
! FREQ.GHZ         S11RE         S11IM         
!; PortSelection: Port_1
   0.001000000     1.0460850   -0.0722703  
   0.002999900     0.9646427   -0.1945635  
   0.004999800     0.9043724   -0.2994240  
   0.006999700     0.8373786   -0.3970809  
   0.008999600     0.7587280   -0.4925946  
   0.010999500     0.6656013   -0.5835204  
   0.012999400     0.5522680   -0.6674078  
   0.014999300     0.4123931   -0.7380213  
   0.016999200     0.2396618   -0.7824707  
   0.018999100     0.0286063   -0.7805931  
   0.020999000    -0.2123175   -0.6968862  
   0.022998900    -0.4436712   -0.4886774  
   0.024998800    -0.5541958   -0.1461889  
   0.026998700    -0.4972527    0.2659459  
   0.028998600    -0.2087945    0.5692648  
   0.030998500     0.1588572    0.6691324  
   0.032998400     0.4464306    0.5896714  
   0.034998300     0.6939924    0.4492939  
   0.036998200     0.8253133    0.2715890  
   0.038998100     0.8918368    0.0980828  
   0.040998000     0.9139835   -0.0610494  
   0.042997900     0.9045830   -0.2024866  
   0.044997800     0.8489230   -0.2998416  
   0.046997700     0.8278564   -0.4346170  
   0.048997600     0.7707475   -0.5281361  
   0.050997500     0.7055644   -0.6086259  
   0.052997400     0.6343855   -0.6775122  
   0.054997300     0.5583373   -0.7354917  
   0.056997200     0.4768787   -0.7847182  
   0.058997100     0.3927966   -0.8239759  
   0.060997000     0.3055609   -0.8542956  
   0.062996900     0.2157814   -0.8749321  
   0.064996800     0.1232595   -0.8859609  
   0.066996700     0.0288388   -0.8871980  
   0.068996600    -0.0668691   -0.8777197  
   0.070996500    -0.1636689   -0.8576964  
   0.072996400    -0.2598901   -0.8243215  
   0.074996300    -0.3547543   -0.7782376  
   0.076996200    -0.4467774   -0.7178869  
   0.078996100    -0.5328640   -0.6424047  
   0.080996000    -0.6118931   -0.5514817  
   0.082995900    -0.6796449   -0.4446827  
   0.084995800    -0.7320683   -0.3227497  
   0.086995700    -0.7667037   -0.1870510  
   0.088995600    -0.7780045   -0.0396503  
   0.090995500    -0.7612682    0.1149204  
   0.092995400    -0.7139319    0.2717105  
   0.094995300    -0.6311933    0.4220555  
   0.096995200    -0.5144498    0.5562839  
   0.098995100    -0.3664558    0.6656201  
   0.100995000    -0.1930820    0.7404863  
   0.102994900    -0.0066572    0.7732981  
   0.104994800     0.1824542    0.7625735  
   0.106994700     0.3616888    0.7083965  
   0.108994600     0.5206791    0.6182640  
   0.110994500     0.6520401    0.4986675  
   0.112994400     0.7512837    0.3593723  
   0.114994300     0.8172199    0.2092209  
   0.116994200     0.8509657    0.0562958  
   0.118994100     0.8551284   -0.0932158  
   0.120994000     0.8357614   -0.2348050  
   0.122993900     0.7927966   -0.3646108  
   0.124993800     0.7319292   -0.4802451  
   0.126993700     0.6568232   -0.5816224  
   0.128993600     0.5697420   -0.6659899  
   0.130993500     0.4754993   -0.7358784  
   0.132993400     0.3750488   -0.7899697  
   0.134993300     0.2707655   -0.8292276  
   0.136993200     0.1641773   -0.8538261  
   0.138993100     0.0564898   -0.8640422  
   0.140993000    -0.0503355   -0.8604077  
   0.142992900    -0.1554222   -0.8429030  
   0.144992800    -0.2578263   -0.8137996  
   0.146992700    -0.3556089   -0.7700811  
   0.148992600    -0.4477988   -0.7137837  
   0.150992500    -0.5318232   -0.6442025  
   0.152992400    -0.6083893   -0.5638814  
   0.154992300    -0.6743337   -0.4726399  
   0.156992200    -0.7287005   -0.3700878  
   0.158992100    -0.7690712   -0.2590992  
   0.160992000    -0.7938245   -0.1394653  
   0.162991900    -0.8008399   -0.0145212  
   0.164991800    -0.7882302    0.1144651  
   0.166991700    -0.7544698    0.2433811  
   0.168991600    -0.6986843    0.3689497  
   0.170991500    -0.6196143    0.4872737  
   0.172991400    -0.5190638    0.5931222  
   0.174991300    -0.3980953    0.6813819  
   0.176991200    -0.2596236    0.7481406  
   0.178991100    -0.1082187    0.7886915  
   0.180991000     0.0504540    0.8006939  
   0.182990900     0.2098455    0.7810714  
   0.184990800     0.3637192    0.7305253  
   0.186990700     0.5047533    0.6514235  
   0.188990600     0.6098496    0.5641313  
   0.190990500     0.7227169    0.4251448  
   0.192990400     0.7967307    0.2835085  
   0.194990300     0.8413283    0.1368928  
   0.196990200     0.8576409   -0.0115773  
   0.198990100     0.8478122   -0.1572046  
   0.200990000     0.8133788   -0.2952966  
   0.202989900     0.7579390   -0.4224411  
   0.204989800     0.6840140   -0.5355328  
   0.206989700     0.5965618   -0.6331355  
   0.208989600     0.4967503   -0.7127405  
   0.210989500     0.3883543   -0.7751489  
   0.212989400     0.2732949   -0.8198351  
   0.214989300     0.1557841   -0.8463959  
   0.216989200     0.0374215   -0.8557681  
   0.218989100    -0.0790877   -0.8480745  
   0.220989000    -0.1925323   -0.8242082  
   0.222988900    -0.3012842   -0.7842953  
   0.224988800    -0.4033988   -0.7298201  
   0.226988700    -0.4967882   -0.6616687  
   0.228988600    -0.5795554   -0.5808842  
   0.230988500    -0.6506094   -0.4884700  
   0.232988400    -0.7070864   -0.3847550  
   0.234988300    -0.7498443   -0.2727810  
   0.236988200    -0.7755941   -0.1534020  
   0.238988100    -0.7833240   -0.0296315  
   0.240988000    -0.7715303    0.0960853  
   0.242987900    -0.7393637    0.2205932  
   0.244987800    -0.6864191    0.3409845  
   0.246987700    -0.6123247    0.4537478  
   0.248987600    -0.5181661    0.5550727  
   0.250987500    -0.4046314    0.6402269  
   0.252987400    -0.2758301    0.7050039  
   0.254987300    -0.1358394    0.7460432  
   0.256987200     0.0116214    0.7611669  
   0.258987100     0.1613520    0.7496935  
   0.260987000     0.3076428    0.7086727  
   0.262986900     0.4441287    0.6404415  
   0.264986800     0.5652379    0.5473518  
   0.266986700     0.6663401    0.4336241  
   0.268986600     0.7433456    0.3046617  
   0.270986500     0.7943566    0.1655973  
   0.272986400     0.8187632    0.0225089  
   0.274986300     0.8175092   -0.1205387  
   0.276986200     0.7916821   -0.2577404  
   0.278986100     0.7433823   -0.3864154  
   0.280986000     0.6762465   -0.5025072  
   0.282985900     0.5926594   -0.6037554  
   0.284985800     0.4962227   -0.6884149  
   0.286985700     0.3904036   -0.7555110  
   0.288985600     0.2788818   -0.8041925  
   0.290985500     0.1640968   -0.8350844  
   0.292985400     0.0484679   -0.8487550  
   0.294985300    -0.0663826   -0.8463593  
   0.296985200    -0.1785268   -0.8278674  
   0.298985100    -0.2867568   -0.7940871  
   0.300985000    -0.3889154   -0.7458254  
   0.302984900    -0.4826365   -0.6844253  
   0.304984800    -0.5672175   -0.6112606  
   0.306984700    -0.6409178   -0.5270594  
   0.308984600    -0.7020743   -0.4337569  
   0.310984500    -0.7505442   -0.3326071  
   0.312984400    -0.7846121   -0.2240150  
   0.314984300    -0.8033459   -0.1099994  
   0.316984200    -0.8049889    0.0080548  
   0.318984100    -0.7880489    0.1282135  
   0.320984000    -0.7508792    0.2472916  
   0.322983900    -0.6926576    0.3604691  
   0.324983800    -0.6138428    0.4625160  
   0.326983700    -0.5175769    0.5483973  
   0.328983600    -0.4084454    0.6139209  
   0.330983500    -0.2936634    0.6575819  
   0.332983400    -0.1780723    0.6816434  
   0.334983300    -0.0639163    0.6890177  
   0.336983200     0.0482352    0.6823514  
   0.338983100     0.1589768    0.6613089  
   0.340983000     0.2676050    0.6254529  
   0.342982900     0.3723798    0.5733851  
   0.344982800     0.4706614    0.5037248  
   0.346982700     0.5587800    0.4161853  
   0.348982600     0.6313447    0.3125237  
   0.350982500     0.6868112    0.1963323  
   0.352982400     0.7211041    0.0703505  
   0.354982300     0.7320402   -0.0657784  
   0.356982200     0.7138028   -0.2148850  
   0.358982100     0.6659260   -0.3570095  
   0.360982000     0.5908305   -0.4864117  
   0.362981900     0.4918326   -0.5978617  
   0.364981800     0.3728246   -0.6874874  
   0.366981700     0.2396004   -0.7517599  
   0.368981600     0.0975151   -0.7883655  
   0.370981500    -0.0479138   -0.7973153  
   0.372981400    -0.1909404   -0.7788194  
   0.374981300    -0.3274712   -0.7336196  
   0.376981200    -0.2104130   -0.7752058  
   0.378981100    -0.3440573   -0.7273355  
   0.380981000    -0.4662200   -0.6560388  
   0.382980900    -0.5636682   -0.5736393  
   0.384980800    -0.6422575   -0.4822019  
   0.386980700    -0.7062632   -0.3798937  
   0.388980600    -0.7536237   -0.2689412  
   0.390980500    -0.7832381   -0.1528017  
   0.392980400    -0.7952815   -0.0339079  
   0.394980300    -0.7891558    0.0854752  
   0.396980200    -0.7651597    0.2033077  
   0.398980100    -0.7233711    0.3168476  
   0.400980000    -0.6641064    0.4234356  
   0.402979900    -0.5884793    0.5211703  
   0.404979800    -0.4979168    0.6065534  
   0.406979700    -0.3940006    0.6778674  
   0.408979600    -0.2786151    0.7321429  
   0.410979500    -0.1537406    0.7682535  
   0.412979400    -0.0226908    0.7835148  
   0.414979300     0.1107250    0.7758415  
   0.416979200     0.2427894    0.7470112  
   0.418979100     0.3690510    0.6956114  
   0.420979000     0.4858200    0.6227326  
   0.422978900     0.5892431    0.5300063  
   0.424978800     0.6754656    0.4200205  
   0.426978700     0.7413307    0.2960031  
   0.428978600     0.7845087    0.1624155  
   0.430978500     0.8034742    0.0238616  
   0.432978400     0.7979705   -0.1147707  
   0.434978300     0.7701611   -0.2501064  
   0.436978200     0.7182332   -0.3771788  
   0.438978100     0.6462038   -0.4921702  
   0.440978000     0.5565826   -0.5928272  
   0.442977900     0.4526031   -0.6759609  
   0.444977800     0.3378000   -0.7395406  
   0.446977700     0.2152455   -0.7829851  
   0.448977600     0.0892499   -0.8054819  
   0.450977500    -0.0375167   -0.8074717  
   0.452977400    -0.1617856   -0.7893556  
   0.454977300    -0.2815178   -0.7520869  
   0.456977200    -0.3930342   -0.6967447  
   0.458977100    -0.4941119   -0.6248209  
   0.460977000    -0.5818136   -0.5386605  
   0.462976900    -0.6546600   -0.4405186  
   0.464976800    -0.7116460   -0.3326753  
   0.466976700    -0.7506614   -0.2172535  
   0.468976600    -0.7715957   -0.0973000  
   0.470976500    -0.7735694    0.0252510  
   0.472976400    -0.7563944    0.1465571  
   0.474976300    -0.7195203    0.2645222  
   0.476976200    -0.6644803    0.3759028  
   0.478976100    -0.5918017    0.4775038  
   0.480976000    -0.5033704    0.5664331  
   0.482975900    -0.4007570    0.6404071  
   0.484975800    -0.2862531    0.6969316  
   0.486975700    -0.1624627    0.7339979  
   0.488975600    -0.0331671    0.7498866  
   0.490975500     0.0981635    0.7431213  
   0.492975400     0.2272736    0.7131820  
   0.494975300     0.3498351    0.6610578  
   0.496975200     0.4613218    0.5875649  
   0.498975100     0.5575788    0.4957113  
   0.500975000     0.6352104    0.3891627  
   0.502974900     0.6924174    0.2711923  
   0.504974800     0.7274817    0.1463753  
   0.506974700     0.7397443    0.0190945  
   0.508974600     0.7299989   -0.1068483  
   0.510974500     0.6997020   -0.2267422  
   0.512974400     0.6511784   -0.3373791  
   0.514974300     0.5865242   -0.4346274  
   0.516974200     0.5107067   -0.5198619  
   0.518974100     0.4255514   -0.5908215  
   0.520974000     0.3333402   -0.6480519  
   0.522973900     0.2356680   -0.6913275  
   0.524973800     0.1342217   -0.7205830  
   0.526973700     0.0295910   -0.7366104  
   0.528973600    -0.0765169   -0.7383468  
   0.530973500    -0.1833171   -0.7257658  
   0.532973400    -0.2886369   -0.6976589  
   0.534973300    -0.3903845   -0.6533160  
   0.536973200    -0.4860838   -0.5934451  
   0.538973100    -0.5726429   -0.5183131  
   0.540973000    -0.6472854   -0.4297661  
   0.542972900    -0.7075476   -0.3285405  
   0.544972800    -0.7511432   -0.2176801  
   0.546972700    -0.7765239   -0.0998382  
   0.548972600    -0.7825170    0.0219450  
   0.550972500    -0.7683249    0.1439692  
   0.552972400    -0.7338862    0.2630505  
   0.554972300    -0.6802127    0.3753746  
   0.556972200    -0.6084037    0.4780934  
   0.558972100    -0.5202091    0.5681195  
   0.560972000    -0.4180609    0.6426708  
   0.562971900    -0.3046531    0.6998166  
   0.564971800    -0.1832091    0.7377060  
   0.566971700    -0.0567038    0.7549866  
   0.568971600     0.0717870    0.7512581  
   0.570971500     0.1983777    0.7264207  
   0.572971400     0.3198892    0.6802807  
   0.574971300     0.4329460    0.6136355  
   0.576971200     0.5340557    0.5282905  
   0.578971100     0.6195148    0.4261209  
   0.580971000     0.6861368    0.3105971  
   0.582970900     0.7318580    0.1850451  
   0.584970800     0.7554719    0.0539461  
   0.586970700     0.7561119   -0.0789943  
   0.588970600     0.7340975   -0.2098883  
   0.590970500     0.6900980   -0.3343904  
   0.592970400     0.6257986   -0.4489200  
   0.594970300     0.5434547   -0.5503961  
   0.596970200     0.4458134   -0.6362177  
   0.598970100     0.3360857   -0.7039428  
   0.600970000     0.2178332   -0.7515501  
   0.602969900     0.0937073   -0.7793336  
   0.604969800    -0.0321064   -0.7865309  
   0.606969700    -0.1564277   -0.7736504  
   0.608969600    -0.2763408   -0.7407536  
   0.610969500    -0.3886376   -0.6898445  
   0.612969400    -0.4904592   -0.6223471  
   0.614969300    -0.5797569   -0.5406598  
   0.616969200    -0.6545482   -0.4471225  
   0.618969100    -0.7137344   -0.3440166  
   0.620969000    -0.7561712   -0.2341802  
   0.622968900    -0.7820239   -0.1193789  
   0.624968800    -0.7903039   -0.0020758  
   0.626968700    -0.7808465    0.1155244  
   0.628968600    -0.7538565    0.2307161  
   0.630968500    -0.7098287    0.3410138  
   0.632968400    -0.6489953    0.4440193  
   0.634968300    -0.5729387    0.5372987  
   0.636968200    -0.4832109    0.6184290  
   0.638968100    -0.3809253    0.6853250  
   0.640968000    -0.2686575    0.7359810  
   0.642967900    -0.1483977    0.7686899  
   0.644967800    -0.0240127    0.7821849  
   0.646967700     0.1028162    0.7757766  
   0.648967600     0.2276203    0.7487581  
   0.650967500     0.3472388    0.7015268  
   0.652967400     0.4580818    0.6351653  
   0.654967300     0.5574328    0.5508591  
   0.656967200     0.6416610    0.4510169  
   0.658967100     0.7084399    0.3376081  
   0.660967000     0.7556123    0.2139163  
   0.662966900     0.7815152    0.0831618  
   0.664966800     0.7850301   -0.0506180  
   0.666966700     0.7657472   -0.1837972  
   0.668966600     0.7240171   -0.3110842  
   0.670966500     0.6614910   -0.4291571  
   0.672966400     0.5814469   -0.5352581  
   0.674966300     0.4847632   -0.6243778  
   0.676966200     0.3757056   -0.6953642  
   0.678966100     0.2575392   -0.7467586  
   0.680966000     0.1343713   -0.7775679  
   0.682965900     0.0091374   -0.7878658  
   0.684965800    -0.1147827   -0.7784991  
   0.686965700    -0.2340450   -0.7494427  
   0.688965600    -0.3464485   -0.7027413  
   0.690965500    -0.4483422   -0.6388242  
   0.692965400    -0.5391304   -0.5615797  
   0.694965300    -0.6160335   -0.4723256  
   0.696965200    -0.6781108   -0.3733649  
   0.698965100    -0.7245905   -0.2662197  
   0.700965000    -0.7540377   -0.1535553  
   0.702964900    -0.7661582   -0.0379407  
   0.704964800    -0.7609357    0.0784636  
   0.706964700    -0.7377744    0.1927732  
   0.708964600    -0.6970408    0.3027083  
   0.710964500    -0.6400437    0.4065745  
   0.712964400    -0.5666088    0.5002481  
   0.714964300    -0.4787568    0.5816736  
   0.716964200    -0.3786727    0.6485630  
   0.718964100    -0.2686489    0.6986823  
   0.720964000    -0.1516092    0.7306117  
   0.722963900    -0.0303949    0.7433087  
   0.724963800     0.0922419    0.7359242  
   0.726963700     0.2119961    0.7081441  
   0.728963600     0.3264139    0.6606533  
   0.730963500     0.4306936    0.5938042  
   0.732963400     0.5226652    0.5110253  
   0.734963300     0.6000186    0.4139634  
   0.736963200     0.6675219    0.2896614  
   0.738963100     0.7101802    0.1546250  
   0.740963000     0.7264324    0.0152384  
   0.742962900     0.7162662   -0.1235301  
   0.744962800     0.6808427   -0.2565757  
   0.746962700     0.6218089   -0.3795557  
   0.748962600     0.5423956   -0.4885379  
   0.750962500     0.5983930   -0.4000202  
   0.752962400     0.5172979   -0.5061058  
   0.754962300     0.4194869   -0.5946848  
   0.756962200     0.3081839   -0.6644315  
   0.758962100     0.1867698   -0.7128276  
   0.760962000     0.0590084   -0.7391607  
   0.762961900    -0.0649373   -0.7433004  
   0.764961800    -0.1778602   -0.7293599  
   0.766961700    -0.2874714   -0.6986531  
   0.768961600    -0.3915375   -0.6512268  
   0.770961500    -0.4874935   -0.5883900  
   0.772961400    -0.5729688   -0.5111468  
   0.774961300    -0.6451427   -0.4215039  
   0.776961200    -0.7030851   -0.3212513  
   0.778961100    -0.7445646   -0.2127383  
   0.780961000    -0.7686101   -0.0983009  
   0.782960900    -0.7743110    0.0190626  
   0.784960800    -0.7613617    0.1365271  
   0.786960700    -0.7294332    0.2508323  
   0.788960600    -0.6798396    0.3592066  
   0.790960500    -0.6134856    0.4585529  
   0.792960400    -0.5323950    0.5457733  
   0.794960300    -0.4378899    0.6194314  
   0.796960200    -0.3329242    0.6773525  
   0.798960100    -0.2202007    0.7180175  
   0.800960000    -0.1022895    0.7401125  
   0.802959900     0.0182877    0.7431217  
   0.804959800     0.1379921    0.7273592  
   0.806959700     0.2538370    0.6922238  
   0.808959600     0.3627732    0.6388415  
   0.810959500     0.4621737    0.5684214  
   0.812959400     0.5495992    0.4826721  
   0.814959300     0.6220347    0.3832436  
   0.816959200     0.6777064    0.2728221  
   0.818959100     0.7146995    0.1541810  
   0.820959000     0.7318739    0.0310084  
   0.822958900     0.7282022   -0.0940071  
   0.824958800     0.7038826   -0.2168428  
   0.826958700     0.6595503   -0.3340939  
   0.828958600     0.5962724   -0.4423568  
   0.830958500     0.5158804   -0.5385886  
   0.832958400     0.4210155   -0.6198277  
   0.834958300     0.3144299   -0.6842995  
   0.836958200     0.1994483   -0.7297221  
   0.838958100     0.0791368   -0.7557943  
   0.840958000    -0.0435256   -0.7617177  
   0.842957900    -0.1648004   -0.7480900  
   0.844957800    -0.2817621   -0.7151513  
   0.846957700    -0.3909156   -0.6642922  
   0.848957600    -0.4903071   -0.5973650  
   0.850957500    -0.5771883   -0.5157837  
   0.852957400    -0.6501979   -0.4220822  
   0.854957300    -0.7072911   -0.3188644  
   0.856957200    -0.7473557   -0.2089347  
   0.858957100    -0.7701521   -0.0944266  
   0.860957000    -0.7749981    0.0211435  
   0.862956900    -0.7624301    0.1349804  
   0.864956800    -0.7333310    0.2452518  
   0.866956700    -0.6882693    0.3494568  
   0.868956600    -0.6279001    0.4450927  
   0.870956500    -0.5543807    0.5314221  
   0.872956400    -0.4684408    0.6060775  
   0.874956300    -0.3721539    0.6675882  
   0.876956200    -0.2663508    0.7144843  
   0.878956100    -0.1538625    0.7445782  
   0.880956000    -0.0371472    0.7577997  
   0.882955900     0.0815772    0.7525529  
   0.884955800     0.1992951    0.7286566  
   0.886955700     0.3125858    0.6860636  
   0.888955600     0.4189356    0.6254937  
   0.890955500     0.5146975    0.5477700  
   0.892955400     0.5970807    0.4546244  
   0.894955300     0.6638055    0.3486707  
