! MS46122B
! 2250307/22442219
! 7/25/2025 1:45:47 PM
! C:\USERS\SPARKY\DOCUMENTS\VNA_DATA\JULY25_2025\3K\PORT3_MOS6_REPEAT1.S1P
! CHANNEL.1
! TR.MEASUREMENT
! RAW.DATA
# GHZ S RI R 50.0
! FREQ.GHZ         S11RE         S11IM         
!; PortSelection: Port_1
   0.001000000     1.0447130   -0.0725351  
   0.002999900     0.9466848   -0.2224147  
   0.004999800     0.8231206   -0.0978426  
   0.006999700     0.5113820   -0.3844787  
   0.008999600     0.9350464   -0.0391721  
   0.010999500     0.9158158   -0.2451646  
   0.012999400     0.8755718   -0.3501162  
   0.014999300     0.8348840   -0.4309020  
   0.016999200     0.7930493   -0.5015796  
   0.018999100     0.7485694   -0.5668989  
   0.020999000     0.6990881   -0.6275526  
   0.022998900     0.6445310   -0.6834242  
   0.024998800     0.5763799   -0.6989918  
   0.026998700     0.5177718   -0.7802600  
   0.028998600     0.4437843   -0.8203304  
   0.030998500     0.3623745   -0.8532954  
   0.032998400     0.2780175   -0.8439540  
   0.034998300     0.1770775   -0.8927547  
   0.036998200     0.0733141   -0.8960701  
   0.038998100    -0.0362498   -0.8855691  
   0.040998000    -0.1506274   -0.8582408  
   0.042997900    -0.2681997   -0.8123693  
   0.044997800    -0.3613999   -0.7265920  
   0.046997700    -0.4985552   -0.6511672  
   0.048997600    -0.6012615   -0.5311874  
   0.050997500    -0.6861060   -0.3826247  
   0.052997400    -0.7426279   -0.2065101  
   0.054997300    -0.7591957   -0.0082122  
   0.056997200    -0.7241113    0.2047699  
   0.058997100    -0.6293371    0.4111550  
   0.060997000    -0.4752664    0.5912528  
   0.062996900    -0.2712332    0.7224018  
   0.064996800    -0.0384564    0.7893103  
   0.066996700     0.1989509    0.7872800  
   0.068996600     0.4172302    0.7225780  
   0.070996500     0.6013206    0.6096311  
   0.072996400     0.7418151    0.4643361  
   0.074996300     0.8378996    0.3025733  
   0.076996200     0.8927311    0.1368874  
   0.078996100     0.9123971   -0.0235338  
   0.080996000     0.9030693   -0.1744181  
   0.082995900     0.8699195   -0.3120188  
   0.084995800     0.8176479   -0.4342099  
   0.086995700     0.7521136   -0.5413679  
   0.088995600     0.6754571   -0.6334233  
   0.090995500     0.5905706   -0.7115491  
   0.092995400     0.5000747   -0.7758759  
   0.094995300     0.4038841   -0.8262865  
   0.096995200     0.3045634   -0.8637328  
   0.098995100     0.2030663   -0.8883036  
   0.100995000     0.0993508   -0.9007294  
   0.102994900    -0.0040429   -0.9008644  
   0.104994800    -0.1069585   -0.8885918  
   0.106994700    -0.2087915   -0.8635842  
   0.108994600    -0.3077759   -0.8266540  
   0.110994500    -0.4036438   -0.7771885  
   0.112994400    -0.4942322   -0.7152628  
   0.114994300    -0.5783665   -0.6400795  
   0.116994200    -0.6540346   -0.5517386  
   0.118994100    -0.7193714   -0.4510961  
   0.120994000    -0.7729186   -0.3390478  
   0.122993900    -0.8100463   -0.2149532  
   0.124993800    -0.8284961   -0.0814939  
   0.126993700    -0.8254647    0.0586152  
   0.128993600    -0.7968679    0.2020594  
   0.130993500    -0.7436036    0.3445235  
   0.132993400    -0.6627412    0.4804336  
   0.134993300    -0.5538554    0.6032689  
   0.136993200    -0.4195652    0.7060348  
   0.138993100    -0.2633008    0.7823842  
   0.140993000    -0.0916436    0.8262373  
   0.142992900     0.0881914    0.8338444  
   0.144992800     0.2667938    0.8049468  
   0.146992700     0.4346254    0.7380114  
   0.148992600     0.5835465    0.6388041  
   0.150992500     0.7056624    0.5126753  
   0.152992400     0.7989905    0.3684105  
   0.154992300     0.8601284    0.2132180  
   0.156992200     0.8898096    0.0542121  
   0.158992100     0.8897183   -0.1018398  
   0.160992000     0.8627715   -0.2502168  
   0.162991900     0.8124990   -0.3862535  
   0.164991800     0.7428836   -0.5080515  
   0.166991700     0.6574736   -0.6132720  
   0.168991600     0.5604864   -0.7007557  
   0.170991500     0.4540106   -0.7712858  
   0.172991400     0.3417798   -0.8233529  
   0.174991300     0.2260515   -0.8584077  
   0.176991200     0.1082300   -0.8765876  
   0.178991100    -0.0086122   -0.8782404  
   0.180991000    -0.1232624   -0.8648278  
   0.182990900    -0.2342519   -0.8356833  
   0.184990800    -0.3400742   -0.7919126  
   0.186990700    -0.4392705   -0.7341819  
   0.188990600    -0.5105284   -0.6782665  
   0.190990500    -0.6074610   -0.5832028  
   0.192990400    -0.6792328   -0.4868018  
   0.194990300    -0.7356602   -0.3823546  
   0.196990200    -0.7775717   -0.2702357  
   0.198990100    -0.8035402   -0.1508499  
   0.200990000    -0.8120077   -0.0261084  
   0.202989900    -0.8014424    0.1018575  
   0.204989800    -0.7711162    0.2295492  
   0.206989700    -0.7208964    0.3543097  
   0.208989600    -0.6485403    0.4713540  
   0.210989500    -0.5558688    0.5780985  
   0.212989400    -0.4427710    0.6700132  
   0.214989300    -0.3132446    0.7427558  
   0.216989200    -0.1705729    0.7923947  
   0.218989100    -0.0191592    0.8160718  
   0.220989000     0.1365519    0.8114249  
   0.222988900     0.2905886    0.7783148  
   0.224988800     0.4363925    0.7165613  
   0.226988700     0.5682154    0.6288477  
   0.228988600     0.6807693    0.5194911  
   0.230988500     0.7705175    0.3925234  
   0.232988400     0.8341224    0.2522830  
   0.234988300     0.8720580    0.1054503  
   0.236988200     0.8835591   -0.0432150  
   0.238988100     0.8695607   -0.1881618  
   0.240988000     0.8322095   -0.3254005  
   0.242987900     0.7742034   -0.4506380  
   0.244987800     0.6990213   -0.5628247  
   0.246987700     0.6092129   -0.6596503  
   0.248987600     0.5076351   -0.7402968  
   0.250987500     0.3971687   -0.8032205  
   0.252987400     0.2816179   -0.8483877  
   0.254987300     0.1635412   -0.8755802  
   0.256987200     0.0450717   -0.8857552  
   0.258987100    -0.0724956   -0.8810545  
   0.260987000    -0.1871827   -0.8587065  
   0.262986900    -0.2973949   -0.8212568  
   0.264986800    -0.4011679   -0.7692919  
   0.266986700    -0.4964303   -0.7038088  
   0.268986600    -0.5820813   -0.6258697  
   0.270986500    -0.6559688   -0.5371734  
   0.272986400    -0.7176289   -0.4384637  
   0.274986300    -0.7653999   -0.3309987  
   0.276986200    -0.7978997   -0.2162088  
   0.278986100    -0.8139839   -0.0952783  
   0.280986000    -0.8119897    0.0286646  
   0.282985900    -0.7906098    0.1541740  
   0.284985800    -0.7493524    0.2775907  
   0.286985700    -0.6873450    0.3952735  
   0.288985600    -0.6054985    0.5032540  
   0.290985500    -0.5048162    0.5977878  
   0.292985400    -0.3866772    0.6749550  
   0.294985300    -0.2531642    0.7316472  
   0.296985200    -0.1085509    0.7635751  
   0.298985100     0.0430077    0.7677455  
   0.300985000     0.1943468    0.7422125  
   0.302984900     0.3384945    0.6868359  
   0.304984800     0.4690104    0.6036754  
   0.306984700     0.5791522    0.4962524  
   0.308984600     0.6641105    0.3706794  
   0.310984500     0.7203314    0.2335895  
   0.312984400     0.7470129    0.0916550  
   0.314984300     0.7449630   -0.0476819  
   0.316984200     0.7167646   -0.1778905  
   0.318984100     0.6669829   -0.2944379  
   0.320984000     0.6004924   -0.3937395  
   0.322983900     0.5240145   -0.4737966  
   0.324983800     0.4434341   -0.5353037  
   0.326983700     0.3641058   -0.5810533  
   0.328983600     0.2882258   -0.6162927  
   0.330983500     0.2165215   -0.6454586  
   0.332983400     0.1458372   -0.6726868  
   0.334983300     0.0711582   -0.6987284  
   0.336983200    -0.0118537   -0.7208880  
   0.338983100    -0.1047713   -0.7343923  
   0.340983000    -0.2059328   -0.7336036  
   0.342982900    -0.3117480   -0.7142422  
   0.344982800    -0.4167853   -0.6750666  
   0.346982700    -0.5171416   -0.6159181  
   0.348982600    -0.6057142   -0.5378429  
   0.350982500    -0.6816927   -0.4463959  
   0.352982400    -0.7420338   -0.3423155  
   0.354982300    -0.7861123   -0.2240331  
   0.356982200    -0.8116066   -0.0850074  
   0.358982100    -0.8117579    0.0557131  
   0.360982000    -0.7866814    0.1936790  
   0.362981900    -0.7377612    0.3254822  
   0.364981800    -0.6662539    0.4471386  
   0.366981700    -0.5742679    0.5551524  
   0.368981600    -0.4639419    0.6457313  
   0.370981500    -0.3387659    0.7156914  
   0.372981400    -0.2013407    0.7632950  
   0.374981300    -0.0560580    0.7857986  
   0.376981200    -0.1639298    0.7791468  
   0.378981100    -0.0114197    0.7947795  
   0.380981000     0.1430950    0.7816665  
   0.382980900     0.2814480    0.7438077  
   0.384980800     0.4074540    0.6848424  
   0.386980700     0.5223533    0.6044624  
   0.388980600     0.6221218    0.5047678  
   0.390980500     0.7034252    0.3893900  
   0.392980400     0.7631338    0.2619655  
   0.394980300     0.7999980    0.1265624  
   0.396980200     0.8127846   -0.0124434  
   0.398980100     0.8013087   -0.1509853  
   0.400980000     0.7669122   -0.2843738  
   0.402979900     0.7105677   -0.4088326  
   0.404979800     0.6354862   -0.5205868  
   0.406979700     0.5433843   -0.6168910  
   0.408979600     0.4387169   -0.6957771  
   0.410979500     0.3234351   -0.7563523  
   0.412979400     0.2010430   -0.7965669  
   0.414979300     0.0753275   -0.8156423  
   0.416979200    -0.0501675   -0.8156003  
   0.418979100    -0.1724413   -0.7967095  
   0.420979000    -0.2889343   -0.7594147  
   0.422978900    -0.3973725   -0.7052825  
   0.424978800    -0.4960724   -0.6360933  
   0.426978700    -0.5825420   -0.5532246  
   0.428978600    -0.6549175   -0.4592371  
   0.430978500    -0.7122797   -0.3562352  
   0.432978400    -0.7536133   -0.2465227  
   0.434978300    -0.7797660   -0.1326485  
   0.436978200    -0.7875397   -0.0159286  
   0.438978100    -0.7781056    0.1012542  
   0.440978000    -0.7516460    0.2162766  
   0.442977900    -0.7080304    0.3269286  
   0.444977800    -0.6481369    0.4309676  
   0.446977700    -0.5724594    0.5247465  
   0.448977600    -0.4827655    0.6071522  
   0.450977500    -0.3803243    0.6757224  
   0.452977400    -0.2670328    0.7284867  
   0.454977300    -0.1447525    0.7629378  
   0.456977200    -0.0167309    0.7776714  
   0.458977100     0.1135204    0.7714555  
   0.460977000     0.2417962    0.7438190  
   0.462976900     0.3646833    0.6950312  
   0.464976800     0.4786408    0.6257603  
   0.466976700     0.5798823    0.5377342  
   0.468976600     0.6652194    0.4338467  
   0.470976500     0.7319147    0.3169034  
   0.472976400     0.7775413    0.1901772  
   0.474976300     0.8011078    0.0578003  
   0.476976200     0.8020026   -0.0757241  
   0.478976100     0.7809840   -0.2059907  
   0.480976000     0.7392006   -0.3295366  
   0.482975900     0.6782035   -0.4429918  
   0.484975800     0.6012177   -0.5436028  
   0.486975700     0.5099962   -0.6295227  
   0.488975600     0.4075261   -0.6993420  
   0.490975500     0.2972912   -0.7514104  
   0.492975400     0.1819128   -0.7859539  
   0.494975300     0.0639902   -0.8021449  
   0.496975200    -0.0534423   -0.8004739  
   0.498975100    -0.1676205   -0.7820737  
   0.500975000    -0.2766869   -0.7476093  
   0.502974900    -0.3787726   -0.6981900  
   0.504974800    -0.4725553   -0.6354812  
   0.506974700    -0.5562164   -0.5596702  
   0.508974600    -0.6290886   -0.4724784  
   0.510974500    -0.6884362   -0.3756557  
   0.512974400    -0.7337285   -0.2710606  
   0.514974300    -0.7620509   -0.1605223  
   0.516974200    -0.7749597   -0.0462370  
   0.518974100    -0.7709141    0.0694966  
   0.520974000    -0.7490059    0.1843518  
   0.522973900    -0.7092571    0.2953687  
   0.524973800    -0.6517958    0.3995258  
   0.526973700    -0.5777268    0.4940891  
   0.528973600    -0.4889189    0.5759660  
   0.530973500    -0.3878624    0.6423527  
   0.532973400    -0.2773782    0.6915528  
   0.534973300    -0.1602760    0.7222951  
   0.536973200    -0.0401586    0.7341837  
   0.538973100     0.0797012    0.7268772  
   0.540973000     0.1962599    0.7010871  
   0.542972900     0.3073502    0.6576889  
   0.544972800     0.4104673    0.5978624  
   0.546972700     0.5034055    0.5219984  
   0.548972600     0.5835057    0.4324346  
   0.550972500     0.6487385    0.3311348  
   0.552972400     0.6978911    0.2199982  
   0.554972300     0.7284670    0.1023210  
   0.556972200     0.7397054   -0.0192142  
   0.558972100     0.7312720   -0.1412629  
   0.560972000     0.7033995   -0.2601959  
   0.562971900     0.6567851   -0.3731305  
   0.564971800     0.5930005   -0.4764910  
   0.566971700     0.5136877   -0.5677968  
   0.568971600     0.4212598   -0.6453236  
   0.570971500     0.3180228   -0.7068082  
   0.572971400     0.2069851   -0.7512247  
   0.574971300     0.0903097   -0.7772464  
   0.576971200    -0.0289654   -0.7849118  
   0.578971100    -0.1475230   -0.7739812  
   0.580971000    -0.2622931   -0.7448081  
   0.582970900    -0.3703136   -0.6991335  
   0.584970800    -0.4691855   -0.6379604  
   0.586970700    -0.5571026   -0.5629216  
   0.588970600    -0.6322063   -0.4763894  
   0.590970500    -0.6937698   -0.3798997  
   0.592970400    -0.7400434   -0.2758003  
   0.594970300    -0.7705294   -0.1662809  
   0.596970200    -0.7846431   -0.0536177  
   0.598970100    -0.7823182    0.0600988  
   0.600970000    -0.7632390    0.1724550  
   0.602969900    -0.7277580    0.2810073  
   0.604969800    -0.6765532    0.3839473  
   0.606969700    -0.6104505    0.4788748  
   0.608969600    -0.5300255    0.5634996  
   0.610969500    -0.4371706    0.6353861  
   0.612969400    -0.3337671    0.6932055  
   0.614969300    -0.2218884    0.7348878  
   0.616969200    -0.1043429    0.7591917  
   0.618969100     0.0159916    0.7647055  
   0.620969000     0.1365151    0.7518728  
   0.622968900     0.2548204    0.7196989  
   0.624968800     0.3677475    0.6688317  
   0.626968700     0.4720842    0.5994765  
   0.628968600     0.5648580    0.5133894  
   0.630968500     0.6424922    0.4127490  
   0.632968400     0.7031109    0.2997235  
   0.634968300     0.7441139    0.1776327  
   0.636968200     0.7640480    0.0500375  
   0.638968100     0.7626373   -0.0789064  
   0.640968000     0.7395722   -0.2063716  
   0.642967900     0.6952205   -0.3268177  
   0.644967800     0.6319302   -0.4381056  
   0.646967700     0.5512727   -0.5367163  
   0.648967600     0.4566304   -0.6194230  
   0.650967500     0.3506860   -0.6849676  
   0.652967400     0.2369194   -0.7316437  
   0.654967300     0.1185042   -0.7590851  
   0.656967200    -0.0014874   -0.7672201  
   0.658967100    -0.1198953   -0.7565103  
   0.660967000    -0.2342502   -0.7277493  
   0.662966900    -0.3420845   -0.6817949  
   0.664966800    -0.4411247   -0.6200302  
   0.666966700    -0.5286229   -0.5443153  
   0.668966600    -0.6030069   -0.4568857  
   0.670966500    -0.6630505   -0.3595555  
   0.672966400    -0.7081891   -0.2553964  
   0.674966300    -0.7360328   -0.1460047  
   0.676966200    -0.7469369   -0.0343396  
   0.678966100    -0.7415969    0.0773768  
   0.680966000    -0.7194428    0.1872128  
   0.682965900    -0.6810438    0.2925900  
   0.684965800    -0.6270888    0.3909855  
   0.686965700    -0.5588860    0.4810883  
   0.688965600    -0.4772201    0.5601157  
   0.690965500    -0.3834095    0.6251854  
   0.692965400    -0.2804939    0.6764945  
   0.694965300    -0.1698692    0.7112817  
   0.696965200    -0.0544511    0.7287276  
   0.698965100     0.0635123    0.7275220  
   0.700965000     0.1812193    0.7073880  
   0.702964900     0.2948387    0.6679930  
   0.704964800     0.4012377    0.6101734  
   0.706964700     0.4979925    0.5347800  
   0.708964600     0.5810664    0.4436691  
   0.710964500     0.6491181    0.3399999  
   0.712964400     0.6977652    0.2258974  
   0.714964300     0.7262947    0.1049102  
   0.716964200     0.7341920   -0.0182328  
   0.718964100     0.7213364   -0.1398531  
   0.720964000     0.6885483   -0.2555740  
   0.722963900     0.6379815   -0.3640811  
   0.724963800     0.5713191   -0.4615133  
   0.726963700     0.4909786   -0.5460464  
   0.728963600     0.3993309   -0.6162047  
   0.730963500     0.2986396   -0.6698849  
   0.732963400     0.1930094   -0.7074299  
   0.734963300     0.0837957   -0.7284863  
   0.736963200    -0.0425812   -0.7322494  
   0.738963100    -0.1668805   -0.7138747  
   0.740963000    -0.2851302   -0.6749020  
   0.742962900    -0.3944234   -0.6166406  
   0.744962800    -0.4921103   -0.5411550  
   0.746962700    -0.5751698   -0.4502591  
   0.748962600    -0.6413928   -0.3462714  
   0.750962500    -0.5970796   -0.4394484  
   0.752962400    -0.6618842   -0.3329908  
   0.754962300    -0.7074494   -0.2166297  
   0.756962200    -0.7325104   -0.0937169  
   0.758962100    -0.7355673    0.0322756  
   0.760962000    -0.7163863    0.1575091  
   0.762961900    -0.6780689    0.2723643  
   0.764961800    -0.6267386    0.3705539  
   0.766961700    -0.5605251    0.4599225  
   0.768961600    -0.4807292    0.5381154  
   0.770961500    -0.3899661    0.6027653  
   0.772961400    -0.2900270    0.6525175  
   0.774961300    -0.1834189    0.6854497  
   0.776961200    -0.0728133    0.7018341  
   0.778961100     0.0394445    0.7007658  
   0.780961000     0.1505325    0.6818211  
   0.782960900     0.2580159    0.6457552  
   0.784960800     0.3590411    0.5929391  
   0.786960700     0.4509591    0.5242947  
   0.788960600     0.5313213    0.4417984  
   0.790960500     0.5973946    0.3472439  
   0.792960400     0.6477214    0.2432446  
   0.794960300     0.6806093    0.1322109  
   0.796960200     0.6954847    0.0172921  
   0.798960100     0.6914594   -0.0985647  
   0.800960000     0.6689434   -0.2123904  
   0.802959900     0.6283953   -0.3209056  
   0.804959800     0.5709559   -0.4216688  
   0.806959700     0.4979446   -0.5114308  
   0.808959600     0.4117042   -0.5884314  
   0.810959500     0.3142954   -0.6505852  
   0.812959400     0.2082867   -0.6964639  
   0.814959300     0.0966926   -0.7247513  
   0.816959200    -0.0176357   -0.7345396  
   0.818959100    -0.1320013   -0.7261720  
   0.820959000    -0.2428007   -0.7002105  
   0.822958900    -0.3479730   -0.6570970  
   0.824958800    -0.4444076   -0.5984377  
   0.826958700    -0.5302767   -0.5256341  
   0.828958600    -0.6036440   -0.4407433  
   0.830958500    -0.6625265   -0.3463420  
   0.832958400    -0.7064001   -0.2443537  
   0.834958300    -0.7339416   -0.1373697  
   0.836958200    -0.7448318   -0.0283100  
   0.838958100    -0.7395069    0.0812059  
   0.840958000    -0.7175711    0.1885786  
   0.842957900    -0.6797327    0.2909906  
   0.844957800    -0.6268992    0.3872012  
   0.846957700    -0.5602951    0.4745822  
   0.848957600    -0.4808044    0.5510471  
   0.850957500    -0.3904683    0.6151179  
   0.852957400    -0.2912153    0.6650767  
   0.854957300    -0.1846620    0.6991651  
   0.856957200    -0.0736324    0.7168727  
   0.858957100     0.0392305    0.7167217  
   0.860957000     0.1508528    0.6994446  
   0.862956900     0.2587255    0.6646503  
   0.864956800     0.3602104    0.6131870  
   0.866956700     0.4524202    0.5463030  
   0.868956600     0.5333398    0.4646692  
   0.870956500     0.6009745    0.3705110  
   0.872956400     0.6529754    0.2662369  
   0.874956300     0.6876849    0.1538239  
   0.876956200     0.7038817    0.0363130  
   0.878956100     0.6998898   -0.0827989  
   0.880956000     0.6763165   -0.2001422  
   0.882955900     0.6329378   -0.3122213  
   0.884955800     0.5714784   -0.4154373  
   0.886955700     0.4937161   -0.5064351  
   0.888955600     0.4016888   -0.5830080  
   0.890955500     0.2988800   -0.6425527  
   0.892955400     0.1879752   -0.6841756  
   0.894955300     0.0724712   -0.7062829  
