! MS46122B
! 2250307/22442219
! 7/23/2025 8:01:16 AM
! C:\USERS\SPARKY\DOCUMENTS\VNA_DATA\JULY23_2025\3K\PORT1_MOS6_REPEAT1.S1P
! CHANNEL.1
! TR.MEASUREMENT
! RAW.DATA
# GHZ S RI R 50.0
! FREQ.GHZ         S11RE         S11IM         
!; PortSelection: Port_1
   0.001000000     1.0454820   -0.0727152  
   0.002999900     0.9471245   -0.2226050  
   0.004999800     0.8226143   -0.0966993  
   0.006999700     0.5143071   -0.3841593  
   0.008999600     0.9359312   -0.0392000  
   0.010999500     0.9165879   -0.2454557  
   0.012999400     0.8765314   -0.3503854  
   0.014999300     0.8357326   -0.4312115  
   0.016999200     0.7939584   -0.5019879  
   0.018999100     0.7494007   -0.5672848  
   0.020999000     0.7002397   -0.6282043  
   0.022998900     0.6456420   -0.6841131  
   0.024998800     0.5775403   -0.6997147  
   0.026998700     0.5189751   -0.7813610  
   0.028998600     0.4449637   -0.8216690  
   0.030998500     0.3635179   -0.8549504  
   0.032998400     0.2791739   -0.8457561  
   0.034998300     0.1777295   -0.8948666  
   0.036998200     0.0739339   -0.8986435  
   0.038998100    -0.0359958   -0.8883485  
   0.040998000    -0.1509056   -0.8612245  
   0.042997900    -0.2690323   -0.8154274  
   0.044997800    -0.3627612   -0.7295308  
   0.046997700    -0.5007564   -0.6539311  
   0.048997600    -0.6042079   -0.5334523  
   0.050997500    -0.6896445   -0.3840951  
   0.052997400    -0.7462016   -0.2081086  
   0.054997300    -0.7631577   -0.0060912  
   0.056997200    -0.7274075    0.2072890  
   0.058997100    -0.6313167    0.4148442  
   0.060997000    -0.4755234    0.5954802  
   0.062996900    -0.2695718    0.7264305  
   0.064996800    -0.0351508    0.7922898  
   0.066996700     0.2032941    0.7887262  
   0.068996600     0.4219948    0.7222533  
   0.070996500     0.6056259    0.6077354  
   0.072996400     0.7453584    0.4613467  
   0.074996300     0.8405597    0.2987892  
   0.076996200     0.8944702    0.1327679  
   0.078996100     0.9133129   -0.0278047  
   0.080996000     0.9032585   -0.1786344  
   0.082995900     0.8695874   -0.3159299  
   0.084995800     0.8168356   -0.4379994  
   0.086995700     0.7509831   -0.5449145  
   0.088995600     0.6740966   -0.6368573  
   0.090995500     0.5890106   -0.7147402  
   0.092995400     0.4983780   -0.7789451  
   0.094995300     0.4019430   -0.8293049  
   0.096995200     0.3025496   -0.8666506  
   0.098995100     0.2008809   -0.8911118  
   0.100995000     0.0970127   -0.9034754  
   0.102994900    -0.0066113   -0.9035509  
   0.104994800    -0.1099505   -0.8912008  
   0.106994700    -0.2120413   -0.8659889  
   0.108994600    -0.3113476   -0.8289837  
   0.110994500    -0.4076097   -0.7791925  
   0.112994400    -0.4984543   -0.7169068  
   0.114994300    -0.5830743   -0.6412328  
   0.116994200    -0.6590528   -0.5522701  
   0.118994100    -0.7247030   -0.4508817  
   0.120994000    -0.7784693   -0.3379101  
   0.122993900    -0.8154106   -0.2128417  
   0.124993800    -0.8335313   -0.0782899  
   0.126993700    -0.8299240    0.0631213  
   0.128993600    -0.8003958    0.2074169  
   0.130993500    -0.7458277    0.3507187  
   0.132993400    -0.6634568    0.4872499  
   0.134993300    -0.5526852    0.6102082  
   0.136993200    -0.4164693    0.7126527  
   0.138993100    -0.2583248    0.7880268  
   0.140993000    -0.0850251    0.8303674  
   0.142992900     0.0957321    0.8360270  
   0.144992800     0.2750707    0.8049558  
   0.146992700     0.4427627    0.7357580  
   0.148992600     0.5910507    0.6342622  
   0.150992500     0.7118183    0.5066530  
   0.152992400     0.8035848    0.3611164  
   0.154992300     0.8629469    0.2053455  
   0.156992200     0.8909866    0.0459472  
   0.158992100     0.8894528   -0.1100928  
   0.160992000     0.8610891   -0.2580770  
   0.162991900     0.8097208   -0.3935522  
   0.164991800     0.7391407   -0.5147483  
   0.166991700     0.6531009   -0.6191633  
   0.168991600     0.5554898   -0.7060758  
   0.170991500     0.4487652   -0.7757356  
   0.172991400     0.3360433   -0.8274285  
   0.174991300     0.2202934   -0.8616093  
   0.176991200     0.1022302   -0.8792344  
   0.178991100    -0.0148552   -0.8803933  
   0.180991000    -0.1295843   -0.8663779  
   0.182990900    -0.2407296   -0.8366416  
   0.184990800    -0.3467151   -0.7922918  
   0.186990700    -0.4459186   -0.7339777  
   0.188990600    -0.5173417   -0.6774248  
   0.190990500    -0.6142526   -0.5814160  
   0.192990400    -0.6859402   -0.4841254  
   0.194990300    -0.7421212   -0.3787298  
   0.196990200    -0.7836900   -0.2655817  
   0.198990100    -0.8090376   -0.1451748  
   0.200990000    -0.8166520   -0.0194410  
   0.202989900    -0.8050354    0.1093627  
   0.204989800    -0.7733644    0.2378220  
   0.206989700    -0.7215828    0.3631451  
   0.208989600    -0.6477228    0.4805808  
   0.210989500    -0.5528324    0.5871114  
   0.212989400    -0.4379403    0.6782705  
   0.214989300    -0.3065263    0.7500532  
   0.216989200    -0.1622569    0.7979823  
   0.218989100    -0.0096532    0.8198858  
   0.220989000     0.1470603    0.8129341  
   0.222988900     0.3012068    0.7774766  
   0.224988800     0.4467330    0.7133348  
   0.226988700     0.5777695    0.6233568  
   0.228988600     0.6889435    0.5121048  
   0.230988500     0.7770723    0.3836559  
   0.232988400     0.8385876    0.2424788  
   0.234988300     0.8745338    0.0951448  
   0.236988200     0.8841597   -0.0536610  
   0.238988100     0.8682837   -0.1982194  
   0.240988000     0.8294393   -0.3350915  
   0.242987900     0.7700683   -0.4596497  
   0.244987800     0.6938081   -0.5709580  
   0.246987700     0.6030315   -0.6670107  
   0.248987600     0.5007626   -0.7465436  
   0.250987500     0.3897796   -0.8084600  
   0.252987400     0.2737203   -0.8526402  
   0.254987300     0.1553087   -0.8789501  
   0.256987200     0.0366288   -0.8882596  
   0.258987100    -0.0813201   -0.8825126  
   0.260987000    -0.1960407   -0.8593754  
   0.262986900    -0.3063358   -0.8210350  
   0.264986800    -0.4098629   -0.7681232  
   0.266986700    -0.5052866   -0.7014238  
   0.268986600    -0.5907490   -0.6224676  
   0.270986500    -0.6643242   -0.5326684  
   0.272986400    -0.7255375   -0.4327621  
   0.274986300    -0.7726207   -0.3240865  
   0.276986200    -0.8042524   -0.2081377  
   0.278986100    -0.8192087   -0.0861391  
   0.280986000    -0.8158872    0.0388848  
   0.282985900    -0.7927992    0.1652538  
   0.284985800    -0.7497025    0.2889220  
   0.286985700    -0.6855527    0.4065399  
   0.288985600    -0.6014360    0.5146114  
   0.290985500    -0.4985012    0.6083992  
   0.292985400    -0.3780029    0.6845818  
   0.294985300    -0.2428159    0.7390809  
   0.296985200    -0.0963568    0.7689411  
   0.298985100     0.0560025    0.7703810  
   0.300985000     0.2077031    0.7419364  
   0.302984900     0.3518380    0.6835436  
   0.304984800     0.4811462    0.5978069  
   0.306984700     0.5897669    0.4879122  
   0.308984600     0.6727638    0.3605109  
   0.310984500     0.7269682    0.2218814  
   0.312984400     0.7511809    0.0793197  
   0.314984300     0.7469084   -0.0603867  
   0.316984200     0.7167359   -0.1903338  
   0.318984100     0.6651520   -0.3067997  
   0.320984000     0.5969722   -0.4054528  
   0.322983900     0.5188858   -0.4850087  
   0.324983800     0.4367567   -0.5457905  
   0.326983700     0.3558913   -0.5906212  
   0.328983600     0.2785554   -0.6246848  
   0.330983500     0.2056613   -0.6523813  
   0.332983400     0.1340166   -0.6779694  
   0.334983300     0.0588270   -0.7022536  
   0.336983200    -0.0243265   -0.7230602  
   0.338983100    -0.1173114   -0.7350436  
   0.340983000    -0.2184305   -0.7327055  
   0.342982900    -0.3241440   -0.7121578  
   0.344982800    -0.4288477   -0.6716115  
   0.346982700    -0.5287226   -0.6108732  
   0.348982600    -0.6167388   -0.5316450  
   0.350982500    -0.6921167   -0.4383995  
   0.352982400    -0.7513277   -0.3330154  
   0.354982300    -0.7941604   -0.2133206  
   0.356982200    -0.8178473   -0.0728641  
   0.358982100    -0.8157827    0.0685699  
   0.360982000    -0.7885097    0.2070731  
   0.362981900    -0.7371780    0.3392866  
   0.364981800    -0.6633185    0.4605541  
   0.366981700    -0.5688820    0.5678600  
   0.368981600    -0.4564556    0.6571851  
   0.370981500    -0.3288459    0.7258925  
   0.372981400    -0.1898610    0.7712561  
   0.374981300    -0.0431250    0.7913506  
   0.376981200    -0.1514458    0.7861926  
   0.378981100     0.0024472    0.7991090  
   0.380981000     0.1574672    0.7828940  
   0.382980900     0.2960959    0.7421743  
   0.384980800     0.4213179    0.6803284  
   0.386980700     0.5351428    0.5971856  
   0.388980600     0.6336654    0.4949408  
   0.390980500     0.7127320    0.3773894  
   0.392980400     0.7699335    0.2485120  
   0.394980300     0.8040115    0.1119319  
   0.396980200     0.8140449   -0.0276342  
   0.398980100     0.7997425   -0.1662535  
   0.400980000     0.7626448   -0.2993320  
   0.402979900     0.7038164   -0.4227500  
   0.404979800     0.6264823   -0.5332535  
   0.406979700     0.5325181   -0.6280503  
   0.408979600     0.4263730   -0.7050773  
   0.410979500     0.3098501   -0.7634953  
   0.412979400     0.1865817   -0.8020165  
   0.414979300     0.0605168   -0.8187755  
   0.416979200    -0.0652875   -0.8165830  
   0.418979100    -0.1874444   -0.7958261  
   0.420979000    -0.3034135   -0.7565503  
   0.422978900    -0.4119806   -0.7007233  
   0.424978800    -0.5094952   -0.6296222  
   0.426978700    -0.5951154   -0.5450363  
   0.428978600    -0.6665314   -0.4492862  
   0.430978500    -0.7225010   -0.3448765  
   0.432978400    -0.7623594   -0.2338342  
   0.434978300    -0.7867852   -0.1189720  
   0.436978200    -0.7926259   -0.0011771  
   0.438978100    -0.7813338    0.1168737  
   0.440978000    -0.7525745    0.2320061  
   0.442977900    -0.7066940    0.3426623  
   0.444977800    -0.6444370    0.4463673  
   0.446977700    -0.5663161    0.5394277  
   0.448977600    -0.4743172    0.6209270  
   0.450977500    -0.3698570    0.6880664  
   0.452977400    -0.2544698    0.7386844  
   0.454977300    -0.1307479    0.7709008  
   0.456977200    -0.0015220    0.7829801  
   0.458977100     0.1295635    0.7739786  
   0.460977000     0.2580284    0.7433499  
   0.462976900     0.3807191    0.6915754  
   0.464976800     0.4937938    0.6193230  
   0.466976700     0.5934974    0.5285847  
   0.468976600     0.6767685    0.4222548  
   0.470976500     0.7411839    0.3032000  
   0.472976400     0.7842501    0.1749832  
   0.474976300     0.8047739    0.0416570  
   0.476976200     0.8027530   -0.0920474  
   0.478976100     0.7789202   -0.2225400  
   0.480976000     0.7342825   -0.3454629  
   0.482975900     0.6708016   -0.4577972  
   0.484975800     0.5915862   -0.5571082  
   0.486975700     0.4984380   -0.6413401  
   0.488975600     0.3943690   -0.7092665  
   0.490975500     0.2828716   -0.7593408  
   0.492975400     0.1665475   -0.7917911  
   0.494975300     0.0480403   -0.8058295  
   0.496975200    -0.0698770   -0.8020217  
   0.498975100    -0.1840396   -0.7814980  
   0.500975000    -0.2929984   -0.7449474  
   0.502974900    -0.3946503   -0.6936314  
   0.504974800    -0.4878460   -0.6287097  
   0.506974700    -0.5704534   -0.5511487  
   0.508974600    -0.6421680   -0.4619909  
   0.510974500    -0.7002329   -0.3634396  
   0.512974400    -0.7438614   -0.2573017  
   0.514974300    -0.7701446   -0.1452960  
   0.516974200    -0.7809974   -0.0299535  
   0.518974100    -0.7743803    0.0864968  
   0.520974000    -0.7499338    0.2018171  
   0.522973900    -0.7074180    0.3127982  
   0.524973800    -0.6471793    0.4166602  
   0.526973700    -0.5702662    0.5101435  
   0.528973600    -0.4788975    0.5904568  
   0.530973500    -0.3755957    0.6548802  
   0.532973400    -0.2630157    0.7016854  
   0.534973300    -0.1446995    0.7296009  
   0.536973200    -0.0234448    0.7385674  
   0.538973100     0.0967938    0.7282174  
   0.540973000     0.2134875    0.6992817  
   0.542972900     0.3237371    0.6528841  
   0.544972800     0.4257788    0.5901453  
   0.546972700     0.5171112    0.5117284  
   0.548972600     0.5953208    0.4197693  
   0.550972500     0.6580098    0.3165907  
   0.552972400     0.7045946    0.2039501  
   0.554972300     0.7322302    0.0852358  
   0.556972200     0.7403379   -0.0367640  
   0.558972100     0.7290440   -0.1590451  
   0.560972000     0.6981267   -0.2775277  
   0.562971900     0.6489525   -0.3892846  
   0.564971800     0.5826477   -0.4914211  
   0.566971700     0.5010051   -0.5812114  
   0.568971600     0.4066858   -0.6566535  
   0.570971500     0.3020011   -0.7158589  
   0.572971400     0.1898623   -0.7578712  
   0.574971300     0.0723689   -0.7815593  
   0.576971200    -0.0474284   -0.7866219  
   0.578971100    -0.1657574   -0.7731550  
   0.580971000    -0.2802852   -0.7418896  
   0.582970900    -0.3878025   -0.6935661  
   0.584970800    -0.4857303   -0.6300792  
   0.586970700    -0.5723774   -0.5530245  
   0.588970600    -0.6461644   -0.4645568  
   0.590970500    -0.7060387   -0.3663421  
   0.592970400    -0.7505280   -0.2607978  
   0.594970300    -0.7789335   -0.1498854  
   0.596970200    -0.7907831   -0.0363774  
   0.598970100    -0.7860455    0.0781187  
   0.600970000    -0.7644374    0.1908052  
   0.602969900    -0.7264335    0.2995747  
   0.604969800    -0.6724740    0.4020658  
   0.606969700    -0.6037845    0.4961829  
   0.608969600    -0.5206853    0.5796670  
   0.610969500    -0.4253364    0.6501035  
   0.612969400    -0.3197956    0.7057795  
   0.614969300    -0.2057551    0.7452764  
   0.616969200    -0.0866106    0.7665236  
   0.618969100     0.0350922    0.7690231  
   0.620969000     0.1563621    0.7527529  
   0.622968900     0.2749318    0.7169213  
   0.624968800     0.3871391    0.6625661  
   0.626968700     0.4902478    0.5896569  
   0.628968600     0.5809547    0.5003145  
   0.630968500     0.6563154    0.3965104  
   0.632968400     0.7137871    0.2810032  
   0.634968300     0.7513077    0.1572210  
   0.636968200     0.7676769    0.0285708  
   0.638968100     0.7622374   -0.1012172  
   0.640968000     0.7351761   -0.2279417  
   0.642967900     0.6872532   -0.3479224  
   0.644967800     0.6204581   -0.4575838  
   0.646967700     0.5365874   -0.5540248  
   0.648967600     0.4392389   -0.6341635  
   0.650967500     0.3311357   -0.6968735  
   0.652967400     0.2157429   -0.7404150  
   0.654967300     0.0964311   -0.7644848  
   0.656967200    -0.0239556   -0.7693297  
   0.658967100    -0.1424440   -0.7552493  
   0.660967000    -0.2561456   -0.7234322  
   0.662966900    -0.3631496   -0.6743342  
   0.664966800    -0.4606712   -0.6098984  
   0.666966700    -0.5466381   -0.5316302  
   0.668966600    -0.6189039   -0.4420266  
   0.670966500    -0.6766682   -0.3426970  
   0.672966400    -0.7193911   -0.2367136  
   0.674966300    -0.7445064   -0.1261623  
   0.676966200    -0.7524178   -0.0134812  
   0.678966100    -0.7443219    0.0989608  
   0.680966000    -0.7191470    0.2087850  
   0.682965900    -0.6775646    0.3138644  
   0.684965800    -0.6205575    0.4117175  
   0.686965700    -0.5493338    0.5005502  
   0.688965600    -0.4647705    0.5780563  
   0.690965500    -0.3682866    0.6408917  
   0.692965400    -0.2629649    0.6896871  
   0.694965300    -0.1503805    0.7215434  
   0.696965200    -0.0333463    0.7357189  
   0.698965100     0.0856567    0.7309060  
   0.700965000     0.2037342    0.7068740  
   0.702964900     0.3172294    0.6635938  
   0.704964800     0.4226971    0.6019078  
   0.706964700     0.5173932    0.5228910  
   0.708964600     0.5983620    0.4282511  
   0.710964500     0.6634669    0.3217937  
   0.712964400     0.7087688    0.2051674  
   0.714964300     0.7334208    0.0826334  
   0.716964200     0.7373629   -0.0415562  
   0.718964100     0.7202930   -0.1633076  
   0.720964000     0.6838364   -0.2790027  
   0.722963900     0.6293262   -0.3862578  
   0.724963800     0.5591596   -0.4818119  
   0.726963700     0.4757563   -0.5643566  
   0.728963600     0.3814344   -0.6315125  
   0.730963500     0.2786461   -0.6824306  
   0.732963400     0.1712694   -0.7168412  
   0.734963300     0.0608586   -0.7347065  
   0.736963200    -0.0659108   -0.7343904  
   0.738963100    -0.1901013   -0.7120528  
   0.740963000    -0.3077691   -0.6693420  
   0.742962900    -0.4158652   -0.6075278  
   0.744962800    -0.5115699   -0.5285938  
   0.746962700    -0.5922896   -0.4347840  
   0.748962600    -0.6560205   -0.3280030  
   0.750962500    -0.6143681   -0.4236143  
   0.752962400    -0.6763981   -0.3144821  
   0.754962300    -0.7187533   -0.1958886  
   0.756962200    -0.7401047   -0.0713120  
   0.758962100    -0.7393172    0.0554942  
   0.760962000    -0.7161245    0.1811709  
   0.762961900    -0.6739178    0.2959462  
   0.764961800    -0.6190334    0.3931102  
   0.766961700    -0.5495963    0.4809886  
   0.768961600    -0.4667908    0.5570897  
   0.770961500    -0.3730209    0.6194314  
   0.772961400    -0.2706527    0.6663646  
   0.774961300    -0.1621489    0.6959646  
   0.776961200    -0.0501416    0.7087559  
   0.778961100     0.0629488    0.7038828  
   0.780961000     0.1745363    0.6812024  
   0.782960900     0.2811962    0.6410496  
   0.784960800     0.3812574    0.5842305  
   0.786960700     0.4713840    0.5119677  
   0.788960600     0.5494304    0.4259461  
   0.790960500     0.6127173    0.3285711  
   0.792960400     0.6594849    0.2221640  
   0.794960300     0.6888252    0.1091264  
   0.796960200     0.6994776   -0.0067265  
   0.798960100     0.6912850   -0.1230876  
   0.800960000     0.6646045   -0.2365941  
   0.802959900     0.6200016   -0.3442068  
   0.804959800     0.5585673   -0.4434548  
   0.806959700     0.4823498   -0.5309209  
   0.808959600     0.3929882   -0.6052088  
   0.810959500     0.2931083   -0.6642511  
   0.812959400     0.1852056   -0.7065952  
   0.814959300     0.0721285   -0.7311387  
   0.816959200    -0.0429727   -0.7373008  
   0.818959100    -0.1571715   -0.7250342  
   0.820959000    -0.2676259   -0.6952420  
   0.822958900    -0.3716229   -0.6486285  
   0.824958800    -0.4665771   -0.5865941  
   0.826958700    -0.5503783   -0.5106788  
   0.828958600    -0.6213469   -0.4233949  
   0.830958500    -0.6776870   -0.3264988  
   0.832958400    -0.7186424   -0.2228620  
   0.834958300    -0.7430167   -0.1143778  
   0.836958200    -0.7506646   -0.0040180  
   0.838958100    -0.7419698    0.1057865  
   0.840958000    -0.7167255    0.2130919  
   0.842957900    -0.6752216    0.3152626  
   0.844957800    -0.6191895    0.4105285  
   0.846957700    -0.5491945    0.4965818  
   0.848957600    -0.4667719    0.5712465  
   0.850957500    -0.3735400    0.6330121  
   0.852957400    -0.2717654    0.6801772  
   0.854957300    -0.1630800    0.7111105  
   0.856957200    -0.0503002    0.7253505  
   0.858957100     0.0637555    0.7214857  
   0.860957000     0.1762223    0.7000505  
   0.862956900     0.2839636    0.6611440  
   0.864956800     0.3845653    0.6054259  
   0.866956700     0.4755058    0.5343730  
   0.868956600     0.5540060    0.4489316  
   0.870956500     0.6188262    0.3514663  
   0.872956400     0.6673924    0.2442209  
   0.874956300     0.6979665    0.1294627  
   0.876956200     0.7096093    0.0103629  
   0.878956100     0.7009593   -0.1095009  
   0.880956000     0.6723430   -0.2270829  
   0.882955900     0.6244242   -0.3377803  
   0.884955800     0.5586879   -0.4391334  
   0.886955700     0.4767948   -0.5275424  
   0.888955600     0.3813928   -0.6010196  
   0.890955500     0.2757356   -0.6570130  
   0.892955400     0.1628852   -0.6944186  
   0.894955300     0.0461712   -0.7122160  
