! MS46122B
! 2250307/22442219
! 7/23/2025 8:04:21 AM
! C:\USERS\SPARKY\DOCUMENTS\VNA_DATA\JULY23_2025\3K\PORT4_MOS3_REPEAT1.S1P
! CHANNEL.1
! TR.MEASUREMENT
! RAW.DATA
# GHZ S RI R 50.0
! FREQ.GHZ         S11RE         S11IM         
!; PortSelection: Port_1
   0.001000000     1.0456330   -0.0718370  
   0.002999900     0.9642566   -0.1942003  
   0.004999800     0.9040613   -0.2992186  
   0.006999700     0.8369184   -0.3968887  
   0.008999600     0.7585037   -0.4924458  
   0.010999500     0.6657584   -0.5834796  
   0.012999400     0.5529814   -0.6675400  
   0.014999300     0.4142961   -0.7386132  
   0.016999200     0.2429143   -0.7844986  
   0.018999100     0.0337795   -0.7853790  
   0.020999000    -0.2058791   -0.7074800  
   0.022998900    -0.4404159   -0.5089825  
   0.024998800    -0.5624833   -0.1751534  
   0.026998700    -0.5276202    0.2379412  
   0.028998600    -0.2558528    0.5593429  
   0.030998500     0.1117367    0.6826890  
   0.032998400     0.4113085    0.6175081  
   0.034998300     0.6726038    0.4852647  
   0.036998200     0.8152629    0.3082751  
   0.038998100     0.8906044    0.1325169  
   0.040998000     0.9184471   -0.0295120  
   0.042997900     0.9140384   -0.1742279  
   0.044997800     0.8607935   -0.2756732  
   0.046997700     0.8428378   -0.4128283  
   0.048997600     0.7879346   -0.5092668  
   0.050997500     0.7241964   -0.5923735  
   0.052997400     0.6551832   -0.6626614  
   0.054997300     0.5786953   -0.7245529  
   0.056997200     0.4991911   -0.7755449  
   0.058997100     0.4161938   -0.8168502  
   0.060997000     0.3299759   -0.8494940  
   0.062996900     0.2412230   -0.8726718  
   0.064996800     0.1498039   -0.8862466  
   0.066996700     0.0562104   -0.8905294  
   0.068996600    -0.0386537   -0.8842528  
   0.070996500    -0.1344652   -0.8680419  
   0.072996400    -0.2305402   -0.8390411  
   0.074996300    -0.3255194   -0.7973020  
   0.076996200    -0.4181216   -0.7423431  
   0.078996100    -0.5058275   -0.6728728  
   0.080996000    -0.5872273   -0.5882503  
   0.082995900    -0.6590959   -0.4883077  
   0.084995800    -0.7173372   -0.3730960  
   0.086995700    -0.7599109   -0.2440310  
   0.088995600    -0.7812842   -0.1022469  
   0.090995500    -0.7776188    0.0486248  
   0.092995400    -0.7451435    0.2042958  
   0.094995300    -0.6792521    0.3572819  
   0.096995200    -0.5794639    0.4996479  
   0.098995100    -0.4468300    0.6217124  
   0.100995000    -0.2858354    0.7147712  
   0.102994900    -0.1063335    0.7693359  
   0.104994800     0.0821147    0.7818941  
   0.106994700     0.2670128    0.7504163  
   0.108994600     0.4374942    0.6802552  
   0.110994500     0.5848734    0.5766389  
   0.112994400     0.7027398    0.4479084  
   0.114994300     0.7879478    0.3034262  
   0.116994200     0.8405873    0.1516624  
   0.118994100     0.8622272   -0.0002315  
   0.120994000     0.8579688   -0.1470100  
   0.122993900     0.8280434   -0.2841867  
   0.124993800     0.7782324   -0.4086212  
   0.126993700     0.7119953   -0.5190476  
   0.128993600     0.6318331   -0.6135889  
   0.130993500     0.5428737   -0.6934132  
   0.132993400     0.4464791   -0.7578619  
   0.134993300     0.3448041   -0.8068979  
   0.136993200     0.2398015   -0.8412278  
   0.138993100     0.1329255   -0.8614260  
   0.140993000     0.0261717   -0.8671873  
   0.142992900    -0.0800190   -0.8591782  
   0.144992800    -0.1839679   -0.8399088  
   0.146992700    -0.2846691   -0.8058550  
   0.148992600    -0.3807138   -0.7590864  
   0.150992500    -0.4692329   -0.6989270  
   0.152992400    -0.5521316   -0.6280436  
   0.154992300    -0.6256633   -0.5459891  
   0.156992200    -0.6888828   -0.4527506  
   0.158992100    -0.7401479   -0.3494802  
   0.160992000    -0.7775192   -0.2371986  
   0.162991900    -0.7988386   -0.1179556  
   0.164991800    -0.8026614    0.0071345  
   0.166991700    -0.7873130    0.1345207  
   0.168991600    -0.7508053    0.2620103  
   0.170991500    -0.6925390    0.3861929  
   0.172991400    -0.6121778    0.5018321  
   0.174991300    -0.5107514    0.6051666  
   0.176991200    -0.3892619    0.6914964  
   0.178991100    -0.2511894    0.7558972  
   0.180991000    -0.1009583    0.7954386  
   0.182990900     0.0564139    0.8053300  
   0.184990800     0.2148614    0.7850863  
   0.186990700     0.3671570    0.7348148  
   0.188990600     0.4868384    0.6701724  
   0.190990500     0.6249974    0.5556350  
   0.192990400     0.7261055    0.4303067  
   0.194990300     0.7990224    0.2931602  
   0.196990200     0.8446890    0.1484376  
   0.198990100     0.8631150    0.0008998  
   0.200990000     0.8553708   -0.1443254  
   0.202989900     0.8233877   -0.2826932  
   0.204989800     0.7704820   -0.4099105  
   0.206989700     0.7002450   -0.5244248  
   0.208989600     0.6146265   -0.6226842  
   0.210989500     0.5166441   -0.7047401  
   0.212989400     0.4097328   -0.7697901  
   0.214989300     0.2963571   -0.8171130  
   0.216989200     0.1805548   -0.8465407  
   0.218989100     0.0633329   -0.8592198  
   0.220989000    -0.0529965   -0.8551942  
   0.222988900    -0.1665931   -0.8345107  
   0.224988800    -0.2763793   -0.7986926  
   0.226988700    -0.3790948   -0.7483256  
   0.228988600    -0.4735876   -0.6845165  
   0.230988500    -0.5586631   -0.6077858  
   0.232988400    -0.6317617   -0.5184637  
   0.234988300    -0.6930221   -0.4190167  
   0.236988200    -0.7402347   -0.3105150  
   0.238988100    -0.7711328   -0.1945278  
   0.240988000    -0.7849784   -0.0736497  
   0.242987900    -0.7802213    0.0497754  
   0.244987800    -0.7559776    0.1737605  
   0.246987700    -0.7113087    0.2951695  
   0.248987600    -0.6457728    0.4106721  
   0.250987500    -0.5601188    0.5163686  
   0.252987400    -0.4556529    0.6073306  
   0.254987300    -0.3353108    0.6802713  
   0.256987200    -0.2014739    0.7315322  
   0.258987100    -0.0582949    0.7599874  
   0.260987000     0.0901981    0.7602960  
   0.262986900     0.2379071    0.7329833  
   0.264986800     0.3786341    0.6781791  
   0.266986700     0.5070709    0.5974520  
   0.268986600     0.6173646    0.4948553  
   0.270986500     0.7060112    0.3749269  
   0.272986400     0.7700417    0.2419273  
   0.274986300     0.8086556    0.1014040  
   0.276986200     0.8213186   -0.0411725  
   0.278986100     0.8088349   -0.1815441  
   0.280986000     0.7728176   -0.3145537  
   0.282985900     0.7162463   -0.4371310  
   0.284985800     0.6420685   -0.5464281  
   0.286985700     0.5537219   -0.6396670  
   0.288985600     0.4546784   -0.7159629  
   0.290985500     0.3480273   -0.7744445  
   0.292985400     0.2367574   -0.8157680  
   0.294985300     0.1226170   -0.8398591  
   0.296985200     0.0079454   -0.8477129  
   0.298985100    -0.1055538   -0.8393088  
   0.300985000    -0.2159047   -0.8153889  
   0.302984900    -0.3204606   -0.7772492  
   0.304984800    -0.4182151   -0.7256221  
   0.306984700    -0.5074911   -0.6618277  
   0.308984600    -0.5867127   -0.5875151  
   0.310984500    -0.6553133   -0.5034243  
   0.312984400    -0.7126774   -0.4104209  
   0.314984300    -0.7574664   -0.3096917  
   0.316984200    -0.7882467   -0.2022768  
   0.318984100    -0.8041046   -0.0888147  
   0.320984000    -0.8031380    0.0287854  
   0.322983900    -0.7836844    0.1480952  
   0.324983800    -0.7440555    0.2641352  
   0.326983700    -0.6846926    0.3731229  
   0.328983600    -0.6067085    0.4705152  
   0.330983500    -0.5141718    0.5519363  
   0.332983400    -0.4118207    0.6155326  
   0.334983300    -0.3033490    0.6623374  
   0.336983200    -0.1910887    0.6925300  
   0.338983100    -0.0760806    0.7074193  
   0.340983000     0.0406716    0.7063089  
   0.342982900     0.1578117    0.6879615  
   0.344982800     0.2731985    0.6521904  
   0.346982700     0.3842410    0.5970784  
   0.348982600     0.4857399    0.5221965  
   0.350982500     0.5757124    0.4310005  
   0.352982400     0.6494887    0.3239283  
   0.354982300     0.7055489    0.1999357  
   0.356982200     0.7395935    0.0539580  
   0.358982100     0.7438669   -0.0959789  
   0.360982000     0.7181613   -0.2437541  
   0.362981900     0.6641098   -0.3834367  
   0.364981800     0.5836189   -0.5094834  
   0.366981700     0.4804749   -0.6166610  
   0.368981600     0.3589956   -0.7017277  
   0.370981500     0.2244358   -0.7611355  
   0.372981400     0.0821427   -0.7933152  
   0.374981300    -0.0630279   -0.7981626  
   0.376981200     0.0587218   -0.7965846  
   0.378981100    -0.0840182   -0.7962227  
   0.380981000    -0.2233786   -0.7703539  
   0.382980900    -0.3424605   -0.7259139  
   0.384980800    -0.4467827   -0.6661900  
   0.386980700    -0.5403744   -0.5914085  
   0.388980600    -0.6208635   -0.5039547  
   0.390980500    -0.6870037   -0.4062042  
   0.392980400    -0.7371223   -0.3008245  
   0.394980300    -0.7708344   -0.1894116  
   0.396980200    -0.7881916   -0.0742505  
   0.398980100    -0.7880857    0.0421512  
   0.400980000    -0.7710040    0.1582919  
   0.402979900    -0.7366444    0.2713844  
   0.404979800    -0.6854155    0.3782204  
   0.406979700    -0.6182552    0.4775372  
   0.408979600    -0.5359735    0.5664621  
   0.410979500    -0.4398359    0.6429737  
   0.412979400    -0.3307953    0.7045968  
   0.414979300    -0.2117217    0.7477450  
   0.416979200    -0.0857661    0.7729694  
   0.418979100     0.0438569    0.7775422  
   0.420979000     0.1740705    0.7606291  
   0.422978900     0.3012622    0.7220336  
   0.424978800     0.4216391    0.6619012  
   0.426978700     0.5308864    0.5815409  
   0.428978600     0.6254422    0.4832070  
   0.430978500     0.7018579    0.3697964  
   0.432978400     0.7575513    0.2451683  
   0.434978300     0.7922022    0.1128886  
   0.436978200     0.8027521   -0.0228919  
   0.438978100     0.7897760   -0.1579861  
   0.440978000     0.7541053   -0.2880717  
   0.442977900     0.6974939   -0.4094458  
   0.444977800     0.6222591   -0.5184048  
   0.446977700     0.5304221   -0.6121561  
   0.448977600     0.4258220   -0.6891344  
   0.450977500     0.3117782   -0.7470157  
   0.452977400     0.1904356   -0.7852063  
   0.454977300     0.0651559   -0.8033903  
   0.456977200    -0.0599664   -0.8014899  
   0.458977100    -0.1823521   -0.7800398  
   0.460977000    -0.2987926   -0.7399210  
   0.462976900    -0.4057967   -0.6829414  
   0.464976800    -0.5026151   -0.6106797  
   0.466976700    -0.5864652   -0.5247355  
   0.468976600    -0.6558916   -0.4280430  
   0.470976500    -0.7096274   -0.3214181  
   0.472976400    -0.7462187   -0.2084569  
   0.474976300    -0.7654265   -0.0909370  
   0.476976200    -0.7660283    0.0282247  
   0.478976100    -0.7485775    0.1465972  
   0.480976000    -0.7125753    0.2602704  
   0.482975900    -0.6593782    0.3679275  
   0.484975800    -0.5893545    0.4665585  
   0.486975700    -0.5034505    0.5541652  
   0.488975600    -0.4037550    0.6268988  
   0.490975500    -0.2922550    0.6832227  
   0.492975400    -0.1713839    0.7207430  
   0.494975300    -0.0452727    0.7372457  
   0.496975200     0.0832086    0.7315952  
   0.498975100     0.2088172    0.7037688  
   0.500975000     0.3279603    0.6542945  
   0.502974900     0.4361701    0.5847788  
   0.504974800     0.5298857    0.4973229  
   0.506974700     0.6061626    0.3954335  
   0.508974600     0.6628677    0.2825558  
   0.510974500     0.6982186    0.1631999  
   0.512974400     0.7128782    0.0422737  
   0.514974300     0.7054639   -0.0755895  
   0.516974200     0.6815351   -0.1878796  
   0.518974100     0.6417583   -0.2922740  
   0.520974000     0.5885209   -0.3868220  
   0.522973900     0.5239344   -0.4715770  
   0.524973800     0.4497720   -0.5449496  
   0.526973700     0.3673221   -0.6078259  
   0.528973600     0.2775526   -0.6586792  
   0.530973500     0.1813586   -0.6977603  
   0.532973400     0.0799091   -0.7235776  
   0.534973300    -0.0257249   -0.7349809  
   0.536973200    -0.1336849   -0.7313156  
   0.538973100    -0.2410456   -0.7109031  
   0.540973000    -0.3451777   -0.6739301  
   0.542972900    -0.4439328   -0.6208966  
   0.544972800    -0.5343493   -0.5518956  
   0.546972700    -0.6138207   -0.4683643  
   0.548972600    -0.6797752   -0.3720299  
   0.550972500    -0.7295477   -0.2654285  
   0.552972400    -0.7619025   -0.1513760  
   0.554972300    -0.7756657   -0.0326040  
   0.556972200    -0.7700747    0.0874308  
   0.558972100    -0.7449070    0.2056083  
   0.560972000    -0.7011629    0.3183551  
   0.562971900    -0.6397912    0.4229846  
   0.564971800    -0.5622917    0.5167448  
   0.566971700    -0.4703130    0.5972217  
   0.568971600    -0.3663722    0.6621214  
   0.570971500    -0.2526705    0.7101101  
   0.572971400    -0.1318564    0.7390388  
   0.574971300    -0.0065219    0.7480104  
   0.576971200     0.1198592    0.7362962  
   0.578971100     0.2434427    0.7033680  
   0.580971000     0.3606541    0.6499274  
   0.582970900     0.4678661    0.5770553  
   0.584970800     0.5612826    0.4871142  
   0.586970700     0.6382992    0.3822786  
   0.588970600     0.6963606    0.2654790  
   0.590970500     0.7337230    0.1405250  
   0.592970400     0.7492129    0.0106195  
   0.594970300     0.7424113   -0.1194230  
   0.596970200     0.7133744   -0.2466377  
   0.598970100     0.6632680   -0.3664184  
   0.600970000     0.5938726   -0.4753991  
   0.602969900     0.5072293   -0.5708458  
   0.604969800     0.4066994   -0.6499199  
   0.606969700     0.2948999   -0.7100750  
   0.608969600     0.1750765   -0.7513465  
   0.610969500     0.0514276   -0.7716461  
   0.612969400    -0.0723985   -0.7718673  
   0.614969300    -0.1934679   -0.7519180  
   0.616969200    -0.3085189   -0.7135350  
   0.618969100    -0.4141173   -0.6583707  
   0.620969000    -0.5091804   -0.5881825  
   0.622968900    -0.5920295   -0.5049700  
   0.624968800    -0.6604221   -0.4105654  
   0.626968700    -0.7140391   -0.3070299  
   0.628968600    -0.7510489   -0.1969544  
   0.630968500    -0.7713931   -0.0827047  
   0.632968400    -0.7740721    0.0330250  
   0.634968300    -0.7593425    0.1480235  
   0.636968200    -0.7276359    0.2597262  
   0.638968100    -0.6794887    0.3658192  
   0.640968000    -0.6153516    0.4640095  
   0.642967900    -0.5368683    0.5515427  
   0.644967800    -0.4451815    0.6272545  
   0.646967700    -0.3422604    0.6880929  
   0.648967600    -0.2306162    0.7324587  
   0.650967500    -0.1128723    0.7593880  
   0.652967400     0.0089109    0.7677079  
   0.654967300     0.1310606    0.7566060  
   0.656967200     0.2511748    0.7257913  
   0.658967100     0.3656895    0.6758072  
   0.660967000     0.4719547    0.6071131  
   0.662966900     0.5663366    0.5210977  
   0.664966800     0.6463521    0.4194292  
   0.666966700     0.7087375    0.3044509  
   0.668966600     0.7510672    0.1804814  
   0.670966500     0.7722122    0.0503816  
   0.672966400     0.7719181   -0.0809863  
   0.674966300     0.7483115   -0.2099513  
   0.676966200     0.7032809   -0.3327139  
   0.678966100     0.6389623   -0.4450892  
   0.680966000     0.5573387   -0.5448467  
   0.682965900     0.4609307   -0.6285253  
   0.684965800     0.3532930   -0.6945561  
   0.686965700     0.2370416   -0.7419384  
   0.688965600     0.1159792   -0.7694578  
   0.690965500    -0.0062053   -0.7761753  
   0.692965400    -0.1266582   -0.7642920  
   0.694965300    -0.2422354   -0.7343121  
   0.696965200    -0.3505591   -0.6871995  
   0.698965100    -0.4492939   -0.6244667  
   0.700965000    -0.5370966   -0.5480568  
   0.702964900    -0.6114891   -0.4598821  
   0.704964800    -0.6714070   -0.3618786  
   0.706964700    -0.7154643   -0.2562915  
   0.708964600    -0.7433769   -0.1454301  
   0.710964500    -0.7547790   -0.0315393  
   0.712964400    -0.7481859    0.0825884  
   0.714964300    -0.7241020    0.1947629  
   0.716964200    -0.6833267    0.3017934  
   0.718964100    -0.6266381    0.4019007  
   0.720964000    -0.5548916    0.4918878  
   0.722963900    -0.4699409    0.5699871  
   0.724963800    -0.3734297    0.6345662  
   0.726963700    -0.2670680    0.6832340  
   0.728963600    -0.1534023    0.7143164  
   0.730963500    -0.0356860    0.7261255  
   0.732963400     0.0828639    0.7193886  
   0.734963300     0.1996359    0.6926879  
   0.736963200     0.3264290    0.6392686  
   0.738963100     0.4421870    0.5627552  
   0.740963000     0.5411362    0.4658916  
   0.742962900     0.6197681    0.3522159  
   0.744962800     0.6754144    0.2264244  
   0.746962700     0.7062250    0.0934934  
   0.748962600     0.7118145   -0.0424830  
   0.750962500     0.6963571    0.0667062  
   0.752962400     0.6979412   -0.0669244  
   0.754962300     0.6755671   -0.1976415  
   0.756962200     0.6300651   -0.3211319  
   0.758962100     0.5638492   -0.4334930  
   0.760962000     0.4788271   -0.5323686  
   0.762961900     0.3832418   -0.6103420  
   0.764961800     0.2854055   -0.6669850  
   0.766961700     0.1804019   -0.7077885  
   0.768961600     0.0701773   -0.7323633  
   0.770961500    -0.0424295   -0.7396670  
   0.772961400    -0.1550308   -0.7297297  
   0.774961300    -0.2648028   -0.7027162  
   0.776961200    -0.3697896   -0.6588262  
   0.778961100    -0.4668711   -0.5989779  
   0.780961000    -0.5538754   -0.5244443  
   0.782960900    -0.6283190   -0.4366156  
   0.784960800    -0.6885309   -0.3378506  
   0.786960700    -0.7321884   -0.2303687  
   0.788960600    -0.7586754   -0.1168937  
   0.790960500    -0.7669491   -0.0009244  
   0.792960400    -0.7566194    0.1151024  
   0.794960300    -0.7283568    0.2283035  
   0.796960200    -0.6828504    0.3351785  
   0.798960100    -0.6211205    0.4340957  
   0.800960000    -0.5446112    0.5215775  
   0.802959900    -0.4553524    0.5966919  
   0.804959800    -0.3556417    0.6568084  
   0.806959700    -0.2472886    0.7008062  
   0.808959600    -0.1332747    0.7272374  
   0.810959500    -0.0161238    0.7356859  
   0.812959400     0.1016847    0.7255279  
   0.814959300     0.2168997    0.6968748  
   0.816959200     0.3265859    0.6498351  
   0.818959100     0.4277784    0.5856692  
   0.820959000     0.5181987    0.5055278  
   0.822958900     0.5948346    0.4112820  
   0.824958800     0.6553932    0.3052627  
   0.826958700     0.6980460    0.1900802  
   0.828958600     0.7214107    0.0692558  
   0.830958500     0.7241681   -0.0545622  
   0.832958400     0.7063772   -0.1769840  
   0.834958300     0.6687058   -0.2948608  
   0.836958200     0.6116356   -0.4047066  
   0.838958100     0.5374980   -0.5035036  
   0.840958000     0.4479935   -0.5885810  
   0.842957900     0.3459821   -0.6577187  
   0.844957800     0.2341345   -0.7085348  
   0.846957700     0.1159389   -0.7403466  
   0.848957600    -0.0050563   -0.7521327  
   0.850957500    -0.1258561   -0.7442068  
   0.852957400    -0.2428494   -0.7170685  
   0.854957300    -0.3530716   -0.6716537  
   0.856957200    -0.4543068   -0.6099796  
   0.858957100    -0.5434412   -0.5336015  
   0.860957000    -0.6191846   -0.4454219  
   0.862956900    -0.6795089   -0.3476062  
   0.864956800    -0.7238159   -0.2428174  
   0.866956700    -0.7516053   -0.1339278  
   0.868956600    -0.7623247   -0.0225001  
   0.870956500    -0.7567135    0.0889255  
   0.872956400    -0.7347655    0.1976162  
   0.874956300    -0.6968030    0.3019587  
   0.876956200    -0.6440338    0.4000258  
   0.878956100    -0.5771475    0.4894145  
   0.880956000    -0.4973924    0.5684197  
   0.882955900    -0.4061423    0.6351713  
   0.884955800    -0.3053447    0.6877152  
   0.886955700    -0.1970325    0.7245266  
   0.888955600    -0.0835956    0.7449017  
   0.890955500     0.0324240    0.7475159  
   0.892955400     0.1485032    0.7321175  
   0.894955300     0.2615933    0.6986126  
