! MS46122B
! 2250307/22442219
! 7/25/2025 1:35:41 PM
! C:\USERS\SPARKY\DOCUMENTS\VNA_DATA\JULY25_2025\3K\PORT1_MOS4.S1P
! CHANNEL.1
! TR.MEASUREMENT
! RAW.DATA
# GHZ S RI R 50.0
! FREQ.GHZ         S11RE         S11IM         
!; PortSelection: Port_1
   0.001000000     1.0449650   -0.0717074  
   0.002999900     0.9634620   -0.1941748  
   0.004999800     0.9031839   -0.2991464  
   0.006999700     0.8358619   -0.3966880  
   0.008999600     0.7569134   -0.4919884  
   0.010999500     0.6636207   -0.5825299  
   0.012999400     0.5502160   -0.6656939  
   0.014999300     0.4107795   -0.7352577  
   0.016999200     0.2392409   -0.7786648  
   0.018999100     0.0310219   -0.7757888  
   0.020999000    -0.2052887   -0.6931574  
   0.022998900    -0.4316501   -0.4906591  
   0.024998800    -0.5421234   -0.1591972  
   0.026998700    -0.4957919    0.2413478  
   0.028998600    -0.2251554    0.5449690  
   0.030998500     0.1310146    0.6568055  
   0.032998400     0.4183154    0.5907564  
   0.034998300     0.6699069    0.4607044  
   0.036998200     0.8072593    0.2883286  
   0.038998100     0.8798580    0.1170307  
   0.040998000     0.9066853   -0.0412953  
   0.042997900     0.9013863   -0.1829962  
   0.044997800     0.8485196   -0.2822076  
   0.046997700     0.8301812   -0.4170972  
   0.048997600     0.7751434   -0.5119036  
   0.050997500     0.7116183   -0.5934746  
   0.052997400     0.6418277   -0.6634454  
   0.054997300     0.5673580   -0.7222627  
   0.056997200     0.4870732   -0.7725752  
   0.058997100     0.4043104   -0.8127967  
   0.060997000     0.3183810   -0.8441438  
   0.062996900     0.2298812   -0.8659593  
   0.064996800     0.1388181   -0.8781754  
   0.066996700     0.0457482   -0.8809894  
   0.068996600    -0.0485169   -0.8731411  
   0.070996500    -0.1437113   -0.8552396  
   0.072996400    -0.2386508   -0.8244030  
   0.074996300    -0.3322889   -0.7809845  
   0.076996200    -0.4232385   -0.7242073  
   0.078996100    -0.5088909   -0.6529533  
   0.080996000    -0.5879858   -0.5667354  
   0.082995900    -0.6566929   -0.4653430  
   0.084995800    -0.7113507   -0.3491264  
   0.086995700    -0.7498294   -0.2195838  
   0.088995600    -0.7665350   -0.0779660  
   0.090995500    -0.7575471    0.0715745  
   0.092995400    -0.7199464    0.2247795  
   0.094995300    -0.6487700    0.3735662  
   0.096995200    -0.5446701    0.5102876  
   0.098995100    -0.4088450    0.6254745  
   0.100995000    -0.2465948    0.7105197  
   0.102994900    -0.0678998    0.7567363  
   0.104994800     0.1172021    0.7611749  
   0.106994700     0.2968425    0.7227879  
   0.108994600     0.4608362    0.6471400  
   0.110994500     0.6008641    0.5398871  
   0.112994400     0.7109240    0.4099997  
   0.114994300     0.7885255    0.2659148  
   0.116994200     0.8344519    0.1158019  
   0.118994100     0.8502164   -0.0333007  
   0.120994000     0.8408091   -0.1765858  
   0.122993900     0.8070573   -0.3096977  
   0.124993800     0.7539275   -0.4298645  
   0.126993700     0.6853622   -0.5358850  
   0.128993600     0.6038707   -0.6261955  
   0.130993500     0.5139177   -0.7016167  
   0.132993400     0.4169300   -0.7617877  
   0.134993300     0.3154714   -0.8065363  
   0.136993200     0.2107847   -0.8370813  
   0.138993100     0.1047473   -0.8532674  
   0.140993000    -0.0009917   -0.8554182  
   0.142992900    -0.1056653   -0.8439659  
   0.144992800    -0.2078294   -0.8210913  
   0.146992700    -0.3063217   -0.7836302  
   0.148992600    -0.3994702   -0.7339357  
   0.150992500    -0.4854240   -0.6709328  
   0.152992400    -0.5646549   -0.5972841  
   0.154992300    -0.6344438   -0.5125797  
   0.156992200    -0.6932002   -0.4173371  
   0.158992100    -0.7396904   -0.3125301  
   0.160992000    -0.7717496   -0.1992587  
   0.162991900    -0.7875267   -0.0795519  
   0.164991800    -0.7851097    0.0447632  
   0.166991700    -0.7631662    0.1709209  
   0.168991600    -0.7205872    0.2958315  
   0.170991500    -0.6557410    0.4156713  
   0.172991400    -0.5696245    0.5261428  
   0.174991300    -0.4631676    0.6227351  
   0.176991200    -0.3375913    0.7009804  
   0.178991100    -0.1971413    0.7563353  
   0.180991000    -0.0459478    0.7860144  
   0.182990900     0.1098924    0.7859898  
   0.184990800     0.2648342    0.7560169  
   0.186990700     0.4115418    0.6968055  
   0.188990600     0.5249265    0.6252902  
   0.190990500     0.6527796    0.5040294  
   0.192990400     0.7437135    0.3744742  
   0.194990300     0.8063563    0.2354382  
   0.196990200     0.8419386    0.0905888  
   0.198990100     0.8502604   -0.0546168  
   0.200990000     0.8335840   -0.1962672  
   0.202989900     0.7936047   -0.3289738  
   0.204989800     0.7340447   -0.4507116  
   0.206989700     0.6583065   -0.5579658  
   0.208989600     0.5681612   -0.6491939  
   0.210989500     0.4674797   -0.7235608  
   0.212989400     0.3585449   -0.7805907  
   0.214989300     0.2448225   -0.8200704  
   0.216989200     0.1290312   -0.8420699  
   0.218989100     0.0135214   -0.8471767  
   0.220989000    -0.1010028   -0.8360676  
   0.222988900    -0.2118131   -0.8086069  
   0.224988800    -0.3173916   -0.7664388  
   0.226988700    -0.4158776   -0.7101488  
   0.228988600    -0.5050863   -0.6409379  
   0.230988500    -0.5839432   -0.5595421  
   0.232988400    -0.6502197   -0.4662188  
   0.234988300    -0.7040388   -0.3635293  
   0.236988200    -0.7432121   -0.2523615  
   0.238988100    -0.7654927   -0.1351471  
   0.240988000    -0.7703149   -0.0141209  
   0.242987900    -0.7559808    0.1082369  
   0.244987800    -0.7222778    0.2293775  
   0.246987700    -0.6679022    0.3462939  
   0.248987600    -0.5934823    0.4556760  
   0.250987500    -0.4994453    0.5532707  
   0.252987400    -0.3879457    0.6345057  
   0.254987300    -0.2620337    0.6958423  
   0.256987200    -0.1249118    0.7345147  
   0.258987100     0.0194849    0.7493333  
   0.260987000     0.1657934    0.7357537  
   0.262986900     0.3085516    0.6949064  
   0.264986800     0.4418990    0.6271716  
   0.266986700     0.5601401    0.5358708  
   0.268986600     0.6585602    0.4248917  
   0.270986500     0.7337143    0.2989270  
   0.272986400     0.7838894    0.1628154  
   0.274986300     0.8081866    0.0222384  
   0.276986200     0.8072792   -0.1178033  
   0.278986100     0.7823770   -0.2534499  
   0.280986000     0.7351767   -0.3798717  
   0.282985900     0.6693562   -0.4945417  
   0.284985800     0.5875083   -0.5944499  
   0.286985700     0.4930694   -0.6775799  
   0.288985600     0.3901013   -0.7435796  
   0.290985500     0.2813665   -0.7918322  
   0.292985400     0.1689554   -0.8226970  
   0.294985300     0.0556442   -0.8370559  
   0.296985200    -0.0575627   -0.8355026  
   0.298985100    -0.1683135   -0.8179811  
   0.300985000    -0.2748408   -0.7855387  
   0.302984900    -0.3747192   -0.7393382  
   0.304984800    -0.4666729   -0.6803267  
   0.306984700    -0.5497669   -0.6101127  
   0.308984600    -0.6219407   -0.5298534  
   0.310984500    -0.6829191   -0.4408299  
   0.312984400    -0.7316244   -0.3432759  
   0.314984300    -0.7670029   -0.2387827  
   0.316984200    -0.7876579   -0.1287683  
   0.318984100    -0.7922920   -0.0135635  
   0.320984000    -0.7794635    0.1036850  
   0.322983900    -0.7470663    0.2201425  
   0.324983800    -0.6947919    0.3308715  
   0.326983700    -0.6229864    0.4317569  
   0.328983600    -0.5349376    0.5182820  
   0.330983500    -0.4349070    0.5868946  
   0.332983400    -0.3287317    0.6367585  
   0.334983300    -0.2182552    0.6702455  
   0.336983200    -0.1061396    0.6879040  
   0.338983100     0.0076256    0.6905719  
   0.340983000     0.1215786    0.6773901  
   0.342982900     0.2347538    0.6474538  
   0.344982800     0.3442693    0.5997931  
   0.346982700     0.4476697    0.5332788  
   0.348982600     0.5392722    0.4484448  
   0.350982500     0.6171356    0.3479805  
   0.352982400     0.6773165    0.2340923  
   0.354982300     0.7177502    0.1054058  
   0.356982200     0.7333184   -0.0420427  
   0.358982100     0.7189995   -0.1898938  
   0.360982000     0.6757019   -0.3313234  
   0.362981900     0.6053539   -0.4614020  
   0.364981800     0.5108424   -0.5747981  
   0.366981700     0.3963664   -0.6669700  
   0.368981600     0.2672775   -0.7345871  
   0.370981500     0.1283603   -0.7759987  
   0.372981400    -0.0145177   -0.7900443  
   0.374981300    -0.1566533   -0.7769736  
   0.376981200    -0.0362534   -0.7898757  
   0.378981100    -0.1757215   -0.7725339  
   0.380981000    -0.3087671   -0.7304525  
   0.382980900    -0.4200942   -0.6723143  
   0.384980800    -0.5151295   -0.6011531  
   0.386980700    -0.5976986   -0.5168636  
   0.388980600    -0.6663768   -0.4210218  
   0.390980500    -0.7194343   -0.3172417  
   0.392980400    -0.7561257   -0.2074227  
   0.394980300    -0.7760120   -0.0931587  
   0.396980200    -0.7786938    0.0221580  
   0.398980100    -0.7642635    0.1376505  
   0.400980000    -0.7329989    0.2504485  
   0.402979900    -0.6842564    0.3579611  
   0.404979800    -0.6199610    0.4576232  
   0.406979700    -0.5401937    0.5473529  
   0.408979600    -0.4470935    0.6247304  
   0.410979500    -0.3406489    0.6879075  
   0.412979400    -0.2238647    0.7344856  
   0.414979300    -0.0993554    0.7604510  
   0.416979200     0.0291932    0.7675621  
   0.418979100     0.1585643    0.7533376  
   0.420979000     0.2855016    0.7175585  
   0.422978900     0.4057762    0.6602630  
   0.424978800     0.5156540    0.5822560  
   0.426978700     0.6115239    0.4861240  
   0.428978600     0.6894204    0.3742111  
   0.430978500     0.7468027    0.2505769  
   0.432978400     0.7819316    0.1192996  
   0.434978300     0.7949777   -0.0157941  
   0.436978200     0.7832865   -0.1504583  
   0.438978100     0.7489488   -0.2805718  
   0.440978000     0.6934817   -0.4018519  
   0.442977900     0.6189142   -0.5109817  
   0.444977800     0.5277447   -0.6050773  
   0.446977700     0.4237434   -0.6821855  
   0.448977600     0.3098892   -0.7401605  
   0.450977500     0.1896048   -0.7781456  
   0.452977400     0.0656543   -0.7961495  
   0.454977300    -0.0589404   -0.7940802  
   0.456977200    -0.1806358   -0.7726105  
   0.458977100    -0.2964217   -0.7324629  
   0.460977000    -0.4034376   -0.6749219  
   0.462976900    -0.4991357   -0.6026597  
   0.464976800    -0.5822833   -0.5165611  
   0.466976700    -0.6505827   -0.4196026  
   0.468976600    -0.7032678   -0.3134737  
   0.470976500    -0.7388853   -0.2006716  
   0.472976400    -0.7569000   -0.0834918  
   0.474976300    -0.7565256    0.0353195  
   0.476976200    -0.7375893    0.1528184  
   0.478976100    -0.7003382    0.2661946  
   0.480976000    -0.6457510    0.3729462  
   0.482975900    -0.5747167    0.4699964  
   0.484975800    -0.4884377    0.5555784  
   0.486975700    -0.3879843    0.6264823  
   0.488975600    -0.2763876    0.6808069  
   0.490975500    -0.1558652    0.7161169  
   0.492975400    -0.0299882    0.7307040  
   0.494975300     0.0976452    0.7233114  
   0.496975200     0.2225835    0.6936800  
   0.498975100     0.3407536    0.6424165  
   0.500975000     0.4478061    0.5712420  
   0.502974900     0.5399978    0.4824408  
   0.504974800     0.6145144    0.3794432  
   0.506974700     0.6692699    0.2659803  
   0.508974600     0.7027226    0.1453183  
   0.510974500     0.7147640    0.0234825  
   0.512974400     0.7060692   -0.0962717  
   0.514974300     0.6775457   -0.2086708  
   0.516974200     0.6340870   -0.3132580  
   0.518974100     0.5770052   -0.4072762  
   0.520974000     0.5085123   -0.4901020  
   0.522973900     0.4307090   -0.5610999  
   0.524973800     0.3455831   -0.6202233  
   0.526973700     0.2533655   -0.6671487  
   0.528973600     0.1560637   -0.7014809  
   0.530973500     0.0540297   -0.7227471  
   0.532973400    -0.0512056   -0.7297191  
   0.534973300    -0.1574365   -0.7214907  
   0.536973200    -0.2637920   -0.6970244  
   0.538973100    -0.3659656   -0.6562560  
   0.540973000    -0.4617600   -0.5998739  
   0.542972900    -0.5489460   -0.5277262  
   0.544972800    -0.6246946   -0.4421189  
   0.546972700    -0.6861802   -0.3438737  
   0.548972600    -0.7317020   -0.2358008  
   0.550972500    -0.7593272   -0.1208577  
   0.552972400    -0.7681636   -0.0023764  
   0.554972300    -0.7576669    0.1168923  
   0.556972200    -0.7276003    0.2336431  
   0.558972100    -0.6789016    0.3444420  
   0.560972000    -0.6129234    0.4462118  
   0.562971900    -0.5311235    0.5363140  
   0.564971800    -0.4354237    0.6123049  
   0.566971700    -0.3283252    0.6722496  
   0.568971600    -0.2126965    0.7142478  
   0.570971500    -0.0908459    0.7368868  
   0.572971400     0.0341292    0.7396187  
   0.574971300     0.1590031    0.7216021  
   0.576971200     0.2803520    0.6824140  
   0.578971100     0.3942742    0.6230075  
   0.580971000     0.4975320    0.5447167  
   0.582970900     0.5860605    0.4497608  
   0.584970800     0.6571174    0.3407152  
   0.586970700     0.7083236    0.2210947  
   0.588970600     0.7386376    0.0941270  
   0.590970500     0.7465120   -0.0359527  
   0.592970400     0.7322331   -0.1652310  
   0.594970300     0.6957914   -0.2901063  
   0.596970200     0.6388468   -0.4064284  
   0.598970100     0.5633268   -0.5105704  
   0.600970000     0.4718158   -0.6002905  
   0.602969900     0.3669457   -0.6729357  
   0.604969800     0.2523100   -0.7262204  
   0.606969700     0.1312421   -0.7596406  
   0.608969600     0.0071521   -0.7727321  
   0.610969500    -0.1160750   -0.7657501  
   0.612969400    -0.2356945   -0.7387495  
   0.614969300    -0.3480465   -0.6936304  
   0.616969200    -0.4504003   -0.6321152  
   0.618969100    -0.5407740   -0.5565296  
   0.620969000    -0.6179388   -0.4687901  
   0.622968900    -0.6804538   -0.3708925  
   0.624968800    -0.7273000   -0.2652613  
   0.626968700    -0.7577206   -0.1536122  
   0.628968600    -0.7713299   -0.0388440  
   0.630968500    -0.7672178    0.0767075  
   0.632968400    -0.7459331    0.1903681  
   0.634968300    -0.7078550    0.2998750  
   0.636968200    -0.6534042    0.4027582  
   0.638968100    -0.5840029    0.4969873  
   0.640968000    -0.5002810    0.5798626  
   0.642967900    -0.4041610    0.6500415  
   0.644967800    -0.2977904    0.7047415  
   0.646967700    -0.1827565    0.7425520  
   0.648967600    -0.0631876    0.7620447  
   0.650967500     0.0596703    0.7626793  
   0.652967400     0.1813200    0.7435941  
   0.654967300     0.2997223    0.7050468  
   0.656967200     0.4109476    0.6473356  
   0.658967100     0.5126225    0.5716507  
   0.660967000     0.6009977    0.4797026  
   0.662966900     0.6736473    0.3729603  
   0.664966800     0.7282433    0.2538911  
   0.666966700     0.7619779    0.1270957  
   0.668966600     0.7739282   -0.0041177  
   0.670966500     0.7634987   -0.1356714  
   0.672966400     0.7316605   -0.2631668  
   0.674966300     0.6779562   -0.3826643  
   0.676966200     0.6052739   -0.4904994  
   0.678966100     0.5166804   -0.5837820  
   0.680966000     0.4142225   -0.6604508  
   0.682965900     0.3019275   -0.7182367  
   0.684965800     0.1828994   -0.7567818  
   0.686965700     0.0604726   -0.7750692  
   0.688965600    -0.0622094   -0.7737610  
   0.690965500    -0.1808430   -0.7518896  
   0.692965400    -0.2939242   -0.7133616  
   0.694965300    -0.3982576   -0.6583142  
   0.696965200    -0.4920171   -0.5886494  
   0.698965100    -0.5732740   -0.5059555  
   0.700965000    -0.6408172   -0.4123148  
   0.702964900    -0.6930649   -0.3104106  
   0.704964800    -0.7292864   -0.2019446  
   0.706964700    -0.7485487   -0.0894299  
   0.708964600    -0.7505518    0.0247058  
   0.710964500    -0.7358795    0.1385816  
   0.712964400    -0.7032719    0.2487170  
   0.714964300    -0.6538984    0.3530405  
   0.716964200    -0.5891334    0.4485078  
   0.718964100    -0.5097753    0.5330579  
   0.720964000    -0.4180948    0.6045311  
   0.722963900    -0.3158621    0.6610443  
   0.724963800    -0.2052902    0.7006474  
   0.726963700    -0.0890430    0.7221757  
   0.728963600     0.0300936    0.7241185  
   0.730963500     0.1481649    0.7066022  
   0.732963400     0.2621770    0.6698474  
   0.734963300     0.3690754    0.6145414  
   0.736963200     0.4790995    0.5304711  
   0.738963100     0.5716909    0.4270299  
   0.740963000     0.6426658    0.3082015  
   0.742962900     0.6898578    0.1786543  
   0.744962800     0.7117366    0.0436417  
   0.746962700     0.7081175   -0.0920962  
   0.748962600     0.6797317   -0.2237803  
   0.750962500     0.6930811   -0.1168929  
   0.752962400     0.6616338   -0.2461128  
   0.754962300     0.6077113   -0.3665024  
   0.756962200     0.5336360   -0.4742243  
   0.758962100     0.4418715   -0.5668146  
   0.760962000     0.3354826   -0.6411155  
   0.762961900     0.2237227   -0.6933270  
   0.764961800     0.1149870   -0.7241678  
   0.766961700     0.0030942   -0.7381598  
   0.768961600    -0.1098517   -0.7348203  
   0.770961500    -0.2213378   -0.7142360  
   0.772961400    -0.3283964   -0.6766153  
   0.774961300    -0.4282552   -0.6230616  
   0.776961200    -0.5193483   -0.5541430  
   0.778961100    -0.5985515   -0.4716790  
   0.780961000    -0.6640749   -0.3773305  
   0.782960900    -0.7144313   -0.2736273  
   0.784960800    -0.7477610   -0.1626539  
   0.786960700    -0.7629841   -0.0472803  
   0.788960600    -0.7601047    0.0692192  
   0.790960500    -0.7384362    0.1839021  
   0.792960400    -0.6992610    0.2937581  
   0.794960300    -0.6431023    0.3962933  
   0.796960200    -0.5717430    0.4888492  
   0.798960100    -0.4865759    0.5684232  
   0.800960000    -0.3899724    0.6343597  
   0.802959900    -0.2840390    0.6842406  
   0.804959800    -0.1715495    0.7170467  
   0.806959700    -0.0549156    0.7317495  
   0.808959600     0.0629668    0.7276341  
   0.810959500     0.1791070    0.7053555  
   0.812959400     0.2907892    0.6643108  
   0.814959300     0.3952656    0.6057312  
   0.816959200     0.4893838    0.5310907  
   0.818959100     0.5705307    0.4415789  
   0.820959000     0.6367587    0.3392628  
   0.822958900     0.6853986    0.2273091  
   0.824958800     0.7152849    0.1078402  
   0.826958700     0.7252803   -0.0154129  
   0.828958600     0.7144013   -0.1385727  
   0.830958500     0.6830440   -0.2588611  
   0.832958400     0.6320094   -0.3717973  
   0.834958300     0.5630612   -0.4745387  
   0.836958200     0.4783947   -0.5644904  
   0.838958100     0.3801638   -0.6389716  
   0.840958000     0.2710769   -0.6958589  
   0.842957900     0.1546394   -0.7340842  
   0.844957800     0.0341110   -0.7522401  
   0.846957700    -0.0873027   -0.7508428  
   0.848957600    -0.2058804   -0.7297618  
   0.850957500    -0.3189990   -0.6900442  
   0.852957400    -0.4235579   -0.6332698  
   0.854957300    -0.5171646   -0.5609372  
   0.856957200    -0.5978143   -0.4755934  
   0.858957100    -0.6633370   -0.3795613  
   0.860957000    -0.7128569   -0.2755665  
   0.862956900    -0.7458086   -0.1662368  
   0.864956800    -0.7612267   -0.0546011  
   0.866956700    -0.7601957    0.0573088  
   0.868956600    -0.7423200    0.1676168  
   0.870956500    -0.7085276    0.2733299  
   0.872956400    -0.6593603    0.3734615  
   0.874956300    -0.5963004    0.4650387  
   0.876956200    -0.5195689    0.5467326  
   0.878956100    -0.4311088    0.6169569  
   0.880956000    -0.3327949    0.6729951  
   0.882955900    -0.2260112    0.7142318  
   0.884955800    -0.1136832    0.7390254  
   0.886955700     0.0021242    0.7462149  
   0.888955600     0.1189825    0.7353829  
   0.890955500     0.2332580    0.7063089  
   0.892955400     0.3425534    0.6591552  
   0.894955300     0.4438099    0.5950067  
