! MS46122B
! 2250307/22442219
! 7/23/2025 7:55:13 AM
! C:\USERS\SPARKY\DOCUMENTS\VNA_DATA\JULY23_2025\3K\PORT4_MOS3.S1P
! CHANNEL.1
! TR.MEASUREMENT
! RAW.DATA
# GHZ S RI R 50.0
! FREQ.GHZ         S11RE         S11IM         
!; PortSelection: Port_1
   0.001000000     1.0460130   -0.0714682  
   0.002999900     0.9644269   -0.1940883  
   0.004999800     0.9041718   -0.2991822  
   0.006999700     0.8371062   -0.3969379  
   0.008999600     0.7586224   -0.4925339  
   0.010999500     0.6658111   -0.5837172  
   0.012999400     0.5529892   -0.6678464  
   0.014999300     0.4142818   -0.7390175  
   0.016999200     0.2426832   -0.7850308  
   0.018999100     0.0332568   -0.7860397  
   0.020999000    -0.2068421   -0.7081530  
   0.022998900    -0.4418652   -0.5093488  
   0.024998800    -0.5643732   -0.1748810  
   0.026998700    -0.5293906    0.2393254  
   0.028998600    -0.2567277    0.5615586  
   0.030998500     0.1117829    0.6847583  
   0.032998400     0.4119352    0.6192082  
   0.034998300     0.6735606    0.4865047  
   0.036998200     0.8163558    0.3090685  
   0.038998100     0.8917211    0.1330162  
   0.040998000     0.9195088   -0.0292381  
   0.042997900     0.9150198   -0.1741217  
   0.044997800     0.8617063   -0.2756906  
   0.046997700     0.8435590   -0.4130513  
   0.048997600     0.7886578   -0.5095097  
   0.050997500     0.7248508   -0.5927368  
   0.052997400     0.6562814   -0.6626362  
   0.054997300     0.5791169   -0.7251707  
   0.056997200     0.4995977   -0.7761711  
   0.058997100     0.4164335   -0.8175223  
   0.060997000     0.3301598   -0.8501756  
   0.062996900     0.2413880   -0.8733529  
   0.064996800     0.1498387   -0.8869792  
   0.066996700     0.0562035   -0.8912688  
   0.068996600    -0.0387615   -0.8850141  
   0.070996500    -0.1347485   -0.8687421  
   0.072996400    -0.2308202   -0.8397290  
   0.074996300    -0.3259805   -0.7980447  
   0.076996200    -0.4186508   -0.7430486  
   0.078996100    -0.5064949   -0.6735068  
   0.080996000    -0.5880619   -0.5887790  
   0.082995900    -0.6599038   -0.4886420  
   0.084995800    -0.7182444   -0.3734449  
   0.086995700    -0.7609010   -0.2441472  
   0.088995600    -0.7823434   -0.1022288  
   0.090995500    -0.7786985    0.0489128  
   0.092995400    -0.7462251    0.2047984  
   0.094995300    -0.6802804    0.3578742  
   0.096995200    -0.5803816    0.5004770  
   0.098995100    -0.4478685    0.6228006  
   0.100995000    -0.2862867    0.7159766  
   0.102994900    -0.1065025    0.7706171  
   0.104994800     0.0821760    0.7832528  
   0.106994700     0.2672433    0.7515162  
   0.108994600     0.4381014    0.6813121  
   0.110994500     0.5856888    0.5775313  
   0.112994400     0.7036112    0.4486239  
   0.114994300     0.7889502    0.3038984  
   0.116994200     0.8416290    0.1519184  
   0.118994100     0.8632801   -0.0001913  
   0.120994000     0.8589482   -0.1471056  
   0.122993900     0.8289892   -0.2844060  
   0.124993800     0.7790940   -0.4089916  
   0.126993700     0.7125834   -0.5197029  
   0.128993600     0.6325387   -0.6141779  
   0.130993500     0.5434808   -0.6940820  
   0.132993400     0.4470055   -0.7584957  
   0.134993300     0.3452218   -0.8075151  
   0.136993200     0.2401378   -0.8420060  
   0.138993100     0.1332313   -0.8623147  
   0.140993000     0.0262796   -0.8681120  
   0.142992900    -0.0800978   -0.8600924  
   0.144992800    -0.1841555   -0.8407591  
   0.146992700    -0.2848172   -0.8066972  
   0.148992600    -0.3807440   -0.7599490  
   0.150992500    -0.4698227   -0.6997959  
   0.152992400    -0.5526338   -0.6287867  
   0.154992300    -0.6262748   -0.5466431  
   0.156992200    -0.6895932   -0.4532398  
   0.158992100    -0.7409498   -0.3499584  
   0.160992000    -0.7783684   -0.2375854  
   0.162991900    -0.7997246   -0.1181844  
   0.164991800    -0.8036362    0.0070891  
   0.166991700    -0.7883302    0.1346293  
   0.168991600    -0.7517654    0.2622820  
   0.170991500    -0.6933737    0.3867117  
   0.172991400    -0.6130146    0.5024264  
   0.174991300    -0.5114437    0.6059587  
   0.176991200    -0.3896316    0.6923692  
   0.178991100    -0.2514912    0.7568905  
   0.180991000    -0.1011238    0.7965305  
   0.182990900     0.0565197    0.8064510  
   0.184990800     0.2151399    0.7861822  
   0.186990700     0.3677607    0.7358720  
   0.188990600     0.4874811    0.6712453  
   0.190990500     0.6257085    0.5564641  
   0.192990400     0.7270091    0.4308863  
   0.194990300     0.8001126    0.2936312  
   0.196990200     0.8457484    0.1486522  
   0.198990100     0.8639662    0.0012563  
   0.200990000     0.8564206   -0.1443949  
   0.202989900     0.8243981   -0.2829206  
   0.204989800     0.7714907   -0.4104882  
   0.206989700     0.7012857   -0.5247141  
   0.208989600     0.6153518   -0.6233670  
   0.210989500     0.5173711   -0.7053987  
   0.212989400     0.4102262   -0.7705860  
   0.214989300     0.2970460   -0.8178626  
   0.216989200     0.1808435   -0.8474384  
   0.218989100     0.0636650   -0.8601452  
   0.220989000    -0.0528682   -0.8561042  
   0.222988900    -0.1668431   -0.8354911  
   0.224988800    -0.2765453   -0.7996037  
   0.226988700    -0.3794223   -0.7491742  
   0.228988600    -0.4739630   -0.6853392  
   0.230988500    -0.5592951   -0.6084236  
   0.232988400    -0.6324492   -0.5190770  
   0.234988300    -0.6937484   -0.4195414  
   0.236988200    -0.7410301   -0.3108865  
   0.238988100    -0.7721109   -0.1947342  
   0.240988000    -0.7859263   -0.0737275  
   0.242987900    -0.7811629    0.0498766  
   0.244987800    -0.7568769    0.1740222  
   0.246987700    -0.7121605    0.2956179  
   0.248987600    -0.6465563    0.4112419  
   0.250987500    -0.5607789    0.5170894  
   0.252987400    -0.4561609    0.6081964  
   0.254987300    -0.3357921    0.6812181  
   0.256987200    -0.2015428    0.7325023  
   0.258987100    -0.0582085    0.7611665  
   0.260987000     0.0903447    0.7613783  
   0.262986900     0.2382660    0.7339736  
   0.264986800     0.3792257    0.6790445  
   0.266986700     0.5076542    0.5984048  
   0.268986600     0.6180929    0.4956087  
   0.270986500     0.7068793    0.3754598  
   0.272986400     0.7709897    0.2424180  
   0.274986300     0.8096467    0.1018544  
   0.276986200     0.8223554   -0.0410182  
   0.278986100     0.8099042   -0.1814556  
   0.280986000     0.7737394   -0.3145927  
   0.282985900     0.7172429   -0.4373959  
   0.284985800     0.6430318   -0.5468092  
   0.286985700     0.5544955   -0.6402332  
   0.288985600     0.4554347   -0.7166068  
   0.290985500     0.3486708   -0.7751484  
   0.292985400     0.2372501   -0.8165276  
   0.294985300     0.1229761   -0.8406831  
   0.296985200     0.0081786   -0.8485460  
   0.298985100    -0.1054450   -0.8401989  
   0.300985000    -0.2158804   -0.8163566  
   0.302984900    -0.3206021   -0.7780643  
   0.304984800    -0.4184936   -0.7264204  
   0.306984700    -0.5079015   -0.6625293  
   0.308984600    -0.5872201   -0.5881418  
   0.310984500    -0.6558937   -0.5040215  
   0.312984400    -0.7133708   -0.4108086  
   0.314984300    -0.7580579   -0.3100496  
   0.316984200    -0.7890559   -0.2024332  
   0.318984100    -0.8050651   -0.0887775  
   0.320984000    -0.8039539    0.0289866  
   0.322983900    -0.7845060    0.1482012  
   0.324983800    -0.7448285    0.2645067  
   0.326983700    -0.6852693    0.3738460  
   0.328983600    -0.6072426    0.4712583  
   0.330983500    -0.5145449    0.5527716  
   0.332983400    -0.4122440    0.6163076  
   0.334983300    -0.3035516    0.6631888  
   0.336983200    -0.1912788    0.6934266  
   0.338983100    -0.0759655    0.7083750  
   0.340983000     0.0409392    0.7072402  
   0.342982900     0.1581415    0.6888674  
   0.344982800     0.2735932    0.6530539  
   0.346982700     0.3848761    0.5978599  
   0.348982600     0.4864229    0.5229031  
   0.350982500     0.5765008    0.4315926  
   0.352982400     0.6504190    0.3243578  
   0.354982300     0.7064650    0.2002923  
   0.356982200     0.7405388    0.0541343  
   0.358982100     0.7448441   -0.0959953  
   0.360982000     0.7191728   -0.2439466  
   0.362981900     0.6650290   -0.3837799  
   0.364981800     0.5844468   -0.5099827  
   0.366981700     0.4811672   -0.6172948  
   0.368981600     0.3595631   -0.7024528  
   0.370981500     0.2248230   -0.7619675  
   0.372981400     0.0823941   -0.7941939  
   0.374981300    -0.0628460   -0.7990432  
   0.376981200     0.0588930   -0.7973914  
   0.378981100    -0.0839992   -0.7970434  
   0.380981000    -0.2234156   -0.7711233  
   0.382980900    -0.3427957   -0.7267040  
   0.384980800    -0.4472108   -0.6668996  
   0.386980700    -0.5406181   -0.5920900  
   0.388980600    -0.6214807   -0.5044733  
   0.390980500    -0.6876130   -0.4067843  
   0.392980400    -0.7379193   -0.3009864  
   0.394980300    -0.7717288   -0.1893579  
   0.396980200    -0.7889636   -0.0744008  
   0.398980100    -0.7890018    0.0423779  
   0.400980000    -0.7718797    0.1585520  
   0.402979900    -0.7373796    0.2717948  
   0.404979800    -0.6861317    0.3787165  
   0.406979700    -0.6188875    0.4781535  
   0.408979600    -0.5365422    0.5671629  
   0.410979500    -0.4403110    0.6437420  
   0.412979400    -0.3310630    0.7055219  
   0.414979300    -0.2119592    0.7486398  
   0.416979200    -0.0858752    0.7739012  
   0.418979100     0.0438395    0.7785026  
   0.420979000     0.1742267    0.7616165  
   0.422978900     0.3015391    0.7229655  
   0.424978800     0.4220067    0.6628882  
   0.426978700     0.5314091    0.5823900  
   0.428978600     0.6261046    0.4839747  
   0.430978500     0.7026074    0.3704218  
   0.432978400     0.7583900    0.2456266  
   0.434978300     0.7930970    0.1131749  
   0.436978200     0.8036801   -0.0227815  
   0.438978100     0.7907004   -0.1579980  
   0.440978000     0.7550007   -0.2882790  
   0.442977900     0.6982926   -0.4097704  
   0.444977800     0.6230035   -0.5188984  
   0.446977700     0.5310187   -0.6128886  
   0.448977600     0.4263664   -0.6897864  
   0.450977500     0.3119437   -0.7478535  
   0.452977400     0.1905819   -0.7860104  
   0.454977300     0.0652210   -0.8041835  
   0.456977200    -0.0600331   -0.8022915  
   0.458977100    -0.1827347   -0.7808061  
   0.460977000    -0.2991186   -0.7406537  
   0.462976900    -0.4062296   -0.6835988  
   0.464976800    -0.5031531   -0.6112533  
   0.466976700    -0.5871258   -0.5252014  
   0.468976600    -0.6565689   -0.4284527  
   0.470976500    -0.7102656   -0.3218001  
   0.472976400    -0.7470678   -0.2085981  
   0.474976300    -0.7662116   -0.0910851  
   0.476976200    -0.7670429    0.0284816  
   0.478976100    -0.7492849    0.1466946  
   0.480976000    -0.7134539    0.2607626  
   0.482975900    -0.6601066    0.3684060  
   0.484975800    -0.5900296    0.4671431  
   0.486975700    -0.5040227    0.5548475  
   0.488975600    -0.4042155    0.6276723  
   0.490975500    -0.2925503    0.6841167  
   0.492975400    -0.1716997    0.7215222  
   0.494975300    -0.0452463    0.7380073  
   0.496975200     0.0833217    0.7324412  
   0.498975100     0.2091038    0.7045636  
   0.500975000     0.3282964    0.6550419  
   0.502974900     0.4365856    0.5854949  
   0.504974800     0.5304039    0.4979474  
   0.506974700     0.6067124    0.3959502  
   0.508974600     0.6634838    0.2829851  
   0.510974500     0.6988437    0.1635621  
   0.512974400     0.7135499    0.0424974  
   0.514974300     0.7061064   -0.0754345  
   0.516974200     0.6821910   -0.1878674  
   0.518974100     0.6423874   -0.2922456  
   0.520974000     0.5892188   -0.3871110  
   0.522973900     0.5245768   -0.4718681  
   0.524973800     0.4503510   -0.5454846  
   0.526973700     0.3679266   -0.6083622  
   0.528973600     0.2779178   -0.6594846  
   0.530973500     0.1817456   -0.6984354  
   0.532973400     0.0799824   -0.7244129  
   0.534973300    -0.0255701   -0.7357704  
   0.536973200    -0.1336997   -0.7321851  
   0.538973100    -0.2411480   -0.7116586  
   0.540973000    -0.3456285   -0.6748057  
   0.542972900    -0.4445327   -0.6215383  
   0.544972800    -0.5348583   -0.5525476  
   0.546972700    -0.6145316   -0.4688793  
   0.548972600    -0.6805637   -0.3723857  
   0.550972500    -0.7305112   -0.2655603  
   0.552972400    -0.7628731   -0.1513453  
   0.554972300    -0.7766132   -0.0325920  
   0.556972200    -0.7709426    0.0875650  
   0.558972100    -0.7457350    0.2058628  
   0.560972000    -0.7019229    0.3187652  
   0.562971900    -0.6404985    0.4234853  
   0.564971800    -0.5628975    0.5173627  
   0.566971700    -0.4707713    0.5978804  
   0.568971600    -0.3667536    0.6628937  
   0.570971500    -0.2529159    0.7108738  
   0.572971400    -0.1319826    0.7398397  
   0.574971300    -0.0064739    0.7488070  
   0.576971200     0.1200091    0.7369015  
   0.578971100     0.2436517    0.7040836  
   0.580971000     0.3610418    0.6507171  
   0.582970900     0.4681945    0.5777476  
   0.584970800     0.5619483    0.4874555  
   0.586970700     0.6389177    0.3826276  
   0.588970600     0.6970130    0.2657352  
   0.590970500     0.7344924    0.1404924  
   0.592970400     0.7498932    0.0107619  
   0.594970300     0.7430959   -0.1196596  
   0.596970200     0.7140395   -0.2468476  
   0.598970100     0.6638493   -0.3668806  
   0.600970000     0.5943637   -0.4759116  
   0.602969900     0.5076729   -0.5712792  
   0.604969800     0.4069975   -0.6505975  
   0.606969700     0.2950526   -0.7109731  
   0.608969600     0.1755125   -0.7517672  
   0.610969500     0.0514937   -0.7724007  
   0.612969400    -0.0724507   -0.7726201  
   0.614969300    -0.1936366   -0.7527128  
   0.616969200    -0.3087990   -0.7142345  
   0.618969100    -0.4145378   -0.6590277  
   0.620969000    -0.5098071   -0.5886913  
   0.622968900    -0.5926471   -0.5054098  
   0.624968800    -0.6611114   -0.4109382  
   0.626968700    -0.7147996   -0.3073064  
   0.628968600    -0.7518118   -0.1971532  
   0.630968500    -0.7721121   -0.0829013  
   0.632968400    -0.7748615    0.0330550  
   0.634968300    -0.7600838    0.1481803  
   0.636968200    -0.7283101    0.2599887  
   0.638968100    -0.6801292    0.3662285  
   0.640968000    -0.6159834    0.4643576  
   0.642967900    -0.5372903    0.5521528  
   0.644967800    -0.4455310    0.6278857  
   0.646967700    -0.3425373    0.6886781  
   0.648967600    -0.2307577    0.7330878  
   0.650967500    -0.1127236    0.7600513  
   0.652967400     0.0088655    0.7683768  
   0.654967300     0.1313861    0.7571840  
   0.656967200     0.2512398    0.7264450  
   0.658967100     0.3661479    0.6762079  
   0.660967000     0.4724264    0.6075906  
   0.662966900     0.5667858    0.5215229  
   0.664966800     0.6470327    0.4195715  
   0.666966700     0.7092839    0.3046846  
   0.668966600     0.7517061    0.1806248  
   0.670966500     0.7728463    0.0504367  
   0.672966400     0.7726224   -0.0811063  
   0.674966300     0.7488700   -0.2100734  
   0.676966200     0.7038626   -0.3331724  
   0.678966100     0.6395601   -0.4454544  
   0.680966000     0.5576844   -0.5453193  
   0.682965900     0.4613550   -0.6290717  
   0.684965800     0.3533852   -0.6952446  
   0.686965700     0.2372751   -0.7425858  
   0.688965600     0.1160914   -0.7701132  
   0.690965500    -0.0061940   -0.7768250  
   0.692965400    -0.1267474   -0.7649580  
   0.694965300    -0.2424105   -0.7349585  
   0.696965200    -0.3507660   -0.6878060  
   0.698965100    -0.4496607   -0.6250655  
   0.700965000    -0.5375475   -0.5485057  
   0.702964900    -0.6119978   -0.4602483  
   0.704964800    -0.6719307   -0.3622527  
   0.706964700    -0.7159522   -0.2565783  
   0.708964600    -0.7439393   -0.1455746  
   0.710964500    -0.7553129   -0.0314774  
   0.712964400    -0.7487431    0.0826436  
   0.714964300    -0.7245805    0.1949292  
   0.716964200    -0.6837911    0.3020124  
   0.718964100    -0.6270654    0.4021699  
   0.720964000    -0.5552688    0.4921816  
   0.722963900    -0.4702598    0.5703496  
   0.724963800    -0.3735584    0.6350242  
   0.726963700    -0.2672254    0.6837012  
   0.728963600    -0.1533530    0.7147842  
   0.730963500    -0.0357621    0.7266169  
   0.732963400     0.0830480    0.7198004  
   0.734963300     0.1998372    0.6931694  
   0.736963200     0.3268483    0.6396758  
   0.738963100     0.4425467    0.5631043  
   0.740963000     0.5415890    0.4661793  
   0.742962900     0.6202310    0.3525984  
   0.744962800     0.6758896    0.2263210  
   0.746962700     0.7066875    0.0933660  
   0.748962600     0.7123888   -0.0425438  
   0.750962500     0.6969175    0.0668045  
   0.752962400     0.6985186   -0.0669949  
   0.754962300     0.6762007   -0.1977793  
   0.756962200     0.6306460   -0.3213654  
   0.758962100     0.5643997   -0.4339140  
   0.760962000     0.4792866   -0.5328467  
   0.762961900     0.3836440   -0.6108813  
   0.764961800     0.2857243   -0.6676121  
   0.766961700     0.1806234   -0.7084497  
   0.768961600     0.0702075   -0.7330360  
   0.770961500    -0.0424157   -0.7402644  
   0.772961400    -0.1551411   -0.7304080  
   0.774961300    -0.2651443   -0.7032177  
   0.776961200    -0.3702285   -0.6594482  
   0.778961100    -0.4672320   -0.5994915  
   0.780961000    -0.5542727   -0.5248283  
   0.782960900    -0.6286424   -0.4369389  
   0.784960800    -0.6889802   -0.3381258  
   0.786960700    -0.7327867   -0.2305358  
   0.788960600    -0.7591338   -0.1169958  
   0.790960500    -0.7674134   -0.0009853  
   0.792960400    -0.7570412    0.1151149  
   0.794960300    -0.7287800    0.2284065  
   0.796960200    -0.6832404    0.3353877  
   0.798960100    -0.6214712    0.4343166  
   0.800960000    -0.5449174    0.5218384  
   0.802959900    -0.4556562    0.5969934  
   0.804959800    -0.3558037    0.6572448  
   0.806959700    -0.2473767    0.7011626  
   0.808959600    -0.1333164    0.7276686  
   0.810959500    -0.0160887    0.7360743  
   0.812959400     0.1017763    0.7259292  
   0.814959300     0.2170037    0.6972836  
   0.816959200     0.3268435    0.6501875  
   0.818959100     0.4280773    0.5859939  
   0.820959000     0.5186252    0.5058144  
   0.822958900     0.5952834    0.4114733  
   0.824958800     0.6559432    0.3053892  
   0.826958700     0.6985708    0.1901413  
   0.828958600     0.7219577    0.0692312  
   0.830958500     0.7247093   -0.0546543  
   0.832958400     0.7069035   -0.1771979  
   0.834958300     0.6691745   -0.2951616  
   0.836958200     0.6120353   -0.4050480  
   0.838958100     0.5378324   -0.5038123  
   0.840958000     0.4482588   -0.5890483  
   0.842957900     0.3461165   -0.6581884  
   0.844957800     0.2342470   -0.7090003  
   0.846957700     0.1160234   -0.7407960  
   0.848957600    -0.0049544   -0.7526772  
   0.850957500    -0.1258390   -0.7446530  
   0.852957400    -0.2429762   -0.7174278  
   0.854957300    -0.3532638   -0.6721039  
   0.856957200    -0.4545360   -0.6103196  
   0.858957100    -0.5436201   -0.5339450  
   0.860957000    -0.6193537   -0.4458201  
   0.862956900    -0.6798082   -0.3479029  
   0.864956800    -0.7241302   -0.2429433  
   0.866956700    -0.7518834   -0.1340442  
   0.868956600    -0.7626128   -0.0223964  
   0.870956500    -0.7570418    0.0889181  
   0.872956400    -0.7350805    0.1978136  
   0.874956300    -0.6970656    0.3021997  
   0.876956200    -0.6442611    0.4003874  
   0.878956100    -0.5773379    0.4896944  
   0.880956000    -0.4975691    0.5687635  
   0.882955900    -0.4062683    0.6355110  
   0.884955800    -0.3053688    0.6880719  
   0.886955700    -0.1970435    0.7249857  
   0.888955600    -0.0834580    0.7453406  
   0.890955500     0.0325463    0.7479650  
   0.892955400     0.1487300    0.7325560  
   0.894955300     0.2617720    0.6988777  
