! MS46122B
! 2250307/22442219
! 7/23/2025 8:05:29 AM
! C:\USERS\SPARKY\DOCUMENTS\VNA_DATA\JULY23_2025\3K\PORT5_MOS4_REPEAT1.S1P
! CHANNEL.1
! TR.MEASUREMENT
! RAW.DATA
# GHZ S RI R 50.0
! FREQ.GHZ         S11RE         S11IM         
!; PortSelection: Port_1
   0.001000000     1.0455190   -0.0718117  
   0.002999900     0.9641859   -0.1942080  
   0.004999800     0.9040309   -0.2992661  
   0.006999700     0.8369018   -0.3969417  
   0.008999600     0.7583534   -0.4925089  
   0.010999500     0.6654702   -0.5835598  
   0.012999400     0.5524153   -0.6676161  
   0.014999300     0.4133868   -0.7386177  
   0.016999200     0.2413603   -0.7841680  
   0.018999100     0.0312726   -0.7842987  
   0.020999000    -0.2092179   -0.7044911  
   0.022998900    -0.4434062   -0.5025277  
   0.024998800    -0.5622784   -0.1650548  
   0.026998700    -0.5200738    0.2494501  
   0.028998600    -0.2416884    0.5662425  
   0.030998500     0.1274939    0.6815946  
   0.032998400     0.4242674    0.6109445  
   0.034998300     0.6815404    0.4751888  
   0.036998200     0.8204743    0.2971861  
   0.038998100     0.8928850    0.1216000  
   0.040998000     0.9185438   -0.0397194  
   0.042997900     0.9123350   -0.1835982  
   0.044997800     0.8580179   -0.2839062  
   0.046997700     0.8390129   -0.4203276  
   0.048997600     0.7830385   -0.5161251  
   0.050997500     0.7187302   -0.5983301  
   0.052997400     0.6491395   -0.6679094  
   0.054997300     0.5721619   -0.7290336  
   0.056997200     0.4921488   -0.7792400  
   0.058997100     0.4086527   -0.8198494  
   0.060997000     0.3220223   -0.8517253  
   0.062996900     0.2328355   -0.8740354  
   0.064996800     0.1409842   -0.8867611  
   0.066996700     0.0470958   -0.8900155  
   0.068996600    -0.0481433   -0.8826352  
   0.070996500    -0.1443364   -0.8651701  
   0.072996400    -0.2405328   -0.8347287  
   0.074996300    -0.3355633   -0.7915220  
   0.076996200    -0.4280805   -0.7348094  
   0.078996100    -0.5153374   -0.6633359  
   0.080996000    -0.5961255   -0.5764737  
   0.082995900    -0.6667041   -0.4742576  
   0.084995800    -0.7231390   -0.3567800  
   0.086995700    -0.7633115   -0.2254602  
   0.088995600    -0.7816064   -0.0815612  
   0.090995500    -0.7738545    0.0707453  
   0.092995400    -0.7366003    0.2272195  
   0.094995300    -0.6650693    0.3795730  
   0.096995200    -0.5597314    0.5198785  
   0.098995100    -0.4220514    0.6387371  
   0.100995000    -0.2562652    0.7257485  
   0.102994900    -0.0735971    0.7736828  
   0.104994800     0.1157081    0.7785676  
   0.106994700     0.2993432    0.7395669  
   0.108994600     0.4668367    0.6622527  
   0.110994500     0.6097362    0.5529261  
   0.112994400     0.7217031    0.4201043  
   0.114994300     0.8005162    0.2731428  
   0.116994200     0.8469912    0.1202986  
   0.118994100     0.8627257   -0.0313189  
   0.120994000     0.8531081   -0.1766893  
   0.122993900     0.8185520   -0.3119321  
   0.124993800     0.7645723   -0.4338082  
   0.126993700     0.6953248   -0.5413069  
   0.128993600     0.6124662   -0.6327538  
   0.130993500     0.5214827   -0.7092249  
   0.132993400     0.4233961   -0.7703400  
   0.134993300     0.3207390   -0.8159689  
   0.136993200     0.2148968   -0.8471679  
   0.138993100     0.1075452   -0.8640029  
   0.140993000     0.0004549   -0.8665377  
   0.142992900    -0.1055236   -0.8554024  
   0.144992800    -0.2091346   -0.8325491  
   0.146992700    -0.3085986   -0.7953452  
   0.148992600    -0.4037006   -0.7453451  
   0.150992500    -0.4909412   -0.6819713  
   0.152992400    -0.5718011   -0.6079071  
   0.154992300    -0.6430348   -0.5226152  
   0.156992200    -0.7035269   -0.4262415  
   0.158992100    -0.7513879   -0.3202240  
   0.160992000    -0.7847741   -0.2054639  
   0.162991900    -0.8016224   -0.0838731  
   0.164991800    -0.8000702    0.0426294  
   0.166991700    -0.7787870    0.1710970  
   0.168991600    -0.7361851    0.2983751  
   0.170991500    -0.6709040    0.4210453  
   0.172991400    -0.5838779    0.5342255  
   0.174991300    -0.4757114    0.6332611  
   0.176991200    -0.3481780    0.7135515  
   0.178991100    -0.2050838    0.7706485  
   0.180991000    -0.0511701    0.8016119  
   0.182990900     0.1076541    0.8019671  
   0.184990800     0.2658030    0.7717528  
   0.186990700     0.4155831    0.7115326  
   0.188990600     0.5311995    0.6389697  
   0.190990500     0.6616406    0.5157815  
   0.192990400     0.7542138    0.3839204  
   0.194990300     0.8182203    0.2426267  
   0.196990200     0.8543222    0.0954457  
   0.198990100     0.8631456   -0.0524792  
   0.200990000     0.8462967   -0.1959577  
   0.202989900     0.8059263   -0.3312477  
   0.204989800     0.7456038   -0.4545776  
   0.206989700     0.6690243   -0.5635697  
   0.208989600     0.5777918   -0.6563515  
   0.210989500     0.4758679   -0.7320676  
   0.212989400     0.3658475   -0.7901985  
   0.214989300     0.2504030   -0.8307844  
   0.216989200     0.1331213   -0.8535241  
   0.218989100     0.0157709   -0.8593152  
   0.220989000    -0.1002487   -0.8485122  
   0.222988900    -0.2128697   -0.8212879  
   0.224988800    -0.3203056   -0.7791054  
   0.226988700    -0.4205345   -0.7227325  
   0.228988600    -0.5114018   -0.6529208  
   0.230988500    -0.5921132   -0.5706205  
   0.232988400    -0.6600159   -0.4763539  
   0.234988300    -0.7156655   -0.3722252  
   0.236988200    -0.7560233   -0.2597191  
   0.238988100    -0.7794932   -0.1404074  
   0.240988000    -0.7852166   -0.0174074  
   0.242987900    -0.7715728    0.1073036  
   0.244987800    -0.7378473    0.2310275  
   0.246987700    -0.6833819    0.3504833  
   0.248987600    -0.6081048    0.4624246  
   0.250987500    -0.5126988    0.5623783  
   0.252987400    -0.3994907    0.6457084  
   0.254987300    -0.2713395    0.7088165  
   0.256987200    -0.1317350    0.7488233  
   0.258987100     0.0154145    0.7645015  
   0.260987000     0.1643761    0.7511485  
   0.262986900     0.3101892    0.7098903  
   0.264986800     0.4460161    0.6413768  
   0.266986700     0.5667718    0.5486648  
   0.268986600     0.6672921    0.4357605  
   0.270986500     0.7438721    0.3078238  
   0.272986400     0.7951106    0.1695994  
   0.274986300     0.8200602    0.0268212  
   0.276986200     0.8194900   -0.1156037  
   0.278986100     0.7944505   -0.2532941  
   0.280986000     0.7468536   -0.3817386  
   0.282985900     0.6803957   -0.4982288  
   0.284985800     0.5976700   -0.5998107  
   0.286985700     0.5024227   -0.6843933  
   0.288985600     0.3980846   -0.7517807  
   0.290985500     0.2879495   -0.8010851  
   0.292985400     0.1741326   -0.8330174  
   0.294985300     0.0591921   -0.8478890  
   0.296985200    -0.0555516   -0.8468150  
   0.298985100    -0.1678933   -0.8296419  
   0.300985000    -0.2761233   -0.7973398  
   0.302984900    -0.3776626   -0.7510071  
   0.304984800    -0.4712808   -0.6916690  
   0.306984700    -0.5560545   -0.6209830  
   0.308984600    -0.6298382   -0.5398298  
   0.310984500    -0.6922078   -0.4498311  
   0.312984400    -0.7422993   -0.3511902  
   0.314984300    -0.7788233   -0.2450648  
   0.316984200    -0.8009301   -0.1334085  
   0.318984100    -0.8065901   -0.0167472  
   0.320984000    -0.7938139    0.1028825  
   0.322983900    -0.7614727    0.2217468  
   0.324983800    -0.7089310    0.3348236  
   0.326983700    -0.6363673    0.4380901  
   0.328983600    -0.5467148    0.5265716  
   0.330983500    -0.4446389    0.5968588  
   0.332983400    -0.3364014    0.6478947  
   0.334983300    -0.2237615    0.6816137  
   0.336983200    -0.1099357    0.6993179  
   0.338983100     0.0054024    0.7019420  
   0.340983000     0.1209436    0.6887272  
   0.342982900     0.2353609    0.6586775  
   0.344982800     0.3464686    0.6104607  
   0.346982700     0.4512312    0.5434944  
   0.348982600     0.5443802    0.4576542  
   0.350982500     0.6236348    0.3563383  
   0.352982400     0.6851023    0.2411626  
   0.354982300     0.7265984    0.1108484  
   0.356982200     0.7430211   -0.0385609  
   0.358982100     0.7291377   -0.1882874  
   0.360982000     0.6858333   -0.3320189  
   0.362981900     0.6151181   -0.4641370  
   0.364981800     0.5197577   -0.5796738  
   0.366981700     0.4043576   -0.6736878  
   0.368981600     0.2736120   -0.7428538  
   0.370981500     0.1328370   -0.7853176  
   0.372981400    -0.0119223   -0.8002349  
   0.374981300    -0.1562808   -0.7875634  
   0.376981200    -0.0343167   -0.8004577  
   0.378981100    -0.1757771   -0.7834889  
   0.380981000    -0.3108799   -0.7414693  
   0.382980900    -0.4241793   -0.6829752  
   0.384980800    -0.5208117   -0.6113566  
   0.386980700    -0.6052051   -0.5260518  
   0.388980600    -0.6754233   -0.4291722  
   0.390980500    -0.7297568   -0.3240993  
   0.392980400    -0.7675554   -0.2126034  
   0.394980300    -0.7882941   -0.0967671  
   0.396980200    -0.7916107    0.0203994  
   0.398980100    -0.7773796    0.1378130  
   0.400980000    -0.7460958    0.2524102  
   0.402979900    -0.6970572    0.3618448  
   0.404979800    -0.6321293    0.4633819  
   0.406979700    -0.5513802    0.5549147  
   0.408979600    -0.4570266    0.6338478  
   0.410979500    -0.3493716    0.6984040  
   0.412979400    -0.2308103    0.7459216  
   0.414979300    -0.1043820    0.7728226  
   0.416979200     0.0260871    0.7802941  
   0.418979100     0.1574584    0.7661988  
   0.420979000     0.2864099    0.7301877  
   0.422978900     0.4086150    0.6723628  
   0.424978800     0.5203577    0.5934792  
   0.426978700     0.6177843    0.4961677  
   0.428978600     0.6971546    0.3827797  
   0.430978500     0.7555944    0.2575958  
   0.432978400     0.7914850    0.1244732  
   0.434978300     0.8050663   -0.0125302  
   0.436978200     0.7935582   -0.1490813  
   0.438978100     0.7590444   -0.2810770  
   0.440978000     0.7032412   -0.4039809  
   0.442977900     0.6279798   -0.5149714  
   0.444977800     0.5360340   -0.6105565  
   0.446977700     0.4308020   -0.6889389  
   0.448977600     0.3156868   -0.7479764  
   0.450977500     0.1938497   -0.7869062  
   0.452977400     0.0684095   -0.8055888  
   0.454977300    -0.0577163   -0.8040283  
   0.456977200    -0.1811382   -0.7828977  
   0.458977100    -0.2986748   -0.7425923  
   0.460977000    -0.4073498   -0.6847851  
   0.462976900    -0.5047435   -0.6120197  
   0.464976800    -0.5892912   -0.5251511  
   0.466976700    -0.6590766   -0.4270832  
   0.468976600    -0.7130738   -0.3197826  
   0.470976500    -0.7496765   -0.2055026  
   0.472976400    -0.7684883   -0.0866000  
   0.474976300    -0.7686629    0.0339691  
   0.476976200    -0.7499522    0.1533134  
   0.478976100    -0.7125962    0.2686163  
   0.480976000    -0.6577143    0.3770120  
   0.482975900    -0.5856656    0.4760797  
   0.484975800    -0.4984422    0.5632882  
   0.486975700    -0.3967366    0.6356678  
   0.488975600    -0.2835024    0.6911224  
   0.490975500    -0.1611729    0.7273484  
   0.492975400    -0.0334177    0.7424651  
   0.494975300     0.0962386    0.7351884  
   0.496975200     0.2231115    0.7053126  
   0.498975100     0.3430921    0.6535734  
   0.500975000     0.4520017    0.5814253  
   0.502974900     0.5457287    0.4915741  
   0.504974800     0.6214253    0.3870634  
   0.506974700     0.6770895    0.2718201  
   0.508974600     0.7113714    0.1496973  
   0.510974500     0.7233524    0.0258788  
   0.512974400     0.7146178   -0.0954139  
   0.514974300     0.6856094   -0.2096175  
   0.516974200     0.6414822   -0.3156307  
   0.518974100     0.5835652   -0.4109224  
   0.520974000     0.5141567   -0.4945554  
   0.522973900     0.4352953   -0.5662211  
   0.524973800     0.3494253   -0.6255921  
   0.526973700     0.2562568   -0.6732956  
   0.528973600     0.1580229   -0.7078021  
   0.530973500     0.0550986   -0.7294555  
   0.532973400    -0.0510236   -0.7366966  
   0.534973300    -0.1581684   -0.7287443  
   0.536973200    -0.2655161   -0.7045848  
   0.538973100    -0.3688972   -0.6638444  
   0.540973000    -0.4660171   -0.6073070  
   0.542972900    -0.5546763   -0.5347795  
   0.544972800    -0.6315145   -0.4486098  
   0.546972700    -0.6943595   -0.3494462  
   0.548972600    -0.7408903   -0.2403052  
   0.550972500    -0.7693456   -0.1240978  
   0.552972400    -0.7788889   -0.0040025  
   0.554972300    -0.7687538    0.1168801  
   0.556972200    -0.7387240    0.2353620  
   0.558972100    -0.6898272    0.3478035  
   0.560972000    -0.6232337    0.4512534  
   0.562971900    -0.5405291    0.5428177  
   0.564971800    -0.4437239    0.6201504  
   0.566971700    -0.3352616    0.6811838  
   0.568971600    -0.2181098    0.7239804  
   0.570971500    -0.0947829    0.7472664  
   0.572971400     0.0320273    0.7500850  
   0.574971300     0.1585343    0.7320024  
   0.576971200     0.2815369    0.6924429  
   0.578971100     0.3970897    0.6322385  
   0.580971000     0.5014569    0.5531443  
   0.582970900     0.5911337    0.4569260  
   0.584970800     0.6630739    0.3466305  
   0.586970700     0.7148652    0.2257621  
   0.588970600     0.7455271    0.0976694  
   0.590970500     0.7536219   -0.0339662  
   0.592970400     0.7392254   -0.1645900  
   0.594970300     0.7027419   -0.2905756  
   0.596970200     0.6453391   -0.4081554  
   0.598970100     0.5693402   -0.5133497  
   0.600970000     0.4771479   -0.6040413  
   0.602969900     0.3717164   -0.6774027  
   0.604969800     0.2560933   -0.7317100  
   0.606969700     0.1341851   -0.7656527  
   0.608969600     0.0088901   -0.7793723  
   0.610969500    -0.1154414   -0.7727728  
   0.612969400    -0.2362952   -0.7459115  
   0.614969300    -0.3498693   -0.7010232  
   0.616969200    -0.4534042   -0.6393005  
   0.618969100    -0.5451733   -0.5633391  
   0.620969000    -0.6234588   -0.4749719  
   0.622968900    -0.6871083   -0.3763541  
   0.624968800    -0.7348199   -0.2698527  
   0.626968700    -0.7660206   -0.1571299  
   0.628968600    -0.7802248   -0.0411604  
   0.630968500    -0.7766658    0.0757331  
   0.632968400    -0.7555029    0.1906841  
   0.634968300    -0.7174588    0.3016742  
   0.636968200    -0.6628067    0.4059034  
   0.638968100    -0.5926658    0.5016797  
   0.640968000    -0.5082965    0.5854283  
   0.642967900    -0.4112426    0.6566404  
   0.644967800    -0.3035780    0.7123111  
   0.646967700    -0.1875645    0.7506477  
   0.648967600    -0.0664077    0.7706316  
   0.650967500     0.0575801    0.7714559  
   0.652967400     0.1807432    0.7523376  
   0.654967300     0.3001986    0.7136025  
   0.656967200     0.4127791    0.6553513  
   0.658967100     0.5155505    0.5789096  
   0.660967000     0.6048279    0.4861618  
   0.662966900     0.6782695    0.3784201  
   0.664966800     0.7332951    0.2585587  
   0.666966700     0.7674910    0.1307531  
   0.668966600     0.7798125   -0.0016767  
   0.670966500     0.7691649   -0.1338657  
   0.672966400     0.7375568   -0.2626325  
   0.674966300     0.6836547   -0.3831906  
   0.676966200     0.6106367   -0.4919908  
   0.678966100     0.5216505   -0.5862692  
   0.680966000     0.4185807   -0.6637548  
   0.682965900     0.3055755   -0.7222146  
   0.684965800     0.1858670   -0.7613821  
   0.686965700     0.0624974   -0.7801890  
   0.688965600    -0.0610299   -0.7794068  
   0.690965500    -0.1807726   -0.7576381  
   0.692965400    -0.2947831   -0.7192198  
   0.694965300    -0.4000991   -0.6641670  
   0.696965200    -0.4949275   -0.5942473  
   0.698965100    -0.5771837   -0.5112334  
   0.700965000    -0.6455811   -0.4172829  
   0.702964900    -0.6986249   -0.3145211  
   0.704964800    -0.7356552   -0.2053482  
   0.706964700    -0.7555913   -0.0918593  
   0.708964600    -0.7580652    0.0232677  
   0.710964500    -0.7436920    0.1380518  
   0.712964400    -0.7111389    0.2494057  
   0.714964300    -0.6617592    0.3549458  
   0.716964200    -0.5966148    0.4514905  
   0.718964100    -0.5167737    0.5371128  
   0.720964000    -0.4244341    0.6095659  
   0.722963900    -0.3213753    0.6669129  
   0.724963800    -0.2099441    0.7072166  
   0.726963700    -0.0926319    0.7292545  
   0.728963600     0.0277636    0.7315093  
   0.730963500     0.1466649    0.7141228  
   0.732963400     0.2621416    0.6772715  
   0.734963300     0.3700612    0.6216586  
   0.736963200     0.4812250    0.5370303  
   0.738963100     0.5749400    0.4328597  
   0.740963000     0.6466779    0.3130611  
   0.742962900     0.6944682    0.1824388  
   0.744962800     0.7166430    0.0462480  
   0.746962700     0.7130467   -0.0905690  
   0.748962600     0.6844382   -0.2232985  
   0.750962500     0.6973095   -0.1157982  
   0.752962400     0.6657524   -0.2457953  
   0.754962300     0.6115050   -0.3669166  
   0.756962200     0.5370931   -0.4752101  
   0.758962100     0.4449700   -0.5683360  
   0.760962000     0.3382517   -0.6430895  
   0.762961900     0.2260882   -0.6957195  
   0.764961800     0.1170045   -0.7269071  
   0.766961700     0.0047828   -0.7413074  
   0.768961600    -0.1087252   -0.7382926  
   0.770961500    -0.2206863   -0.7180198  
   0.772961400    -0.3282354   -0.6807773  
   0.774961300    -0.4289068   -0.6274856  
   0.776961200    -0.5208434   -0.5587764  
   0.778961100    -0.6008893   -0.4764532  
   0.780961000    -0.6671963   -0.3818420  
   0.782960900    -0.7184571   -0.2779808  
   0.784960800    -0.7526619   -0.1665437  
   0.786960700    -0.7687694   -0.0504910  
   0.788960600    -0.7665843    0.0669557  
   0.790960500    -0.7455494    0.1824565  
   0.792960400    -0.7067195    0.2934577  
   0.794960300    -0.6507574    0.3969925  
   0.796960200    -0.5793241    0.4906476  
   0.798960100    -0.4939620    0.5714444  
   0.800960000    -0.3969916    0.6384822  
   0.802959900    -0.2904639    0.6892125  
   0.804959800    -0.1772589    0.7229493  
   0.806959700    -0.0597186    0.7383349  
   0.808959600     0.0591678    0.7348130  
   0.810959500     0.1763602    0.7129549  
   0.812959400     0.2891790    0.6721717  
   0.814959300     0.3947127    0.6135024  
   0.816959200     0.4898649    0.5386466  
   0.818959100     0.5720354    0.4487683  
   0.820959000     0.6391029    0.3459144  
   0.822958900     0.6885475    0.2333200  
   0.824958800     0.7189937    0.1132291  
   0.826958700     0.7295341   -0.0106869  
   0.828958600     0.7189873   -0.1346468  
   0.830958500     0.6880793   -0.2556357  
   0.832958400     0.6373329   -0.3695191  
   0.834958300     0.5685770   -0.4731895  
   0.836958200     0.4837238   -0.5642403  
   0.838958100     0.3852586   -0.6395302  
   0.840958000     0.2759542   -0.6972896  
   0.842957900     0.1589568   -0.7361882  
   0.844957800     0.0378650   -0.7551034  
   0.846957700    -0.0840827   -0.7543263  
   0.848957600    -0.2033648   -0.7338356  
   0.850957500    -0.3173142   -0.6945479  
   0.852957400    -0.4227896   -0.6381711  
   0.854957300    -0.5172100   -0.5661351  
   0.856957200    -0.5987978   -0.4807679  
   0.858957100    -0.6652426   -0.3846262  
   0.860957000    -0.7157893   -0.2803779  
   0.862956900    -0.7497074   -0.1706754  
   0.864956800    -0.7661310   -0.0584064  
   0.866956700    -0.7655978    0.0541228  
   0.868956600    -0.7483742    0.1650917  
   0.870956500    -0.7150400    0.2716835  
   0.872956400    -0.6664117    0.3727356  
   0.874956300    -0.6036884    0.4651847  
   0.876956200    -0.5272932    0.5480475  
   0.878956100    -0.4387568    0.6193699  
   0.880956000    -0.3403243    0.6766130  
   0.882955900    -0.2330510    0.7189017  
   0.884955800    -0.1201299    0.7447137  
   0.886955700    -0.0035572    0.7528233  
   0.888955600     0.1141307    0.7427453  
   0.890955500     0.2293504    0.7143577  
   0.892955400     0.3397404    0.6677040  
   0.894955300     0.4420833    0.6037595  
