! MS46122B
! 2250307/22442219
! 7/23/2025 7:54:20 AM
! C:\USERS\SPARKY\DOCUMENTS\VNA_DATA\JULY23_2025\3K\PORT3_MOS2.S1P
! CHANNEL.1
! TR.MEASUREMENT
! RAW.DATA
# GHZ S RI R 50.0
! FREQ.GHZ         S11RE         S11IM         
!; PortSelection: Port_1
   0.001000000     1.0459400   -0.0715399  
   0.002999900     0.9644411   -0.1940362  
   0.004999800     0.9041896   -0.2990923  
   0.006999700     0.8370604   -0.3967964  
   0.008999600     0.7585784   -0.4923120  
   0.010999500     0.6658497   -0.5832471  
   0.012999400     0.5531880   -0.6670897  
   0.014999300     0.4146935   -0.7380711  
   0.016999200     0.2441425   -0.7837029  
   0.018999100     0.0362063   -0.7847393  
   0.020999000    -0.2017950   -0.7079395  
   0.022998900    -0.4347781   -0.5123982  
   0.024998800    -0.5578778   -0.1834613  
   0.026998700    -0.5287080    0.2249944  
   0.028998600    -0.2651575    0.5475312  
   0.030998500     0.0974165    0.6771513  
   0.032998400     0.3971924    0.6185017  
   0.034998300     0.6606390    0.4912210  
   0.036998200     0.8066043    0.3167741  
   0.038998100     0.8850444    0.1419820  
   0.040998000     0.9153306   -0.0198625  
   0.042997900     0.9129820   -0.1648762  
   0.044997800     0.8612220   -0.2670666  
   0.046997700     0.8446047   -0.4045976  
   0.048997600     0.7908633   -0.5016063  
   0.050997500     0.7280130   -0.5854744  
   0.052997400     0.6602818   -0.6559123  
   0.054997300     0.5838284   -0.7190876  
   0.056997200     0.5050508   -0.7707220  
   0.058997100     0.4226955   -0.8126748  
   0.060997000     0.3369396   -0.8460213  
   0.062996900     0.2487946   -0.8699605  
   0.064996800     0.1578602   -0.8843051  
   0.066996700     0.0647846   -0.8895078  
   0.068996600    -0.0295727   -0.8842086  
   0.070996500    -0.1249048   -0.8692074  
   0.072996400    -0.2206762   -0.8414214  
   0.074996300    -0.3154148   -0.8011344  
   0.076996200    -0.4078671   -0.7478769  
   0.078996100    -0.4957284   -0.6802369  
   0.080996000    -0.5774896   -0.5977910  
   0.082995900    -0.6501198   -0.4999218  
   0.084995800    -0.7096835   -0.3871605  
   0.086995700    -0.7542142   -0.2605036  
   0.088995600    -0.7781141   -0.1210791  
   0.090995500    -0.7780188    0.0279641  
   0.092995400    -0.7496997    0.1822085  
   0.094995300    -0.6890768    0.3348835  
   0.096995200    -0.5946575    0.4783744  
   0.098995100    -0.4677032    0.6028032  
   0.100995000    -0.3113523    0.7005302  
   0.102994900    -0.1354826    0.7608390  
   0.104994800     0.0506841    0.7801117  
   0.106994700     0.2356018    0.7558926  
   0.108994600     0.4080274    0.6926501  
   0.110994500     0.5590160    0.5952362  
   0.112994400     0.6815402    0.4712375  
   0.114994300     0.7722920    0.3300081  
   0.116994200     0.8306497    0.1801219  
   0.118994100     0.8579432    0.0287144  
   0.120994000     0.8588750   -0.1186557  
   0.122993900     0.8336006   -0.2570336  
   0.124993800     0.7877910   -0.3834659  
   0.126993700     0.7248231   -0.4964521  
   0.128993600     0.6477701   -0.5935251  
   0.130993500     0.5609488   -0.6764607  
   0.132993400     0.4665754   -0.7438383  
   0.134993300     0.3662956   -0.7959629  
   0.136993200     0.2624289   -0.8333957  
   0.138993100     0.1565826   -0.8566385  
   0.140993000     0.0499413   -0.8655844  
   0.142992900    -0.0561759   -0.8607607  
   0.144992800    -0.1602893   -0.8442850  
   0.146992700    -0.2612808   -0.8134176  
   0.148992600    -0.3581675   -0.7697202  
   0.150992500    -0.4478366   -0.7126492  
   0.152992400    -0.5320843   -0.6448746  
   0.154992300    -0.6076074   -0.5658861  
   0.156992200    -0.6730999   -0.4756270  
   0.158992100    -0.7271838   -0.3752139  
   0.160992000    -0.7676091   -0.2658158  
   0.162991900    -0.7932224   -0.1486576  
   0.164991800    -0.8016623   -0.0254805  
   0.166991700    -0.7914139    0.1007173  
   0.168991600    -0.7607073    0.2277749  
   0.170991500    -0.7086864    0.3523872  
   0.172991400    -0.6346104    0.4698912  
   0.174991300    -0.5395510    0.5764439  
   0.176991200    -0.4239520    0.6670627  
   0.178991100    -0.2912984    0.7376890  
   0.180991000    -0.1452390    0.7846681  
   0.182990900     0.0096098    0.8029861  
   0.184990800     0.1673561    0.7920066  
   0.186990700     0.3210326    0.7508196  
   0.188990600     0.4435244    0.6937385  
   0.190990500     0.5873090    0.5883567  
   0.192990400     0.6952393    0.4696416  
   0.194990300     0.7760026    0.3374599  
   0.196990200     0.8301657    0.1955542  
   0.198990100     0.8576459    0.0495550  
   0.200990000     0.8585639   -0.0960368  
   0.202989900     0.8347471   -0.2360579  
   0.204989800     0.7890652   -0.3668245  
   0.206989700     0.7251974   -0.4852472  
   0.208989600     0.6449377   -0.5881279  
   0.210989500     0.5515781   -0.6760435  
   0.212989400     0.4481442   -0.7468628  
   0.214989300     0.3377198   -0.8002028  
   0.216989200     0.2233574   -0.8359889  
   0.218989100     0.1069917   -0.8548990  
   0.220989000    -0.0092028   -0.8570628  
   0.222988900    -0.1235741   -0.8427910  
   0.224988800    -0.2347171   -0.8127408  
   0.226988700    -0.3392598   -0.7681883  
   0.228988600    -0.4367855   -0.7098793  
   0.230988500    -0.5251402   -0.6386762  
   0.232988400    -0.6022570   -0.5542412  
   0.234988300    -0.6686467   -0.4594260  
   0.236988200    -0.7213260   -0.3550872  
   0.238988100    -0.7588130   -0.2425083  
   0.240988000    -0.7794358   -0.1243671  
   0.242987900    -0.7826517   -0.0024068  
   0.244987800    -0.7665496    0.1208181  
   0.246987700    -0.7308228    0.2431315  
   0.248987600    -0.6743473    0.3608766  
   0.250987500    -0.5978203    0.4705265  
   0.252987400    -0.5020348    0.5675742  
   0.254987300    -0.3890946    0.6481665  
   0.256987200    -0.2617995    0.7086523  
   0.258987100    -0.1232741    0.7481275  
   0.260987000     0.0225039    0.7604170  
   0.262986900     0.1704759    0.7455567  
   0.264986800     0.3139846    0.7035685  
   0.266986700     0.4476794    0.6347187  
   0.268986600     0.5658810    0.5428143  
   0.270986500     0.6643023    0.4312704  
   0.272986400     0.7397500    0.3046691  
   0.274986300     0.7901715    0.1679797  
   0.276986200     0.8148353    0.0268276  
   0.278986100     0.8144156   -0.1143015  
   0.280986000     0.7895731   -0.2506401  
   0.282985900     0.7428451   -0.3779950  
   0.284985800     0.6774310   -0.4932906  
   0.286985700     0.5961054   -0.5938777  
   0.288985600     0.5026236   -0.6775622  
   0.290985500     0.4002680   -0.7446432  
   0.292985400     0.2919425   -0.7942473  
   0.294985300     0.1796937   -0.8267567  
   0.296985200     0.0655756   -0.8425725  
   0.298985100    -0.0485255   -0.8424708  
   0.300985000    -0.1598909   -0.8263105  
   0.302984900    -0.2669124   -0.7956549  
   0.304984800    -0.3674324   -0.7511498  
   0.306984700    -0.4602249   -0.6940061  
   0.308984600    -0.5441825   -0.6261281  
   0.310984500    -0.6178825   -0.5478934  
   0.312984400    -0.6809146   -0.4604524  
   0.314984300    -0.7321693   -0.3648156  
   0.316984200    -0.7706349   -0.2617234  
   0.318984100    -0.7950256   -0.1518798  
   0.320984000    -0.8039044   -0.0367769  
   0.322983900    -0.7948769    0.0810716  
   0.324983800    -0.7670948    0.1984688  
   0.326983700    -0.7195657    0.3107201  
   0.328983600    -0.6528438    0.4143020  
   0.330983500    -0.5698060    0.5044932  
   0.332983400    -0.4746650    0.5782298  
   0.334983300    -0.3716536    0.6354806  
   0.336983200    -0.2622820    0.6770392  
   0.338983100    -0.1488286    0.7027642  
   0.340983000    -0.0326560    0.7126362  
   0.342982900     0.0855011    0.7057495  
   0.344982800     0.2035301    0.6808820  
   0.346982700     0.3188228    0.6367703  
   0.348982600     0.4265457    0.5726842  
   0.350982500     0.5245518    0.4915431  
   0.352982400     0.6084601    0.3930230  
   0.354982300     0.6767691    0.2762729  
   0.356982200     0.7257785    0.1354190  
   0.358982100     0.7461001   -0.0124520  
   0.360982000     0.7366720   -0.1615270  
   0.362981900     0.6980395   -0.3056994  
   0.364981800     0.6320614   -0.4395498  
   0.366981700     0.5416573   -0.5573008  
   0.368981600     0.4303226   -0.6548682  
   0.370981500     0.3031665   -0.7286873  
   0.372981400     0.1649350   -0.7763653  
   0.374981300     0.0212352   -0.7969648  
   0.376981200     0.1405764   -0.7825004  
   0.378981100    -0.0012709   -0.7974316  
   0.380981000    -0.1420378   -0.7863212  
   0.382980900    -0.2651965   -0.7544779  
   0.384980800    -0.3753775   -0.7063720  
   0.386980700    -0.4755711   -0.6421555  
   0.388980600    -0.5647221   -0.5637718  
   0.390980500    -0.6399752   -0.4738817  
   0.392980400    -0.7007278   -0.3746972  
   0.394980300    -0.7456875   -0.2685888  
   0.396980200    -0.7744787   -0.1568980  
   0.398980100    -0.7868469   -0.0421044  
   0.400980000    -0.7821136    0.0736825  
   0.402979900    -0.7605662    0.1881907  
   0.404979800    -0.7219201    0.2986561  
   0.406979700    -0.6670071    0.4030079  
   0.408979600    -0.5967341    0.4988721  
   0.410979500    -0.5112256    0.5844050  
   0.412979400    -0.4120207    0.6574510  
   0.414979300    -0.3008733    0.7131538  
   0.416979200    -0.1811561    0.7525633  
   0.418979100    -0.0553797    0.7728585  
   0.420979000     0.0735215    0.7725375  
   0.422978900     0.2022593    0.7510923  
   0.424978800     0.3273810    0.7079071  
   0.426978700     0.4445587    0.6437015  
   0.428978600     0.5500823    0.5600543  
   0.430978500     0.6400970    0.4594531  
   0.432978400     0.7116731    0.3448502  
   0.434978300     0.7637978    0.2198256  
   0.436978200     0.7928278    0.0880101  
   0.438978100     0.7989951   -0.0469044  
   0.440978000     0.7822961   -0.1801416  
   0.442977900     0.7433805   -0.3078265  
   0.444977800     0.6841183   -0.4259657  
   0.446977700     0.6065879   -0.5319175  
   0.448977600     0.5139390   -0.6224413  
   0.450977500     0.4087526   -0.6958658  
   0.452977400     0.2940332   -0.7506668  
   0.454977300     0.1726718   -0.7859185  
   0.456977200     0.0480636   -0.8013567  
   0.458977100    -0.0761885   -0.7966933  
   0.460977000    -0.1967042   -0.7730895  
   0.462976900    -0.3104911   -0.7314664  
   0.464976800    -0.4155336   -0.6731497  
   0.466976700    -0.5102180   -0.5998262  
   0.468976600    -0.5918096   -0.5136859  
   0.470976500    -0.6592882   -0.4165400  
   0.472976400    -0.7108752   -0.3102331  
   0.474976300    -0.7458139   -0.1976527  
   0.476976200    -0.7629471   -0.0812444  
   0.478976100    -0.7622023    0.0363776  
   0.480976000    -0.7436855    0.1529858  
   0.482975900    -0.7069783    0.2650540  
   0.484975800    -0.6533385    0.3712029  
   0.486975700    -0.5827263    0.4687310  
   0.488975600    -0.4969722    0.5547597  
   0.490975500    -0.3973052    0.6262113  
   0.492975400    -0.2861443    0.6811433  
   0.494975300    -0.1662782    0.7171458  
   0.496975200    -0.0407406    0.7323681  
   0.498975100     0.0859502    0.7257779  
   0.500975000     0.2100321    0.6972466  
   0.502974900     0.3269970    0.6474838  
   0.504974800     0.4333017    0.5779953  
   0.506974700     0.5252118    0.4910535  
   0.508974600     0.5998800    0.3896632  
   0.510974500     0.6549895    0.2785717  
   0.512974400     0.6893953    0.1617497  
   0.514974300     0.7018332    0.0443802  
   0.516974200     0.6965120   -0.0707843  
   0.518974100     0.6742349   -0.1802306  
   0.520974000     0.6368036   -0.2824059  
   0.522973900     0.5864541   -0.3759928  
   0.524973800     0.5249670   -0.4600697  
   0.526973700     0.4534228   -0.5347891  
   0.528973600     0.3736310   -0.5987124  
   0.530973500     0.2850764   -0.6519589  
   0.532973400     0.1900061   -0.6929771  
   0.534973300     0.0890628   -0.7206802  
   0.536973200    -0.0170372   -0.7340854  
   0.538973100    -0.1246189   -0.7318131  
   0.540973000    -0.2318880   -0.7124572  
   0.542972900    -0.3365867   -0.6770223  
   0.544972800    -0.4358034   -0.6250371  
   0.546972700    -0.5269630   -0.5566514  
   0.548972600    -0.6071861   -0.4742545  
   0.550972500    -0.6734402   -0.3789293  
   0.552972400    -0.7242229   -0.2734950  
   0.554972300    -0.7575625   -0.1603752  
   0.556972200    -0.7725546   -0.0430154  
   0.558972100    -0.7686131    0.0759455  
   0.560972000    -0.7454664    0.1930830  
   0.562971900    -0.7040517    0.3051386  
   0.564971800    -0.6453003    0.4095282  
   0.566971700    -0.5705057    0.5036050  
   0.568971600    -0.4812944    0.5849262  
   0.570971500    -0.3798867    0.6513720  
   0.572971400    -0.2682547    0.7013796  
   0.574971300    -0.1489778    0.7328581  
   0.576971200    -0.0246963    0.7446676  
   0.578971100     0.1008691    0.7360250  
   0.580971000     0.2239885    0.7064316  
   0.582970900     0.3413097    0.6564953  
   0.584970800     0.4490135    0.5874522  
   0.586970700     0.5438448    0.5008655  
   0.588970600     0.6231079    0.3993939  
   0.590970500     0.6840003    0.2853213  
   0.592970400     0.7247836    0.1625565  
   0.594970300     0.7439771    0.0342085  
   0.596970200     0.7411936   -0.0951021  
   0.598970100     0.7163079   -0.2220559  
   0.600970000     0.6701908   -0.3428282  
   0.602969900     0.6046307   -0.4531845  
   0.604969800     0.5214002   -0.5505788  
   0.606969700     0.4238651   -0.6323867  
   0.608969600     0.3141697   -0.6962590  
   0.610969500     0.1965133   -0.7404082  
   0.612969400     0.0742570   -0.7643759  
   0.614969300    -0.0484925   -0.7683182  
   0.616969200    -0.1690193   -0.7522379  
   0.618969100    -0.2836411   -0.7176810  
   0.620969000    -0.3902879   -0.6665921  
   0.622968900    -0.4870883   -0.5997506  
   0.624968800    -0.5720779   -0.5196137  
   0.626968700    -0.6433049   -0.4277149  
   0.628968600    -0.6995588   -0.3265860  
   0.630968500    -0.7398189   -0.2183929  
   0.632968400    -0.7633211   -0.1057294  
   0.634968300    -0.7695073    0.0091471  
   0.636968200    -0.7585752    0.1236391  
   0.638968100    -0.7305503    0.2353194  
   0.640968000    -0.6859103    0.3421128  
   0.642967900    -0.6256333    0.4410619  
   0.644967800    -0.5505860    0.5303418  
   0.646967700    -0.4624537    0.6078926  
   0.648967600    -0.3628266    0.6714349  
   0.650967500    -0.2545721    0.7188178  
   0.652967400    -0.1390239    0.7495884  
   0.654967300    -0.0192907    0.7620714  
   0.656967200     0.1019657    0.7554770  
   0.658967100     0.2215709    0.7296059  
   0.660967000     0.3369369    0.6843439  
   0.662966900     0.4449536    0.6201574  
   0.664966800     0.5421149    0.5383233  
   0.666966700     0.6254405    0.4403094  
   0.668966600     0.6915736    0.3290960  
   0.670966500     0.7383613    0.2078756  
   0.672966400     0.7656258    0.0803687  
   0.674966300     0.7694914   -0.0496949  
   0.676966200     0.7511513   -0.1782098  
   0.678966100     0.7116699   -0.3013963  
   0.680966000     0.6526699   -0.4153478  
   0.682965900     0.5758638   -0.5176200  
   0.684965800     0.4842392   -0.6047533  
   0.686965700     0.3797681   -0.6749626  
   0.688965600     0.2666461   -0.7270085  
   0.690965500     0.1476747   -0.7583355  
   0.692965400     0.0270153   -0.7714455  
   0.694965300    -0.0929596   -0.7650073  
   0.696965200    -0.2088437   -0.7403933  
   0.698965100    -0.3185919   -0.6983691  
   0.700965000    -0.4196272   -0.6405454  
   0.702964900    -0.5100387   -0.5684580  
   0.704964800    -0.5877905   -0.4842201  
   0.706964700    -0.6516379   -0.3896534  
   0.708964600    -0.7003010   -0.2868000  
   0.710964500    -0.7333084   -0.1779625  
   0.712964400    -0.7489259   -0.0655973  
   0.714964300    -0.7475086    0.0478863  
   0.716964200    -0.7290081    0.1594203  
   0.718964100    -0.6937248    0.2670689  
   0.720964000    -0.6425396    0.3681970  
   0.722963900    -0.5764347    0.4605654  
   0.724963800    -0.4965685    0.5418800  
   0.726963700    -0.4044173    0.6102970  
   0.728963600    -0.3020703    0.6638660  
   0.730963500    -0.1912193    0.7000467  
   0.732963400    -0.0761412    0.7186651  
   0.734963300     0.0417608    0.7181962  
   0.736963200     0.1756516    0.6943314  
   0.738963100     0.3037041    0.6453073  
   0.740963000     0.4205208    0.5731616  
   0.742962900     0.5214099    0.4805652  
   0.744962800     0.6032503    0.3708415  
   0.746962700     0.6627000    0.2480395  
   0.748962600     0.6977840    0.1171709  
   0.750962500     0.6581239    0.2214505  
   0.752962400     0.6888528    0.0919214  
   0.754962300     0.6956182   -0.0402839  
   0.756962200     0.6783040   -0.1709078  
   0.758962100     0.6379169   -0.2949315  
   0.760962000     0.5764490   -0.4094387  
   0.762961900     0.4997422   -0.5061305  
   0.764961800     0.4169241   -0.5821502  
   0.766961700     0.3231653   -0.6444017  
   0.768961600     0.2210843   -0.6914261  
   0.770961500     0.1132050   -0.7224712  
   0.772961400     0.0017858   -0.7366428  
   0.774961300    -0.1106985   -0.7337088  
   0.776961200    -0.2216918   -0.7133384  
   0.778961100    -0.3287244   -0.6760682  
   0.780961000    -0.4291226   -0.6221543  
   0.782960900    -0.5198377   -0.5529912  
   0.784960800    -0.5994296   -0.4698809  
   0.786960700    -0.6648520   -0.3751304  
   0.788960600    -0.7147295   -0.2710110  
   0.790960500    -0.7475322   -0.1602538  
   0.792960400    -0.7628262   -0.0459040  
   0.794960300    -0.7596369    0.0697153  
   0.796960200    -0.7385023    0.1834145  
   0.798960100    -0.7000669    0.2918762  
   0.800960000    -0.6453161    0.3931179  
   0.802959900    -0.5754452    0.4850183  
   0.804959800    -0.4919210    0.5644137  
   0.806959700    -0.3972640    0.6305632  
   0.808959600    -0.2930568    0.6808870  
   0.810959500    -0.1822819    0.7147120  
   0.812959400    -0.0667783    0.7309315  
   0.814959300     0.0503712    0.7289389  
   0.816959200     0.1662215    0.7085288  
   0.818959100     0.2780141    0.6696217  
   0.820959000     0.3826996    0.6131216  
   0.822958900     0.4776565    0.5403634  
   0.824958800     0.5601301    0.4524856  
   0.826958700     0.6278338    0.3517655  
   0.828958600     0.6784000    0.2406913  
   0.830958500     0.7101283    0.1227323  
   0.832958400     0.7218526    0.0004321  
   0.834958300     0.7131164   -0.1220730  
   0.836958200     0.6843197   -0.2413190  
   0.838958100     0.6361315   -0.3543150  
   0.840958000     0.5696587   -0.4579830  
   0.842957900     0.4870699   -0.5491776  
   0.844957800     0.3907186   -0.6252530  
   0.846957700     0.2833655   -0.6838506  
   0.848957600     0.1684108   -0.7240382  
   0.850957500     0.0490215   -0.7443835  
   0.852957400    -0.0714786   -0.7453294  
   0.854957300    -0.1899605   -0.7266247  
   0.856957200    -0.3026320   -0.6895466  
   0.858957100    -0.4072593   -0.6353687  
   0.860957000    -0.5010052   -0.5662088  
   0.862956900    -0.5822659   -0.4841859  
   0.864956800    -0.6490297   -0.3916691  
   0.866956700    -0.7002460   -0.2912847  
   0.868956600    -0.7351748   -0.1851190  
   0.870956500    -0.7543606   -0.0755543  
   0.872956400    -0.7566068    0.0352069  
   0.874956300    -0.7426442    0.1447949  
   0.876956200    -0.7124090    0.2513680  
   0.878956100    -0.6669583    0.3522673  
   0.880956000    -0.6068099    0.4458548  
   0.882955900    -0.5333174    0.5296223  
   0.884955800    -0.4477929    0.6019809  
   0.886955700    -0.3519330    0.6609188  
   0.888955600    -0.2476388    0.7050508  
   0.890955500    -0.1375026    0.7333063  
   0.892955400    -0.0234623    0.7443501  
   0.894955300     0.0920655    0.7377909  
