! MS46122B
! 2250307/22442219
! 7/24/2025 7:36:50 AM
! C:\USERS\SPARKY\DOCUMENTS\VNA_DATA\JULY24_2025\3K\PORT1_MOS5.S1P
! CHANNEL.1
! TR.MEASUREMENT
! RAW.DATA
# GHZ S RI R 50.0
! FREQ.GHZ         S11RE         S11IM         
!; PortSelection: Port_1
   0.001000000     1.0453020   -0.0720878  
   0.002999900     0.9638250   -0.1944449  
   0.004999800     0.9035134   -0.2994041  
   0.006999700     0.8362553   -0.3969708  
   0.008999600     0.7573426   -0.4924154  
   0.010999500     0.6639664   -0.5832364  
   0.012999400     0.5502421   -0.6667375  
   0.014999300     0.4101171   -0.7367148  
   0.016999200     0.2372846   -0.7803633  
   0.018999100     0.0266485   -0.7770161  
   0.020999000    -0.2127395   -0.6917131  
   0.022998900    -0.4412088   -0.4828340  
   0.024998800    -0.5480271   -0.1421647  
   0.026998700    -0.4889567    0.2649779  
   0.028998600    -0.2030405    0.5634817  
   0.030998500     0.1601237    0.6617706  
   0.032998400     0.4443557    0.5837052  
   0.034998300     0.6901877    0.4452513  
   0.036998200     0.8209498    0.2693697  
   0.038998100     0.8876302    0.0971691  
   0.040998000     0.9100503   -0.0610276  
   0.042997900     0.9009679   -0.2016154  
   0.044997800     0.8457024   -0.2987204  
   0.046997700     0.8248682   -0.4331249  
   0.048997600     0.7680263   -0.5263718  
   0.050997500     0.7030589   -0.6066033  
   0.052997400     0.6320873   -0.6752862  
   0.054997300     0.5561897   -0.7331129  
   0.056997200     0.4750590   -0.7820172  
   0.058997100     0.3911799   -0.8210639  
   0.060997000     0.3042301   -0.8511325  
   0.062996900     0.2146723   -0.8715726  
   0.064996800     0.1225170   -0.8823305  
   0.066996700     0.0284395   -0.8833844  
   0.068996600    -0.0668399   -0.8737024  
   0.070996500    -0.1631584   -0.8535690  
   0.072996400    -0.2588845   -0.8200181  
   0.074996300    -0.3530613   -0.7738861  
   0.076996200    -0.4443913   -0.7136638  
   0.078996100    -0.5297114   -0.6384162  
   0.080996000    -0.6080676   -0.5478555  
   0.082995900    -0.6750597   -0.4416239  
   0.084995800    -0.7267622   -0.3204705  
   0.086995700    -0.7608459   -0.1856645  
   0.088995600    -0.7718312   -0.0394953  
   0.090995500    -0.7550647    0.1137577  
   0.092995400    -0.7079082    0.2691702  
   0.094995300    -0.6259385    0.4180791  
   0.096995200    -0.5101436    0.5511076  
   0.098995100    -0.3637415    0.6595981  
   0.100995000    -0.1918584    0.7340913  
   0.102994900    -0.0072031    0.7670000  
   0.104994800     0.1803717    0.7568117  
   0.106994700     0.3582208    0.7035416  
   0.108994600     0.5164266    0.6145396  
   0.110994500     0.6473745    0.4961964  
   0.112994400     0.7464926    0.3582319  
   0.114994300     0.8125957    0.2091035  
   0.116994200     0.8465503    0.0570882  
   0.118994100     0.8511884   -0.0917443  
   0.120994000     0.8321993   -0.2328416  
   0.122993900     0.7896801   -0.3620711  
   0.124993800     0.7291847   -0.4774288  
   0.126993700     0.6545976   -0.5784231  
   0.128993600     0.5679927   -0.6625752  
   0.130993500     0.4742244   -0.7321755  
   0.132993400     0.3741243   -0.7861961  
   0.134993300     0.2701369   -0.8253626  
   0.136993200     0.1640824   -0.8497400  
   0.138993100     0.0568749   -0.8598485  
   0.140993000    -0.0491984   -0.8560520  
   0.142992900    -0.1538052   -0.8385041  
   0.144992800    -0.2556845   -0.8096254  
   0.146992700    -0.3531180   -0.7660547  
   0.148992600    -0.4444990   -0.7099981  
   0.150992500    -0.5282162   -0.6407331  
   0.152992400    -0.6041186   -0.5608640  
   0.154992300    -0.6696456   -0.4699865  
   0.156992200    -0.7233828   -0.3682753  
   0.158992100    -0.7635009   -0.2579290  
   0.160992000    -0.7879697   -0.1392629  
   0.162991900    -0.7948814   -0.0152338  
   0.164991800    -0.7823118    0.1127180  
   0.166991700    -0.7489721    0.2406013  
   0.168991600    -0.6936794    0.3651785  
   0.170991500    -0.6154548    0.4826199  
   0.172991400    -0.5159146    0.5877467  
   0.174991300    -0.3961225    0.6754966  
   0.176991200    -0.2589584    0.7420109  
   0.178991100    -0.1089357    0.7826927  
   0.180991000     0.0485055    0.7951552  
   0.182990900     0.2067951    0.7762328  
   0.184990800     0.3597035    0.7266458  
   0.186990700     0.5001376    0.6487317  
   0.188990600     0.6049592    0.5624267  
   0.190990500     0.7176905    0.4248253  
   0.192990400     0.7919596    0.2842438  
   0.194990300     0.8368158    0.1384617  
   0.196990200     0.8538933   -0.0093367  
   0.198990100     0.8445175   -0.1542238  
   0.200990000     0.8107341   -0.2919481  
   0.202989900     0.7558903   -0.4185391  
   0.204989800     0.6826586   -0.5312175  
   0.206989700     0.5959501   -0.6287006  
   0.208989600     0.4966557   -0.7082922  
   0.210989500     0.3887151   -0.7708029  
   0.212989400     0.2741987   -0.8154773  
   0.214989300     0.1574374   -0.8420348  
   0.216989200     0.0395261   -0.8515648  
   0.218989100    -0.0764094   -0.8440533  
   0.220989000    -0.1891226   -0.8202782  
   0.222988900    -0.2975950   -0.7807584  
   0.224988800    -0.3991537   -0.7267197  
   0.226988700    -0.4920394   -0.6590691  
   0.228988600    -0.5743801   -0.5788601  
   0.230988500    -0.6450402   -0.4871193  
   0.232988400    -0.7012581   -0.3841193  
   0.234988300    -0.7438228   -0.2729761  
   0.236988200    -0.7695552   -0.1544595  
   0.238988100    -0.7774162   -0.0316489  
   0.240988000    -0.7658594    0.0930681  
   0.242987900    -0.7342741    0.2166808  
   0.244987800    -0.6819884    0.3362429  
   0.246987700    -0.6087584    0.4483208  
   0.248987600    -0.5156411    0.5491140  
   0.250987500    -0.4033436    0.6339651  
   0.252987400    -0.2757272    0.6986076  
   0.254987300    -0.1368567    0.7400067  
   0.256987200     0.0092225    0.7555947  
   0.258987100     0.1578869    0.7448233  
   0.260987000     0.3032840    0.7047850  
   0.262986900     0.4391843    0.6377293  
   0.264986800     0.5601018    0.5457832  
   0.266986700     0.6611570    0.4331909  
   0.268986600     0.7384333    0.3050867  
   0.270986500     0.7897654    0.1671969  
   0.272986400     0.8146560    0.0249202  
   0.274986300     0.8140136   -0.1174728  
   0.276986200     0.7888889   -0.2543156  
   0.278986100     0.7412063   -0.3825009  
   0.280986000     0.6746827   -0.4983943  
   0.282985900     0.5917122   -0.5993811  
   0.284985800     0.4959997   -0.6839718  
   0.286985700     0.3907526   -0.7509998  
   0.288985600     0.2798811   -0.7997032  
   0.290985500     0.1656129   -0.8306422  
   0.292985400     0.0506114   -0.8444536  
   0.294985300    -0.0634145   -0.8422320  
   0.296985200    -0.1752833   -0.8240123  
   0.298985100    -0.2829411   -0.7905616  
   0.300985000    -0.3845865   -0.7427226  
   0.302984900    -0.4778240   -0.6818191  
   0.304984800    -0.5619870   -0.6092655  
   0.306984700    -0.6352473   -0.5257376  
   0.308984600    -0.6961760   -0.4332567  
   0.310984500    -0.7443866   -0.3329334  
   0.312984400    -0.7784495   -0.2252241  
   0.314984300    -0.7973283   -0.1121424  
   0.316984200    -0.7992208    0.0048973  
   0.318984100    -0.7828610    0.1241436  
   0.320984000    -0.7463766    0.2424747  
   0.322983900    -0.6891103    0.3547786  
   0.324983800    -0.6114875    0.4561971  
   0.326983700    -0.5166654    0.5418224  
   0.328983600    -0.4091424    0.6074978  
   0.330983500    -0.2957935    0.6517508  
   0.332983400    -0.1812597    0.6769153  
   0.334983300    -0.0677479    0.6855822  
   0.336983200     0.0443957    0.6799961  
   0.338983100     0.1552076    0.6598548  
   0.340983000     0.2640481    0.6246764  
   0.342982900     0.3690350    0.5730861  
   0.344982800     0.4675708    0.5038679  
   0.346982700     0.5556399    0.4168595  
   0.348982600     0.6283948    0.3135752  
   0.350982500     0.6840144    0.1978260  
   0.352982400     0.7185512    0.0723478  
   0.354982300     0.7298211   -0.0633313  
   0.356982200     0.7120127   -0.2119165  
   0.358982100     0.6646882   -0.3536425  
   0.360982000     0.5901996   -0.4827479  
   0.362981900     0.4918663   -0.5939673  
   0.364981800     0.3735402   -0.6834781  
   0.366981700     0.2410565   -0.7477856  
   0.368981600     0.0996996   -0.7845905  
   0.370981500    -0.0450146   -0.7937708  
   0.372981400    -0.1875092   -0.7755499  
   0.374981300    -0.3233602   -0.7310166  
   0.376981200    -0.2066427   -0.7716630  
   0.378981100    -0.3398923   -0.7243221  
   0.380981000    -0.4612833   -0.6537611  
   0.382980900    -0.5583082   -0.5720196  
   0.384980800    -0.6365854   -0.4813228  
   0.386980700    -0.7003404   -0.3797903  
   0.388980600    -0.7474569   -0.2697577  
   0.390980500    -0.7772230   -0.1544385  
   0.392980400    -0.7894878   -0.0365434  
   0.394980300    -0.7837051    0.0818254  
   0.396980200    -0.7602962    0.1989189  
   0.398980100    -0.7191668    0.3118319  
   0.400980000    -0.6608115    0.4176582  
   0.402979900    -0.5861047    0.5149493  
   0.404979800    -0.4966464    0.6000920  
   0.406979700    -0.3939277    0.6712043  
   0.408979600    -0.2794492    0.7257982  
   0.410979500    -0.1558605    0.7621943  
   0.412979400    -0.0256986    0.7780560  
   0.414979300     0.1067832    0.7712125  
   0.416979200     0.2381202    0.7431868  
   0.418979100     0.3638992    0.6929315  
   0.420979000     0.4804465    0.6211837  
   0.422978900     0.5838427    0.5295700  
   0.424978800     0.6702507    0.4206252  
   0.426978700     0.7365169    0.2976426  
   0.428978600     0.7801790    0.1648860  
   0.430978500     0.7998217    0.0270228  
   0.432978400     0.7950740   -0.1110596  
   0.434978300     0.7677706   -0.2461480  
   0.436978200     0.7166405   -0.3728312  
   0.438978100     0.6456143   -0.4876111  
   0.440978000     0.5567482   -0.5882089  
   0.442977900     0.4533126   -0.6714568  
   0.444977800     0.3390121   -0.7353127  
   0.446977700     0.2172402   -0.7789084  
   0.448977600     0.0916977   -0.8016340  
   0.450977500    -0.0345023   -0.8039557  
   0.452977400    -0.1583595   -0.7861481  
   0.454977300    -0.2776128   -0.7492962  
   0.456977200    -0.3886891   -0.6944824  
   0.458977100    -0.4895703   -0.6229324  
   0.460977000    -0.5767502   -0.5374252  
   0.462976900    -0.6494201   -0.4400612  
   0.464976800    -0.7062899   -0.3328299  
   0.466976700    -0.7452381   -0.2183367  
   0.468976600    -0.7663075   -0.0991744  
   0.470976500    -0.7685552    0.0224969  
   0.472976400    -0.7517520    0.1430497  
   0.474976300    -0.7154844    0.2603242  
   0.476976200    -0.6612027    0.3709543  
   0.478976100    -0.5893401    0.4721573  
   0.480976000    -0.5018639    0.5607188  
   0.482975900    -0.4001541    0.6345412  
   0.484975800    -0.2867886    0.6911494  
   0.486975700    -0.1640207    0.7284913  
   0.488975600    -0.0356773    0.7448888  
   0.490975500     0.0947804    0.7387573  
   0.492975400     0.2233223    0.7096427  
   0.494975300     0.3452515    0.6584520  
   0.496975200     0.4564963    0.5859592  
   0.498975100     0.5526603    0.4950648  
   0.500975000     0.6303789    0.3895120  
   0.502974900     0.6878524    0.2724661  
   0.504974800     0.7233171    0.1484979  
   0.506974700     0.7362648    0.0216591  
   0.508974600     0.7270762   -0.1034762  
   0.510974500     0.6974681   -0.2229591  
   0.512974400     0.6496999   -0.3332033  
   0.514974300     0.5858545   -0.4302993  
   0.516974200     0.5107961   -0.5155756  
   0.518974100     0.4263934   -0.5866225  
   0.520974000     0.3347858   -0.6441120  
   0.522973900     0.2376996   -0.6877611  
   0.524973800     0.1365976   -0.7174699  
   0.526973700     0.0322941   -0.7338263  
   0.528973600    -0.0737894   -0.7360242  
   0.530973500    -0.1802739   -0.7237021  
   0.532973400    -0.2854626   -0.6957579  
   0.534973300    -0.3870162   -0.6517214  
   0.536973200    -0.4825256   -0.5920813  
   0.538973100    -0.5688550   -0.5172527  
   0.540973000    -0.6432531   -0.4290465  
   0.542972900    -0.7032557   -0.3283544  
   0.544972800    -0.7467006   -0.2179338  
   0.546972700    -0.7719694   -0.1007917  
   0.548972600    -0.7780132    0.0204115  
   0.550972500    -0.7640211    0.1417428  
   0.552972400    -0.7299069    0.2601360  
   0.554972300    -0.6767007    0.3718566  
   0.556972200    -0.6055111    0.4740731  
   0.558972100    -0.5180054    0.5637022  
   0.560972000    -0.4166306    0.6380786  
   0.562971900    -0.3040237    0.6951126  
   0.564971800    -0.1833878    0.7330532  
   0.566971700    -0.0576559    0.7506394  
   0.568971600     0.0701245    0.7472692  
   0.570971500     0.1961077    0.7229320  
   0.572971400     0.3171760    0.6773860  
   0.574971300     0.4298791    0.6113285  
   0.576971200     0.5308356    0.5267232  
   0.578971100     0.6162301    0.4252780  
   0.580971000     0.6829553    0.3104397  
   0.582970900     0.7288138    0.1856932  
   0.584970800     0.7527582    0.0547631  
   0.586970700     0.7536967   -0.0775617  
   0.588970600     0.7321594   -0.2080505  
   0.590970500     0.6885213   -0.3324236  
   0.592970400     0.6245116   -0.4469009  
   0.594970300     0.5425091   -0.5481657  
   0.596970200     0.4453171   -0.6338025  
   0.598970100     0.3357635   -0.7015069  
   0.600970000     0.2175725   -0.7492473  
   0.602969900     0.0939013   -0.7769012  
   0.604969800    -0.0315919   -0.7839452  
   0.606969700    -0.1555413   -0.7709686  
   0.608969600    -0.2752853   -0.7379308  
   0.610969500    -0.3871256   -0.6871202  
   0.612969400    -0.4885135   -0.6196584  
   0.614969300    -0.5773422   -0.5381210  
   0.616969200    -0.6516450   -0.4447910  
   0.618969100    -0.7103539   -0.3419674  
   0.620969000    -0.7524546   -0.2324612  
   0.622968900    -0.7778808   -0.1181284  
   0.624968800    -0.7859522   -0.0012825  
   0.626968700    -0.7762610    0.1157637  
   0.628968600    -0.7491603    0.2303282  
   0.630968500    -0.7051237    0.3399390  
   0.632968400    -0.6444264    0.4422742  
   0.634968300    -0.5686437    0.5349000  
   0.636968200    -0.4793008    0.6153980  
   0.638968100    -0.3775566    0.6818507  
   0.640968000    -0.2658617    0.7321294  
   0.642967900    -0.1463236    0.7645737  
   0.644967800    -0.0221969    0.7779192  
   0.646967700     0.1038931    0.7714015  
   0.648967600     0.2279294    0.7444910  
   0.650967500     0.3469622    0.6973753  
   0.652967400     0.4571595    0.6313775  
   0.654967300     0.5560067    0.5473915  
   0.656967200     0.6400422    0.4478741  
   0.658967100     0.7064167    0.3350870  
   0.660967000     0.7533662    0.2118632  
   0.662966900     0.7791582    0.0815485  
   0.664966800     0.7827621   -0.0521548  
   0.666966700     0.7633216   -0.1846640  
   0.668966600     0.7215593   -0.3115570  
   0.670966500     0.6590349   -0.4293671  
   0.672966400     0.5790523   -0.5350737  
   0.674966300     0.4824022   -0.6237152  
   0.676966200     0.3734611   -0.6942946  
   0.678966100     0.2554793   -0.7452931  
   0.680966000     0.1325068   -0.7757429  
   0.682965900     0.0075656   -0.7856662  
   0.684965800    -0.1160692   -0.7758984  
   0.686965700    -0.2349649   -0.7465030  
   0.688965600    -0.3469317   -0.6994494  
   0.690965500    -0.4482207   -0.6353236  
   0.692965400    -0.5384915   -0.5580148  
   0.694965300    -0.6147398   -0.4685867  
   0.696965200    -0.6762072   -0.3696332  
   0.698965100    -0.7220328   -0.2625642  
   0.700965000    -0.7508135   -0.1500886  
   0.702964900    -0.7622580   -0.0348342  
   0.704964800    -0.7564606    0.0812256  
   0.706964700    -0.7327344    0.1948382  
   0.708964600    -0.6914153    0.3042657  
   0.710964500    -0.6341527    0.4072498  
   0.712964400    -0.5605031    0.5001573  
   0.714964300    -0.4725785    0.5806953  
   0.716964200    -0.3725900    0.6466631  
   0.718964100    -0.2626480    0.6960403  
   0.720964000    -0.1462434    0.7270585  
   0.722963900    -0.0255271    0.7390577  
   0.724963800     0.0964512    0.7310142  
   0.726963700     0.2155543    0.7027537  
   0.728963600     0.3289854    0.6548778  
   0.730963500     0.4325335    0.5878481  
   0.732963400     0.5235077    0.5050038  
   0.734963300     0.6000789    0.4080735  
   0.736963200     0.6665739    0.2839901  
   0.738963100     0.7084017    0.1494279  
   0.740963000     0.7238620    0.0106147  
   0.742962900     0.7131348   -0.1273847  
   0.744962800     0.6772957   -0.2596246  
   0.746962700     0.6180548   -0.3817989  
   0.748962600     0.5385716   -0.4901278  
   0.750962500     0.5951012   -0.4021958  
   0.752962400     0.5138399   -0.5077198  
   0.754962300     0.4159159   -0.5957835  
   0.756962200     0.3045131   -0.6649189  
   0.758962100     0.1830329   -0.7126960  
   0.760962000     0.0553174   -0.7383814  
   0.762961900    -0.0685199   -0.7417923  
   0.764961800    -0.1812907   -0.7272132  
   0.766961700    -0.2906187   -0.6957515  
   0.768961600    -0.3942613   -0.6476341  
   0.770961500    -0.4895904   -0.5841092  
   0.772961400    -0.5742765   -0.5062834  
   0.774961300    -0.6454765   -0.4161860  
   0.776961200    -0.7024724   -0.3154500  
   0.778961100    -0.7428006   -0.2069099  
   0.780961000    -0.7656870   -0.0926092  
   0.782960900    -0.7703609    0.0243693  
   0.784960800    -0.7562815    0.1411988  
   0.786960700    -0.7234017    0.2548212  
   0.788960600    -0.6729324    0.3622718  
   0.790960500    -0.6060326    0.4605391  
   0.792960400    -0.5245845    0.5466820  
   0.794960300    -0.4298269    0.6190833  
   0.796960200    -0.3249026    0.6759077  
   0.798960100    -0.2122556    0.7154127  
   0.800960000    -0.0947711    0.7362175  
   0.802959900     0.0252369    0.7382693  
   0.804959800     0.1442011    0.7215596  
   0.806959700     0.2592184    0.6856790  
   0.808959600     0.3674847    0.6315588  
   0.810959500     0.4656189    0.5607021  
   0.812959400     0.5519354    0.4745401  
   0.814959300     0.6232344    0.3749325  
   0.816959200     0.6777936    0.2644566  
   0.818959100     0.7136778    0.1459078  
   0.820959000     0.7297205    0.0230939  
   0.822958900     0.7249714   -0.1016438  
   0.824958800     0.6995918   -0.2239607  
   0.826958700     0.6542102   -0.3404963  
   0.828958600     0.5899668   -0.4478255  
   0.830958500     0.5087500   -0.5428395  
   0.832958400     0.4132032   -0.6230282  
   0.834958300     0.3063668   -0.6859782  
   0.836958200     0.1912471   -0.7299843  
   0.838958100     0.0709630   -0.7546743  
   0.840958000    -0.0511650   -0.7592111  
   0.842957900    -0.1718469   -0.7442867  
   0.844957800    -0.2880952   -0.7100540  
   0.846957700    -0.3962462   -0.6582077  
   0.848957600    -0.4946801   -0.5902815  
   0.850957500    -0.5801707   -0.5080097  
   0.852957400    -0.6519061   -0.4137781  
   0.854957300    -0.7075031   -0.3102710  
   0.856957200    -0.7461273   -0.2000146  
   0.858957100    -0.7674636   -0.0859701  
   0.860957000    -0.7707065    0.0291132  
   0.862956900    -0.7570394    0.1423186  
   0.864956800    -0.7268307    0.2517745  
   0.866956700    -0.6807097    0.3550227  
   0.868956600    -0.6195149    0.4495837  
   0.870956500    -0.5452518    0.5347984  
   0.872956400    -0.4587412    0.6082186  
   0.874956300    -0.3620419    0.6682935  
   0.876956200    -0.2558691    0.7137350  
   0.878956100    -0.1433982    0.7423087  
   0.880956000    -0.0269099    0.7539195  
   0.882955900     0.0912223    0.7471283  
   0.884955800     0.2080591    0.7218589  
   0.886955700     0.3203161    0.6780850  
   0.888955600     0.4255808    0.6163215  
   0.890955500     0.5200475    0.5377502  
   0.892955400     0.6006730    0.4439494  
   0.894955300     0.6661920    0.3373809  
