! MS46122B
! 2250307/22442219
! 7/28/2025 2:03:39 PM
! C:\USERS\SPARKY\DOCUMENTS\VNA_DATA\JULY28_2025\3K\PORT5_MOS6.S1P
! CHANNEL.1
! TR.MEASUREMENT
! RAW.DATA
# GHZ S RI R 50.0
! FREQ.GHZ         S11RE         S11IM         
!; PortSelection: Port_1
   0.001000000     1.0460590   -0.0730380  
   0.002999900     0.9479176   -0.2225749  
   0.004999800     0.8230870   -0.0969459  
   0.006999700     0.5172049   -0.3852806  
   0.008999600     0.9362131   -0.0394970  
   0.010999500     0.9171142   -0.2458096  
   0.012999400     0.8769118   -0.3506961  
   0.014999300     0.8363438   -0.4315113  
   0.016999200     0.7946143   -0.5021622  
   0.018999100     0.7504901   -0.5675929  
   0.020999000     0.7009620   -0.6283047  
   0.022998900     0.6466290   -0.6843913  
   0.024998800     0.5784694   -0.7001532  
   0.026998700     0.5201097   -0.7817213  
   0.028998600     0.4461936   -0.8221260  
   0.030998500     0.3648222   -0.8555785  
   0.032998400     0.2803766   -0.8465090  
   0.034998300     0.1794253   -0.8960748  
   0.036998200     0.0753157   -0.8999950  
   0.038998100    -0.0345860   -0.8899533  
   0.040998000    -0.1496347   -0.8631700  
   0.042997900    -0.2679560   -0.8177245  
   0.044997800    -0.3620647   -0.7319983  
   0.046997700    -0.5005015   -0.6567663  
   0.048997600    -0.6045365   -0.5364975  
   0.050997500    -0.6906196   -0.3871684  
   0.052997400    -0.7481855   -0.2098868  
   0.054997300    -0.7654590   -0.0095418  
   0.056997200    -0.7302757    0.2052756  
   0.058997100    -0.6346819    0.4136648  
   0.060997000    -0.4789174    0.5952449  
   0.062996900    -0.2727389    0.7270782  
   0.064996800    -0.0378166    0.7936342  
   0.066996700     0.2012648    0.7904270  
   0.068996600     0.4204616    0.7241727  
   0.070996500     0.6047562    0.6096981  
   0.072996400     0.7449172    0.4631981  
   0.074996300     0.8404249    0.3005828  
   0.076996200     0.8946982    0.1343877  
   0.078996100     0.9138227   -0.0263493  
   0.080996000     0.9039443   -0.1773707  
   0.082995900     0.8704949   -0.3147685  
   0.084995800     0.8179001   -0.4370645  
   0.086995700     0.7523235   -0.5441852  
   0.088995600     0.6755469   -0.6362776  
   0.090995500     0.5905877   -0.7144504  
   0.092995400     0.5000575   -0.7789252  
   0.094995300     0.4036554   -0.8295893  
   0.096995200     0.3042624   -0.8672120  
   0.098995100     0.2025724   -0.8920407  
   0.100995000     0.0987164   -0.9046384  
   0.102994900    -0.0050295   -0.9050596  
   0.104994800    -0.1085500   -0.8929853  
   0.106994700    -0.2108894   -0.8680555  
   0.108994600    -0.3104418   -0.8313188  
   0.110994500    -0.4069664   -0.7817772  
   0.112994400    -0.4984448   -0.7195636  
   0.114994300    -0.5832784   -0.6441147  
   0.116994200    -0.6597200   -0.5552998  
   0.118994100    -0.7257935   -0.4537851  
   0.120994000    -0.7800541   -0.3407246  
   0.122993900    -0.8174481   -0.2154829  
   0.124993800    -0.8360663   -0.0807035  
   0.126993700    -0.8328128    0.0609799  
   0.128993600    -0.8035821    0.2058062  
   0.130993500    -0.7493184    0.3496183  
   0.132993400    -0.6670583    0.4866567  
   0.134993300    -0.5564547    0.6102298  
   0.136993200    -0.4200595    0.7132470  
   0.138993100    -0.2617158    0.7891473  
   0.140993000    -0.0881756    0.8319430  
   0.142992900     0.0931028    0.8380108  
   0.144992800     0.2726671    0.8072448  
   0.146992700     0.4407959    0.7383468  
   0.148992600     0.5895515    0.6370453  
   0.150992500     0.7108186    0.5094740  
   0.152992400     0.8029885    0.3639870  
   0.154992300     0.8629329    0.2080277  
   0.156992200     0.8914296    0.0486086  
   0.158992100     0.8902509   -0.1075424  
   0.160992000     0.8622763   -0.2557551  
   0.162991900     0.8112673   -0.3915328  
   0.164991800     0.7409795   -0.5131264  
   0.166991700     0.6552185   -0.6178842  
   0.168991600     0.5578939   -0.7050926  
   0.170991500     0.4511967   -0.7753330  
   0.172991400     0.3385727   -0.8273553  
   0.174991300     0.2225872   -0.8622237  
   0.176991200     0.1046712   -0.8802357  
   0.178991100    -0.0125852   -0.8818656  
   0.180991000    -0.1274997   -0.8683066  
   0.182990900    -0.2389062   -0.8390459  
   0.184990800    -0.3453691   -0.7950113  
   0.186990700    -0.4449039   -0.7371144  
   0.188990600    -0.5166718   -0.6806990  
   0.190990500    -0.6141475   -0.5849487  
   0.192990400    -0.6864355   -0.4877783  
   0.194990300    -0.7431191   -0.3824040  
   0.196990200    -0.7852226   -0.2692454  
   0.198990100    -0.8111879   -0.1487466  
   0.200990000    -0.8193775   -0.0228220  
   0.202989900    -0.8082716    0.1063353  
   0.204989800    -0.7771240    0.2351589  
   0.206989700    -0.7259354    0.3609103  
   0.208989600    -0.6520856    0.4788387  
   0.210989500    -0.5575943    0.5860612  
   0.212989400    -0.4428097    0.6779554  
   0.214989300    -0.3114461    0.7503668  
   0.216989200    -0.1672554    0.7989222  
   0.218989100    -0.0141487    0.8214966  
   0.220989000     0.1427293    0.8152253  
   0.222988900     0.2974900    0.7802680  
   0.224988800     0.4432934    0.7166729  
   0.226988700     0.5749690    0.6270260  
   0.228988600     0.6866206    0.5161267  
   0.230988500     0.7753950    0.3875448  
   0.232988400     0.8376628    0.2466302  
   0.234988300     0.8741275    0.0992406  
   0.236988200     0.8844368   -0.0497480  
   0.238988100     0.8692771   -0.1946019  
   0.240988000     0.8308597   -0.3317296  
   0.242987900     0.7720523   -0.4566930  
   0.244987800     0.6961234   -0.5684505  
   0.246987700     0.6058087   -0.6648216  
   0.248987600     0.5036834   -0.7449519  
   0.250987500     0.3927405   -0.8075371  
   0.252987400     0.2770335   -0.8523567  
   0.254987300     0.1585354   -0.8791667  
   0.256987200     0.0397696   -0.8890108  
   0.258987100    -0.0782598   -0.8839812  
   0.260987000    -0.1931714   -0.8614268  
   0.262986900    -0.3038885   -0.8234846  
   0.264986800    -0.4077591   -0.7712377  
   0.266986700    -0.5037104   -0.7047762  
   0.268986600    -0.5896590   -0.6261901  
   0.270986500    -0.6638122   -0.5366746  
   0.272986400    -0.7256247   -0.4370053  
   0.274986300    -0.7733779   -0.3285234  
   0.276986200    -0.8056505   -0.2126210  
   0.278986100    -0.8212860   -0.0905300  
   0.280986000    -0.8186520    0.0347342  
   0.282985900    -0.7961839    0.1613640  
   0.284985800    -0.7537453    0.2854578  
   0.286985700    -0.6901611    0.4036684  
   0.288985600    -0.6067034    0.5120473  
   0.290985500    -0.5042326    0.6066068  
   0.292985400    -0.3840904    0.6835184  
   0.294985300    -0.2490122    0.7390839  
   0.296985200    -0.1026541    0.7698511  
   0.298985100     0.0497091    0.7722445  
   0.300985000     0.2020737    0.7447423  
   0.302984900     0.3466264    0.6873163  
   0.304984800     0.4767172    0.6023015  
   0.306984700     0.5862312    0.4931419  
   0.308984600     0.6702299    0.3661931  
   0.310984500     0.7254181    0.2279625  
   0.312984400     0.7508634    0.0851088  
   0.314984300     0.7478443   -0.0549219  
   0.316984200     0.7186130   -0.1857128  
   0.318984100     0.6677076   -0.3028884  
   0.320984000     0.5998690   -0.4027342  
   0.322983900     0.5217825   -0.4832700  
   0.324983800     0.4393127   -0.5448114  
   0.326983700     0.3578789   -0.5901260  
   0.328983600     0.2800216   -0.6241890  
   0.330983500     0.2068407   -0.6515777  
   0.332983400     0.1353131   -0.6767533  
   0.334983300     0.0607044   -0.7007536  
   0.336983200    -0.0215342   -0.7216940  
   0.338983100    -0.1136576   -0.7342240  
   0.340983000    -0.2141954   -0.7330094  
   0.342982900    -0.3198016   -0.7135026  
   0.344982800    -0.4247909   -0.6740514  
   0.346982700    -0.5251234   -0.6143715  
   0.348982600    -0.6139488   -0.5358305  
   0.350982500    -0.6900821   -0.4434786  
   0.352982400    -0.7504439   -0.3384863  
   0.354982300    -0.7941114   -0.2189464  
   0.356982200    -0.8189706   -0.0784878  
   0.358982100    -0.8180180    0.0632087  
   0.360982000    -0.7917136    0.2022023  
   0.362981900    -0.7413089    0.3348113  
   0.364981800    -0.6680465    0.4568783  
   0.366981700    -0.5742400    0.5650613  
   0.368981600    -0.4621703    0.6551961  
   0.370981500    -0.3349126    0.7246605  
   0.372981400    -0.1961517    0.7710210  
   0.374981300    -0.0492429    0.7921048  
   0.376981200    -0.1577063    0.7858804  
   0.378981100    -0.0039686    0.7997871  
   0.380981000     0.1513177    0.7845204  
   0.382980900     0.2900417    0.7445962  
   0.384980800     0.4157530    0.6835860  
   0.386980700     0.5300288    0.6012349  
   0.388980600     0.6287345    0.4998223  
   0.390980500     0.7087494    0.3830013  
   0.392980400     0.7667819    0.2545138  
   0.394980300     0.8019051    0.1184186  
   0.396980200     0.8129846   -0.0208629  
   0.398980100     0.7997923   -0.1593506  
   0.400980000     0.7639076   -0.2923507  
   0.402979900     0.7061524   -0.4162256  
   0.404979800     0.6300050   -0.5271816  
   0.406979700     0.5369533   -0.6227736  
   0.408979600     0.4316129   -0.7006252  
   0.410979500     0.3157821   -0.7601847  
   0.412979400     0.1930237   -0.7996143  
   0.414979300     0.0671960   -0.8177392  
   0.416979200    -0.0587051   -0.8168857  
   0.418979100    -0.1809042   -0.7972426  
   0.420979000    -0.2976409   -0.7591492  
   0.422978900    -0.4063350   -0.7043102  
   0.424978800    -0.5043342   -0.6341969  
   0.426978700    -0.5910466   -0.5503480  
   0.428978600    -0.6632913   -0.4552829  
   0.430978500    -0.7204100   -0.3512554  
   0.432978400    -0.7611669   -0.2406791  
   0.434978300    -0.7867703   -0.1258449  
   0.436978200    -0.7937536   -0.0079627  
   0.438978100    -0.7833291    0.1101466  
   0.440978000    -0.7556300    0.2257591  
   0.442977900    -0.7105533    0.3370368  
   0.444977800    -0.6491629    0.4412715  
   0.446977700    -0.5719014    0.5350978  
   0.448977600    -0.4803140    0.6172588  
   0.450977500    -0.3762926    0.6851918  
   0.452977400    -0.2612283    0.7367759  
   0.454977300    -0.1377347    0.7699437  
   0.456977200    -0.0084878    0.7830877  
   0.458977100     0.1224979    0.7749844  
   0.460977000     0.2511246    0.7453293  
   0.462976900     0.3740425    0.6945086  
   0.464976800     0.4874665    0.6232078  
   0.466976700     0.5878511    0.5333239  
   0.468976600     0.6718893    0.4278716  
   0.470976500     0.7372162    0.3094945  
   0.472976400     0.7811798    0.1819179  
   0.474976300     0.8029349    0.0490633  
   0.476976200     0.8020852   -0.0844972  
   0.478976100     0.7793665   -0.2148381  
   0.480976000     0.7359970   -0.3379971  
   0.482975900     0.6737859   -0.4508252  
   0.484975800     0.5957568   -0.5506378  
   0.486975700     0.5035625   -0.6357687  
   0.488975600     0.4004731   -0.7045467  
   0.490975500     0.2896648   -0.7557007  
   0.492975400     0.1738446   -0.7893600  
   0.494975300     0.0556007   -0.8046751  
   0.496975200    -0.0621864   -0.8020461  
   0.498975100    -0.1764756   -0.7828214  
   0.500975000    -0.2857495   -0.7474691  
   0.502974900    -0.3877421   -0.6971861  
   0.504974800    -0.4816024   -0.6334232  
   0.506974700    -0.5650991   -0.5566807  
   0.508974600    -0.6377426   -0.4684225  
   0.510974500    -0.6967059   -0.3704866  
   0.512974400    -0.7413519   -0.2649247  
   0.514974300    -0.7689226   -0.1533074  
   0.516974200    -0.7808549   -0.0381897  
   0.518974100    -0.7756748    0.0783666  
   0.520974000    -0.7525041    0.1938607  
   0.522973900    -0.7112664    0.3052675  
   0.524973800    -0.6522227    0.4096339  
   0.526973700    -0.5764022    0.5040205  
   0.528973600    -0.4859338    0.5852966  
   0.530973500    -0.3832628    0.6509606  
   0.532973400    -0.2712054    0.6989759  
   0.534973300    -0.1530074    0.7281044  
   0.536973200    -0.0319935    0.7382354  
   0.538973100     0.0883156    0.7290883  
   0.540973000     0.2050457    0.7013452  
   0.542972900     0.3157486    0.6560611  
   0.544972800     0.4182171    0.5944378  
   0.546972700     0.5101647    0.5170377  
   0.548972600     0.5890587    0.4261023  
   0.550972500     0.6528062    0.3237417  
   0.552972400     0.7002389    0.2118762  
   0.554972300     0.7292943    0.0937403  
   0.556972200     0.7388354   -0.0279455  
   0.558972100     0.7288434   -0.1497770  
   0.560972000     0.6994410   -0.2684024  
   0.562971900     0.6515917   -0.3805306  
   0.564971800     0.5865847   -0.4831483  
   0.566971700     0.5063609   -0.5734681  
   0.568971600     0.4134406   -0.6497653  
   0.570971500     0.3096693   -0.7102387  
   0.572971400     0.1982943   -0.7535642  
   0.574971300     0.0816405   -0.7786077  
   0.576971200    -0.0379451   -0.7852464  
   0.578971100    -0.1562627   -0.7733739  
   0.580971000    -0.2708531   -0.7435061  
   0.582970900    -0.3787216   -0.6968631  
   0.584970800    -0.4774122   -0.6348588  
   0.586970700    -0.5650593   -0.5591294  
   0.588970600    -0.6397627   -0.4718207  
   0.590970500    -0.7009038   -0.3746006  
   0.592970400    -0.7467154   -0.2697314  
   0.594970300    -0.7765680   -0.1594759  
   0.596970200    -0.7899500   -0.0461233  
   0.598970100    -0.7867675    0.0682768  
   0.600970000    -0.7666847    0.1811480  
   0.602969900    -0.7300497    0.2900922  
   0.604969800    -0.6775895    0.3933508  
   0.606969700    -0.6101891    0.4882742  
   0.608969600    -0.5282297    0.5727674  
   0.610969500    -0.4339436    0.6441622  
   0.612969400    -0.3290192    0.7015476  
   0.614969300    -0.2159956    0.7420465  
   0.616969200    -0.0970910    0.7649292  
   0.618969100     0.0242161    0.7689117  
   0.620969000     0.1453990    0.7542315  
   0.622968900     0.2639856    0.7200973  
   0.624968800     0.3768029    0.6672410  
   0.626968700     0.4806157    0.5959210  
   0.628968600     0.5723764    0.5079365  
   0.630968500     0.6487543    0.4055344  
   0.632968400     0.7077314    0.2912144  
   0.634968300     0.7468380    0.1681864  
   0.636968200     0.7647235    0.0400754  
   0.638968100     0.7611975   -0.0892336  
   0.640968000     0.7361139   -0.2162497  
   0.642967900     0.6900280   -0.3361097  
   0.644967800     0.6249706   -0.4463004  
   0.646967700     0.5429746   -0.5436804  
   0.648967600     0.4472605   -0.6249656  
   0.650967500     0.3404809   -0.6890656  
   0.652967400     0.2261543   -0.7342755  
   0.654967300     0.1076822   -0.7601575  
   0.656967200    -0.0122542   -0.7668952  
   0.658967100    -0.1305801   -0.7548212  
   0.660967000    -0.2443735   -0.7249272  
   0.662966900    -0.3518060   -0.6777518  
   0.664966800    -0.4501280   -0.6151518  
   0.666966700    -0.5369933   -0.5385963  
   0.668966600    -0.6106585   -0.4503607  
   0.670966500    -0.6699288   -0.3523762  
   0.672966400    -0.7142431   -0.2474817  
   0.674966300    -0.7412171   -0.1376549  
   0.676966200    -0.7512078   -0.0254693  
   0.678966100    -0.7448553    0.0866767  
   0.680966000    -0.7216459    0.1968314  
   0.682965900    -0.6818985    0.3023437  
   0.684965800    -0.6267037    0.4007449  
   0.686965700    -0.5571084    0.4906298  
   0.688965600    -0.4742447    0.5692497  
   0.690965500    -0.3789400    0.6336369  
   0.692965400    -0.2747115    0.6840559  
   0.694965300    -0.1630491    0.7177009  
   0.696965200    -0.0465910    0.7336957  
   0.698965100     0.0721065    0.7308534  
   0.700965000     0.1901820    0.7089252  
   0.702964900     0.3040600    0.6675979  
   0.704964800     0.4101849    0.6079028  
   0.706964700     0.5059735    0.5307550  
   0.708964600     0.5880705    0.4376609  
   0.710964500     0.6546701    0.3328032  
   0.712964400     0.7017752    0.2172536  
   0.714964300     0.7284146    0.0954463  
   0.716964200     0.7343755   -0.0282094  
   0.718964100     0.7194315   -0.1498328  
   0.720964000     0.6849433   -0.2657100  
   0.722963900     0.6324031   -0.3734652  
   0.724963800     0.5640448   -0.4699146  
   0.726963700     0.4821854   -0.5531311  
   0.728963600     0.3893727   -0.6218816  
   0.730963500     0.2878201   -0.6740264  
   0.732963400     0.1815667   -0.7099404  
   0.734963300     0.0717892   -0.7294968  
   0.736963200    -0.0544393   -0.7312748  
   0.738963100    -0.1783813   -0.7110857  
   0.740963000    -0.2960611   -0.6704281  
   0.742962900    -0.4044593   -0.6106585  
   0.744962800    -0.5011796   -0.5338237  
   0.746962700    -0.5830519   -0.4417881  
   0.748962600    -0.6479545   -0.3369159  
   0.750962500    -0.6052488   -0.4315120  
   0.752962400    -0.6688418   -0.3240963  
   0.754962300    -0.7130615   -0.2069841  
   0.756962200    -0.7367040   -0.0835689  
   0.758962100    -0.7382792    0.0427522  
   0.760962000    -0.7175322    0.1681659  
   0.762961900    -0.6777580    0.2831924  
   0.764961800    -0.6251289    0.3808455  
   0.766961700    -0.5576360    0.4698428  
   0.768961600    -0.4765970    0.5472509  
   0.770961500    -0.3845250    0.6110657  
   0.772961400    -0.2834234    0.6597716  
   0.774961300    -0.1759174    0.6913292  
   0.776961200    -0.0647394    0.7061650  
   0.778961100     0.0480149    0.7034541  
   0.780961000     0.1593040    0.6828266  
   0.782960900     0.2664850    0.6450195  
   0.784960800     0.3670879    0.5903664  
   0.786960700     0.4581599    0.5200152  
   0.788960600     0.5374207    0.4359309  
   0.790960500     0.6020129    0.3403009  
   0.792960400     0.6507258    0.2353108  
   0.794960300     0.6817716    0.1236982  
   0.796960200     0.6948068    0.0085455  
   0.798960100     0.6888959   -0.1072573  
   0.800960000     0.6645974   -0.2206276  
   0.802959900     0.6224229   -0.3283534  
   0.804959800     0.5635197   -0.4280825  
   0.806959700     0.4893505   -0.5166060  
   0.808959600     0.4021500   -0.5922484  
   0.810959500     0.3041689   -0.6529102  
   0.812959400     0.1978169   -0.6972624  
   0.814959300     0.0862115   -0.7240210  
   0.816959200    -0.0280773   -0.7323890  
   0.818959100    -0.1420570   -0.7227798  
   0.820959000    -0.2522756   -0.6956680  
   0.822958900    -0.3568182   -0.6514264  
   0.824958800    -0.4525635   -0.5918257  
   0.826958700    -0.5374207   -0.5182487  
   0.828958600    -0.6099704   -0.4329049  
   0.830958500    -0.6680843   -0.3377085  
   0.832958400    -0.7110417   -0.2354043  
   0.834958300    -0.7376426   -0.1281621  
   0.836958200    -0.7475505   -0.0185967  
   0.838958100    -0.7411503    0.0909658  
   0.840958000    -0.7182916    0.1981798  
   0.842957900    -0.6793076    0.3007934  
   0.844957800    -0.6252984    0.3967413  
   0.846957700    -0.5574483    0.4838557  
   0.848957600    -0.4769011    0.5597938  
   0.850957500    -0.3853151    0.6231508  
   0.852957400    -0.2850313    0.6721628  
   0.854957300    -0.1775626    0.7050951  
   0.856957200    -0.0655647    0.7214552  
   0.858957100     0.0479012    0.7197163  
   0.860957000     0.1598537    0.7007325  
   0.862956900     0.2677315    0.6640223  
   0.864956800     0.3688114    0.6106996  
   0.866956700     0.4602640    0.5420288  
   0.868956600     0.5400583    0.4587506  
   0.870956500     0.6061653    0.3632509  
   0.872956400     0.6565806    0.2580089  
   0.874956300     0.6893727    0.1448497  
   0.876956200     0.7033858    0.0269401  
   0.878956100     0.6973880   -0.0920124  
   0.880956000     0.6716428   -0.2090467  
   0.882955900     0.6266454   -0.3198962  
   0.884955800     0.5635695   -0.4220559  
   0.886955700     0.4845256   -0.5116616  
   0.888955600     0.3916408   -0.5865468  
   0.890955500     0.2881710   -0.6444548  
   0.892955400     0.1770868   -0.6843356  
   0.894955300     0.0616424   -0.7047426  
