! MS46122B
! 2250307/22442219
! 7/27/2025 9:25:11 AM
! C:\USERS\SPARKY\DOCUMENTS\VNA_DATA\JULY27_2025\3K\PORT2_MOS4_REPEAT1.S1P
! CHANNEL.1
! TR.MEASUREMENT
! RAW.DATA
# GHZ S RI R 50.0
! FREQ.GHZ         S11RE         S11IM         
!; PortSelection: Port_1
   0.001000000     1.0459780   -0.0721629  
   0.002999900     0.9643900   -0.1945188  
   0.004999800     0.9043764   -0.2995164  
   0.006999700     0.8373699   -0.3971491  
   0.008999600     0.7589746   -0.4927940  
   0.010999500     0.6662374   -0.5839727  
   0.012999400     0.5533686   -0.6681989  
   0.014999300     0.4142003   -0.7396580  
   0.016999200     0.2423739   -0.7855694  
   0.018999100     0.0323385   -0.7864147  
   0.020999000    -0.2090091   -0.7068604  
   0.022998900    -0.4441414   -0.5049812  
   0.024998800    -0.5638105   -0.1667822  
   0.026998700    -0.5216526    0.2487567  
   0.028998600    -0.2424491    0.5660153  
   0.030998500     0.1274537    0.6811429  
   0.032998400     0.4244812    0.6099380  
   0.034998300     0.6812303    0.4739016  
   0.036998200     0.8198494    0.2959511  
   0.038998100     0.8920232    0.1205136  
   0.040998000     0.9178676   -0.0406324  
   0.042997900     0.9114327   -0.1843673  
   0.044997800     0.8572160   -0.2846403  
   0.046997700     0.8382196   -0.4208573  
   0.048997600     0.7824780   -0.5165849  
   0.050997500     0.7181842   -0.5988708  
   0.052997400     0.6479351   -0.6694245  
   0.054997300     0.5723698   -0.7291527  
   0.056997200     0.4918848   -0.7799907  
   0.058997100     0.4084709   -0.8207598  
   0.060997000     0.3218034   -0.8527815  
   0.062996900     0.2326062   -0.8752818  
   0.064996800     0.1406208   -0.8881920  
   0.066996700     0.0466100   -0.8916193  
   0.068996600    -0.0487554   -0.8844450  
   0.070996500    -0.1452074   -0.8670852  
   0.072996400    -0.2416125   -0.8367642  
   0.074996300    -0.3370243   -0.7935838  
   0.076996200    -0.4298744   -0.7368516  
   0.078996100    -0.5175087   -0.6652353  
   0.080996000    -0.5986490   -0.5782247  
   0.082995900    -0.6695545   -0.4756930  
   0.084995800    -0.7263122   -0.3577861  
   0.086995700    -0.7666364   -0.2259571  
   0.088995600    -0.7849911   -0.0814280  
   0.090995500    -0.7770268    0.0714308  
   0.092995400    -0.7395040    0.2284780  
   0.094995300    -0.6674063    0.3812798  
   0.096995200    -0.5614120    0.5218532  
   0.098995100    -0.4229777    0.6407416  
   0.100995000    -0.2565561    0.7276353  
   0.102994900    -0.0734681    0.7749521  
   0.104994800     0.1161124    0.7792495  
   0.106994700     0.2999461    0.7396862  
   0.108994600     0.4671622    0.6618367  
   0.110994500     0.6097041    0.5520492  
   0.112994400     0.7213472    0.4190856  
   0.114994300     0.7997992    0.2720755  
   0.116994200     0.8459984    0.1193259  
   0.118994100     0.8615630   -0.0321597  
   0.120994000     0.8518490   -0.1774687  
   0.122993900     0.8173066   -0.3124834  
   0.124993800     0.7633155   -0.4342947  
   0.126993700     0.6942419   -0.5416324  
   0.128993600     0.6114398   -0.6331257  
   0.130993500     0.5204966   -0.7096657  
   0.132993400     0.4224347   -0.7708870  
   0.134993300     0.3198142   -0.8166577  
   0.136993200     0.2139488   -0.8480031  
   0.138993100     0.1065615   -0.8649936  
   0.140993000    -0.0006023   -0.8676291  
   0.142992900    -0.1068392   -0.8567845  
   0.144992800    -0.2106374   -0.8339370  
   0.146992700    -0.3105788   -0.7967588  
   0.148992600    -0.4056100   -0.7467948  
   0.150992500    -0.4934502   -0.6833298  
   0.152992400    -0.5743452   -0.6091322  
   0.154992300    -0.6461086   -0.5234119  
   0.156992200    -0.7066631   -0.4268769  
   0.158992100    -0.7547864   -0.3205034  
   0.160992000    -0.7883394   -0.2054418  
   0.162991900    -0.8050970   -0.0832257  
   0.164991800    -0.8034433    0.0437381  
   0.166991700    -0.7819843    0.1726891  
   0.168991600    -0.7389341    0.3003501  
   0.170991500    -0.6732414    0.4233535  
   0.172991400    -0.5856237    0.5367757  
   0.174991300    -0.4768224    0.6357700  
   0.176991200    -0.3488948    0.7159689  
   0.178991100    -0.2050350    0.7726981  
   0.180991000    -0.0508218    0.8031749  
   0.182990900     0.1084635    0.8029184  
   0.184990800     0.2666019    0.7721315  
   0.186990700     0.4162630    0.7113088  
   0.188990600     0.5316141    0.6382412  
   0.190990500     0.6617321    0.5146626  
   0.192990400     0.7538440    0.3826265  
   0.194990300     0.8173590    0.2413299  
   0.196990200     0.8532208    0.0940881  
   0.198990100     0.8615291   -0.0533153  
   0.200990000     0.8445750   -0.1969012  
   0.202989900     0.8040805   -0.3319701  
   0.204989800     0.7437283   -0.4551319  
   0.206989700     0.6671100   -0.5640268  
   0.208989600     0.5760329   -0.6565846  
   0.210989500     0.4742561   -0.7321440  
   0.212989400     0.3641897   -0.7904316  
   0.214989300     0.2489045   -0.8309793  
   0.216989200     0.1315294   -0.8538574  
   0.218989100     0.0142350   -0.8597182  
   0.220989000    -0.1020518   -0.8490332  
   0.222988900    -0.2148637   -0.8218607  
   0.224988800    -0.3224100   -0.7796676  
   0.226988700    -0.4227440   -0.7231761  
   0.228988600    -0.5139879   -0.6533301  
   0.230988500    -0.5948819   -0.5709374  
   0.232988400    -0.6629758   -0.4764698  
   0.234988300    -0.7187127   -0.3721407  
   0.236988200    -0.7592756   -0.2591886  
   0.238988100    -0.7826982   -0.1395807  
   0.240988000    -0.7884308   -0.0160384  
   0.242987900    -0.7744529    0.1089337  
   0.244987800    -0.7405539    0.2330236  
   0.246987700    -0.6856813    0.3528797  
   0.248987600    -0.6098657    0.4650543  
   0.250987500    -0.5138991    0.5650453  
   0.252987400    -0.4001265    0.6482905  
   0.254987300    -0.2714452    0.7111687  
   0.256987200    -0.1313745    0.7508082  
   0.258987100     0.0161017    0.7659782  
   0.260987000     0.1652838    0.7520221  
   0.262986900     0.3111664    0.7101486  
   0.264986800     0.4468152    0.6410345  
   0.266986700     0.5671818    0.5479059  
   0.268986600     0.6672685    0.4347171  
   0.270986500     0.7434852    0.3063945  
   0.272986400     0.7942378    0.1681271  
   0.274986300     0.8187560    0.0254714  
   0.276986200     0.8178607   -0.1167125  
   0.278986100     0.7925919   -0.2542851  
   0.280986000     0.7448558   -0.3825171  
   0.282985900     0.6783141   -0.4987792  
   0.284985800     0.5955855   -0.6001940  
   0.286985700     0.5003181   -0.6846869  
   0.288985600     0.3961235   -0.7519360  
   0.290985500     0.2859715   -0.8011736  
   0.292985400     0.1722597   -0.8331370  
   0.294985300     0.0573453   -0.8480799  
   0.296985200    -0.0574736   -0.8470725  
   0.298985100    -0.1698803   -0.8299300  
   0.300985000    -0.2783016   -0.7976478  
   0.302984900    -0.3799831   -0.7513160  
   0.304984800    -0.4738045   -0.6919146  
   0.306984700    -0.5587772   -0.6211048  
   0.308984600    -0.6327342   -0.5398027  
   0.310984500    -0.6953467   -0.4495197  
   0.312984400    -0.7455354   -0.3506732  
   0.314984300    -0.7822102   -0.2442018  
   0.316984200    -0.8041979   -0.1320731  
   0.318984100    -0.8096238   -0.0149209  
   0.320984000    -0.7967158    0.1050606  
   0.322983900    -0.7640187    0.2242943  
   0.324983800    -0.7108696    0.3378279  
   0.326983700    -0.6378119    0.4411376  
   0.328983600    -0.5476013    0.5294535  
   0.330983500    -0.4449372    0.5996023  
   0.332983400    -0.3362441    0.6503410  
   0.334983300    -0.2232725    0.6836370  
   0.336983200    -0.1091246    0.7009046  
   0.338983100     0.0062387    0.7030521  
   0.340983000     0.1219278    0.6893104  
   0.342982900     0.2362800    0.6587754  
   0.344982800     0.3472452    0.6101481  
   0.346982700     0.4519521    0.5426832  
   0.348982600     0.5446969    0.4565516  
   0.350982500     0.6235395    0.3549311  
   0.352982400     0.6845284    0.2394592  
   0.354982300     0.7255405    0.1091168  
   0.356982200     0.7414794   -0.0401885  
   0.358982100     0.7271156   -0.1899145  
   0.360982000     0.6834716   -0.3331254  
   0.362981900     0.6124892   -0.4650213  
   0.364981800     0.5170355   -0.5800119  
   0.366981700     0.4015285   -0.6736218  
   0.368981600     0.2709587   -0.7425358  
   0.370981500     0.1302796   -0.7847779  
   0.372981400    -0.0143973   -0.7995016  
   0.374981300    -0.1586750   -0.7867541  
   0.376981200    -0.0367017   -0.8003103  
   0.378981100    -0.1783214   -0.7832941  
   0.380981000    -0.3135301   -0.7411632  
   0.382980900    -0.4268619   -0.6825649  
   0.384980800    -0.5237971   -0.6107098  
   0.386980700    -0.6081553   -0.5254287  
   0.388980600    -0.6785074   -0.4282958  
   0.390980500    -0.7328973   -0.3228548  
   0.392980400    -0.7707444   -0.2109971  
   0.394980300    -0.7914056   -0.0948857  
   0.396980200    -0.7945463    0.0226745  
   0.398980100    -0.7800523    0.1405183  
   0.400980000    -0.7483794    0.2554449  
   0.402979900    -0.6988772    0.3651664  
   0.404979800    -0.6334731    0.4668751  
   0.406979700    -0.5521137    0.5584425  
   0.408979600    -0.4570178    0.6373678  
   0.410979500    -0.3488247    0.7015578  
   0.412979400    -0.2297277    0.7486476  
   0.414979300    -0.1028997    0.7751819  
   0.416979200     0.0281824    0.7819279  
   0.418979100     0.1597941    0.7670983  
   0.420979000     0.2887850    0.7302722  
   0.422978900     0.4108364    0.6716366  
   0.424978800     0.5222409    0.5920423  
   0.426978700     0.6191819    0.4940928  
   0.428978600     0.6978794    0.3802356  
   0.430978500     0.7556048    0.2547905  
   0.432978400     0.7907076    0.1215189  
   0.434978300     0.8036016   -0.0153848  
   0.436978200     0.7915182   -0.1517995  
   0.438978100     0.7563522   -0.2833709  
   0.440978000     0.7001348   -0.4059922  
   0.442977900     0.6245397   -0.5164242  
   0.444977800     0.5324723   -0.6113948  
   0.446977700     0.4270623   -0.6896535  
   0.448977600     0.3118046   -0.7483397  
   0.450977500     0.1901669   -0.7868525  
   0.452977400     0.0647295   -0.8052253  
   0.454977300    -0.0613678   -0.8034059  
   0.456977200    -0.1847816   -0.7820107  
   0.458977100    -0.3022580   -0.7415220  
   0.460977000    -0.4109336   -0.6834021  
   0.462976900    -0.5083171   -0.6104217  
   0.464976800    -0.5929459   -0.5232257  
   0.466976700    -0.6626854   -0.4247811  
   0.468976600    -0.7164627   -0.3170361  
   0.470976500    -0.7528135   -0.2023762  
   0.472976400    -0.7713180   -0.0830579  
   0.474976300    -0.7710532    0.0377307  
   0.476976200    -0.7519354    0.1575958  
   0.478976100    -0.7138854    0.2731448  
   0.480976000    -0.6582670    0.3816881  
   0.482975900    -0.5856279    0.4807123  
   0.484975800    -0.4973570    0.5678297  
   0.486975700    -0.3950235    0.6397797  
   0.488975600    -0.2811132    0.6947833  
   0.490975500    -0.1581436    0.7302755  
   0.492975400    -0.0299457    0.7445879  
   0.494975300     0.0999649    0.7363249  
   0.496975200     0.2268997    0.7054723  
   0.498975100     0.3466696    0.6527155  
   0.500975000     0.4551789    0.5796918  
   0.502974900     0.5482860    0.4889179  
   0.504974800     0.6232541    0.3837598  
   0.506974700     0.6780933    0.2682056  
   0.508974600     0.7114504    0.1457665  
   0.510974500     0.7225916    0.0220172  
   0.512974400     0.7129724   -0.0993401  
   0.514974300     0.6832909   -0.2130863  
   0.516974200     0.6385991   -0.3187402  
   0.518974100     0.5801256   -0.4137804  
   0.520974000     0.5103002   -0.4967615  
   0.522973900     0.4311427   -0.5679857  
   0.524973800     0.3449564   -0.6269254  
   0.526973700     0.2515315   -0.6740170  
   0.528973600     0.1532464   -0.7081874  
   0.530973500     0.0502188   -0.7292644  
   0.532973400    -0.0559551   -0.7360575  
   0.534973300    -0.1631407   -0.7276450  
   0.536973200    -0.2705212   -0.7029341  
   0.538973100    -0.3739032   -0.6616949  
   0.540973000    -0.4707795   -0.6046681  
   0.542972900    -0.5592701   -0.5316235  
   0.544972800    -0.6358781   -0.4449013  
   0.546972700    -0.6983643   -0.3452930  
   0.548972600    -0.7444989   -0.2356044  
   0.550972500    -0.7724562   -0.1188882  
   0.552972400    -0.7813818    0.0016326  
   0.554972300    -0.7704573    0.1228905  
   0.556972200    -0.7395867    0.2415859  
   0.558972100    -0.6898043    0.3541676  
   0.560972000    -0.6222250    0.4575531  
   0.562971900    -0.5385218    0.5488107  
   0.564971800    -0.4407637    0.6257184  
   0.566971700    -0.3314179    0.6860743  
   0.568971600    -0.2134768    0.7280307  
   0.570971500    -0.0894923    0.7503107  
   0.572971400     0.0377092    0.7518949  
   0.574971300     0.1644508    0.7325600  
   0.576971200     0.2873814    0.6916724  
   0.578971100     0.4024845    0.6304172  
   0.580971000     0.5063123    0.5498894  
   0.582970900     0.5950798    0.4527161  
   0.584970800     0.6658822    0.3416551  
   0.586970700     0.7165823    0.2200697  
   0.588970600     0.7459662    0.0914371  
   0.590970500     0.7527193   -0.0402400  
   0.592970400     0.7371512   -0.1706940  
   0.594970300     0.6993168   -0.2962210  
   0.596970200     0.6409196   -0.4130684  
   0.598970100     0.5639418   -0.5176693  
   0.600970000     0.4708593   -0.6076404  
   0.602969900     0.3650181   -0.6798764  
   0.604969800     0.2489691   -0.7331744  
   0.606969700     0.1268267   -0.7661980  
   0.608969600     0.0014673   -0.7788618  
   0.610969500    -0.1229666   -0.7713822  
   0.612969400    -0.2435508   -0.7435563  
   0.614969300    -0.3568725   -0.6977095  
   0.616969200    -0.4601914   -0.6351594  
   0.618969100    -0.5514528   -0.5585645  
   0.620969000    -0.6291214   -0.4694498  
   0.622968900    -0.6922835   -0.3701629  
   0.624968800    -0.7392694   -0.2630980  
   0.626968700    -0.7697804   -0.1498115  
   0.628968600    -0.7830577   -0.0334399  
   0.630968500    -0.7785544    0.0838744  
   0.632968400    -0.7563539    0.1990515  
   0.634968300    -0.7171755    0.3101571  
   0.636968200    -0.6612520    0.4143605  
   0.638968100    -0.5900986    0.5097582  
   0.640968000    -0.5043945    0.5931997  
   0.642967900    -0.4062886    0.6637326  
   0.644967800    -0.2975957    0.7184448  
   0.646967700    -0.1804721    0.7557235  
   0.648967600    -0.0587660    0.7743058  
   0.650967500     0.0658509    0.7736451  
   0.652967400     0.1891369    0.7530283  
   0.654967300     0.3087676    0.7124521  
   0.656967200     0.4208181    0.6525874  
   0.658967100     0.5228142    0.5745620  
   0.660967000     0.6111186    0.4802676  
   0.662966900     0.6832049    0.3713818  
   0.664966800     0.7365905    0.2506388  
   0.666966700     0.7690724    0.1220973  
   0.668966600     0.7795949   -0.0106066  
   0.670966500     0.7671719   -0.1428994  
   0.672966400     0.7337062   -0.2710095  
   0.674966300     0.6782498   -0.3908383  
   0.676966200     0.6038052   -0.4986169  
   0.678966100     0.5137263   -0.5914998  
   0.680966000     0.4098794   -0.6677377  
   0.682965900     0.2963611   -0.7247218  
   0.684965800     0.1765186   -0.7624723  
   0.686965700     0.0528970   -0.7799455  
   0.688965600    -0.0706233   -0.7777603  
   0.690965500    -0.1899152   -0.7548557  
   0.692965400    -0.3036026   -0.7153012  
   0.694965300    -0.4085001   -0.6591625  
   0.696965200    -0.5026768   -0.5882738  
   0.698965100    -0.5841615   -0.5044228  
   0.700965000    -0.6518128   -0.4096351  
   0.702964900    -0.7039785   -0.3061416  
   0.704964800    -0.7400184   -0.1962926  
   0.706964700    -0.7588404   -0.0822847  
   0.708964600    -0.7601449    0.0333456  
   0.710964500    -0.7445691    0.1484118  
   0.712964400    -0.7106001    0.2599277  
   0.714964300    -0.6597794    0.3653730  
   0.716964200    -0.5931308    0.4616467  
   0.718964100    -0.5117992    0.5466989  
   0.720964000    -0.4180574    0.6184153  
   0.722963900    -0.3136170    0.6744771  
   0.724963800    -0.2009245    0.7134815  
   0.726963700    -0.0827191    0.7337449  
   0.728963600     0.0382769    0.7341833  
   0.730963500     0.1573996    0.7147270  
   0.732963400     0.2727228    0.6758143  
   0.734963300     0.3800853    0.6181476  
   0.736963200     0.4901600    0.5314707  
   0.738963100     0.5823637    0.4252800  
   0.740963000     0.6522025    0.3040718  
   0.742962900     0.6978351    0.1724471  
   0.744962800     0.7176718    0.0355393  
   0.746962700     0.7118109   -0.1011623  
   0.748962600     0.6809586   -0.2334316  
   0.750962500     0.6951426   -0.1264402  
   0.752962400     0.6613458   -0.2558959  
   0.754962300     0.6051385   -0.3760657  
   0.756962200     0.5290409   -0.4831123  
   0.758962100     0.4354952   -0.5746913  
   0.760962000     0.3276244   -0.6477062  
   0.762961900     0.2147044   -0.6985662  
   0.764961800     0.1050357   -0.7281203  
   0.766961700    -0.0072605   -0.7408028  
   0.768961600    -0.1208396   -0.7361051  
   0.770961500    -0.2326281   -0.7143733  
   0.772961400    -0.3397031   -0.6754633  
   0.774961300    -0.4397631   -0.6206326  
   0.776961200    -0.5309108   -0.5504957  
   0.778961100    -0.6098014   -0.4668034  
   0.780961000    -0.6750747   -0.3710552  
   0.782960900    -0.7249056   -0.2660296  
   0.784960800    -0.7575252   -0.1538335  
   0.786960700    -0.7719024   -0.0371315  
   0.788960600    -0.7679078    0.0807494  
   0.790960500    -0.7449139    0.1964446  
   0.792960400    -0.7040932    0.3073328  
   0.794960300    -0.6461651    0.4105862  
   0.796960200    -0.5727317    0.5034277  
   0.798960100    -0.4854843    0.5829632  
   0.800960000    -0.3867892    0.6485204  
   0.802959900    -0.2788399    0.6974955  
   0.804959800    -0.1642394    0.7291780  
   0.806959700    -0.0459326    0.7423280  
   0.808959600     0.0733685    0.7363464  
   0.810959500     0.1907057    0.7119876  
   0.812959400     0.3030395    0.6686900  
   0.814959300     0.4078166    0.6075334  
   0.816959200     0.5016659    0.5303509  
   0.818959100     0.5821469    0.4383148  
   0.820959000     0.6471021    0.3336986  
   0.822958900     0.6941153    0.2196647  
   0.824958800     0.7221150    0.0985917  
   0.826958700     0.7295561   -0.0257567  
   0.828958600     0.7162585   -0.1495347  
   0.830958500     0.6826720   -0.2698517  
   0.832958400     0.6293729   -0.3826917  
   0.834958300     0.5583541   -0.4850075  
   0.836958200     0.4716106   -0.5741183  
   0.838958100     0.3715971   -0.6472040  
   0.840958000     0.2609854   -0.7027169  
   0.842957900     0.1434575   -0.7392306  
   0.844957800     0.0220041   -0.7557579  
   0.846957700    -0.0998987   -0.7526125  
   0.848957600    -0.2188983   -0.7297878  
   0.850957500    -0.3320912   -0.6883839  
   0.852957400    -0.4365600   -0.6300211  
   0.854957300    -0.5297875   -0.5560997  
   0.856957200    -0.6100184   -0.4690735  
   0.858957100    -0.6748707   -0.3715364  
   0.860957000    -0.7237090   -0.2661197  
   0.862956900    -0.7555618   -0.1555975  
   0.864956800    -0.7699856   -0.0424049  
   0.866956700    -0.7675417    0.0704501  
   0.868956600    -0.7481423    0.1815455  
   0.870956500    -0.7126060    0.2882662  
   0.872956400    -0.6617728    0.3887474  
   0.874956300    -0.5966969    0.4805935  
   0.876956200    -0.5180560    0.5624481  
   0.878956100    -0.4273551    0.6321078  
   0.880956000    -0.3269844    0.6876982  
   0.882955900    -0.2180632    0.7274849  
   0.884955800    -0.1039021    0.7507861  
   0.886955700     0.0135478    0.7561579  
   0.888955600     0.1317416    0.7430824  
   0.890955500     0.2468649    0.7116584  
   0.892955400     0.3567048    0.6617996  
   0.894955300     0.4580520    0.5948214  
