! MS46122B
! 2250307/22442219
! 7/24/2025 7:38:47 AM
! C:\USERS\SPARKY\DOCUMENTS\VNA_DATA\JULY24_2025\3K\PORT3_MOS1.S1P
! CHANNEL.1
! TR.MEASUREMENT
! RAW.DATA
# GHZ S RI R 50.0
! FREQ.GHZ         S11RE         S11IM         
!; PortSelection: Port_1
   0.001000000     1.0455100   -0.0718506  
   0.002999900     0.9638047   -0.1943551  
   0.004999800     0.9036317   -0.2992378  
   0.006999700     0.8365729   -0.3968365  
   0.008999600     0.7581111   -0.4921543  
   0.010999500     0.6654282   -0.5828068  
   0.012999400     0.5529822   -0.6663203  
   0.014999300     0.4149364   -0.7368092  
   0.016999200     0.2452715   -0.7820901  
   0.018999100     0.0387667   -0.7830739  
   0.020999000    -0.1970893   -0.7071157  
   0.022998900    -0.4280142   -0.5144482  
   0.024998800    -0.5511322   -0.1903741  
   0.026998700    -0.5265582    0.2124733  
   0.028998600    -0.2708668    0.5345913  
   0.030998500     0.0859766    0.6686272  
   0.032998400     0.3850410    0.6161293  
   0.034998300     0.6493912    0.4936162  
   0.036998200     0.7976458    0.3218909  
   0.038998100     0.8784119    0.1484361  
   0.040998000     0.9110329   -0.0128565  
   0.042997900     0.9101679   -0.1577002  
   0.044997800     0.8596057   -0.2603840  
   0.046997700     0.8445262   -0.3976418  
   0.048997600     0.7915765   -0.4950763  
   0.050997500     0.7294265   -0.5793173  
   0.052997400     0.6611352   -0.6516443  
   0.054997300     0.5874530   -0.7128965  
   0.056997200     0.5086063   -0.7655267  
   0.058997100     0.4268854   -0.8079234  
   0.060997000     0.3417499   -0.8416622  
   0.062996900     0.2542007   -0.8661876  
   0.064996800     0.1639006   -0.8810242  
   0.066996700     0.0713896   -0.8869182  
   0.068996600    -0.0224044   -0.8823594  
   0.070996500    -0.1171127   -0.8681587  
   0.072996400    -0.2124026   -0.8414086  
   0.074996300    -0.3066556   -0.8022043  
   0.076996200    -0.3986227   -0.7503347  
   0.078996100    -0.4864099   -0.6843092  
   0.080996000    -0.5680934   -0.6036168  
   0.082995900    -0.6411331   -0.5078384  
   0.084995800    -0.7014346   -0.3973522  
   0.086995700    -0.7472327   -0.2726797  
   0.088995600    -0.7730688   -0.1354978  
   0.090995500    -0.7754874    0.0115034  
   0.092995400    -0.7505905    0.1641330  
   0.094995300    -0.6940545    0.3159297  
   0.096995200    -0.6042264    0.4595622  
   0.098995100    -0.4824169    0.5854201  
   0.100995000    -0.3304683    0.6861731  
   0.102994900    -0.1583235    0.7507567  
   0.104994800     0.0253218    0.7755681  
   0.106994700     0.2094096    0.7573973  
   0.108994600     0.3825638    0.6999972  
   0.110994500     0.5359206    0.6080186  
   0.112994400     0.6618641    0.4884896  
   0.114994300     0.7568289    0.3507513  
   0.116994200     0.8197210    0.2028325  
   0.118994100     0.8517776    0.0522981  
   0.120994000     0.8570013   -0.0948191  
   0.122993900     0.8357261   -0.2341980  
   0.124993800     0.7934242   -0.3619358  
   0.126993700     0.7335919   -0.4764663  
   0.128993600     0.6589704   -0.5759947  
   0.130993500     0.5743055   -0.6607230  
   0.132993400     0.4816053   -0.7304977  
   0.134993300     0.3828059   -0.7849519  
   0.136993200     0.2799241   -0.8247606  
   0.138993100     0.1749868   -0.8503761  
   0.140993000     0.0688879   -0.8617277  
   0.142992900    -0.0365758   -0.8591540  
   0.144992800    -0.1404861   -0.8452186  
   0.146992700    -0.2416998   -0.8169791  
   0.148992600    -0.3388953   -0.7757884  
   0.150992500    -0.4294612   -0.7213018  
   0.152992400    -0.5144573   -0.6560758  
   0.154992300    -0.5910705   -0.5796489  
   0.156992200    -0.6582395   -0.4921461  
   0.158992100    -0.7141880   -0.3942740  
   0.160992000    -0.7571236   -0.2873233  
   0.162991900    -0.7856559   -0.1724457  
   0.164991800    -0.7975949   -0.0514931  
   0.166991700    -0.7912686    0.0733572  
   0.168991600    -0.7652629    0.1994109  
   0.170991500    -0.7182705    0.3238838  
   0.172991400    -0.6495604    0.4421923  
   0.174991300    -0.5601334    0.5503389  
   0.176991200    -0.4500034    0.6443741  
   0.178991100    -0.3219733    0.7192999  
   0.180991000    -0.1801254    0.7718504  
   0.182990900    -0.0283130    0.7968826  
   0.184990800     0.1279334    0.7932321  
   0.186990700     0.2816507    0.7599493  
   0.188990600     0.4058021    0.7092866  
   0.190990500     0.5534989    0.6117619  
   0.192990400     0.6665212    0.4993223  
   0.194990300     0.7534904    0.3718922  
   0.196990200     0.8143464    0.2335310  
   0.198990100     0.8489479    0.0891989  
   0.200990000     0.8569096   -0.0559986  
   0.202989900     0.8399063   -0.1969340  
   0.204989800     0.8002169   -0.3294630  
   0.206989700     0.7424704   -0.4508221  
   0.208989600     0.6667328   -0.5576928  
   0.210989500     0.5774564   -0.6496029  
   0.212989400     0.4773079   -0.7249101  
   0.214989300     0.3694443   -0.7830044  
   0.216989200     0.2569107   -0.8237520  
   0.218989100     0.1419373   -0.8473237  
   0.220989000     0.0262465   -0.8545686  
   0.222988900    -0.0882401   -0.8454231  
   0.224988800    -0.1998301   -0.8202909  
   0.226988700    -0.3057233   -0.7805629  
   0.228988600    -0.4047977   -0.7269878  
   0.230988500    -0.4954658   -0.6602792  
   0.232988400    -0.5753998   -0.5801464  
   0.234988300    -0.6453381   -0.4898026  
   0.236988200    -0.7020817   -0.3891017  
   0.238988100    -0.7445288   -0.2798945  
   0.240988000    -0.7706334   -0.1645382  
   0.242987900    -0.7799397   -0.0449473  
   0.244987800    -0.7706776    0.0770634  
   0.246987700    -0.7420231    0.1990452  
   0.248987600    -0.6931422    0.3179870  
   0.250987500    -0.6240759    0.4299638  
   0.252987400    -0.5360368    0.5308219  
   0.254987300    -0.4301513    0.6168200  
   0.256987200    -0.3087350    0.6844406  
   0.258987100    -0.1752217    0.7323202  
   0.260987000    -0.0325844    0.7542147  
   0.262986900     0.1138654    0.7497279  
   0.264986800     0.2585292    0.7181287  
   0.266986700     0.3956445    0.6598217  
   0.268986600     0.5192862    0.5769714  
   0.270986500     0.6245972    0.4733979  
   0.272986400     0.7087129    0.3530594  
   0.274986300     0.7685181    0.2210319  
   0.276986200     0.8031002    0.0819624  
   0.278986100     0.8124425   -0.0588660  
   0.280986000     0.7972110   -0.1968141  
   0.282985900     0.7588655   -0.3271989  
   0.284985800     0.7010179   -0.4464877  
   0.286985700     0.6264438   -0.5522881  
   0.288985600     0.5381666   -0.6422642  
   0.290985500     0.4403611   -0.7154268  
   0.292985400     0.3348979   -0.7714327  
   0.294985300     0.2247072   -0.8108146  
   0.296985200     0.1116977   -0.8332779  
   0.298985100    -0.0018365   -0.8397374  
   0.300985000    -0.1137902   -0.8302290  
   0.302984900    -0.2218017   -0.8057093  
   0.304984800    -0.3241991   -0.7672122  
   0.306984700    -0.4194681   -0.7157005  
   0.308984600    -0.5061232   -0.6532717  
   0.310984500    -0.5832946   -0.5805029  
   0.312984400    -0.6504989   -0.4977149  
   0.314984300    -0.7069848   -0.4066337  
   0.316984200    -0.7508714   -0.3078054  
   0.318984100    -0.7818704   -0.2018140  
   0.320984000    -0.7978619   -0.0896973  
   0.322983900    -0.7974686    0.0262223  
   0.324983800    -0.7790756    0.1429401  
   0.326983700    -0.7411421    0.2567232  
   0.328983600    -0.6842154    0.3639586  
   0.330983500    -0.6100159    0.4597765  
   0.332983400    -0.5224336    0.5407880  
   0.334983300    -0.4245302    0.6064342  
   0.336983200    -0.3191211    0.6569582  
   0.338983100    -0.2082386    0.6915317  
   0.340983000    -0.0932136    0.7105103  
   0.342982900     0.0247030    0.7127339  
   0.344982800     0.1438059    0.6968638  
   0.346982700     0.2614483    0.6627639  
   0.348982600     0.3733171    0.6078439  
   0.350982500     0.4767657    0.5353974  
   0.352982400     0.5681953    0.4451714  
   0.354982300     0.6457354    0.3352335  
   0.356982200     0.7061432    0.2003737  
   0.358982100     0.7391908    0.0555641  
   0.360982000     0.7431583   -0.0927483  
   0.362981900     0.7177101   -0.2391290  
   0.364981800     0.6643680   -0.3776515  
   0.366981700     0.5851379   -0.5026519  
   0.368981600     0.4835475   -0.6093206  
   0.370981500     0.3638098   -0.6939887  
   0.372981400     0.2310675   -0.7539964  
   0.374981300     0.0901757   -0.7871946  
   0.376981200     0.2059323   -0.7628102  
   0.378981100     0.0667009   -0.7900695  
   0.380981000    -0.0742240   -0.7911307  
   0.382980900    -0.1992928   -0.7701545  
   0.384980800    -0.3126831   -0.7320647  
   0.386980700    -0.4174410   -0.6769950  
   0.388980600    -0.5127319   -0.6067985  
   0.390980500    -0.5947334   -0.5244812  
   0.392980400    -0.6632375   -0.4317657  
   0.394980300    -0.7168273   -0.3307369  
   0.396980200    -0.7547730   -0.2228587  
   0.398980100    -0.7770156   -0.1107210  
   0.400980000    -0.7823541    0.0031618  
   0.402979900    -0.7710063    0.1178332  
   0.404979800    -0.7432099    0.2298940  
   0.406979700    -0.6985670    0.3370550  
   0.408979600    -0.6382980    0.4375243  
   0.410979500    -0.5624686    0.5292883  
   0.412979400    -0.4724810    0.6096855  
   0.414979300    -0.3691559    0.6749280  
   0.416979200    -0.2557195    0.7251843  
   0.418979100    -0.1349457    0.7573806  
   0.420979000    -0.0088514    0.7701831  
   0.422978900     0.1192258    0.7622582  
   0.424978800     0.2461726    0.7332951  
   0.426978700     0.3676482    0.6831335  
   0.428978600     0.4798929    0.6124963  
   0.430978500     0.5792837    0.5240084  
   0.432978400     0.6620779    0.4196691  
   0.434978300     0.7274224    0.3028049  
   0.436978200     0.7711158    0.1765776  
   0.438978100     0.7928354    0.0446345  
   0.440978000     0.7915852   -0.0886803  
   0.442977900     0.7680002   -0.2193012  
   0.444977800     0.7233987   -0.3429389  
   0.446977700     0.6591086   -0.4566569  
   0.448977600     0.5776693   -0.5568129  
   0.450977500     0.4822732   -0.6419254  
   0.452977400     0.3747418   -0.7095581  
   0.454977300     0.2583326   -0.7586679  
   0.456977200     0.1365553   -0.7881139  
   0.458977100     0.0132803   -0.7976709  
   0.460977000    -0.1089694   -0.7877251  
   0.462976900    -0.2264461   -0.7596777  
   0.464976800    -0.3371886   -0.7135844  
   0.466976700    -0.4388574   -0.6519054  
   0.468976600    -0.5288979   -0.5761296  
   0.470976500    -0.6063227   -0.4877136  
   0.472976400    -0.6695111   -0.3890918  
   0.474976300    -0.7163423   -0.2823652  
   0.476976200    -0.7466880   -0.1700365  
   0.478976100    -0.7596397   -0.0542527  
   0.480976000    -0.7548126    0.0613915  
   0.482975900    -0.7322260    0.1755628  
   0.484975800    -0.6925377    0.2856704  
   0.486975700    -0.6356767    0.3890957  
   0.488975600    -0.5626155    0.4832495  
   0.490975500    -0.4747490    0.5656933  
   0.492975400    -0.3733922    0.6334688  
   0.494975300    -0.2613239    0.6839722  
   0.496975200    -0.1412712    0.7155433  
   0.498975100    -0.0168408    0.7260678  
   0.500975000     0.1079970    0.7152978  
   0.502974900     0.2292611    0.6828241  
   0.504974800     0.3430030    0.6298345  
   0.506974700     0.4452111    0.5575738  
   0.508974600     0.5330721    0.4685218  
   0.510974500     0.6028384    0.3668640  
   0.512974400     0.6532447    0.2566751  
   0.514974300     0.6821576    0.1424869  
   0.516974200     0.6928964    0.0280331  
   0.518974100     0.6855734   -0.0834365  
   0.520974000     0.6625291   -0.1894374  
   0.522973900     0.6252861   -0.2890245  
   0.524973800     0.5755530   -0.3802084  
   0.526973700     0.5149093   -0.4630348  
   0.528973600     0.4443236   -0.5364020  
   0.530973500     0.3646674   -0.6004159  
   0.532973400     0.2764074   -0.6530684  
   0.534973300     0.1808567   -0.6936769  
   0.536973200     0.0792902   -0.7205130  
   0.538973100    -0.0263055   -0.7324526  
   0.540973000    -0.1338336   -0.7286604  
   0.542972900    -0.2410134   -0.7078055  
   0.544972800    -0.3448486   -0.6705481  
   0.546972700    -0.4429359   -0.6168200  
   0.548972600    -0.5325226   -0.5471121  
   0.550972500    -0.6108416   -0.4637728  
   0.552972400    -0.6750610   -0.3677321  
   0.554972300    -0.7236814   -0.2622670  
   0.556972200    -0.7549216   -0.1496824  
   0.558972100    -0.7681726   -0.0332277  
   0.560972000    -0.7624953    0.0840310  
   0.562971900    -0.7383617    0.1992501  
   0.564971800    -0.6961743    0.3094512  
   0.566971700    -0.6373967    0.4118875  
   0.568971600    -0.5628577    0.5040789  
   0.570971500    -0.4741935    0.5838349  
   0.572971400    -0.3732193    0.6491191  
   0.574971300    -0.2623248    0.6979845  
   0.576971200    -0.1435808    0.7284095  
   0.578971100    -0.0204579    0.7395160  
   0.580971000     0.1036743    0.7304229  
   0.582970900     0.2252556    0.7006180  
   0.584970800     0.3406538    0.6510789  
   0.586970700     0.4470493    0.5827692  
   0.588970600     0.5408691    0.4968935  
   0.590970500     0.6191889    0.3963285  
   0.592970400     0.6793122    0.2834252  
   0.594970300     0.7197226    0.1618971  
   0.596970200     0.7387892    0.0347260  
   0.598970100     0.7361209   -0.0931624  
   0.600970000     0.7113776   -0.2193957  
   0.602969900     0.6659620   -0.3389361  
   0.604969800     0.6008577   -0.4486865  
   0.606969700     0.5185099   -0.5456258  
   0.608969600     0.4213929   -0.6271719  
   0.610969500     0.3128102   -0.6902524  
   0.612969400     0.1963217   -0.7341837  
   0.614969300     0.0755191   -0.7578641  
   0.616969200    -0.0455795   -0.7619163  
   0.618969100    -0.1646038   -0.7462612  
   0.620969000    -0.2778923   -0.7128962  
   0.622968900    -0.3837305   -0.6622573  
   0.624968800    -0.4798948   -0.5966305  
   0.626968700    -0.5645058   -0.5176167  
   0.628968600    -0.6355214   -0.4266450  
   0.630968500    -0.6917719   -0.3266528  
   0.632968400    -0.7321403   -0.2197832  
   0.634968300    -0.7558385   -0.1078247  
   0.636968200    -0.7624399    0.0057350  
   0.638968100    -0.7521471    0.1189308  
   0.640968000    -0.7248360    0.2298523  
   0.642967900    -0.6812676    0.3355385  
   0.644967800    -0.6220594    0.4338474  
   0.646967700    -0.5485287    0.5222941  
   0.648967600    -0.4618707    0.5996353  
   0.650967500    -0.3642206    0.6628301  
   0.652967400    -0.2575465    0.7105222  
   0.654967300    -0.1439013    0.7416735  
   0.656967200    -0.0255259    0.7550526  
   0.658967100     0.0942303    0.7496637  
   0.660967000     0.2131268    0.7249913  
   0.662966900     0.3279816    0.6810728  
   0.664966800     0.4358942    0.6180447  
   0.666966700     0.5332583    0.5375502  
   0.668966600     0.6164507    0.4414519  
   0.670966500     0.6828907    0.3317491  
   0.672966400     0.7313269    0.2129436  
   0.674966300     0.7582583    0.0867666  
   0.676966200     0.7633477   -0.0416647  
   0.678966100     0.7464488   -0.1685056  
   0.680966000     0.7089584   -0.2907597  
   0.682965900     0.6519522   -0.4042688  
   0.684965800     0.5775412   -0.5060604  
   0.686965700     0.4876426   -0.5936847  
   0.688965600     0.3854442   -0.6645566  
   0.690965500     0.2736520   -0.7164410  
   0.692965400     0.1569407   -0.7501729  
   0.694965300     0.0380792   -0.7647939  
   0.696965200    -0.0805763   -0.7602652  
   0.698965100    -0.1959784   -0.7377048  
   0.700965000    -0.3054622   -0.6977813  
   0.702964900    -0.4061622   -0.6421591  
   0.704964800    -0.4969102   -0.5723115  
   0.706964700    -0.5754129   -0.4900566  
   0.708964600    -0.6401904   -0.3971128  
   0.710964500    -0.6907219   -0.2962616  
   0.712964400    -0.7245781   -0.1892933  
   0.714964300    -0.7418484   -0.0782281  
   0.716964200    -0.7426550    0.0336532  
   0.718964100    -0.7265855    0.1438522  
   0.720964000    -0.6940932    0.2504120  
   0.722963900    -0.6457109    0.3513129  
   0.724963800    -0.5825767    0.4439645  
   0.726963700    -0.5053734    0.5262252  
   0.728963600    -0.4158115    0.5958648  
   0.730963500    -0.3156775    0.6506953  
   0.732963400    -0.2074786    0.6894556  
   0.734963300    -0.0936569    0.7105430  
   0.736963200     0.0402075    0.7121528  
   0.738963100     0.1734960    0.6885203  
   0.740963000     0.3001180    0.6402097  
   0.742962900     0.4159088    0.5688835  
   0.744962800     0.5157315    0.4776511  
   0.746962700     0.5969273    0.3693995  
   0.748962600     0.6561787    0.2480626  
   0.750962500     0.5968401    0.3439114  
   0.752962400     0.6514589    0.2229697  
   0.754962300     0.6828768    0.0951720  
   0.756962200     0.6905044   -0.0355568  
   0.758962100     0.6743431   -0.1647286  
   0.760962000     0.6354809   -0.2881117  
   0.762961900     0.5786797   -0.3969926  
   0.764961800     0.5110468   -0.4865774  
   0.766961700     0.4313163   -0.5644380  
   0.768961600     0.3401921   -0.6294479  
   0.770961500     0.2404208   -0.6793295  
   0.772961400     0.1342819   -0.7135430  
   0.774961300     0.0242510   -0.7311456  
   0.776961200    -0.0878326   -0.7314976  
   0.778961100    -0.1989857   -0.7148376  
   0.780961000    -0.3065788   -0.6807321  
   0.782960900    -0.4079870   -0.6301120  
   0.784960800    -0.5007816   -0.5637206  
   0.786960700    -0.5819571   -0.4835181  
   0.788960600    -0.6496853   -0.3912624  
   0.790960500    -0.7021595   -0.2894850  
   0.792960400    -0.7380212   -0.1807557  
   0.794960300    -0.7561707   -0.0678810  
   0.796960200    -0.7568634    0.0464418  
   0.798960100    -0.7394888    0.1594808  
   0.800960000    -0.7049475    0.2675810  
   0.802959900    -0.6540734    0.3700084  
   0.804959800    -0.5879648    0.4625318  
   0.806959700    -0.5084457    0.5444176  
   0.808959600    -0.4169077    0.6128837  
   0.810959500    -0.3159262    0.6662225  
   0.812959400    -0.2071917    0.7035625  
   0.814959300    -0.0939979    0.7237806  
   0.816959200     0.0220027    0.7260197  
   0.818959100     0.1374044    0.7101157  
   0.820959000     0.2493046    0.6757720  
   0.822958900     0.3553071    0.6240563  
   0.824958800     0.4521402    0.5557686  
   0.826958700     0.5372322    0.4719883  
   0.828958600     0.6082120    0.3749768  
   0.830958500     0.6626443    0.2670606  
   0.832958400     0.6986103    0.1516170  
   0.834958300     0.7153670    0.0313225  
   0.836958200     0.7118285   -0.0902184  
   0.838958100     0.6883696   -0.2096030  
   0.840958000     0.6451572   -0.3236760  
   0.842957900     0.5835648   -0.4293366  
   0.844957800     0.5053728   -0.5231637  
   0.846957700     0.4129851   -0.6027123  
   0.848957600     0.3087026   -0.6654066  
   0.850957500     0.1963056   -0.7100021  
   0.852957400     0.0785429   -0.7350727  
   0.854957300    -0.0411243   -0.7408412  
   0.856957200    -0.1592700   -0.7270086  
   0.858957100    -0.2724204   -0.6947520  
   0.860957000    -0.3781669   -0.6452755  
   0.862956900    -0.4736299   -0.5808454  
   0.864956800    -0.5572420   -0.5032873  
   0.866956700    -0.6268737   -0.4147530  
   0.868956600    -0.6814837   -0.3175326  
   0.870956500    -0.7210042   -0.2138681  
   0.872956400    -0.7446503   -0.1057105  
   0.874956300    -0.7513912    0.0037617  
   0.876956200    -0.7422258    0.1136975  
   0.878956100    -0.7163725    0.2203653  
   0.880956000    -0.6754619    0.3224224  
   0.882955900    -0.6197503    0.4174758  
   0.884955800    -0.5502166    0.5032685  
   0.886955700    -0.4684450    0.5783293  
   0.888955600    -0.3763494    0.6403320  
   0.890955500    -0.2753209    0.6885348  
   0.892955400    -0.1678884    0.7210689  
   0.894955300    -0.0559308    0.7368633  
