! MS46122B
! 2250307/22442219
! 7/27/2025 9:25:57 AM
! C:\USERS\SPARKY\DOCUMENTS\VNA_DATA\JULY27_2025\3K\PORT3_MOS5_REPEAT1.S1P
! CHANNEL.1
! TR.MEASUREMENT
! RAW.DATA
# GHZ S RI R 50.0
! FREQ.GHZ         S11RE         S11IM         
!; PortSelection: Port_1
   0.001000000     1.0457580   -0.0721833  
   0.002999900     0.9643747   -0.1944941  
   0.004999800     0.9042821   -0.2994898  
   0.006999700     0.8372413   -0.3973177  
   0.008999600     0.7589000   -0.4931835  
   0.010999500     0.6659884   -0.5846720  
   0.012999400     0.5526526   -0.6693230  
   0.014999300     0.4125912   -0.7411787  
   0.016999200     0.2391094   -0.7873072  
   0.018999100     0.0260875   -0.7873439  
   0.020999000    -0.2186846   -0.7050726  
   0.022998900    -0.4566166   -0.4959912  
   0.024998800    -0.5730125   -0.1471194  
   0.026998700    -0.5169066    0.2772000  
   0.028998600    -0.2202300    0.5897311  
   0.030998500     0.1589473    0.6903508  
   0.032998400     0.4533019    0.6058159  
   0.034998300     0.7045491    0.4601759  
   0.036998200     0.8365068    0.2778334  
   0.038998100     0.9023420    0.1009324  
   0.040998000     0.9233492   -0.0604488  
   0.042997900     0.9127880   -0.2033440  
   0.044997800     0.8558919   -0.3018247  
   0.046997700     0.8339581   -0.4374304  
   0.048997600     0.7760929   -0.5316686  
   0.050997500     0.7101488   -0.6126112  
   0.052997400     0.6383399   -0.6819130  
   0.054997300     0.5614316   -0.7404322  
   0.056997200     0.4795632   -0.7897875  
   0.058997100     0.3948428   -0.8293312  
   0.060997000     0.3070826   -0.8598408  
   0.062996900     0.2166510   -0.8807911  
   0.064996800     0.1234082   -0.8920534  
   0.066996700     0.0283932   -0.8934750  
   0.068996600    -0.0680683   -0.8841784  
   0.070996500    -0.1657103   -0.8642840  
   0.072996400    -0.2627871   -0.8310404  
   0.074996300    -0.3586217   -0.7848233  
   0.076996200    -0.4516726   -0.7243015  
   0.078996100    -0.5389614   -0.6486191  
   0.080996000    -0.6190799   -0.5569730  
   0.082995900    -0.6880717   -0.4494669  
   0.084995800    -0.7416227   -0.3263640  
   0.086995700    -0.7773224   -0.1892844  
   0.088995600    -0.7894813   -0.0400002  
   0.090995500    -0.7732832    0.1166547  
   0.092995400    -0.7258890    0.2758381  
   0.094995300    -0.6425413    0.4287240  
   0.096995200    -0.5245859    0.5654037  
   0.098995100    -0.3744004    0.6768816  
   0.100995000    -0.1985570    0.7532547  
   0.102994900    -0.0090505    0.7868408  
   0.104994800     0.1830860    0.7759328  
   0.106994700     0.3651349    0.7208869  
   0.108994600     0.5266795    0.6291888  
   0.110994500     0.6599095    0.5076471  
   0.112994400     0.7603417    0.3661270  
   0.114994300     0.8269387    0.2136981  
   0.116994200     0.8607739    0.0586613  
   0.118994100     0.8649383   -0.0928047  
   0.120994000     0.8447838   -0.2362001  
   0.122993900     0.8010643   -0.3673221  
   0.124993800     0.7393125   -0.4842067  
   0.126993700     0.6634305   -0.5864574  
   0.128993600     0.5752354   -0.6716599  
   0.130993500     0.4800841   -0.7418676  
   0.132993400     0.3784426   -0.7967944  
   0.134993300     0.2730477   -0.8364681  
   0.136993200     0.1655615   -0.8614653  
   0.138993100     0.0569333   -0.8717836  
   0.140993000    -0.0509638   -0.8680698  
   0.142992900    -0.1570154   -0.8503705  
   0.144992800    -0.2604300   -0.8212481  
   0.146992700    -0.3591135   -0.7773771  
   0.148992600    -0.4525305   -0.7206681  
   0.150992500    -0.5374312   -0.6505897  
   0.152992400    -0.6149388   -0.5696944  
   0.154992300    -0.6819304   -0.4775585  
   0.156992200    -0.7369812   -0.3744321  
   0.158992100    -0.7782339   -0.2621810  
   0.160992000    -0.8036019   -0.1417236  
   0.162991900    -0.8110439   -0.0149915  
   0.164991800    -0.7988609    0.1155337  
   0.166991700    -0.7649305    0.2459937  
   0.168991600    -0.7088463    0.3732930  
   0.170991500    -0.6291509    0.4933191  
   0.172991400    -0.5277342    0.6007864  
   0.174991300    -0.4053646    0.6904529  
   0.176991200    -0.2651922    0.7584203  
   0.178991100    -0.1119111    0.8000242  
   0.180991000     0.0489695    0.8123209  
   0.182990900     0.2104212    0.7926274  
   0.184990800     0.3665281    0.7417462  
   0.186990700     0.5093775    0.6615764  
   0.188990600     0.6158878    0.5732328  
   0.190990500     0.7302973    0.4325814  
   0.192990400     0.8053246    0.2891535  
   0.194990300     0.8506298    0.1405208  
   0.196990200     0.8671270   -0.0095662  
   0.198990100     0.8571413   -0.1569896  
   0.200990000     0.8223184   -0.2964485  
   0.202989900     0.7663928   -0.4251567  
   0.204989800     0.6916823   -0.5391813  
   0.206989700     0.6033437   -0.6382974  
   0.208989600     0.5026195   -0.7187589  
   0.210989500     0.3929341   -0.7821077  
   0.212989400     0.2769386   -0.8272423  
   0.214989300     0.1582271   -0.8542928  
   0.216989200     0.0385949   -0.8640112  
   0.218989100    -0.0790770   -0.8565353  
   0.220989000    -0.1937928   -0.8325919  
   0.222988900    -0.3037596   -0.7924975  
   0.224988800    -0.4072301   -0.7377064  
   0.226988700    -0.5016122   -0.6691056  
   0.228988600    -0.5856808   -0.5875573  
   0.230988500    -0.6575462   -0.4945746  
   0.232988400    -0.7150876   -0.3897833  
   0.234988300    -0.7586570   -0.2766953  
   0.236988200    -0.7851509   -0.1560887  
   0.238988100    -0.7932873   -0.0309812  
   0.240988000    -0.7817956    0.0963611  
   0.242987900    -0.7496753    0.2224212  
   0.244987800    -0.6964374    0.3444470  
   0.246987700    -0.6218786    0.4589301  
   0.248987600    -0.5267517    0.5617411  
   0.250987500    -0.4120599    0.6482959  
   0.252987400    -0.2819873    0.7143425  
   0.254987300    -0.1399999    0.7561419  
   0.256987200     0.0091542    0.7717934  
   0.258987100     0.1608019    0.7603424  
   0.260987000     0.3089514    0.7191333  
   0.262986900     0.4471593    0.6502416  
   0.264986800     0.5700356    0.5561195  
   0.266986700     0.6725062    0.4412168  
   0.268986600     0.7504698    0.3105561  
   0.270986500     0.8021297    0.1701830  
   0.272986400     0.8268771    0.0253552  
   0.274986300     0.8257043   -0.1190367  
   0.276986200     0.7998188   -0.2580068  
   0.278986100     0.7510301   -0.3876955  
   0.280986000     0.6833267   -0.5050550  
   0.282985900     0.5991178   -0.6072996  
   0.284985800     0.5018001   -0.6928986  
   0.286985700     0.3952054   -0.7607463  
   0.288985600     0.2827364   -0.8099762  
   0.290985500     0.1669638   -0.8413986  
   0.292985400     0.0503860   -0.8553522  
   0.294985300    -0.0653179   -0.8532308  
   0.296985200    -0.1785958   -0.8347844  
   0.298985100    -0.2877956   -0.8010147  
   0.300985000    -0.3908792   -0.7526502  
   0.302984900    -0.4856716   -0.6909529  
   0.304984800    -0.5713105   -0.6174604  
   0.306984700    -0.6457722   -0.5328011  
   0.308984600    -0.7079660   -0.4389483  
   0.310984500    -0.7571133   -0.3372392  
   0.312984400    -0.7918925   -0.2276736  
   0.314984300    -0.8112625   -0.1126930  
   0.316984200    -0.8134779    0.0064910  
   0.318984100    -0.7971159    0.1278678  
   0.320984000    -0.7598506    0.2484531  
   0.322983900    -0.7014737    0.3631295  
   0.324983800    -0.6223235    0.4666039  
   0.326983700    -0.5252297    0.5536345  
   0.328983600    -0.4151844    0.6202992  
   0.330983500    -0.2995917    0.6649914  
   0.332983400    -0.1824351    0.6896822  
   0.334983300    -0.0670991    0.6977169  
   0.336983200     0.0466286    0.6911483  
   0.338983100     0.1587473    0.6701156  
   0.340983000     0.2687278    0.6340255  
   0.342982900     0.3748488    0.5813696  
   0.344982800     0.4742638    0.5110151  
   0.346982700     0.5633839    0.4226181  
   0.348982600     0.6368058    0.3179395  
   0.350982500     0.6928743    0.2006140  
   0.352982400     0.7277253    0.0735220  
   0.354982300     0.7388740   -0.0638897  
   0.356982200     0.7207072   -0.2143243  
   0.358982100     0.6727026   -0.3577977  
   0.360982000     0.5971766   -0.4885987  
   0.362981900     0.4974754   -0.6012109  
   0.364981800     0.3778482   -0.6918536  
   0.366981700     0.2436454   -0.7569649  
   0.368981600     0.1003928   -0.7942051  
   0.370981500    -0.0462040   -0.8035380  
   0.372981400    -0.1905037   -0.7852378  
   0.374981300    -0.3281958   -0.7401392  
   0.376981200    -0.2100178   -0.7815925  
   0.378981100    -0.3449153   -0.7338713  
   0.380981000    -0.4682947   -0.6624272  
   0.382980900    -0.5667712   -0.5796807  
   0.384980800    -0.6462637   -0.4879009  
   0.386980700    -0.7111582   -0.3849503  
   0.388980600    -0.7593040   -0.2732597  
   0.390980500    -0.7898045   -0.1563940  
   0.392980400    -0.8021805   -0.0364409  
   0.394980300    -0.7964783    0.0835269  
   0.396980200    -0.7727528    0.2026775  
   0.398980100    -0.7310892    0.3171239  
   0.400980000    -0.6718466    0.4247919  
   0.402979900    -0.5959827    0.5236431  
   0.404979800    -0.5050852    0.6100130  
   0.406979700    -0.4006496    0.6822719  
   0.408979600    -0.2844427    0.7375761  
   0.410979500    -0.1589558    0.7743031  
   0.412979400    -0.0268343    0.7902898  
   0.414979300     0.1075910    0.7831136  
   0.416979200     0.2407978    0.7545877  
   0.418979100     0.3681667    0.7032615  
   0.420979000     0.4862066    0.6303310  
   0.422978900     0.5908135    0.5372831  
   0.424978800     0.6780758    0.4268463  
   0.426978700     0.7449869    0.3021681  
   0.428978600     0.7889542    0.1677510  
   0.430978500     0.8086206    0.0281988  
   0.432978400     0.8036382   -0.1114821  
   0.434978300     0.7759335   -0.2480441  
   0.436978200     0.7243385   -0.3760739  
   0.438978100     0.6522995   -0.4921955  
   0.440978000     0.5624053   -0.5939146  
   0.442977900     0.4581648   -0.6778956  
   0.444977800     0.3424604   -0.7426472  
   0.446977700     0.2195429   -0.7868142  
   0.448977600     0.0926180   -0.8100127  
   0.450977500    -0.0348706   -0.8125654  
   0.452977400    -0.1602210   -0.7948490  
   0.454977300    -0.2808994   -0.7578288  
   0.456977200    -0.3933889   -0.7026632  
   0.458977100    -0.4956848   -0.6305028  
   0.460977000    -0.5841714   -0.5442762  
   0.462976900    -0.6579044   -0.4458772  
   0.464976800    -0.7157401   -0.3375668  
   0.466976700    -0.7555940   -0.2214727  
   0.468976600    -0.7772180   -0.1008875  
   0.470976500    -0.7797780    0.0223353  
   0.472976400    -0.7631443    0.1446409  
   0.474976300    -0.7265666    0.2634974  
   0.476976200    -0.6718388    0.3757565  
   0.478976100    -0.5991313    0.4785016  
   0.480976000    -0.5105520    0.5683852  
   0.482975900    -0.4076759    0.6434075  
   0.484975800    -0.2926604    0.7008753  
   0.486975700    -0.1683660    0.7387598  
   0.488975600    -0.0383749    0.7553590  
   0.490975500     0.0937070    0.7491619  
   0.492975400     0.2239556    0.7197447  
   0.494975300     0.3472576    0.6679492  
   0.496975200     0.4598020    0.5946146  
   0.498975100     0.5569689    0.5028800  
   0.500975000     0.6356367    0.3959650  
   0.502974900     0.6936895    0.2777596  
   0.504974800     0.7295647    0.1525068  
   0.506974700     0.7425588    0.0246851  
   0.508974600     0.7334672   -0.1018843  
   0.510974500     0.7036623   -0.2227010  
   0.512974400     0.6556351   -0.3338148  
   0.514974300     0.5912722   -0.4319326  
   0.516974200     0.5158061   -0.5179352  
   0.518974100     0.4308520   -0.5896959  
   0.520974000     0.3387826   -0.6477261  
   0.522973900     0.2408822   -0.6920451  
   0.524973800     0.1391877   -0.7221431  
   0.526973700     0.0341253   -0.7391387  
   0.528973600    -0.0725027   -0.7416247  
   0.530973500    -0.1799883   -0.7298090  
   0.532973400    -0.2861466   -0.7023052  
   0.534973300    -0.3886952   -0.6583835  
   0.536973200    -0.4855514   -0.5987307  
   0.538973100    -0.5729761   -0.5238742  
   0.540973000    -0.6486894   -0.4350509  
   0.542972900    -0.7097993   -0.3339421  
   0.544972800    -0.7543040   -0.2227935  
   0.546972700    -0.7806273   -0.1043982  
   0.548972600    -0.7873942    0.0179261  
   0.550972500    -0.7738990    0.1406098  
   0.552972400    -0.7400396    0.2605138  
   0.554972300    -0.6868654    0.3737238  
   0.556972200    -0.6153801    0.4773820  
   0.558972100    -0.5274116    0.5684169  
   0.560972000    -0.4252298    0.6440251  
   0.562971900    -0.3118347    0.7021530  
   0.564971800    -0.1899662    0.7410021  
   0.566971700    -0.0630308    0.7592168  
   0.568971600     0.0659856    0.7563404  
   0.570971500     0.1932883    0.7321929  
   0.572971400     0.3155282    0.6867850  
   0.574971300     0.4293714    0.6206723  
   0.576971200     0.5316714    0.5356322  
   0.578971100     0.6181353    0.4337252  
   0.580971000     0.6858546    0.3182770  
   0.582970900     0.7326447    0.1927161  
   0.584970800     0.7573777    0.0611733  
   0.586970700     0.7588893   -0.0721509  
   0.588970600     0.7378856   -0.2034230  
   0.590970500     0.6948148   -0.3286848  
   0.592970400     0.6310418   -0.4445225  
   0.594970300     0.5493926   -0.5467035  
   0.596970200     0.4520007   -0.6337644  
   0.598970100     0.3425415   -0.7024838  
   0.600970000     0.2238959   -0.7516119  
   0.602969900     0.0997597   -0.7802092  
   0.604969800    -0.0264439   -0.7884036  
   0.606969700    -0.1512424   -0.7764530  
   0.608969600    -0.2719702   -0.7444317  
   0.610969500    -0.3851054   -0.6941013  
   0.612969400    -0.4876416   -0.6272402  
   0.614969300    -0.5780339   -0.5457985  
   0.616969200    -0.6537732   -0.4524430  
   0.618969100    -0.7136537   -0.3495572  
   0.620969000    -0.7572659   -0.2396174  
   0.622968900    -0.7839070   -0.1244775  
   0.624968800    -0.7931713   -0.0068371  
   0.626968700    -0.7844878    0.1112071  
   0.628968600    -0.7582542    0.2269178  
   0.630968500    -0.7148080    0.3378760  
   0.632968400    -0.6545786    0.4416325  
   0.634968300    -0.5789718    0.5355964  
   0.636968200    -0.4894706    0.6176666  
   0.638968100    -0.3874424    0.6854057  
   0.640968000    -0.2750716    0.7369895  
   0.642967900    -0.1548271    0.7705467  
   0.644967800    -0.0300789    0.7849017  
   0.646967700     0.0967044    0.7793873  
   0.648967600     0.2221846    0.7531332  
   0.650967500     0.3419904    0.7068138  
   0.652967400     0.4535400    0.6411836  
   0.654967300     0.5536492    0.5575069  
   0.656967200     0.6387463    0.4582055  
   0.658967100     0.7064435    0.3454249  
   0.660967000     0.7548414    0.2217339  
   0.662966900     0.7817922    0.0912865  
   0.664966800     0.7867036   -0.0428820  
   0.666966700     0.7684600   -0.1760396  
   0.668966600     0.7278529   -0.3037913  
   0.670966500     0.6663566   -0.4226783  
   0.672966400     0.5873263   -0.5296713  
   0.674966300     0.4914297   -0.6197415  
   0.676966200     0.3829087   -0.6918982  
   0.678966100     0.2652138   -0.7445464  
   0.680966000     0.1421655   -0.7767247  
   0.682965900     0.0168859   -0.7883541  
   0.684965800    -0.1072516   -0.7802694  
   0.686965700    -0.2272439   -0.7524494  
   0.688965600    -0.3403888   -0.7067993  
   0.690965500    -0.4431261   -0.6438003  
   0.692965400    -0.5349888   -0.5674823  
   0.694965300    -0.6128808   -0.4787965  
   0.696965200    -0.6762535   -0.3799614  
   0.698965100    -0.7238770   -0.2730362  
   0.700965000    -0.7544562   -0.1602015  
   0.702964900    -0.7677276   -0.0445903  
   0.704964800    -0.7635893    0.0719180  
   0.706964700    -0.7415317    0.1869189  
   0.708964600    -0.7016955    0.2976721  
   0.710964500    -0.6455313    0.4021471  
   0.712964400    -0.5727139    0.4967517  
   0.714964300    -0.4854138    0.5791466  
   0.716964200    -0.3857658    0.6469561  
   0.718964100    -0.2759065    0.6982108  
   0.720964000    -0.1591160    0.7312393  
   0.722963900    -0.0377758    0.7450308  
   0.724963800     0.0848590    0.7387320  
   0.726963700     0.2052522    0.7119766  
   0.728963600     0.3198126    0.6655545  
   0.730963500     0.4248971    0.5997337  
   0.732963400     0.5175501    0.5178393  
   0.734963300     0.5959675    0.4215827  
   0.736963200     0.6647054    0.2979561  
   0.738963100     0.7088053    0.1634820  
   0.740963000     0.7265673    0.0242605  
   0.742962900     0.7180182   -0.1145881  
   0.744962800     0.6840712   -0.2479995  
   0.746962700     0.6265441   -0.3714472  
   0.748962600     0.5484824   -0.4814605  
   0.750962500     0.6033571   -0.3921100  
   0.752962400     0.5238386   -0.4988893  
   0.754962300     0.4269616   -0.5890576  
   0.756962200     0.3165208   -0.6602786  
   0.758962100     0.1957634   -0.7103933  
   0.760962000     0.0682474   -0.7383724  
   0.762961900    -0.0557651   -0.7441046  
   0.764961800    -0.1689661   -0.7316656  
   0.766961700    -0.2791686   -0.7023532  
   0.768961600    -0.3840559   -0.6562308  
   0.770961500    -0.4808831   -0.5945834  
   0.772961400    -0.5675079   -0.5184049  
   0.774961300    -0.6409828   -0.4295167  
   0.776961200    -0.7002084   -0.3296083  
   0.778961100    -0.7432863   -0.2216987  
   0.780961000    -0.7688836   -0.1074276  
   0.782960900    -0.7760673    0.0100987  
   0.784960800    -0.7645865    0.1279489  
   0.786960700    -0.7340605    0.2428104  
   0.788960600    -0.6857392    0.3520143  
   0.790960500    -0.6206540    0.4523213  
   0.792960400    -0.5405321    0.5407370  
   0.794960300    -0.4467399    0.6157282  
   0.796960200    -0.3425171    0.6749939  
   0.798960100    -0.2301271    0.7171447  
   0.800960000    -0.1123616    0.7408618  
   0.802959900     0.0083470    0.7453142  
   0.804959800     0.1283318    0.7310947  
   0.806959700     0.2447912    0.6973794  
   0.808959600     0.3544523    0.6454536  
   0.810959500     0.4548689    0.5762047  
   0.812959400     0.5433577    0.4915487  
   0.814959300     0.6170952    0.3930868  
   0.816959200     0.6742315    0.2834312  
   0.818959100     0.7128251    0.1655037  
   0.820959000     0.7316685    0.0424426  
   0.822958900     0.7297370   -0.0826133  
   0.824958800     0.7072029   -0.2057366  
   0.826958700     0.6646262   -0.3235250  
   0.828958600     0.6029093   -0.4326695  
   0.830958500     0.5239840   -0.5300408  
   0.832958400     0.4304301   -0.6126500  
   0.834958300     0.3248580   -0.6787589  
   0.836958200     0.2105979   -0.7260065  
   0.838958100     0.0906170   -0.7539304  
   0.840958000    -0.0318833   -0.7617935  
   0.842957900    -0.1534309   -0.7500890  
   0.844957800    -0.2708485   -0.7190217  
   0.846957700    -0.3810927   -0.6697593  
   0.848957600    -0.4814452   -0.6044473  
   0.850957500    -0.5698984   -0.5241439  
   0.852957400    -0.6442417   -0.4315720  
   0.854957300    -0.7029856   -0.3292712  
   0.856957200    -0.7448260   -0.2198103  
   0.858957100    -0.7695392   -0.1056659  
   0.860957000    -0.7761652    0.0098062  
   0.862956900    -0.7655294    0.1240749  
   0.864956800    -0.7382566    0.2348563  
   0.866956700    -0.6948650    0.3400114  
   0.868956600    -0.6359741    0.4368219  
   0.870956500    -0.5639087    0.5242951  
   0.872956400    -0.4789242    0.6004896  
   0.874956300    -0.3834151    0.6636950  
   0.876956200    -0.2781957    0.7122847  
   0.878956100    -0.1659183    0.7441303  
   0.880956000    -0.0494109    0.7590604  
   0.882955900     0.0692619    0.7556209  
   0.884955800     0.1873503    0.7335495  
   0.886955700     0.3011783    0.6929467  
   0.888955600     0.4083606    0.6342292  
   0.890955500     0.5055472    0.5581830  
   0.892955400     0.5895042    0.4665882  
   0.894955300     0.6580362    0.3619235  
