! MS46122B
! 2250307/22442219
! 7/22/2025 7:48:47 AM
! C:\USERS\SPARKY\DOCUMENTS\VNA_DATA\JULY22_2025\3K\PORT5_MOS5.S1P
! CHANNEL.1
! TR.MEASUREMENT
! RAW.DATA
# GHZ S RI R 50.0
! FREQ.GHZ         S11RE         S11IM         
!; PortSelection: Port_1
   0.001000000     1.0458530   -0.0716081  
   0.002999900     0.9643083   -0.1942053  
   0.004999800     0.9040588   -0.2992224  
   0.006999700     0.8367434   -0.3970188  
   0.008999600     0.7580122   -0.4926476  
   0.010999500     0.6646660   -0.5836251  
   0.012999400     0.5509384   -0.6674542  
   0.014999300     0.4106853   -0.7379087  
   0.016999200     0.2375270   -0.7820063  
   0.018999100     0.0263542   -0.7793205  
   0.020999000    -0.2142945   -0.6944253  
   0.022998900    -0.4444807   -0.4852330  
   0.024998800    -0.5529595   -0.1429939  
   0.026998700    -0.4944413    0.2671555  
   0.028998600    -0.2067575    0.5681607  
   0.030998500     0.1590161    0.6672792  
   0.032998400     0.4451745    0.5883824  
   0.034998300     0.6920866    0.4489340  
   0.036998200     0.8231604    0.2720633  
   0.038998100     0.8901983    0.0990378  
   0.040998000     0.9126113   -0.0597737  
   0.042997900     0.9034981   -0.2009675  
   0.044997800     0.8480353   -0.2984610  
   0.046997700     0.8270784   -0.4331604  
   0.048997600     0.7701089   -0.5266882  
   0.050997500     0.7050399   -0.6071283  
   0.052997400     0.6339713   -0.6761293  
   0.054997300     0.5580256   -0.7340167  
   0.056997200     0.4765893   -0.7832355  
   0.058997100     0.3925860   -0.8224361  
   0.060997000     0.3054338   -0.8527024  
   0.062996900     0.2156609   -0.8732772  
   0.064996800     0.1232487   -0.8842971  
   0.066996700     0.0289987   -0.8854122  
   0.068996600    -0.0665296   -0.8759084  
   0.070996500    -0.1631422   -0.8558348  
   0.072996400    -0.2591072   -0.8224538  
   0.074996300    -0.3537338   -0.7763363  
   0.076996200    -0.4454283   -0.7161049  
   0.078996100    -0.5311652   -0.6407912  
   0.080996000    -0.6098870   -0.5501196  
   0.082995900    -0.6773182   -0.4436774  
   0.084995800    -0.7295154   -0.3222680  
   0.086995700    -0.7640532   -0.1872006  
   0.088995600    -0.7753403   -0.0403939  
   0.090995500    -0.7588079    0.1134548  
   0.092995400    -0.7118644    0.2695592  
   0.094995300    -0.6298860    0.4192773  
   0.096995200    -0.5138357    0.5531086  
   0.098995100    -0.3673220    0.6624060  
   0.100995000    -0.1946367    0.7375009  
   0.102994900    -0.0091868    0.7708977  
   0.104994800     0.1791941    0.7609426  
   0.106994700     0.3579058    0.7077546  
   0.108994600     0.5169712    0.6186260  
   0.110994500     0.6486745    0.5000535  
   0.112994400     0.7483587    0.3614842  
   0.114994300     0.8148996    0.2119687  
   0.116994200     0.8492353    0.0592801  
   0.118994100     0.8540586   -0.0901068  
   0.120994000     0.8352154   -0.2316173  
   0.122993900     0.7927285   -0.3614724  
   0.124993800     0.7322394   -0.4772878  
   0.126993700     0.6575170   -0.5787953  
   0.128993600     0.5707565   -0.6630636  
   0.130993500     0.4766246   -0.7333798  
   0.132993400     0.3763872   -0.7876502  
   0.134993300     0.2721222   -0.8271490  
   0.136993200     0.1658072   -0.8517897  
   0.138993100     0.0583115   -0.8621709  
   0.140993000    -0.0480644   -0.8585277  
   0.142992900    -0.1532398   -0.8412381  
   0.144992800    -0.2552981   -0.8123958  
   0.146992700    -0.3532072   -0.7688650  
   0.148992600    -0.4452089   -0.7128041  
   0.150992500    -0.5290386   -0.6435440  
   0.152992400    -0.6054029   -0.5635666  
   0.154992300    -0.6712430   -0.4727281  
   0.156992200    -0.7256191   -0.3706022  
   0.158992100    -0.7660943   -0.2599904  
   0.160992000    -0.7908750   -0.1410263  
   0.162991900    -0.7981106   -0.0166292  
   0.164991800    -0.7857927    0.1117589  
   0.166991700    -0.7526549    0.2401764  
   0.168991600    -0.6975144    0.3653288  
   0.170991500    -0.6192786    0.4834007  
   0.172991400    -0.5196340    0.5891510  
   0.174991300    -0.3995899    0.6775221  
   0.176991200    -0.2622706    0.7447236  
   0.178991100    -0.1115042    0.7856212  
   0.180991000     0.0463481    0.7987185  
   0.182990900     0.2053261    0.7801403  
   0.184990800     0.3589379    0.7306923  
   0.186990700     0.5000608    0.6527932  
   0.188990600     0.6054831    0.5664120  
   0.190990500     0.7190318    0.4284560  
   0.192990400     0.7938211    0.2875451  
   0.194990300     0.8392454    0.1413172  
   0.196990200     0.8566350   -0.0069191  
   0.198990100     0.8475401   -0.1524407  
   0.200990000     0.8139634   -0.2906943  
   0.202989900     0.7592229   -0.4177648  
   0.204989800     0.6859872   -0.5309338  
   0.206989700     0.5990263   -0.6291661  
   0.208989600     0.4998090   -0.7091807  
   0.210989500     0.3914119   -0.7722526  
   0.212989400     0.2767920   -0.8173010  
   0.214989300     0.1596253   -0.8442335  
   0.216989200     0.0415393   -0.8540775  
   0.218989100    -0.0748764   -0.8468878  
   0.220989000    -0.1883070   -0.8234445  
   0.222988900    -0.2969870   -0.7839891  
   0.224988800    -0.3991992   -0.7299446  
   0.226988700    -0.4924769   -0.6623263  
   0.228988600    -0.5754028   -0.5819582  
   0.230988500    -0.6464965   -0.4902099  
   0.232988400    -0.7031659   -0.3870451  
   0.234988300    -0.7462158   -0.2756227  
   0.236988200    -0.7723744   -0.1567484  
   0.238988100    -0.7806145   -0.0335806  
   0.240988000    -0.7694427    0.0916827  
   0.242987900    -0.7380788    0.2157754  
   0.244987800    -0.6859357    0.3359315  
   0.246987700    -0.6127960    0.4485943  
   0.248987600    -0.5196601    0.5500600  
   0.250987500    -0.4072312    0.6354900  
   0.252987400    -0.2793893    0.7008764  
   0.254987300    -0.1400029    0.7427925  
   0.256987200     0.0066442    0.7588630  
   0.258987100     0.1558519    0.7485056  
   0.260987000     0.3017626    0.7088062  
   0.262986900     0.4384839    0.6418292  
   0.264986800     0.5601514    0.5498478  
   0.266986700     0.6618412    0.4372489  
   0.268986600     0.7397809    0.3089099  
   0.270986500     0.7917400    0.1705245  
   0.272986400     0.8171185    0.0276442  
   0.274986300     0.8168393   -0.1151865  
   0.276986200     0.7920339   -0.2527736  
   0.278986100     0.7444518   -0.3812761  
   0.280986000     0.6779695   -0.4979119  
   0.282985900     0.5950967   -0.5994539  
   0.284985800     0.4989720   -0.6845645  
   0.286985700     0.3937197   -0.7520898  
   0.288985600     0.2825557   -0.8012376  
   0.290985500     0.1679173   -0.8326561  
   0.292985400     0.0525878   -0.8467340  
   0.294985300    -0.0619350   -0.8448313  
   0.296985200    -0.1740961   -0.8267714  
   0.298985100    -0.2822046   -0.7935007  
   0.300985000    -0.3841825   -0.7457973  
   0.302984900    -0.4780218   -0.6848434  
   0.304984800    -0.5626481   -0.6122594  
   0.306984700    -0.6363327   -0.5286400  
   0.308984600    -0.6977518   -0.4359909  
   0.310984500    -0.7463943   -0.3354725  
   0.312984400    -0.7808257   -0.2275031  
   0.314984300    -0.8000410   -0.1140810  
   0.316984200    -0.8023130    0.0033705  
   0.318984100    -0.7861337    0.1230893  
   0.320984000    -0.7499118    0.2418297  
   0.322983900    -0.6926854    0.3548373  
   0.324983800    -0.6151114    0.4570675  
   0.326983700    -0.5200940    0.5430342  
   0.328983600    -0.4121195    0.6093454  
   0.330983500    -0.2982989    0.6539648  
   0.332983400    -0.1831101    0.6793649  
   0.334983300    -0.0694737    0.6881048  
   0.336983200     0.0431080    0.6825022  
   0.338983100     0.1542791    0.6625177  
   0.340983000     0.2632841    0.6274043  
   0.342982900     0.3685890    0.5759386  
   0.344982800     0.4676542    0.5066743  
   0.346982700     0.5561405    0.4195609  
   0.348982600     0.6293248    0.3162831  
   0.350982500     0.6853290    0.2003522  
   0.352982400     0.7203507    0.0746300  
   0.354982300     0.7319648   -0.0613570  
   0.356982200     0.7145154   -0.2104166  
   0.358982100     0.6674553   -0.3525939  
   0.360982000     0.5930603   -0.4824041  
   0.362981900     0.4946671   -0.5943815  
   0.364981800     0.3763622   -0.6844004  
   0.366981700     0.2435832   -0.7492071  
   0.368981600     0.1018578   -0.7865257  
   0.370981500    -0.0433515   -0.7961012  
   0.372981400    -0.1861473   -0.7782930  
   0.374981300    -0.3226832   -0.7338315  
   0.376981200    -0.2056823   -0.7743102  
   0.378981100    -0.3394125   -0.7272008  
   0.380981000    -0.4613856   -0.6567087  
   0.382980900    -0.5588283   -0.5749336  
   0.384980800    -0.6375445   -0.4842093  
   0.386980700    -0.7018479   -0.3823721  
   0.388980600    -0.7494934   -0.2720334  
   0.390980500    -0.7795120   -0.1564837  
   0.392980400    -0.7920815   -0.0380272  
   0.394980300    -0.7865904    0.0807628  
   0.396980200    -0.7632043    0.1982915  
   0.398980100    -0.7222657    0.3115271  
   0.400980000    -0.6638972    0.4178998  
   0.402979900    -0.5890979    0.5156856  
   0.404979800    -0.4995052    0.6012204  
   0.406979700    -0.3965311    0.6729309  
   0.408979600    -0.2819431    0.7277359  
   0.410979500    -0.1581185    0.7643387  
   0.412979400    -0.0274532    0.7805811  
   0.414979300     0.1055179    0.7740319  
   0.416979200     0.2372570    0.7461551  
   0.418979100     0.3634169    0.6959185  
   0.420979000     0.4805236    0.6242051  
   0.422978900     0.5844013    0.5325198  
   0.424978800     0.6712233    0.4234709  
   0.426978700     0.7379470    0.3002315  
   0.428978600     0.7819335    0.1671872  
   0.430978500     0.8019167    0.0289671  
   0.432978400     0.7973857   -0.1095286  
   0.434978300     0.7703080   -0.2450452  
   0.436978200     0.7194685   -0.3721515  
   0.438978100     0.6482684   -0.4875115  
   0.440978000     0.5593094   -0.5886315  
   0.442977900     0.4558377   -0.6721937  
   0.444977800     0.3413528   -0.7364685  
   0.446977700     0.2192073   -0.7804319  
   0.448977600     0.0933744   -0.8035390  
   0.450977500    -0.0329405   -0.8060601  
   0.452977400    -0.1575669   -0.7884195  
   0.454977300    -0.2770021   -0.7517653  
   0.456977200    -0.3885422   -0.6969229  
   0.458977100    -0.4898337   -0.6254980  
   0.460977000    -0.5774466   -0.5399475  
   0.462976900    -0.6504439   -0.4424331  
   0.464976800    -0.7077110   -0.3350655  
   0.466976700    -0.7470981   -0.2201189  
   0.468976600    -0.7684401   -0.1006810  
   0.470976500    -0.7709252    0.0214017  
   0.472976400    -0.7544001    0.1423717  
   0.474976300    -0.7182491    0.2600883  
   0.476976200    -0.6638738    0.3710598  
   0.478976100    -0.5919557    0.4727379  
   0.480976000    -0.5043388    0.5617442  
   0.482975900    -0.4024595    0.6359445  
   0.484975800    -0.2887516    0.6929620  
   0.486975700    -0.1657308    0.7305004  
   0.488975600    -0.0370572    0.7471158  
   0.490975500     0.0937692    0.7411379  
   0.492975400     0.2228274    0.7121249  
   0.494975300     0.3450657    0.6609958  
   0.496975200     0.4567119    0.5884500  
   0.498975100     0.5531452    0.4976665  
   0.500975000     0.6313310    0.3916962  
   0.502974900     0.6890510    0.2745124  
   0.504974800     0.7248127    0.1502083  
   0.506974700     0.7378455    0.0232806  
   0.508974600     0.7288706   -0.1023534  
   0.510974500     0.6993998   -0.2222310  
   0.512974400     0.6516866   -0.3327280  
   0.514974300     0.5877492   -0.4300598  
   0.516974200     0.5127550   -0.5156526  
   0.518974100     0.4280794   -0.5872283  
   0.520974000     0.3364839   -0.6448087  
   0.522973900     0.2392422   -0.6886492  
   0.524973800     0.1380673   -0.7184601  
   0.526973700     0.0335138   -0.7351994  
   0.528973600    -0.0725864   -0.7374246  
   0.530973500    -0.1795043   -0.7254073  
   0.532973400    -0.2848498   -0.6974694  
   0.534973300    -0.3867097   -0.6535946  
   0.536973200    -0.4828593   -0.5940512  
   0.538973100    -0.5693570   -0.5192609  
   0.540973000    -0.6441888   -0.4309136  
   0.542972900    -0.7044732   -0.3300739  
   0.544972800    -0.7482960   -0.2194662  
   0.546972700    -0.7738275   -0.1019735  
   0.548972600    -0.7800703    0.0193750  
   0.550972500    -0.7662042    0.1409918  
   0.552972400    -0.7321839    0.2598026  
   0.554972300    -0.6790311    0.3718629  
   0.556972200    -0.6078554    0.4744504  
   0.558972100    -0.5202969    0.5644596  
   0.560972000    -0.4188237    0.6391388  
   0.562971900    -0.3060182    0.6965010  
   0.564971800    -0.1851836    0.7347501  
   0.566971700    -0.0592008    0.7525571  
   0.568971600     0.0687816    0.7494763  
   0.570971500     0.1952512    0.7251161  
   0.572971400     0.3165371    0.6798425  
   0.574971300     0.4296368    0.6139818  
   0.576971200     0.5309044    0.5291935  
   0.578971100     0.6166718    0.4276606  
   0.580971000     0.6837387    0.3126774  
   0.582970900     0.7299156    0.1877231  
   0.584970800     0.7540970    0.0567254  
   0.586970700     0.7552774   -0.0759035  
   0.588970600     0.7338651   -0.2066996  
   0.590970500     0.6905100   -0.3311786  
   0.592970400     0.6266075   -0.4461660  
   0.594970300     0.5447535   -0.5476847  
   0.596970200     0.4474102   -0.6338924  
   0.598970100     0.3380844   -0.7016524  
   0.600970000     0.2195782   -0.7500575  
   0.602969900     0.0957853   -0.7778339  
   0.604969800    -0.0299304   -0.7852374  
   0.606969700    -0.1540902   -0.7726331  
   0.608969600    -0.2740786   -0.7398843  
   0.610969500    -0.3863481   -0.6891364  
   0.612969400    -0.4882038   -0.6216944  
   0.614969300    -0.5772790   -0.5403068  
   0.616969200    -0.6519855   -0.4469974  
   0.618969100    -0.7109407   -0.3441693  
   0.620969000    -0.7534797   -0.2345878  
   0.622968900    -0.7792032   -0.1200469  
   0.624968800    -0.7876444   -0.0030692  
   0.626968700    -0.7782830    0.1142592  
   0.628968600    -0.7514430    0.2290652  
   0.630968500    -0.7076420    0.3390458  
   0.632968400    -0.6471247    0.4417663  
   0.634968300    -0.5715575    0.5347192  
   0.636968200    -0.4821834    0.6157550  
   0.638968100    -0.3802404    0.6826092  
   0.640968000    -0.2683677    0.7332688  
   0.642967900    -0.1485494    0.7660054  
   0.644967800    -0.0245084    0.7796189  
   0.646967700     0.1018816    0.7734159  
   0.648967600     0.2263098    0.7467524  
   0.650967500     0.3453344    0.7000061  
   0.652967400     0.4562019    0.6339821  
   0.654967300     0.5553902    0.5501066  
   0.656967200     0.6397218    0.4506838  
   0.658967100     0.7064794    0.3379464  
   0.660967000     0.7538808    0.2145150  
   0.662966900     0.7800082    0.0842743  
   0.664966800     0.7838123   -0.0492361  
   0.666966700     0.7649233   -0.1822409  
   0.668966600     0.7235206   -0.3094591  
   0.670966500     0.6612728   -0.4276618  
   0.672966400     0.5817429   -0.5337800  
   0.674966300     0.4850694   -0.6228589  
   0.676966200     0.3761950   -0.6939043  
   0.678966100     0.2581565   -0.7454168  
   0.680966000     0.1351442   -0.7763126  
   0.682965900     0.0100262   -0.7866240  
   0.684965800    -0.1137548   -0.7772225  
   0.686965700    -0.2330023   -0.7482941  
   0.688965600    -0.3453310   -0.7015397  
   0.690965500    -0.4470986   -0.6376181  
   0.692965400    -0.5376977   -0.5604731  
   0.694965300    -0.6144246   -0.4712024  
   0.696965200    -0.6763182   -0.3723275  
   0.698965100    -0.7225378   -0.2652944  
   0.700965000    -0.7518318   -0.1527608  
   0.702964900    -0.7636721   -0.0373715  
   0.704964800    -0.7582989    0.0787204  
   0.706964700    -0.7349926    0.1928639  
   0.708964600    -0.6941990    0.3027117  
   0.710964500    -0.6371737    0.4057757  
   0.712964400    -0.5637366    0.4991679  
   0.714964300    -0.4760249    0.5802119  
   0.716964200    -0.3761989    0.6466190  
   0.718964100    -0.2664714    0.6964260  
   0.720964000    -0.1498323    0.7280911  
   0.722963900    -0.0290308    0.7405940  
   0.724963800     0.0930889    0.7330927  
   0.726963700     0.2125029    0.7053651  
   0.728963600     0.3261875    0.6580403  
   0.730963500     0.4303644    0.5913894  
   0.732963400     0.5217732    0.5089110  
   0.734963300     0.5988857    0.4122558  
   0.736963200     0.6661851    0.2883239  
   0.738963100     0.7087769    0.1538292  
   0.740963000     0.7250706    0.0146764  
   0.742962900     0.7150584   -0.1236052  
   0.744962800     0.6798033   -0.2563348  
   0.746962700     0.6210417   -0.3790912  
   0.748962600     0.5418983   -0.4878985  
   0.750962500     0.5979409   -0.3995676  
   0.752962400     0.5171374   -0.5054782  
   0.754962300     0.4194452   -0.5941547  
   0.756962200     0.3082699   -0.6639004  
   0.758962100     0.1869815   -0.7124028  
   0.760962000     0.0591838   -0.7387508  
   0.762961900    -0.0647510   -0.7428372  
   0.764961800    -0.1777046   -0.7288153  
   0.766961700    -0.2872578   -0.6979575  
   0.768961600    -0.3911925   -0.6504073  
   0.770961500    -0.4870625   -0.5873587  
   0.772961400    -0.5722927   -0.5099846  
   0.774961300    -0.6441824   -0.4201765  
   0.776961200    -0.7016966   -0.3197942  
   0.778961100    -0.7428111   -0.2114022  
   0.780961000    -0.7664590   -0.0972274  
   0.782960900    -0.7720342    0.0198236  
   0.784960800    -0.7586734    0.1370066  
   0.786960700    -0.7266110    0.2508710  
   0.788960600    -0.6768543    0.3588339  
   0.790960500    -0.6105354    0.4577426  
   0.792960400    -0.5295724    0.5445300  
   0.794960300    -0.4351903    0.6177500  
   0.796960200    -0.3305016    0.6753440  
   0.798960100    -0.2179735    0.7155730  
   0.800960000    -0.1004576    0.7374531  
   0.802959900     0.0196448    0.7403983  
   0.804959800     0.1389457    0.7245708  
   0.806959700     0.2544042    0.6894839  
   0.808959600     0.3628969    0.6361733  
   0.810959500     0.4621402    0.5659418  
   0.812959400     0.5492216    0.4803377  
   0.814959300     0.6214220    0.3811359  
   0.816959200     0.6769312    0.2708802  
   0.818959100     0.7137656    0.1524678  
   0.820959000     0.7308856    0.0294826  
   0.822958900     0.7270895   -0.0953258  
   0.824958800     0.7026504   -0.2179601  
   0.826958700     0.6583865   -0.3349399  
   0.828958600     0.5949677   -0.4430667  
   0.830958500     0.5145090   -0.5390008  
   0.832958400     0.4196655   -0.6200379  
   0.834958300     0.3129995   -0.6843639  
   0.836958200     0.1980155   -0.7295603  
   0.838958100     0.0777352   -0.7553053  
   0.840958000    -0.0448342   -0.7608984  
   0.842957900    -0.1658949   -0.7469983  
   0.844957800    -0.2825931   -0.7137091  
   0.846957700    -0.3915256   -0.6625834  
   0.848957600    -0.4906532   -0.5952784  
   0.850957500    -0.5770600   -0.5135936  
   0.852957400    -0.6496360   -0.4198286  
   0.854957300    -0.7061651   -0.3166048  
   0.856957200    -0.7457914   -0.2067128  
   0.858957100    -0.7681034   -0.0924983  
   0.860957000    -0.7723546    0.0226379  
   0.862956900    -0.7596470    0.1362704  
   0.864956800    -0.7302630    0.2459953  
   0.866956700    -0.6851117    0.3497262  
   0.868956600    -0.6246778    0.4448848  
   0.870956500    -0.5512823    0.5307165  
   0.872956400    -0.4654171    0.6049438  
   0.874956300    -0.3693678    0.6660898  
   0.876956200    -0.2637273    0.7126666  
   0.878956100    -0.1514268    0.7425739  
   0.880956000    -0.0349665    0.7554682  
   0.882955900     0.0833989    0.7499290  
   0.884955800     0.2004759    0.7259659  
   0.886955700     0.3134145    0.6833140  
   0.888955600     0.4194274    0.6226161  
   0.890955500     0.5149715    0.5450287  
   0.892955400     0.5968378    0.4519930  
   0.894955300     0.6635163    0.3461911  
