! MS46122B
! 2250307/22442219
! 7/27/2025 9:21:27 AM
! C:\USERS\SPARKY\DOCUMENTS\VNA_DATA\JULY27_2025\3K\PORT6_MOS2.S1P
! CHANNEL.1
! TR.MEASUREMENT
! RAW.DATA
# GHZ S RI R 50.0
! FREQ.GHZ         S11RE         S11IM         
!; PortSelection: Port_1
   0.001000000     1.0459200   -0.0721779  
   0.002999900     0.9643158   -0.1944284  
   0.004999800     0.9042052   -0.2992677  
   0.006999700     0.8372374   -0.3968243  
   0.008999600     0.7587359   -0.4920984  
   0.010999500     0.6661228   -0.5827209  
   0.012999400     0.5536036   -0.6662394  
   0.014999300     0.4153937   -0.7366420  
   0.016999200     0.2454519   -0.7816056  
   0.018999100     0.0386924   -0.7817317  
   0.020999000    -0.1970233   -0.7042604  
   0.022998900    -0.4263761   -0.5093423  
   0.024998800    -0.5455604   -0.1838166  
   0.026998700    -0.5147664    0.2168341  
   0.028998600    -0.2558554    0.5322254  
   0.030998500     0.0988925    0.6591149  
   0.032998400     0.3929093    0.6033369  
   0.034998300     0.6521839    0.4795854  
   0.036998200     0.7967761    0.3089304  
   0.038998100     0.8751477    0.1372064  
   0.040998000     0.9064015   -0.0223245  
   0.042997900     0.9044781   -0.1656523  
   0.044997800     0.8537785   -0.2669180  
   0.046997700     0.8380069   -0.4030945  
   0.048997600     0.7848979   -0.4996848  
   0.050997500     0.7228174   -0.5830442  
   0.052997400     0.6544673   -0.6545967  
   0.054997300     0.5806796   -0.7155360  
   0.056997200     0.5018904   -0.7674583  
   0.058997100     0.4200009   -0.8094405  
   0.060997000     0.3349050   -0.8427000  
   0.062996900     0.2471986   -0.8666691  
   0.064996800     0.1566949   -0.8810076  
   0.066996700     0.0640009   -0.8863305  
   0.068996600    -0.0299901   -0.8811144  
   0.070996500    -0.1249601   -0.8660918  
   0.072996400    -0.2203873   -0.8383406  
   0.074996300    -0.3147118   -0.7981369  
   0.076996200    -0.4067526   -0.7450038  
   0.078996100    -0.4942109   -0.6774371  
   0.080996000    -0.5755636   -0.5949789  
   0.082995900    -0.6476581   -0.4975388  
   0.084995800    -0.7066111   -0.3852004  
   0.086995700    -0.7505303   -0.2586782  
   0.088995600    -0.7737896   -0.1198254  
   0.090995500    -0.7729319    0.0284388  
   0.092995400    -0.7440115    0.1816899  
   0.094995300    -0.6830126    0.3329628  
   0.096995200    -0.5884663    0.4748746  
   0.098995100    -0.4619080    0.5976195  
   0.100995000    -0.3064443    0.6934968  
   0.102994900    -0.1321345    0.7522336  
   0.104994800     0.0521980    0.7704594  
   0.106994700     0.2350194    0.7457004  
   0.108994600     0.4051163    0.6824914  
   0.110994500     0.5539024    0.5858284  
   0.112994400     0.6746505    0.4630630  
   0.114994300     0.7640328    0.3233050  
   0.116994200     0.8215017    0.1752502  
   0.118994100     0.8484355    0.0256241  
   0.120994000     0.8493345   -0.1200174  
   0.122993900     0.8243902   -0.2569222  
   0.124993800     0.7791227   -0.3821275  
   0.126993700     0.7168084   -0.4941379  
   0.128993600     0.6405829   -0.5904623  
   0.130993500     0.5547537   -0.6723883  
   0.132993400     0.4611449   -0.7394922  
   0.134993300     0.3615166   -0.7914250  
   0.136993200     0.2585397   -0.8285351  
   0.138993100     0.1534203   -0.8516726  
   0.140993000     0.0474371   -0.8605378  
   0.142992900    -0.0579972   -0.8558666  
   0.144992800    -0.1615530   -0.8395117  
   0.146992700    -0.2619340   -0.8088738  
   0.148992600    -0.3585002   -0.7652547  
   0.150992500    -0.4476980   -0.7083662  
   0.152992400    -0.5315219   -0.6407480  
   0.154992300    -0.6065692   -0.5619287  
   0.156992200    -0.6716276   -0.4719190  
   0.158992100    -0.7252179   -0.3717435  
   0.160992000    -0.7652286   -0.2627171  
   0.162991900    -0.7902681   -0.1458340  
   0.164991800    -0.7982005   -0.0231073  
   0.166991700    -0.7872791    0.1024499  
   0.168991600    -0.7562072    0.2288249  
   0.170991500    -0.7035863    0.3526511  
   0.172991400    -0.6293674    0.4690275  
   0.174991300    -0.5342073    0.5743141  
   0.176991200    -0.4189850    0.6636952  
   0.178991100    -0.2865944    0.7329239  
   0.180991000    -0.1412840    0.7785637  
   0.182990900     0.0123371    0.7957083  
   0.184990800     0.1686358    0.7837933  
   0.186990700     0.3206333    0.7419021  
   0.188990600     0.4415038    0.6848677  
   0.190990500     0.5832579    0.5796320  
   0.192990400     0.6894508    0.4615763  
   0.194990300     0.7689271    0.3304006  
   0.196990200     0.8219112    0.1900564  
   0.198990100     0.8483929    0.0455364  
   0.200990000     0.8487502   -0.0985779  
   0.202989900     0.8246963   -0.2370527  
   0.204989800     0.7791929   -0.3659518  
   0.206989700     0.7160541   -0.4831580  
   0.208989600     0.6363128   -0.5850998  
   0.210989500     0.5438141   -0.6718735  
   0.212989400     0.4411446   -0.7420166  
   0.214989300     0.3316701   -0.7947900  
   0.216989200     0.2181423   -0.8302044  
   0.218989100     0.1028636   -0.8487998  
   0.220989000    -0.0124803   -0.8507012  
   0.222988900    -0.1260509   -0.8365262  
   0.224988800    -0.2365406   -0.8066159  
   0.226988700    -0.3402390   -0.7621022  
   0.228988600    -0.4368950   -0.7040877  
   0.230988500    -0.5247334   -0.6330397  
   0.232988400    -0.6011420   -0.5488612  
   0.234988300    -0.6669338   -0.4543895  
   0.236988200    -0.7191968   -0.3503270  
   0.238988100    -0.7559914   -0.2383014  
   0.240988000    -0.7760916   -0.1207149  
   0.242987900    -0.7787864    0.0006368  
   0.244987800    -0.7621703    0.1231349  
   0.246987700    -0.7259911    0.2446471  
   0.248987600    -0.6691913    0.3614746  
   0.250987500    -0.5923519    0.4700655  
   0.252987400    -0.4963036    0.5659096  
   0.254987300    -0.3838540    0.6452600  
   0.256987200    -0.2568214    0.7045285  
   0.258987100    -0.1192364    0.7425703  
   0.260987000     0.0257381    0.7537707  
   0.262986900     0.1722050    0.7379409  
   0.264986800     0.3143916    0.6952322  
   0.266986700     0.4463459    0.6260883  
   0.268986600     0.5629005    0.5341933  
   0.270986500     0.6595752    0.4230535  
   0.272986400     0.7334020    0.2972702  
   0.274986300     0.7825304    0.1620086  
   0.276986200     0.8062484    0.0219946  
   0.278986100     0.8051119   -0.1176166  
   0.280986000     0.7799376   -0.2521937  
   0.282985900     0.7332756   -0.3783751  
   0.284985800     0.6681243   -0.4923329  
   0.286985700     0.5873070   -0.5916784  
   0.288985600     0.4945056   -0.6743545  
   0.290985500     0.3929223   -0.7405704  
   0.292985400     0.2853796   -0.7895719  
   0.294985300     0.1739607   -0.8214189  
   0.296985200     0.0608504   -0.8370572  
   0.298985100    -0.0524907   -0.8368012  
   0.300985000    -0.1631426   -0.8205751  
   0.302984900    -0.2693965   -0.7899241  
   0.304984800    -0.3692414   -0.7454998  
   0.306984700    -0.4614418   -0.6884630  
   0.308984600    -0.5447682   -0.6207264  
   0.310984500    -0.6178300   -0.5429494  
   0.312984400    -0.6804081   -0.4554416  
   0.314984300    -0.7311761   -0.3600270  
   0.316984200    -0.7690929   -0.2571674  
   0.318984100    -0.7928325   -0.1475573  
   0.320984000    -0.8010257   -0.0328007  
   0.322983900    -0.7915199    0.0845407  
   0.324983800    -0.7630923    0.2010833  
   0.326983700    -0.7150681    0.3125179  
   0.328983600    -0.6480443    0.4152257  
   0.330983500    -0.5648792    0.5042028  
   0.332983400    -0.4699750    0.5768635  
   0.334983300    -0.3670368    0.6330879  
   0.336983200    -0.2583845    0.6735977  
   0.338983100    -0.1455801    0.6984816  
   0.340983000    -0.0300029    0.7076116  
   0.342982900     0.0873951    0.7000201  
   0.344982800     0.2044477    0.6743904  
   0.346982700     0.3186849    0.6299551  
   0.348982600     0.4252405    0.5655251  
   0.350982500     0.5219746    0.4842791  
   0.352982400     0.6044670    0.3859692  
   0.354982300     0.6713971    0.2697024  
   0.356982200     0.7189214    0.1298121  
   0.358982100     0.7381221   -0.0169113  
   0.360982000     0.7278099   -0.1645188  
   0.362981900     0.6887450   -0.3069808  
   0.364981800     0.6226542   -0.4391889  
   0.366981700     0.5322835   -0.5553679  
   0.368981600     0.4217469   -0.6513604  
   0.370981500     0.2953032   -0.7236814  
   0.372981400     0.1583083   -0.7704720  
   0.374981300     0.0161161   -0.7904061  
   0.376981200     0.1342269   -0.7772020  
   0.378981100    -0.0063714   -0.7915426  
   0.380981000    -0.1462321   -0.7799603  
   0.382980900    -0.2681424   -0.7479137  
   0.384980800    -0.3774500   -0.6998683  
   0.386980700    -0.4770359   -0.6356650  
   0.388980600    -0.5653077   -0.5574925  
   0.390980500    -0.6399026   -0.4678406  
   0.392980400    -0.6999856   -0.3690644  
   0.394980300    -0.7444424   -0.2630941  
   0.396980200    -0.7725781   -0.1518750  
   0.398980100    -0.7844657   -0.0375057  
   0.400980000    -0.7792016    0.0778173  
   0.402979900    -0.7571442    0.1917690  
   0.404979800    -0.7180061    0.3017694  
   0.406979700    -0.6626384    0.4053838  
   0.408979600    -0.5919102    0.5004931  
   0.410979500    -0.5060266    0.5852408  
   0.412979400    -0.4066911    0.6571985  
   0.414979300    -0.2954585    0.7118323  
   0.416979200    -0.1758732    0.7500526  
   0.418979100    -0.0504530    0.7691796  
   0.420979000     0.0779190    0.7676580  
   0.422978900     0.2058414    0.7449813  
   0.424978800     0.3298016    0.7009649  
   0.426978700     0.4455913    0.6358713  
   0.428978600     0.5496615    0.5519636  
   0.430978500     0.6379997    0.4512966  
   0.432978400     0.7079849    0.3369205  
   0.434978300     0.7586139    0.2124457  
   0.436978200     0.7860637    0.0815089  
   0.438978100     0.7911855   -0.0522179  
   0.440978000     0.7736307   -0.1841475  
   0.442977900     0.7341471   -0.3103758  
   0.444977800     0.6745586   -0.4270045  
   0.446977700     0.5969443   -0.5313866  
   0.448977600     0.5048562   -0.6202870  
   0.450977500     0.4001774   -0.6927720  
   0.452977400     0.2858707   -0.7466003  
   0.454977300     0.1654266   -0.7809128  
   0.456977200     0.0417568   -0.7955946  
   0.458977100    -0.0816106   -0.7903967  
   0.460977000    -0.2010930   -0.7664720  
   0.462976900    -0.3139783   -0.7246193  
   0.464976800    -0.4182129   -0.6660469  
   0.466976700    -0.5119472   -0.5927572  
   0.468976600    -0.5926806   -0.5067167  
   0.470976500    -0.6593376   -0.4097261  
   0.472976400    -0.7101621   -0.3035590  
   0.474976300    -0.7443112   -0.1913186  
   0.476976200    -0.7607204   -0.0751667  
   0.478976100    -0.7593638    0.0422921  
   0.480976000    -0.7399532    0.1580627  
   0.482975900    -0.7025843    0.2694762  
   0.484975800    -0.6482620    0.3749609  
   0.486975700    -0.5772518    0.4715162  
   0.488975600    -0.4909864    0.5564849  
   0.490975500    -0.3910625    0.6267313  
   0.492975400    -0.2798375    0.6804751  
   0.494975300    -0.1599535    0.7152358  
   0.496975200    -0.0348967    0.7291679  
   0.498975100     0.0912773    0.7213109  
   0.500975000     0.2144205    0.6915698  
   0.502974900     0.3301146    0.6409979  
   0.504974800     0.4351009    0.5705543  
   0.506974700     0.5256237    0.4833795  
   0.508974600     0.5987271    0.3819019  
   0.510974500     0.6524051    0.2709173  
   0.512974400     0.6854138    0.1546949  
   0.514974300     0.6966618    0.0379081  
   0.516974200     0.6903048   -0.0762488  
   0.518974100     0.6671596   -0.1846119  
   0.520974000     0.6290579   -0.2857095  
   0.522973900     0.5782628   -0.3784298  
   0.524973800     0.5166296   -0.4611161  
   0.526973700     0.4449666   -0.5347260  
   0.528973600     0.3652350   -0.5976621  
   0.530973500     0.2769395   -0.6497205  
   0.532973400     0.1821251   -0.6897230  
   0.534973300     0.0817002   -0.7166004  
   0.536973200    -0.0237005   -0.7291188  
   0.538973100    -0.1305374   -0.7261313  
   0.540973000    -0.2370826   -0.7061869  
   0.542972900    -0.3409342   -0.6702878  
   0.544972800    -0.4391343   -0.6179133  
   0.546972700    -0.5294843   -0.5493500  
   0.548972600    -0.6087679   -0.4668396  
   0.550972500    -0.6741603   -0.3714374  
   0.552972400    -0.7240618   -0.2660878  
   0.554972300    -0.7565018   -0.1531838  
   0.556972200    -0.7706226   -0.0360621  
   0.558972100    -0.7658240    0.0825118  
   0.560972000    -0.7418544    0.1991099  
   0.562971900    -0.6996372    0.3105856  
   0.564971800    -0.6401001    0.4141518  
   0.566971700    -0.5646909    0.5074386  
   0.568971600    -0.4750232    0.5876998  
   0.570971500    -0.3730834    0.6530412  
   0.572971400    -0.2613905    0.7018027  
   0.574971300    -0.1421304    0.7319234  
   0.576971200    -0.0180542    0.7424077  
   0.578971100     0.1069959    0.7324858  
   0.580971000     0.2293412    0.7016291  
   0.582970900     0.3455938    0.6505608  
   0.584970800     0.4521330    0.5805999  
   0.586970700     0.5454656    0.4936069  
   0.588970600     0.6233106    0.3915438  
   0.590970500     0.6825150    0.2773130  
   0.592970400     0.7217023    0.1549770  
   0.594970300     0.7393894    0.0271794  
   0.596970200     0.7352784   -0.1012699  
   0.598970100     0.7091499   -0.2273478  
   0.600970000     0.6621066   -0.3468917  
   0.602969900     0.5959404   -0.4557479  
   0.604969800     0.5122648   -0.5518941  
   0.606969700     0.4144955   -0.6325067  
   0.608969600     0.3050150   -0.6947472  
   0.610969500     0.1877498   -0.7377654  
   0.612969400     0.0659545   -0.7604569  
   0.614969300    -0.0561169   -0.7633573  
   0.616969200    -0.1758654   -0.7464176  
   0.618969100    -0.2896815   -0.7112610  
   0.620969000    -0.3954350   -0.6594866  
   0.622968900    -0.4913446   -0.5922605  
   0.624968800    -0.5753394   -0.5116987  
   0.626968700    -0.6455739   -0.4197471  
   0.628968600    -0.7010127   -0.3185183  
   0.630968500    -0.7403371   -0.2102211  
   0.632968400    -0.7630131   -0.0976911  
   0.634968300    -0.7682850    0.0171936  
   0.636968200    -0.7564622    0.1312329  
   0.638968100    -0.7275545    0.2426272  
   0.640968000    -0.6820372    0.3489202  
   0.642967900    -0.6208678    0.4474802  
   0.644967800    -0.5451273    0.5357981  
   0.646967700    -0.4562138    0.6127204  
   0.648967600    -0.3562314    0.6749389  
   0.650967500    -0.2471230    0.7213392  
   0.652967400    -0.1315855    0.7507470  
   0.654967300    -0.0114415    0.7618419  
   0.656967200     0.1092483    0.7539391  
   0.658967100     0.2287235    0.7265543  
   0.660967000     0.3432160    0.6799440  
   0.662966900     0.4503256    0.6144444  
   0.664966800     0.5462291    0.5316087  
   0.666966700     0.6281621    0.4325653  
   0.668966600     0.6927277    0.3208180  
   0.670966500     0.7376840    0.1992924  
   0.672966400     0.7632466    0.0719679  
   0.674966300     0.7654796   -0.0576640  
   0.676966200     0.7455816   -0.1853504  
   0.678966100     0.7047564   -0.3072761  
   0.680966000     0.6447026   -0.4201573  
   0.682965900     0.5671165   -0.5210168  
   0.684965800     0.4749304   -0.6067550  
   0.686965700     0.3702823   -0.6754438  
   0.688965600     0.2571729   -0.7260566  
   0.690965500     0.1385412   -0.7560080  
   0.692965400     0.0183465   -0.7679494  
   0.694965300    -0.1010341   -0.7604740  
   0.696965200    -0.2163094   -0.7349036  
   0.698965100    -0.3252678   -0.6920798  
   0.700965000    -0.4253383   -0.6336328  
   0.702964900    -0.5150000   -0.5610497  
   0.704964800    -0.5918853   -0.4763708  
   0.706964700    -0.6547786   -0.3814535  
   0.708964600    -0.7026543   -0.2781182  
   0.710964500    -0.7346289   -0.1695076  
   0.712964400    -0.7493981   -0.0569388  
   0.714964300    -0.7469083    0.0564774  
   0.716964200    -0.7273823    0.1678921  
   0.718964100    -0.6911584    0.2751793  
   0.720964000    -0.6389577    0.3759644  
   0.722963900    -0.5718255    0.4677445  
   0.724963800    -0.4910927    0.5482986  
   0.726963700    -0.3980657    0.6157923  
   0.728963600    -0.2949028    0.6683400  
   0.730963500    -0.1836684    0.7030516  
   0.732963400    -0.0681130    0.7202834  
   0.734963300     0.0498972    0.7183132  
   0.736963200     0.1835867    0.6926323  
   0.738963100     0.3110209    0.6417680  
   0.740963000     0.4269271    0.5681385  
   0.742962900     0.5265803    0.4741570  
   0.744962800     0.6066231    0.3634979  
   0.746962700     0.6642656    0.2400351  
   0.748962600     0.6974587    0.1089014  
   0.750962500     0.6586943    0.2132189  
   0.752962400     0.6876338    0.0835207  
   0.754962300     0.6924946   -0.0483843  
   0.756962200     0.6734859   -0.1782774  
   0.758962100     0.6316494   -0.3013791  
   0.760962000     0.5689094   -0.4146033  
   0.762961900     0.4913234   -0.5100452  
   0.764961800     0.4077957   -0.5845920  
   0.766961700     0.3137245   -0.6455234  
   0.768961600     0.2115119   -0.6911927  
   0.770961500     0.1036573   -0.7209610  
   0.772961400    -0.0076120   -0.7339320  
   0.774961300    -0.1197176   -0.7297617  
   0.776961200    -0.2302558   -0.7082765  
   0.778961100    -0.3366795   -0.6700294  
   0.780961000    -0.4363200   -0.6151401  
   0.782960900    -0.5263019   -0.5451229  
   0.784960800    -0.6048590   -0.4614157  
   0.786960700    -0.6693264   -0.3659911  
   0.788960600    -0.7181460   -0.2613898  
   0.790960500    -0.7498690   -0.1501629  
   0.792960400    -0.7639095   -0.0356561  
   0.794960300    -0.7594490    0.0800630  
   0.796960200    -0.7370763    0.1935792  
   0.798960100    -0.6973138    0.3018140  
   0.800960000    -0.6411911    0.4026174  
   0.802959900    -0.5700221    0.4939239  
   0.804959800    -0.4853136    0.5724983  
   0.806959700    -0.3893838    0.6376501  
   0.808959600    -0.2842763    0.6866549  
   0.810959500    -0.1728097    0.7188170  
   0.812959400    -0.0567150    0.7333610  
   0.814959300     0.0605485    0.7295545  
   0.816959200     0.1763299    0.7072624  
   0.818959100     0.2877309    0.6664231  
   0.820959000     0.3915808    0.6082150  
   0.822958900     0.4855914    0.5336402  
   0.824958800     0.5665191    0.4445007  
   0.826958700     0.6325317    0.3425707  
   0.828958600     0.6811905    0.2305855  
   0.830958500     0.7109026    0.1121782  
   0.832958400     0.7204618   -0.0101784  
   0.834958300     0.7097940   -0.1321367  
   0.836958200     0.6790998   -0.2506806  
   0.838958100     0.6290577   -0.3628387  
   0.840958000     0.5611318   -0.4652957  
   0.842957900     0.4773200   -0.5549364  
   0.844957800     0.3800780   -0.6294343  
   0.846957700     0.2721398   -0.6862649  
   0.848957600     0.1569022   -0.7247012  
   0.850957500     0.0373746   -0.7434012  
   0.852957400    -0.0828838   -0.7427241  
   0.854957300    -0.2008882   -0.7225002  
   0.856957200    -0.3128830   -0.6839856  
   0.858957100    -0.4168178   -0.6284776  
   0.860957000    -0.5095347   -0.5582516  
   0.862956900    -0.5896115   -0.4754753  
   0.864956800    -0.6552826   -0.3821482  
   0.866956700    -0.7053922   -0.2810182  
   0.868956600    -0.7390178   -0.1744896  
   0.870956500    -0.7569349   -0.0645272  
   0.872956400    -0.7578599    0.0463545  
   0.874956300    -0.7425069    0.1560728  
   0.876956200    -0.7108766    0.2626300  
   0.878956100    -0.6639128    0.3631693  
   0.880956000    -0.6023287    0.4562125  
   0.882955900    -0.5273576    0.5392718  
   0.884955800    -0.4405636    0.6106898  
   0.886955700    -0.3432893    0.6685704  
   0.888955600    -0.2380527    0.7112046  
   0.890955500    -0.1270238    0.7377983  
   0.892955400    -0.0122118    0.7470072  
   0.894955300     0.1036481    0.7384558  
