! MS46122B
! 2250307/22442219
! 7/25/2025 1:45:06 PM
! C:\USERS\SPARKY\DOCUMENTS\VNA_DATA\JULY25_2025\3K\PORT2_MOS5_REPEAT1.S1P
! CHANNEL.1
! TR.MEASUREMENT
! RAW.DATA
# GHZ S RI R 50.0
! FREQ.GHZ         S11RE         S11IM         
!; PortSelection: Port_1
   0.001000000     1.0449230   -0.0717920  
   0.002999900     0.9634041   -0.1942586  
   0.004999800     0.9032068   -0.2993261  
   0.006999700     0.8357382   -0.3970470  
   0.008999600     0.7569731   -0.4925564  
   0.010999500     0.6635340   -0.5835760  
   0.012999400     0.5497003   -0.6673212  
   0.014999300     0.4092734   -0.7376669  
   0.016999200     0.2360205   -0.7815985  
   0.018999100     0.0245521   -0.7786816  
   0.020999000    -0.2162909   -0.6935574  
   0.022998900    -0.4468207   -0.4838926  
   0.024998800    -0.5556366   -0.1407320  
   0.026998700    -0.4966768    0.2710365  
   0.028998600    -0.2074159    0.5731040  
   0.030998500     0.1603124    0.6720325  
   0.032998400     0.4475630    0.5920153  
   0.034998300     0.6952524    0.4513630  
   0.036998200     0.8266674    0.2733126  
   0.038998100     0.8930735    0.0994775  
   0.040998000     0.9150333   -0.0598858  
   0.042997900     0.9054211   -0.2015177  
   0.044997800     0.8494992   -0.2990883  
   0.046997700     0.8281723   -0.4338529  
   0.048997600     0.7708189   -0.5274655  
   0.050997500     0.7054152   -0.6079414  
   0.052997400     0.6339387   -0.6767753  
   0.054997300     0.5579320   -0.7343016  
   0.056997200     0.4761733   -0.7834938  
   0.058997100     0.3919529   -0.8224307  
   0.060997000     0.3047132   -0.8524303  
   0.062996900     0.2148732   -0.8727457  
   0.064996800     0.1223813   -0.8834578  
   0.066996700     0.0282153   -0.8842779  
   0.068996600    -0.0671952   -0.8744534  
   0.070996500    -0.1637456   -0.8541242  
   0.072996400    -0.2594306   -0.8204859  
   0.074996300    -0.3537566   -0.7741906  
   0.076996200    -0.4451804   -0.7138436  
   0.078996100    -0.5306090   -0.6384496  
   0.080996000    -0.6089769   -0.5477622  
   0.082995900    -0.6761169   -0.4414859  
   0.084995800    -0.7279134   -0.3201694  
   0.086995700    -0.7621441   -0.1852854  
   0.088995600    -0.7733208   -0.0388402  
   0.090995500    -0.7567354    0.1146626  
   0.092995400    -0.7098178    0.2704401  
   0.094995300    -0.6279726    0.4199298  
   0.096995200    -0.5124222    0.5536140  
   0.098995100    -0.3656177    0.6628630  
   0.100995000    -0.1932559    0.7381351  
   0.102994900    -0.0078120    0.7717065  
   0.104994800     0.1806854    0.7618452  
   0.106994700     0.3596442    0.7087929  
   0.108994600     0.5190347    0.6197115  
   0.110994500     0.6508238    0.5010606  
   0.112994400     0.7507770    0.3619717  
   0.114994300     0.8174289    0.2119706  
   0.116994200     0.8516693    0.0589550  
   0.118994100     0.8562964   -0.0908024  
   0.120994000     0.8371086   -0.2327258  
   0.122993900     0.7942529   -0.3626263  
   0.124993800     0.7333075   -0.4785720  
   0.126993700     0.6583298   -0.5799698  
   0.128993600     0.5710108   -0.6645118  
   0.130993500     0.4766340   -0.7342740  
   0.132993400     0.3760131   -0.7883174  
   0.134993300     0.2715846   -0.8274325  
   0.136993200     0.1651080   -0.8517719  
   0.138993100     0.0575352   -0.8617160  
   0.140993000    -0.0490867   -0.8578037  
   0.142992900    -0.1537695   -0.8398432  
   0.144992800    -0.2558562   -0.8107062  
   0.146992700    -0.3531061   -0.7669564  
   0.148992600    -0.4449975   -0.7105941  
   0.150992500    -0.5283584   -0.6411454  
   0.152992400    -0.6043430   -0.5610852  
   0.154992300    -0.6697628   -0.4702265  
   0.156992200    -0.7236295   -0.3682417  
   0.158992100    -0.7636156   -0.2579516  
   0.160992000    -0.7881777   -0.1391702  
   0.162991900    -0.7951388   -0.0151378  
   0.164991800    -0.7826552    0.1128967  
   0.166991700    -0.7494193    0.2408482  
   0.168991600    -0.6943295    0.3655392  
   0.170991500    -0.6162201    0.4832310  
   0.172991400    -0.5168468    0.5886856  
   0.174991300    -0.3970942    0.6768653  
   0.176991200    -0.2601125    0.7439781  
   0.178991100    -0.1095977    0.7849571  
   0.180991000     0.0480848    0.7980656  
   0.182990900     0.2069029    0.7795911  
   0.184990800     0.3603934    0.7306144  
   0.186990700     0.5017028    0.6524290  
   0.188990600     0.6072375    0.5661135  
   0.190990500     0.7209320    0.4280482  
   0.192990400     0.7957056    0.2869684  
   0.194990300     0.8411209    0.1405660  
   0.196990200     0.8584773   -0.0081374  
   0.198990100     0.8489926   -0.1534379  
   0.200990000     0.8151625   -0.2919258  
   0.202989900     0.7600855   -0.4195089  
   0.204989800     0.6864544   -0.5325770  
   0.206989700     0.5991791   -0.6306615  
   0.208989600     0.4993832   -0.7105424  
   0.210989500     0.3908861   -0.7731317  
   0.212989400     0.2760701   -0.8178254  
   0.214989300     0.1583668   -0.8444028  
   0.216989200     0.0403319   -0.8537267  
   0.218989100    -0.0759589   -0.8460186  
   0.220989000    -0.1892363   -0.8221188  
   0.222988900    -0.2978601   -0.7822378  
   0.224988800    -0.3994709   -0.7278442  
   0.226988700    -0.4923431   -0.6599376  
   0.228988600    -0.5748060   -0.5793912  
   0.230988500    -0.6452578   -0.4875239  
   0.232988400    -0.7015796   -0.3844255  
   0.234988300    -0.7440698   -0.2731869  
   0.236988200    -0.7697936   -0.1544922  
   0.238988100    -0.7776615   -0.0316140  
   0.240988000    -0.7661766    0.0930821  
   0.242987900    -0.7346049    0.2169002  
   0.244987800    -0.6824214    0.3366330  
   0.246987700    -0.6092883    0.4488610  
   0.248987600    -0.5162065    0.5499470  
   0.250987500    -0.4039656    0.6351152  
   0.252987400    -0.2764750    0.7001023  
   0.254987300    -0.1373325    0.7418641  
   0.256987200     0.0090545    0.7578098  
   0.258987100     0.1582771    0.7474457  
   0.260987000     0.3041298    0.7076383  
   0.262986900     0.4408363    0.6405855  
   0.264986800     0.5623288    0.5485713  
   0.266986700     0.6639439    0.4357667  
   0.268986600     0.7417464    0.3072513  
   0.270986500     0.7935097    0.1687644  
   0.272986400     0.8186626    0.0257563  
   0.274986300     0.8180616   -0.1170943  
   0.276986200     0.7928342   -0.2548380  
   0.278986100     0.7448765   -0.3834920  
   0.280986000     0.6779431   -0.4999391  
   0.282985900     0.5946125   -0.6013206  
   0.284985800     0.4981243   -0.6861131  
   0.286985700     0.3925039   -0.7532631  
   0.288985600     0.2811502   -0.8018243  
   0.290985500     0.1664182   -0.8327574  
   0.292985400     0.0510472   -0.8462988  
   0.294985300    -0.0634454   -0.8438815  
   0.296985200    -0.1753759   -0.8252841  
   0.298985100    -0.2831802   -0.7915189  
   0.300985000    -0.3848331   -0.7433963  
   0.302984900    -0.4781192   -0.6821462  
   0.304984800    -0.5622754   -0.6093355  
   0.306984700    -0.6353827   -0.5255946  
   0.308984600    -0.6963343   -0.4329338  
   0.310984500    -0.7443488   -0.3325480  
   0.312984400    -0.7782643   -0.2246783  
   0.314984300    -0.7969360   -0.1115727  
   0.316984200    -0.7988332    0.0056377  
   0.318984100    -0.7823616    0.1249195  
   0.320984000    -0.7457805    0.2433219  
   0.322983900    -0.6883597    0.3557858  
   0.324983800    -0.6106424    0.4573028  
   0.326983700    -0.5159099    0.5427423  
   0.328983600    -0.4083756    0.6084636  
   0.330983500    -0.2950378    0.6530454  
   0.332983400    -0.1801758    0.6784142  
   0.334983300    -0.0665254    0.6873816  
   0.336983200     0.0461711    0.6818702  
   0.338983100     0.1574720    0.6618145  
   0.340983000     0.2668651    0.6264442  
   0.342982900     0.3722601    0.5745935  
   0.344982800     0.4713234    0.5049156  
   0.346982700     0.5596998    0.4173407  
   0.348982600     0.6325976    0.3135687  
   0.350982500     0.6882251    0.1973426  
   0.352982400     0.7227783    0.0711039  
   0.354982300     0.7337718   -0.0651742  
   0.356982200     0.7155744   -0.2144023  
   0.358982100     0.6677086   -0.3566873  
   0.360982000     0.5925472   -0.4861647  
   0.362981900     0.4934127   -0.5977373  
   0.364981800     0.3744513   -0.6872594  
   0.366981700     0.2412829   -0.7513622  
   0.368981600     0.0991196   -0.7878136  
   0.370981500    -0.0461697   -0.7964795  
   0.372981400    -0.1889151   -0.7777948  
   0.374981300    -0.3252124   -0.7324965  
   0.376981200    -0.2080254   -0.7729384  
   0.378981100    -0.3414170   -0.7250876  
   0.380981000    -0.4627421   -0.6539209  
   0.382980900    -0.5594907   -0.5717336  
   0.384980800    -0.6374524   -0.4806674  
   0.386980700    -0.7009655   -0.3786200  
   0.388980600    -0.7478858   -0.2683264  
   0.390980500    -0.7771537   -0.1527366  
   0.392980400    -0.7890089   -0.0346186  
   0.394980300    -0.7828178    0.0837406  
   0.396980200    -0.7590531    0.2005968  
   0.398980100    -0.7175556    0.3134062  
   0.400980000    -0.6589127    0.4192230  
   0.402979900    -0.5839242    0.5163385  
   0.404979800    -0.4942231    0.6012771  
   0.406979700    -0.3912213    0.6723796  
   0.408979600    -0.2766075    0.7266465  
   0.410979500    -0.1529900    0.7626861  
   0.412979400    -0.0225170    0.7784706  
   0.414979300     0.1102908    0.7713920  
   0.416979200     0.2417488    0.7431390  
   0.418979100     0.3677622    0.6925501  
   0.420979000     0.4843795    0.6203328  
   0.422978900     0.5878670    0.5282118  
   0.424978800     0.6742415    0.4187637  
   0.426978700     0.7403955    0.2951580  
   0.428978600     0.7837855    0.1618349  
   0.430978500     0.8030601    0.0233715  
   0.432978400     0.7976834   -0.1151925  
   0.434978300     0.7697762   -0.2506555  
   0.436978200     0.7180358   -0.3775800  
   0.438978100     0.6459280   -0.4925493  
   0.440978000     0.5561812   -0.5930417  
   0.442977900     0.4519675   -0.6758853  
   0.444977800     0.3368800   -0.7392592  
   0.446977700     0.2144055   -0.7822224  
   0.448977600     0.0883152   -0.8041531  
   0.450977500    -0.0382623   -0.8055928  
   0.452977400    -0.1624588   -0.7868105  
   0.454977300    -0.2814249   -0.7490866  
   0.456977200    -0.3923325   -0.6932673  
   0.458977100    -0.4928021   -0.6210064  
   0.460977000    -0.5794615   -0.5347436  
   0.462976900    -0.6514450   -0.4367147  
   0.464976800    -0.7075598   -0.3290205  
   0.466976700    -0.7457738   -0.2141793  
   0.468976600    -0.7659740   -0.0948081  
   0.470976500    -0.7673451    0.0267799  
   0.472976400    -0.7498326    0.1473312  
   0.474976300    -0.7126943    0.2643150  
   0.476976200    -0.6577106    0.3745416  
   0.478976100    -0.5850942    0.4753110  
   0.480976000    -0.4971884    0.5633397  
   0.482975900    -0.3950263    0.6365417  
   0.484975800    -0.2812406    0.6924672  
   0.486975700    -0.1582258    0.7290634  
   0.488975600    -0.0297037    0.7447169  
   0.490975500     0.1007200    0.7377415  
   0.492975400     0.2292319    0.7078595  
   0.494975300     0.3508741    0.6558793  
   0.496975200     0.4617988    0.5826017  
   0.498975100     0.5573295    0.4912471  
   0.500975000     0.6345416    0.3847263  
   0.502974900     0.6912707    0.2673129  
   0.504974800     0.7258813    0.1430354  
   0.506974700     0.7378648    0.0162138  
   0.508974600     0.7278953   -0.1091447  
   0.510974500     0.6974738   -0.2285061  
   0.512974400     0.6489502   -0.3384409  
   0.514974300     0.5844402   -0.4352770  
   0.516974200     0.5089472   -0.5198126  
   0.518974100     0.4238071   -0.5907398  
   0.520974000     0.3319774   -0.6475970  
   0.522973900     0.2342501   -0.6908465  
   0.524973800     0.1327346   -0.7198583  
   0.526973700     0.0280528   -0.7357410  
   0.528973600    -0.0782110   -0.7369945  
   0.530973500    -0.1852341   -0.7239121  
   0.532973400    -0.2902459   -0.6946499  
   0.534973300    -0.3920423   -0.6496903  
   0.536973200    -0.4872977   -0.5889325  
   0.538973100    -0.5730130   -0.5129542  
   0.540973000    -0.6466210   -0.4236253  
   0.542972900    -0.7055127   -0.3220850  
   0.544972800    -0.7476916   -0.2110998  
   0.546972700    -0.7717021   -0.0934092  
   0.548972600    -0.7762542    0.0277072  
   0.550972500    -0.7608011    0.1488079  
   0.552972400    -0.7253813    0.2668292  
   0.554972300    -0.6709619    0.3778558  
   0.556972200    -0.5987059    0.4792342  
   0.558972100    -0.5103319    0.5677988  
   0.560972000    -0.4082947    0.6409955  
   0.562971900    -0.2951838    0.6968244  
   0.564971800    -0.1742526    0.7335188  
   0.566971700    -0.0482565    0.7498964  
   0.568971600     0.0792952    0.7451953  
   0.570971500     0.2050854    0.7196048  
   0.572971400     0.3257627    0.6727566  
   0.574971300     0.4378192    0.6056680  
   0.576971200     0.5378950    0.5198981  
   0.578971100     0.6222889    0.4174930  
   0.580971000     0.6879143    0.3016087  
   0.582970900     0.7324645    0.1762484  
   0.584970800     0.7550107    0.0449900  
   0.586970700     0.7544035   -0.0876813  
   0.588970600     0.7312365   -0.2178553  
   0.590970500     0.6859438   -0.3417910  
   0.592970400     0.6205599   -0.4557230  
   0.594970300     0.5372097   -0.5562009  
   0.596970200     0.4385345   -0.6408291  
   0.598970100     0.3281111   -0.7070459  
   0.600970000     0.2091594   -0.7532167  
   0.602969900     0.0849654   -0.7791913  
   0.604969800    -0.0409120   -0.7845989  
   0.606969700    -0.1645245   -0.7698983  
   0.608969600    -0.2838691   -0.7351177  
   0.610969500    -0.3950032   -0.6826803  
   0.612969400    -0.4954320   -0.6138133  
   0.614969300    -0.5830175   -0.5310838  
   0.616969200    -0.6559558   -0.4367467  
   0.618969100    -0.7131820   -0.3331934  
   0.620969000    -0.7537376   -0.2231350  
   0.622968900    -0.7775826   -0.1086854  
   0.624968800    -0.7837701    0.0081599  
   0.626968700    -0.7726259    0.1248530  
   0.628968600    -0.7439448    0.2390417  
   0.630968500    -0.6985680    0.3477778  
   0.632968400    -0.6365803    0.4490927  
   0.634968300    -0.5597284    0.5406668  
   0.636968200    -0.4692583    0.6198727  
   0.638968100    -0.3668725    0.6848001  
   0.640968000    -0.2548050    0.7334515  
   0.642967900    -0.1347784    0.7643507  
   0.644967800    -0.0109893    0.7760260  
   0.646967700     0.1148138    0.7679405  
   0.648967600     0.2386145    0.7393774  
   0.650967500     0.3566974    0.6909259  
   0.652967400     0.4662676    0.6232697  
   0.654967300     0.5639102    0.5381019  
   0.656967200     0.6464754    0.4375468  
   0.658967100     0.7112166    0.3240386  
   0.660967000     0.7567006    0.1998284  
   0.662966900     0.7806445    0.0692656  
   0.664966800     0.7823343   -0.0644435  
   0.666966700     0.7608434   -0.1966178  
   0.668966600     0.7172863   -0.3229444  
   0.670966500     0.6529508   -0.4398555  
   0.672966400     0.5714099   -0.5443287  
   0.674966300     0.4733931   -0.6313553  
   0.676966200     0.3633625   -0.7002497  
   0.678966100     0.2447798   -0.7492154  
   0.680966000     0.1213494   -0.7777542  
   0.682965900    -0.0037047   -0.7856588  
   0.684965800    -0.1270341   -0.7737469  
   0.686965700    -0.2453078   -0.7426549  
   0.688965600    -0.3564353   -0.6936865  
   0.690965500    -0.4566227   -0.6281306  
   0.692965400    -0.5453175   -0.5494594  
   0.694965300    -0.6200539   -0.4589725  
   0.696965200    -0.6797388   -0.3591880  
   0.698965100    -0.7235916   -0.2515489  
   0.700965000    -0.7506775   -0.1388681  
   0.702964900    -0.7602920   -0.0235851  
   0.704964800    -0.7525690    0.0921630  
   0.706964700    -0.7270379    0.2051151  
   0.708964600    -0.6839266    0.3139000  
   0.710964500    -0.6252731    0.4154395  
   0.712964400    -0.5501981    0.5070288  
   0.714964300    -0.4610086    0.5859228  
   0.716964200    -0.3600785    0.6503139  
   0.718964100    -0.2499241    0.6975858  
   0.720964000    -0.1330093    0.7267657  
   0.722963900    -0.0123515    0.7367322  
   0.724963800     0.1091545    0.7267123  
   0.726963700     0.2274080    0.6965931  
   0.728963600     0.3399676    0.6470166  
   0.730963500     0.4423310    0.5784245  
   0.732963400     0.5316663    0.4944169  
   0.734963300     0.6064180    0.3964645  
   0.736963200     0.6708797    0.2715085  
   0.738963100     0.7105917    0.1366598  
   0.740963000     0.7240694   -0.0023548  
   0.742962900     0.7111487   -0.1397908  
   0.744962800     0.6732901   -0.2714777  
   0.746962700     0.6122351   -0.3927730  
   0.748962600     0.5310341   -0.4996773  
   0.750962500     0.5891994   -0.4129103  
   0.752962400     0.5061693   -0.5170245  
   0.754962300     0.4068744   -0.6035059  
   0.756962200     0.2942379   -0.6708282  
   0.758962100     0.1718293   -0.7166220  
   0.760962000     0.0437695   -0.7400944  
   0.762961900    -0.0802435   -0.7413833  
   0.764961800    -0.1929064   -0.7249404  
   0.766961700    -0.3016085   -0.6914241  
   0.768961600    -0.4043892   -0.6413254  
   0.770961500    -0.4985593   -0.5759492  
   0.772961400    -0.5816575   -0.4965709  
   0.774961300    -0.6511240   -0.4050914  
   0.776961200    -0.7060463   -0.3033903  
   0.778961100    -0.7440978   -0.1941219  
   0.780961000    -0.7647563   -0.0798272  
   0.782960900    -0.7671918    0.0370769  
   0.784960800    -0.7507820    0.1535066  
   0.786960700    -0.7158911    0.2661148  
   0.788960600    -0.6635540    0.3722651  
   0.790960500    -0.5949292    0.4690682  
   0.792960400    -0.5118352    0.5533823  
   0.794960300    -0.4162431    0.6237396  
   0.796960200    -0.3106007    0.6783751  
   0.798960100    -0.1974484    0.7156794  
   0.800960000    -0.0800577    0.7342708  
   0.802959900     0.0395079    0.7342306  
   0.804959800     0.1578643    0.7154170  
   0.806959700     0.2718305    0.6775359  
   0.808959600     0.3788583    0.6218131  
   0.810959500     0.4755623    0.5494061  
   0.812959400     0.5602201    0.4619634  
   0.814959300     0.6297716    0.3612137  
   0.816959200     0.6823450    0.2499607  
   0.818959100     0.7160716    0.1309765  
   0.820959000     0.7299536    0.0078652  
   0.822958900     0.7228989   -0.1166663  
   0.824958800     0.6953053   -0.2382989  
   0.826958700     0.6479812   -0.3539195  
   0.828958600     0.5816545   -0.4600803  
   0.830958500     0.4988791   -0.5534874  
   0.832958400     0.4019040   -0.6319419  
   0.834958300     0.2938555   -0.6929659  
   0.836958200     0.1778604   -0.7347772  
   0.838958100     0.0568830   -0.7570994  
   0.840958000    -0.0653610   -0.7593485  
   0.842957900    -0.1857138   -0.7417968  
   0.844957800    -0.3010978   -0.7052128  
   0.846957700    -0.4082067   -0.6511731  
   0.848957600    -0.5050828   -0.5812040  
   0.850957500    -0.5887176   -0.4971436  
   0.852957400    -0.6582660   -0.4017692  
   0.854957300    -0.7115309   -0.2973056  
   0.856957200    -0.7478217   -0.1864153  
   0.858957100    -0.7666913   -0.0722989  
   0.860957000    -0.7677075    0.0425747  
   0.862956900    -0.7516103    0.1550521  
   0.864956800    -0.7193174    0.2634534  
   0.866956700    -0.6713454    0.3654596  
   0.868956600    -0.6084847    0.4586719  
   0.870956500    -0.5328526    0.5419269  
   0.872956400    -0.4452937    0.6134497  
   0.874956300    -0.3477506    0.6715375  
   0.876956200    -0.2409757    0.7146720  
   0.878956100    -0.1283980    0.7411771  
   0.880956000    -0.0118396    0.7505597  
   0.882955900     0.1056425    0.7415803  
   0.884955800     0.2217451    0.7141440  
   0.886955700     0.3329941    0.6684304  
   0.888955600     0.4366397    0.6048106  
   0.890955500     0.5293983    0.5244785  
   0.892955400     0.6084073    0.4295728  
   0.894955300     0.6714600    0.3218149  
