! MS46122B
! 2250307/22442219
! 7/27/2025 9:24:35 AM
! C:\USERS\SPARKY\DOCUMENTS\VNA_DATA\JULY27_2025\3K\PORT1_MOS3_REPEAT1.S1P
! CHANNEL.1
! TR.MEASUREMENT
! RAW.DATA
# GHZ S RI R 50.0
! FREQ.GHZ         S11RE         S11IM         
!; PortSelection: Port_1
   0.001000000     1.0459660   -0.0722403  
   0.002999900     0.9643461   -0.1944893  
   0.004999800     0.9043418   -0.2994238  
   0.006999700     0.8371947   -0.3970312  
   0.008999600     0.7588913   -0.4924634  
   0.010999500     0.6662089   -0.5833387  
   0.012999400     0.5535182   -0.6672691  
   0.014999300     0.4148633   -0.7380813  
   0.016999200     0.2440629   -0.7835198  
   0.018999100     0.0357575   -0.7839589  
   0.020999000    -0.2024374   -0.7056928  
   0.022998900    -0.4345373   -0.5077731  
   0.024998800    -0.5541699   -0.1766122  
   0.026998700    -0.5186590    0.2309137  
   0.028998600    -0.2507657    0.5474938  
   0.030998500     0.1110221    0.6697032  
   0.032998400     0.4066701    0.6071063  
   0.034998300     0.6652370    0.4777761  
   0.036998200     0.8073305    0.3036914  
   0.038998100     0.8830050    0.1302273  
   0.040998000     0.9118878   -0.0301693  
   0.042997900     0.9079682   -0.1737771  
   0.044997800     0.8556381   -0.2746993  
   0.046997700     0.8385050   -0.4109831  
   0.048997600     0.7841537   -0.5071349  
   0.050997500     0.7210791   -0.5900874  
   0.052997400     0.6518562   -0.6612373  
   0.054997300     0.5773195   -0.7215443  
   0.056997200     0.4977171   -0.7730871  
   0.058997100     0.4151946   -0.8145673  
   0.060997000     0.3293459   -0.8473361  
   0.062996900     0.2409560   -0.8706889  
   0.064996800     0.1497989   -0.8844011  
   0.066996700     0.0565183   -0.8889317  
   0.068996600    -0.0380787   -0.8828412  
   0.070996500    -0.1336650   -0.8668480  
   0.072996400    -0.2295683   -0.8380457  
   0.074996300    -0.3244324   -0.7965594  
   0.076996200    -0.4168758   -0.7418092  
   0.078996100    -0.5044320   -0.6725280  
   0.080996000    -0.5857896   -0.5880995  
   0.082995900    -0.6573741   -0.4884745  
   0.084995800    -0.7154769   -0.3737388  
   0.086995700    -0.7579409   -0.2448986  
   0.088995600    -0.7791954   -0.1035365  
   0.090995500    -0.7753676    0.0467983  
   0.092995400    -0.7428464    0.2017221  
   0.094995300    -0.6770300    0.3539681  
   0.096995200    -0.5776564    0.4954109  
   0.098995100    -0.4459783    0.6164984  
   0.100995000    -0.2857299    0.7088552  
   0.102994900    -0.1074629    0.7629657  
   0.104994800     0.0794666    0.7754961  
   0.106994700     0.2626808    0.7441715  
   0.108994600     0.4320774    0.6748163  
   0.110994500     0.5783540    0.5724561  
   0.112994400     0.6954553    0.4449017  
   0.114994300     0.7803453    0.3018815  
   0.116994200     0.8329655    0.1515263  
   0.118994100     0.8550037    0.0008825  
   0.120994000     0.8513911   -0.1445698  
   0.122993900     0.8221945   -0.2811080  
   0.124993800     0.7731475   -0.4048583  
   0.126993700     0.7076527   -0.5149843  
   0.128993600     0.6287295   -0.6092190  
   0.130993500     0.5405385   -0.6890792  
   0.132993400     0.4450300   -0.7534893  
   0.134993300     0.3440418   -0.8027823  
   0.136993200     0.2396886   -0.8374177  
   0.138993100     0.1332883   -0.8580037  
   0.140993000     0.0270281   -0.8640674  
   0.142992900    -0.0790340   -0.8570096  
   0.144992800    -0.1826517   -0.8378456  
   0.146992700    -0.2828757   -0.8043373  
   0.148992600    -0.3788753   -0.7579753  
   0.150992500    -0.4675007   -0.6982766  
   0.152992400    -0.5503407   -0.6277533  
   0.154992300    -0.6238907   -0.5461173  
   0.156992200    -0.6871730   -0.4531240  
   0.158992100    -0.7385641   -0.3503867  
   0.160992000    -0.7759988   -0.2384358  
   0.162991900    -0.7974213   -0.1195450  
   0.164991800    -0.8014338    0.0051440  
   0.166991700    -0.7862901    0.1322359  
   0.168991600    -0.7499655    0.2593379  
   0.170991500    -0.6918483    0.3831826  
   0.172991400    -0.6119949    0.4983029  
   0.174991300    -0.5110314    0.6012646  
   0.176991200    -0.3899496    0.6869891  
   0.178991100    -0.2527811    0.7513226  
   0.180991000    -0.1034204    0.7907135  
   0.182990900     0.0529807    0.8005782  
   0.184990800     0.2104236    0.7806047  
   0.186990700     0.3617063    0.7308267  
   0.188990600     0.4805962    0.6668556  
   0.190990500     0.6179495    0.5534194  
   0.192990400     0.7184965    0.4292166  
   0.194990300     0.7911536    0.2935131  
   0.196990200     0.8373064    0.1497142  
   0.198990100     0.8557706    0.0037611  
   0.200990000     0.8488759   -0.1406105  
   0.202989900     0.8176916   -0.2778489  
   0.204989800     0.7657967   -0.4047485  
   0.206989700     0.6967608   -0.5185799  
   0.208989600     0.6119425   -0.6169007  
   0.210989500     0.5152290   -0.6987690  
   0.212989400     0.4090588   -0.7642164  
   0.214989300     0.2969094   -0.8117442  
   0.216989200     0.1816535   -0.8417735  
   0.218989100     0.0653385   -0.8550142  
   0.220989000    -0.0505584   -0.8515863  
   0.222988900    -0.1639356   -0.8318908  
   0.224988800    -0.2733259   -0.7965894  
   0.226988700    -0.3759738   -0.7470549  
   0.228988600    -0.4703385   -0.6839753  
   0.230988500    -0.5555866   -0.6079209  
   0.232988400    -0.6288135   -0.5193008  
   0.234988300    -0.6903085   -0.4204941  
   0.236988200    -0.7378277   -0.3125334  
   0.238988100    -0.7691280   -0.1969784  
   0.240988000    -0.7833922   -0.0766830  
   0.242987900    -0.7791153    0.0462501  
   0.244987800    -0.7553573    0.1699096  
   0.246987700    -0.7112812    0.2909525  
   0.248987600    -0.6463880    0.4062562  
   0.250987500    -0.5614073    0.5118206  
   0.252987400    -0.4576662    0.6026748  
   0.254987300    -0.3382286    0.6755948  
   0.256987200    -0.2050916    0.7269783  
   0.258987100    -0.0628073    0.7556256  
   0.260987000     0.0848640    0.7564202  
   0.262986900     0.2315898    0.7297879  
   0.264986800     0.3716978    0.6756943  
   0.266986700     0.4997070    0.5959973  
   0.268986600     0.6096075    0.4945340  
   0.270986500     0.6980591    0.3757771  
   0.272986400     0.7623256    0.2439238  
   0.274986300     0.8012964    0.1047813  
   0.276986200     0.8146877   -0.0368870  
   0.278986100     0.8030904   -0.1762162  
   0.280986000     0.7679784   -0.3085580  
   0.282985900     0.7126653   -0.4308732  
   0.284985800     0.6396599   -0.5398870  
   0.286985700     0.5523136   -0.6331891  
   0.288985600     0.4544393   -0.7096370  
   0.290985500     0.3488299   -0.7686298  
   0.292985400     0.2384290   -0.8105252  
   0.294985300     0.1249233   -0.8353125  
   0.296985200     0.0108754   -0.8438911  
   0.298985100    -0.1022123   -0.8363725  
   0.300985000    -0.2122598   -0.8132421  
   0.302984900    -0.3168126   -0.7760041  
   0.304984800    -0.4144455   -0.7251909  
   0.306984700    -0.5039993   -0.6621528  
   0.308984600    -0.5834407   -0.5886207  
   0.310984500    -0.6523232   -0.5052571  
   0.312984400    -0.7101041   -0.4127773  
   0.314984300    -0.7551170   -0.3125913  
   0.316984200    -0.7866148   -0.2056310  
   0.318984100    -0.8030130   -0.0925245  
   0.320984000    -0.8028464    0.0249027  
   0.322983900    -0.7838082    0.1436606  
   0.324983800    -0.7450782    0.2593230  
   0.326983700    -0.6863263    0.3686278  
   0.328983600    -0.6093312    0.4659233  
   0.330983500    -0.5174825    0.5476815  
   0.332983400    -0.4159755    0.6115455  
   0.334983300    -0.3081118    0.6586692  
   0.336983200    -0.1964015    0.6894542  
   0.338983100    -0.0817181    0.7049146  
   0.340983000     0.0345519    0.7043533  
   0.342982900     0.1512504    0.6866204  
   0.344982800     0.2663484    0.6515296  
   0.346982700     0.3772354    0.5971901  
   0.348982600     0.4785991    0.5231348  
   0.350982500     0.5685939    0.4328150  
   0.352982400     0.6422772    0.3268618  
   0.354982300     0.6988361    0.2038837  
   0.356982200     0.7334670    0.0590146  
   0.358982100     0.7387405   -0.0898918  
   0.360982000     0.7142145   -0.2368374  
   0.362981900     0.6615136   -0.3759246  
   0.364981800     0.5824850   -0.5015152  
   0.366981700     0.4808744   -0.6089768  
   0.368981600     0.3607295   -0.6942689  
   0.370981500     0.2275605   -0.7545611  
   0.372981400     0.0864642   -0.7878215  
   0.374981300    -0.0576350   -0.7939806  
   0.376981200     0.0630452   -0.7920321  
   0.378981100    -0.0788211   -0.7929102  
   0.380981000    -0.2178277   -0.7684749  
   0.382980900    -0.3370088   -0.7252647  
   0.384980800    -0.4414961   -0.6666985  
   0.386980700    -0.5351740   -0.5931324  
   0.388980600    -0.6164365   -0.5066674  
   0.390980500    -0.6832002   -0.4098563  
   0.392980400    -0.7341554   -0.3051721  
   0.394980300    -0.7687948   -0.1941275  
   0.396980200    -0.7870120   -0.0794231  
   0.398980100    -0.7879238    0.0368090  
   0.400980000    -0.7716852    0.1527723  
   0.402979900    -0.7381852    0.2659399  
   0.404979800    -0.6878613    0.3729206  
   0.406979700    -0.6215105    0.4724617  
   0.408979600    -0.5400923    0.5615618  
   0.410979500    -0.4446641    0.6385479  
   0.412979400    -0.3360710    0.7008336  
   0.414979300    -0.2176796    0.7444435  
   0.416979200    -0.0922793    0.7702841  
   0.418979100     0.0368625    0.7756180  
   0.420979000     0.1665900    0.7594890  
   0.422978900     0.2935631    0.7217741  
   0.424978800     0.4136004    0.6627822  
   0.426978700     0.5228045    0.5833309  
   0.428978600     0.6175633    0.4861432  
   0.430978500     0.6942783    0.3738895  
   0.432978400     0.7504763    0.2503760  
   0.434978300     0.7858931    0.1191380  
   0.436978200     0.7974174   -0.0155955  
   0.438978100     0.7856018   -0.1499542  
   0.440978000     0.7513430   -0.2795327  
   0.442977900     0.6961265   -0.4006665  
   0.444977800     0.6222323   -0.5095884  
   0.446977700     0.5319523   -0.6039782  
   0.448977600     0.4287243   -0.6815309  
   0.450977500     0.3157484   -0.7401989  
   0.452977400     0.1955662   -0.7794982  
   0.454977300     0.0711238   -0.7988932  
   0.456977200    -0.0534724   -0.7983680  
   0.458977100    -0.1755873   -0.7783213  
   0.460977000    -0.2920061   -0.7396550  
   0.462976900    -0.3993201   -0.6839427  
   0.464976800    -0.4966699   -0.6128982  
   0.466976700    -0.5812354   -0.5281379  
   0.468976600    -0.6514335   -0.4324043  
   0.470976500    -0.7060172   -0.3267083  
   0.472976400    -0.7438564   -0.2142145  
   0.474976300    -0.7641510   -0.0970514  
   0.476976200    -0.7660792    0.0220068  
   0.478976100    -0.7495853    0.1399613  
   0.480976000    -0.7147753    0.2540654  
   0.482975900    -0.6625563    0.3618068  
   0.484975800    -0.5935423    0.4608670  
   0.486975700    -0.5086637    0.5489691  
   0.488975600    -0.4096657    0.6224009  
   0.490975500    -0.2988717    0.6796668  
   0.492975400    -0.1787829    0.7178502  
   0.494975300    -0.0529736    0.7352825  
   0.496975200     0.0750526    0.7308137  
   0.498975100     0.2004910    0.7040963  
   0.500975000     0.3196497    0.6557245  
   0.502974900     0.4280390    0.5873790  
   0.504974800     0.5221425    0.5010568  
   0.506974700     0.5989897    0.4001448  
   0.508974600     0.6565875    0.2881606  
   0.510974500     0.6926546    0.1696827  
   0.512974400     0.7082840    0.0493622  
   0.514974300     0.7019290   -0.0680692  
   0.516974200     0.6791906   -0.1802835  
   0.518974100     0.6403819   -0.2843736  
   0.520974000     0.5882845   -0.3792038  
   0.522973900     0.5246969   -0.4640093  
   0.524973800     0.4514423   -0.5380131  
   0.526973700     0.3700884   -0.6010203  
   0.528973600     0.2812586   -0.6525377  
   0.530973500     0.1858915   -0.6923887  
   0.532973400     0.0851611   -0.7191251  
   0.534973300    -0.0198694   -0.7315725  
   0.536973200    -0.1273549   -0.7289710  
   0.538973100    -0.2345870   -0.7101207  
   0.540973000    -0.3386755   -0.6743095  
   0.542972900    -0.4377998   -0.6224688  
   0.544972800    -0.5284668   -0.5548379  
   0.546972700    -0.6087639   -0.4724065  
   0.548972600    -0.6756382   -0.3769575  
   0.550972500    -0.7265962   -0.2713057  
   0.552972400    -0.7601387   -0.1577986  
   0.554972300    -0.7752098   -0.0393354  
   0.556972200    -0.7709302    0.0806296  
   0.558972100    -0.7470498    0.1989254  
   0.560972000    -0.7045276    0.3119776  
   0.562971900    -0.6442732    0.4171714  
   0.564971800    -0.5677261    0.5116839  
   0.566971700    -0.4766021    0.5928913  
   0.568971600    -0.3734056    0.6587386  
   0.570971500    -0.2603288    0.7075521  
   0.572971400    -0.1399282    0.7376060  
   0.574971300    -0.0149125    0.7476833  
   0.576971200     0.1112653    0.7368253  
   0.578971100     0.2349417    0.7053127  
   0.580971000     0.3523976    0.6531733  
   0.582970900     0.4599006    0.5814046  
   0.584970800     0.5538631    0.4922828  
   0.586970700     0.6316694    0.3886459  
   0.588970600     0.6906283    0.2727658  
   0.590970500     0.7291044    0.1485145  
   0.592970400     0.7457182    0.0193330  
   0.594970300     0.7401811   -0.1106526  
   0.596970200     0.7125475   -0.2373898  
   0.598970100     0.6637492   -0.3575474  
   0.600970000     0.5957345   -0.4667728  
   0.602969900     0.5103735   -0.5625807  
   0.604969800     0.4109631   -0.6427099  
   0.606969700     0.3001835   -0.7038968  
   0.608969600     0.1811634   -0.7463766  
   0.610969500     0.0579876   -0.7679137  
   0.612969400    -0.0655731   -0.7695205  
   0.614969300    -0.1866088   -0.7509344  
   0.616969200    -0.3017774   -0.7138476  
   0.618969100    -0.4079032   -0.6599390  
   0.620969000    -0.5036299   -0.5909235  
   0.622968900    -0.5872626   -0.5085589  
   0.624968800    -0.6566417   -0.4150676  
   0.626968700    -0.7112358   -0.3122225  
   0.628968600    -0.7494819   -0.2025269  
   0.630968500    -0.7709448   -0.0884902  
   0.632968400    -0.7748399    0.0272652  
   0.634968300    -0.7612715    0.1424004  
   0.636968200    -0.7304842    0.2545167  
   0.638968100    -0.6833320    0.3611545  
   0.640968000    -0.6201098    0.4598556  
   0.642967900    -0.5422402    0.5483515  
   0.644967800    -0.4512063    0.6247039  
   0.646967700    -0.3487265    0.6865168  
   0.648967600    -0.2374648    0.7317907  
   0.650967500    -0.1194453    0.7596058  
   0.652967400     0.0019932    0.7687635  
   0.654967300     0.1245251    0.7585481  
   0.656967200     0.2446726    0.7286189  
   0.658967100     0.3596391    0.6793169  
   0.660967000     0.4660186    0.6115756  
   0.662966900     0.5612348    0.5259706  
   0.664966800     0.6417739    0.4250144  
   0.666966700     0.7048502    0.3106414  
   0.668966600     0.7478986    0.1871443  
   0.670966500     0.7698911    0.0572969  
   0.672966400     0.7707780   -0.0738387  
   0.674966300     0.7477705   -0.2026008  
   0.676966200     0.7037838   -0.3256612  
   0.678966100     0.6405799   -0.4380245  
   0.680966000     0.5597257   -0.5382595  
   0.682965900     0.4643519   -0.6226255  
   0.684965800     0.3576325   -0.6893690  
   0.686965700     0.2419661   -0.7376452  
   0.688965600     0.1213586   -0.7662511  
   0.690965500    -0.0005405   -0.7740568  
   0.692965400    -0.1209571   -0.7633358  
   0.694965300    -0.2366997   -0.7345147  
   0.696965200    -0.3453199   -0.6884815  
   0.698965100    -0.4446940   -0.6268005  
   0.700965000    -0.5332126   -0.5511616  
   0.702964900    -0.6084526   -0.4636825  
   0.704964800    -0.6693473   -0.3663476  
   0.706964700    -0.7144511   -0.2609811  
   0.708964600    -0.7435142   -0.1504541  
   0.710964500    -0.7557757   -0.0362422  
   0.712964400    -0.7503210    0.0780434  
   0.714964300    -0.7271690    0.1906035  
   0.716964200    -0.6872429    0.2981890  
   0.718964100    -0.6312714    0.3990097  
   0.720964000    -0.5601252    0.4896732  
   0.722963900    -0.4755704    0.5686096  
   0.724963800    -0.3792885    0.6341120  
   0.726963700    -0.2730444    0.6835873  
   0.728963600    -0.1592438    0.7155201  
   0.730963500    -0.0413426    0.7280636  
   0.732963400     0.0774304    0.7218767  
   0.734963300     0.1945653    0.6959038  
   0.736963200     0.3220327    0.6430609  
   0.738963100     0.4381863    0.5669528  
   0.740963000     0.5377242    0.4705749  
   0.742962900     0.6168969    0.3573976  
   0.744962800     0.6731969    0.2317093  
   0.746962700     0.7046475    0.0990693  
   0.748962600     0.7109890   -0.0367144  
   0.750962500     0.6944567    0.0720598  
   0.752962400     0.6967179   -0.0614500  
   0.754962300     0.6751640   -0.1920954  
   0.756962200     0.6305428   -0.3155879  
   0.758962100     0.5650180   -0.4283538  
   0.760962000     0.4806956   -0.5275673  
   0.762961900     0.3856918   -0.6060092  
   0.764961800     0.2883291   -0.6632063  
   0.766961700     0.1837543   -0.7046338  
   0.768961600     0.0738081   -0.7297900  
   0.770961500    -0.0386130   -0.7379435  
   0.772961400    -0.1512831   -0.7288631  
   0.774961300    -0.2611963   -0.7026311  
   0.776961200    -0.3664142   -0.6595523  
   0.778961100    -0.4640140   -0.6003560  
   0.780961000    -0.5515192   -0.5264120  
   0.782960900    -0.6267053   -0.4391175  
   0.784960800    -0.6877115   -0.3406928  
   0.786960700    -0.7322310   -0.2334370  
   0.788960600    -0.7595537   -0.1201399  
   0.790960500    -0.7687242   -0.0039615  
   0.792960400    -0.7591262    0.1126112  
   0.794960300    -0.7315412    0.2262816  
   0.796960200    -0.6865485    0.3337646  
   0.798960100    -0.6252294    0.4333262  
   0.800960000    -0.5488621    0.5216147  
   0.802959900    -0.4596317    0.5972821  
   0.804959800    -0.3597777    0.6582561  
   0.806959700    -0.2511319    0.7027410  
   0.808959600    -0.1368348    0.7296976  
   0.810959500    -0.0192738    0.7385101  
   0.812959400     0.0989323    0.7285151  
   0.814959300     0.2144989    0.7000144  
   0.816959200     0.3246268    0.6530319  
   0.818959100     0.4261226    0.5888773  
   0.820959000     0.5168024    0.5087533  
   0.822958900     0.5936627    0.4144993  
   0.824958800     0.6545033    0.3084052  
   0.826958700     0.6973360    0.1931759  
   0.828958600     0.7208941    0.0723266  
   0.830958500     0.7238175   -0.0515734  
   0.832958400     0.7061626   -0.1740684  
   0.834958300     0.6684846   -0.2919494  
   0.836958200     0.6116965   -0.4016974  
   0.838958100     0.5378469   -0.5003779  
   0.840958000     0.4488081   -0.5856906  
   0.842957900     0.3471460   -0.6550349  
   0.844957800     0.2356137   -0.7061550  
   0.846957700     0.1177524   -0.7383369  
   0.848957600    -0.0031028   -0.7506940  
   0.850957500    -0.1238698   -0.7433630  
   0.852957400    -0.2408498   -0.7168364  
   0.854957300    -0.3514557   -0.6720223  
   0.856957200    -0.4530441   -0.6107966  
   0.858957100    -0.5426536   -0.5348470  
   0.860957000    -0.6189492   -0.4471514  
   0.862956900    -0.6800048   -0.3495047  
   0.864956800    -0.7250323   -0.2445578  
   0.866956700    -0.7534849   -0.1355673  
   0.868956600    -0.7648891   -0.0237747  
   0.870956500    -0.7597715    0.0880875  
   0.872956400    -0.7382504    0.1974888  
   0.874956300    -0.7004713    0.3025172  
   0.876956200    -0.6477409    0.4014596  
   0.878956100    -0.5805363    0.4914110  
   0.880956000    -0.5004033    0.5709974  
   0.882955900    -0.4087283    0.6380416  
   0.884955800    -0.3073295    0.6909282  
   0.886955700    -0.1985242    0.7279428  
   0.888955600    -0.0843881    0.7482958  
   0.890955500     0.0320189    0.7508904  
   0.892955400     0.1485577    0.7352487  
   0.894955300     0.2621360    0.7013618  
