! MS46122B
! 2250307/22442219
! 6/12/2025 7:35:00 AM
! C:\USERS\SPARKY\DOCUMENTS\VNA_DATA\JUNE12_2025\3.1 KELVIN\ECAL-OPEN.S1P
! CHANNEL.1
! TR.MEASUREMENT
! RAW.DATA
# GHZ S RI R 50.0
! FREQ.GHZ         S11RE         S11IM         
!; PortSelection: Port_1
   0.001000000     1.0281450   -0.0534454  
   0.002999900     0.9426236   -0.2070327  
   0.004999800     0.8808466   -0.3475980  
   0.006999700     0.8071999   -0.4787138  
   0.008999600     0.7185988   -0.5919825  
   0.010999500     0.6188345   -0.6924839  
   0.012999400     0.5089193   -0.7803899  
   0.014999300     0.3900455   -0.8535819  
   0.016999200     0.2626955   -0.9096980  
   0.018999100     0.1290293   -0.9469575  
   0.020999000    -0.0089016   -0.9635497  
   0.022998900    -0.1483607   -0.9589282  
   0.024998800    -0.2616618   -0.9065921  
   0.026998700    -0.4177283   -0.8823122  
   0.028998600    -0.5411025   -0.8119270  
   0.030998500    -0.6526781   -0.7222515  
   0.032998400    -0.7165165   -0.6094264  
   0.034998300    -0.8289026   -0.4956155  
   0.036998200    -0.8888731   -0.3648556  
   0.038998100    -0.9289030   -0.2273501  
   0.040998000    -0.9480120   -0.0852942  
   0.042997900    -0.9467968    0.0571834  
   0.044997800    -0.8998993    0.1745777  
   0.046997700    -0.8827519    0.3325995  
   0.048997600    -0.8218066    0.4605616  
   0.050997500    -0.7429050    0.5780971  
   0.052997400    -0.6479496    0.6814811  
   0.054997300    -0.5365496    0.7716811  
   0.056997200    -0.4130327    0.8430361  
   0.058997100    -0.2801862    0.8946241  
   0.060997000    -0.1410154    0.9252693  
   0.062996900     0.0014244    0.9340757  
   0.064996800     0.1438157    0.9211949  
   0.066996700     0.2825085    0.8866002  
   0.068996600     0.4142679    0.8315639  
   0.070996500     0.5362843    0.7571943  
   0.072996400     0.6454760    0.6651799  
   0.074996300     0.7399206    0.5578289  
   0.076996200     0.8167450    0.4374939  
   0.078996100     0.8744236    0.3068984  
   0.080996000     0.9115694    0.1693947  
   0.082995900     0.9273165    0.0279581  
   0.084995800     0.9213107   -0.1139259  
   0.086995700     0.8940846   -0.2528029  
   0.088995600     0.8460904   -0.3856103  
   0.090995500     0.7788883   -0.5091401  
   0.092995400     0.6938766   -0.6206478  
   0.094995300     0.5939304   -0.7178557  
   0.096995200     0.4809571   -0.7988928  
   0.098995100     0.3575507   -0.8621898  
   0.100995000     0.2269546   -0.9061170  
   0.102994900     0.0918158   -0.9302120  
   0.104994800    -0.0448246   -0.9345555  
   0.106994700    -0.1801744   -0.9192857  
   0.108994600    -0.3113703   -0.8842207  
   0.110994500    -0.4358788   -0.8307399  
   0.112994400    -0.5510250   -0.7602893  
   0.114994300    -0.6547989   -0.6742625  
   0.116994200    -0.7444809   -0.5741922  
   0.118994100    -0.8190943   -0.4626580  
   0.120994000    -0.8767040   -0.3416684  
   0.122993900    -0.9160455   -0.2136508  
   0.124993800    -0.9370996   -0.0815635  
   0.126993700    -0.9388887    0.0523048  
   0.128993600    -0.9217831    0.1853177  
   0.130993500    -0.8854218    0.3147590  
   0.132993400    -0.8308383    0.4376720  
   0.134993300    -0.7589818    0.5519684  
   0.136993200    -0.6711990    0.6547967  
   0.138993100    -0.5688884    0.7441999  
   0.140993000    -0.4543909    0.8177222  
   0.142992900    -0.3294979    0.8741918  
   0.144992800    -0.1973501    0.9123250  
   0.146992700    -0.0602308    0.9300793  
   0.148992600     0.0786265    0.9271641  
   0.150992500     0.2156306    0.9037043  
   0.152992400     0.3486618    0.8592566  
   0.154992300     0.4737191    0.7952583  
   0.156992200     0.5879340    0.7127666  
   0.158992100     0.6888503    0.6134342  
   0.160992000     0.7737634    0.4996177  
   0.162991900     0.8399934    0.3738251  
   0.164991800     0.8861855    0.2387992  
   0.166991700     0.9109778    0.0985562  
   0.168991600     0.9138147   -0.0444584  
   0.170991500     0.8945206   -0.1860512  
   0.172991400     0.8530822   -0.3227877  
   0.174991300     0.7915353   -0.4508254  
   0.176991200     0.7104749   -0.5680940  
   0.178991100     0.6127466   -0.6710256  
   0.180991000     0.5007553   -0.7568973  
   0.182990900     0.3773460   -0.8245303  
   0.184990800     0.2451002   -0.8723475  
   0.186990700     0.1079875   -0.8987918  
   0.188990600    -0.0053654   -0.9039337  
   0.190990500    -0.1643395   -0.8885184  
   0.192990400    -0.3005830   -0.8514621  
   0.194990300    -0.4256311   -0.7954168  
   0.196990200    -0.5395146   -0.7220864  
   0.198990100    -0.6406335   -0.6330126  
   0.200990000    -0.7270668   -0.5303869  
   0.202989900    -0.7972941   -0.4163033  
   0.204989800    -0.8495241   -0.2939281  
   0.206989700    -0.8829093   -0.1660752  
   0.208989600    -0.8974129   -0.0355858  
   0.210989500    -0.8926256    0.0958534  
   0.212989400    -0.8687413    0.2252987  
   0.214989300    -0.8264949    0.3493583  
   0.216989200    -0.7669529    0.4652131  
   0.218989100    -0.6919416    0.5711596  
   0.220989000    -0.6020695    0.6654780  
   0.222988900    -0.4990696    0.7460377  
   0.224988800    -0.3854327    0.8109283  
   0.226988700    -0.2637575    0.8584992  
   0.228988600    -0.1366443    0.8881719  
   0.230988500    -0.0064285    0.8990930  
   0.232988400     0.1241510    0.8911883  
   0.234988300     0.2531074    0.8644297  
   0.236988200     0.3771409    0.8187135  
   0.238988100     0.4935153    0.7552897  
   0.240988000     0.5993814    0.6756752  
   0.242987900     0.6922781    0.5812876  
   0.244987800     0.7708934    0.4743530  
   0.246987700     0.8331273    0.3561715  
   0.248987600     0.8774729    0.2295182  
   0.250987500     0.9029049    0.0969183  
   0.252987400     0.9080747   -0.0376752  
   0.254987300     0.8934150   -0.1714598  
   0.256987200     0.8593701   -0.3012805  
   0.258987100     0.8062247   -0.4246667  
   0.260987000     0.7350096   -0.5394356  
   0.262986900     0.6475011   -0.6427231  
   0.264986800     0.5450829   -0.7319533  
   0.266986700     0.4308748   -0.8048252  
   0.268986600     0.3073114   -0.8598356  
   0.270986500     0.1775734   -0.8954646  
   0.272986400     0.0443265   -0.9114286  
   0.274986300    -0.0893535   -0.9076041  
   0.276986200    -0.2209892   -0.8839927  
   0.278986100    -0.3478760   -0.8411950  
   0.280986000    -0.4671443   -0.7799118  
   0.282985900    -0.5758794   -0.7016929  
   0.284985800    -0.6716449   -0.6083896  
   0.286985700    -0.7521490   -0.5022756  
   0.288985600    -0.8156876   -0.3869016  
   0.290985500    -0.8611839   -0.2640653  
   0.292985400    -0.8881944   -0.1364741  
   0.294985300    -0.8963269   -0.0064082  
   0.296985200    -0.8855680    0.1239598  
   0.298985100    -0.8554027    0.2517673  
   0.300985000    -0.8070867    0.3743391  
   0.302984900    -0.7411432    0.4875524  
   0.304984800    -0.6591132    0.5898672  
   0.306984700    -0.5636270    0.6789900  
   0.308984600    -0.4565288    0.7523941  
   0.310984500    -0.3405632    0.8093281  
   0.312984400    -0.2172706    0.8484051  
   0.314984300    -0.0894466    0.8694113  
   0.316984200     0.0403267    0.8712184  
   0.318984100     0.1695845    0.8539965  
   0.320984000     0.2961048    0.8175452  
   0.322983900     0.4162369    0.7624520  
   0.324983800     0.5269733    0.6897878  
   0.326983700     0.6257412    0.6011002  
   0.328983600     0.7099555    0.4982939  
   0.330983500     0.7777855    0.3841964  
   0.332983400     0.8272644    0.2615740  
   0.334983300     0.8578343    0.1328517  
   0.336983200     0.8689146    0.0009348  
   0.338983100     0.8598828   -0.1314791  
   0.340983000     0.8310356   -0.2609603  
   0.342982900     0.7829801   -0.3844531  
   0.344982800     0.7166196   -0.5000297  
   0.346982700     0.6329609   -0.6048301  
   0.348982600     0.5343295   -0.6955115  
   0.350982500     0.4228958   -0.7702622  
   0.352982400     0.3015923   -0.8273054  
   0.354982300     0.1671418   -0.8663148  
   0.356982200     0.0130014   -0.8842558  
   0.358982100    -0.1409458   -0.8746747  
   0.360982000    -0.2896254   -0.8385844  
   0.362981900    -0.4296297   -0.7776431  
   0.364981800    -0.5564140   -0.6932945  
   0.366981700    -0.6658213   -0.5894296  
   0.368981600    -0.7555355   -0.4682643  
   0.370981500    -0.8228624   -0.3345154  
   0.372981400    -0.8662838   -0.1921628  
   0.374981300    -0.8849907   -0.0445078  
   0.376981200    -0.8722603   -0.1917996  
   0.378981100    -0.8913864   -0.0426089  
   0.380981000    -0.8850399    0.1077948  
   0.382980900    -0.8581659    0.2399559  
   0.384980800    -0.8145453    0.3608583  
   0.386980700    -0.7538491    0.4738720  
   0.388980600    -0.6777441    0.5766892  
   0.390980500    -0.5875582    0.6671519  
   0.392980400    -0.4861953    0.7433528  
   0.394980300    -0.3751068    0.8039519  
   0.396980200    -0.2566839    0.8480011  
   0.398980100    -0.1327588    0.8750408  
   0.400980000    -0.0061320    0.8836221  
   0.402979900     0.1210110    0.8736560  
   0.404979800     0.2454288    0.8455864  
   0.406979700     0.3649029    0.7995784  
   0.408979600     0.4769556    0.7364953  
   0.410979500     0.5792077    0.6568437  
   0.412979400     0.6695278    0.5620995  
   0.414979300     0.7449552    0.4541223  
   0.416979200     0.8036342    0.3356252  
   0.418979100     0.8436298    0.2091760  
   0.420979000     0.8642841    0.0773701  
   0.422978900     0.8643224   -0.0567572  
   0.424978800     0.8432789   -0.1900056  
   0.426978700     0.8017904   -0.3189002  
   0.428978600     0.7404979   -0.4397981  
   0.430978500     0.6614624   -0.5495072  
   0.432978400     0.5666691   -0.6451542  
   0.434978300     0.4581078   -0.7249106  
   0.436978200     0.3389022   -0.7869129  
   0.438978100     0.2114937   -0.8291494  
   0.440978000     0.0796996   -0.8511614  
   0.442977900    -0.0538186   -0.8525010  
   0.444977800    -0.1848571   -0.8334818  
   0.446977700    -0.3113289   -0.7947477  
   0.448977600    -0.4294125   -0.7373120  
   0.450977500    -0.5364417   -0.6632743  
   0.452977400    -0.6315397   -0.5736862  
   0.454977300    -0.7117801   -0.4708418  
   0.456977200    -0.7755658   -0.3575204  
   0.458977100    -0.8212115   -0.2363623  
   0.460977000    -0.8478934   -0.1103248  
   0.462976900    -0.8556349    0.0170911  
   0.464976800    -0.8445144    0.1438484  
   0.466976700    -0.8150166    0.2667726  
   0.468976600    -0.7679682    0.3834537  
   0.470976500    -0.7047448    0.4915091  
   0.472976400    -0.6266271    0.5891575  
   0.474976300    -0.5357519    0.6737802  
   0.476976200    -0.4341805    0.7445267  
   0.478976100    -0.3236446    0.7996778  
   0.480976000    -0.2073592    0.8382051  
   0.482975900    -0.0873358    0.8600016  
   0.484975800     0.0345276    0.8647918  
   0.486975700     0.1563299    0.8521253  
   0.488975600     0.2750803    0.8225579  
   0.490975500     0.3890736    0.7761129  
   0.492975400     0.4956362    0.7137848  
   0.494975300     0.5925378    0.6366777  
   0.496975200     0.6779473    0.5459964  
   0.498975100     0.7494261    0.4437483  
   0.500975000     0.8059041    0.3318305  
   0.502974900     0.8456799    0.2127385  
   0.504974800     0.8680801    0.0882409  
   0.506974700     0.8716339   -0.0392166  
   0.508974600     0.8562282   -0.1676368  
   0.510974500     0.8218268   -0.2928085  
   0.512974400     0.7687883   -0.4118468  
   0.514974300     0.6985860   -0.5215478  
   0.516974200     0.6125344   -0.6197749  
   0.518974100     0.5128384   -0.7039431  
   0.520974000     0.4012869   -0.7722997  
   0.522973900     0.2807168   -0.8230888  
   0.524973800     0.1536761   -0.8550808  
   0.526973700     0.0231253   -0.8674060  
   0.528973600    -0.1077751   -0.8598573  
   0.530973500    -0.2363092   -0.8328567  
   0.532973400    -0.3587916   -0.7864710  
   0.534973300    -0.4730215   -0.7219379  
   0.536973200    -0.5759359   -0.6410958  
   0.538973100    -0.6648942   -0.5461109  
   0.540973000    -0.7376744   -0.4396984  
   0.542972900    -0.7938594   -0.3237700  
   0.544972800    -0.8320692   -0.2013955  
   0.546972700    -0.8515145   -0.0743431  
   0.548972600    -0.8516527    0.0539550  
   0.550972500    -0.8329286    0.1804404  
   0.552972400    -0.7952895    0.3025855  
   0.554972300    -0.7398516    0.4176369  
   0.556972200    -0.6679347    0.5229509  
   0.558972100    -0.5812172    0.6159506  
   0.560972000    -0.4819782    0.6948688  
   0.562971900    -0.3723389    0.7578688  
   0.564971800    -0.2553020    0.8036414  
   0.566971700    -0.1327703    0.8316109  
   0.568971600    -0.0082038    0.8412061  
   0.570971500     0.1166258    0.8321355  
   0.572971400     0.2392406    0.8045399  
   0.574971300     0.3563601    0.7589827  
   0.576971200     0.4661349    0.6959195  
   0.578971100     0.5654152    0.6167811  
   0.580971000     0.6518484    0.5237488  
   0.582970900     0.7232640    0.4186581  
   0.584970800     0.7778866    0.3044622  
   0.586970700     0.8148396    0.1830222  
   0.588970600     0.8329659    0.0580807  
   0.590970500     0.8324635   -0.0689997  
   0.592970400     0.8127245   -0.1939773  
   0.594970300     0.7744075   -0.3150471  
   0.596970200     0.7182706   -0.4288565  
   0.598970100     0.6457884   -0.5327633  
   0.600970000     0.5584372   -0.6252463  
   0.602969900     0.4579514   -0.7033571  
   0.604969800     0.3469575   -0.7655431  
   0.606969700     0.2277654   -0.8104253  
   0.608969600     0.1032191   -0.8368738  
   0.610969500    -0.0240260   -0.8445904  
   0.612969400    -0.1505750   -0.8329930  
   0.614969300    -0.2730134   -0.8022851  
   0.616969200    -0.3890618   -0.7547559  
   0.618969100    -0.4959920   -0.6910458  
   0.620969000    -0.5919722   -0.6128640  
   0.622968900    -0.6754247   -0.5220228  
   0.624968800    -0.7446803   -0.4203266  
   0.626968700    -0.7987337   -0.3096022  
   0.628968600    -0.8360202   -0.1925016  
   0.630968500    -0.8563597   -0.0713203  
   0.632968400    -0.8589081    0.0511645  
   0.634968300    -0.8438582    0.1725197  
   0.636968200    -0.8119814    0.2906554  
   0.638968100    -0.7633391    0.4024478  
   0.640968000    -0.6994230    0.5056537  
   0.642967900    -0.6213419    0.5993030  
   0.644967800    -0.5309597    0.6804529  
   0.646967700    -0.4299722    0.7482231  
   0.648967600    -0.3203364    0.8005147  
   0.650967500    -0.2048285    0.8372102  
   0.652967400    -0.0860876    0.8562307  
   0.654967300     0.0349097    0.8588565  
   0.656967200     0.1550320    0.8439744  
   0.658967100     0.2715434    0.8121355  
   0.660967000     0.3834088    0.7637935  
   0.662966900     0.4877846    0.6991227  
   0.664966800     0.5826423    0.6190903  
   0.666966700     0.6655017    0.5253542  
   0.668966600     0.7335225    0.4202702  
   0.670966500     0.7858279    0.3057103  
   0.672966400     0.8202911    0.1844522  
   0.674966300     0.8366348    0.0589646  
   0.676966200     0.8336824   -0.0677771  
   0.678966100     0.8115634   -0.1921962  
   0.680966000     0.7707960   -0.3126536  
   0.682965900     0.7124650   -0.4253941  
   0.684965800     0.6376938   -0.5280634  
   0.686965700     0.5478048   -0.6185596  
   0.688965600     0.4451333   -0.6941875  
   0.690965500     0.3322725   -0.7534205  
   0.692965400     0.2120672   -0.7943613  
   0.694965300     0.0871646   -0.8167011  
   0.696965200    -0.0394548   -0.8196423  
   0.698965100    -0.1647385   -0.8031489  
   0.700965000    -0.2857459   -0.7679937  
   0.702964900    -0.3998192   -0.7147720  
   0.704964800    -0.5042700   -0.6453534  
   0.706964700    -0.5964503   -0.5609073  
   0.708964600    -0.6749746   -0.4639487  
   0.710964500    -0.7375354   -0.3563318  
   0.712964400    -0.7828829   -0.2412886  
   0.714964300    -0.8105337   -0.1211071  
   0.716964200    -0.8198635    0.0009351  
   0.718964100    -0.8108234    0.1219890  
   0.720964000    -0.7849120    0.2397816  
   0.722963900    -0.7423268    0.3515286  
   0.724963800    -0.6843773    0.4555132  
   0.726963700    -0.6120149    0.5500227  
   0.728963600    -0.5271711    0.6328388  
   0.730963500    -0.4316513    0.7022538  
   0.732963400    -0.3271210    0.7574291  
   0.734963300    -0.2159969    0.7971997  
   0.736963200    -0.0796823    0.8225269  
   0.738963100     0.0596756    0.8250073  
   0.740963000     0.1986324    0.8044261  
   0.742962900     0.3324950    0.7603875  
   0.744962800     0.4576878    0.6945658  
   0.746962700     0.5707532    0.6083787  
   0.748962600     0.6677815    0.5042548  
   0.750962500     0.5588607    0.6106354  
   0.752962400     0.6562224    0.5061588  
   0.754962300     0.7348248    0.3867438  
   0.756962200     0.7921530    0.2554392  
   0.758962100     0.8262814    0.1158728  
   0.760962000     0.8359542   -0.0283512  
   0.762961900     0.8222628   -0.1646539  
   0.764961800     0.7896146   -0.2852161  
   0.766961700     0.7395930   -0.3998908  
   0.768961600     0.6726083   -0.5060953  
   0.770961500     0.5904924   -0.6010912  
   0.772961400     0.4946857   -0.6828690  
   0.774961300     0.3879031   -0.7492473  
   0.776961200     0.2721353   -0.7989435  
   0.778961100     0.1496818   -0.8311712  
   0.780961000     0.0236121   -0.8440572  
   0.782960900    -0.1031403   -0.8378512  
   0.784960800    -0.2276437   -0.8120930  
   0.786960700    -0.3467836   -0.7678001  
   0.788960600    -0.4575609   -0.7061906  
   0.790960500    -0.5573576   -0.6283757  
   0.792960400    -0.6437402   -0.5367862  
   0.794960300    -0.7148698   -0.4339046  
   0.796960200    -0.7696648   -0.3226581  
   0.798960100    -0.8069052   -0.2045837  
   0.800960000    -0.8253849   -0.0832101  
   0.802959900    -0.8262874    0.0389968  
   0.804959800    -0.8092591    0.1590476  
   0.806959700    -0.7748968    0.2744800  
   0.808959600    -0.7244051    0.3833328  
   0.810959500    -0.6589717    0.4829520  
   0.812959400    -0.5799233    0.5716784  
   0.814959300    -0.4889449    0.6478634  
   0.816959200    -0.3883114    0.7098274  
   0.818959100    -0.2801906    0.7566094  
   0.820959000    -0.1661345    0.7872634  
   0.822958900    -0.0489155    0.8009957  
   0.824958800     0.0691799    0.7974485  
   0.826958700     0.1854858    0.7769960  
   0.828958600     0.2982226    0.7396044  
   0.830958500     0.4044331    0.6862750  
   0.832958400     0.5016982    0.6177978  
   0.834958300     0.5879836    0.5356115  
   0.836958200     0.6614122    0.4415661  
   0.838958100     0.7203609    0.3372547  
   0.840958000     0.7635758    0.2250234  
   0.842957900     0.7897757    0.1065626  
   0.844957800     0.7981426   -0.0147458  
   0.846957700     0.7879829   -0.1366263  
   0.848957600     0.7591580   -0.2558621  
   0.850957500     0.7125432   -0.3697849  
   0.852957400     0.6490970   -0.4756053  
   0.854957300     0.5698630   -0.5708607  
   0.856957200     0.4773226   -0.6529947  
   0.858957100     0.3730837   -0.7198361  
   0.860957000     0.2603035   -0.7701196  
   0.862956900     0.1420663   -0.8023070  
   0.864956800     0.0205982   -0.8167881  
   0.866956700    -0.1013562   -0.8128455  
   0.868956600    -0.2206806   -0.7908866  
   0.870956500    -0.3350860   -0.7516934  
   0.872956400    -0.4422194   -0.6961501  
   0.874956300    -0.5399230   -0.6257676  
   0.876956200    -0.6256840   -0.5417489  
   0.878956100    -0.6982747   -0.4464557  
   0.880956000    -0.7559430   -0.3415901  
   0.882955900    -0.7977992   -0.2298357  
   0.884955800    -0.8226963   -0.1137571  
   0.886955700    -0.8305951    0.0046941  
   0.888955600    -0.8217016    0.1227099  
   0.890955500    -0.7954630    0.2376437  
   0.892955400    -0.7534313    0.3470538  
   0.894955300    -0.6964937    0.4498131  
