! MS46122B
! 2250307/22442219
! 6/13/2025 3:23:11 PM
! C:\USERS\SPARKY\DOCUMENTS\VNA_DATA\JUNE13_2025\3.2K\ECAL_LOAD_C.S1P
! CHANNEL.1
! TR.MEASUREMENT
! RAW.DATA
# GHZ S RI R 50.0
! FREQ.GHZ         S11RE         S11IM         
!; PortSelection: Port_1
   0.001000000     0.0145518    0.0065097  
   0.002999900    -0.0002159    0.0553621  
   0.004999800    -0.0023354    0.0621042  
   0.006999700    -0.0027246    0.0591845  
   0.008999600    -0.0025199    0.0524351  
   0.010999500    -0.0017255    0.0441299  
   0.012999400    -0.0002588    0.0353041  
   0.014999300     0.0018312    0.0265684  
   0.016999200     0.0043994    0.0183184  
   0.018999100     0.0073195    0.0106729  
   0.020999000     0.0103503    0.0038462  
   0.022998900     0.0133056   -0.0021386  
   0.024998800     0.0136565   -0.0062793  
   0.026998700     0.0182910   -0.0117446  
   0.028998600     0.0200249   -0.0154991  
   0.030998500     0.0211152   -0.0186035  
   0.032998400     0.0193190   -0.0200567  
   0.034998300     0.0214012   -0.0233533  
   0.036998200     0.0207222   -0.0251447  
   0.038998100     0.0195297   -0.0267282  
   0.040998000     0.0178986   -0.0280202  
   0.042997900     0.0158644   -0.0290195  
   0.044997800     0.0117288   -0.0286780  
   0.046997700     0.0110304   -0.0303555  
   0.048997600     0.0083132   -0.0307355  
   0.050997500     0.0055403   -0.0309711  
   0.052997400     0.0026748   -0.0309349  
   0.054997300    -0.0001450   -0.0312068  
   0.056997200    -0.0026666   -0.0310458  
   0.058997100    -0.0051663   -0.0309703  
   0.060997000    -0.0075096   -0.0307890  
   0.062996900    -0.0097479   -0.0305934  
   0.064996800    -0.0118535   -0.0304563  
   0.066996700    -0.0137699   -0.0303058  
   0.068996600    -0.0155735   -0.0300167  
   0.070996500    -0.0172756   -0.0295940  
   0.072996400    -0.0188598   -0.0291199  
   0.074996300    -0.0203423   -0.0284453  
   0.076996200    -0.0217663   -0.0277001  
   0.078996100    -0.0230937   -0.0268070  
   0.080996000    -0.0243549   -0.0258166  
   0.082995900    -0.0255665   -0.0246535  
   0.084995800    -0.0267054   -0.0233897  
   0.086995700    -0.0277950   -0.0220521  
   0.088995600    -0.0288007   -0.0205957  
   0.090995500    -0.0296712   -0.0190307  
   0.092995400    -0.0304508   -0.0174442  
   0.094995300    -0.0311352   -0.0157690  
   0.096995200    -0.0316383   -0.0140865  
   0.098995100    -0.0320639   -0.0123855  
   0.100995000    -0.0323407   -0.0107008  
   0.102994900    -0.0324318   -0.0090097  
   0.104994800    -0.0324214   -0.0073735  
   0.106994700    -0.0322192   -0.0057893  
   0.108994600    -0.0318723   -0.0042849  
   0.110994500    -0.0313947   -0.0028907  
   0.112994400    -0.0307835   -0.0015906  
   0.114994300    -0.0300171   -0.0004188  
   0.116994200    -0.0291993    0.0005703  
   0.118994100    -0.0282673    0.0014450  
   0.120994000    -0.0272819    0.0021261  
   0.122993900    -0.0262518    0.0026949  
   0.124993800    -0.0252181    0.0030620  
   0.126993700    -0.0242137    0.0032224  
   0.128993600    -0.0232687    0.0032458  
   0.130993500    -0.0223647    0.0031620  
   0.132993400    -0.0215537    0.0028749  
   0.134993300    -0.0208451    0.0024690  
   0.136993200    -0.0203047    0.0019430  
   0.138993100    -0.0199173    0.0013273  
   0.140993000    -0.0197292    0.0006779  
   0.142992900    -0.0197130   -0.0000335  
   0.144992800    -0.0199435   -0.0007445  
   0.146992700    -0.0203380   -0.0014547  
   0.148992600    -0.0209270   -0.0020687  
   0.150992500    -0.0217380   -0.0026266  
   0.152992400    -0.0227085   -0.0030092  
   0.154992300    -0.0238429   -0.0032887  
   0.156992200    -0.0251301   -0.0033673  
   0.158992100    -0.0265121   -0.0032136  
   0.160992000    -0.0280217   -0.0028389  
   0.162991900    -0.0295894   -0.0022173  
   0.164991800    -0.0311251   -0.0013207  
   0.166991700    -0.0326397   -0.0001512  
   0.168991600    -0.0341273    0.0013410  
   0.170991500    -0.0354082    0.0030856  
   0.172991400    -0.0365828    0.0051114  
   0.174991300    -0.0375529    0.0073591  
   0.176991200    -0.0383107    0.0098796  
   0.178991100    -0.0387605    0.0125922  
   0.180991000    -0.0389092    0.0154436  
   0.182990900    -0.0387368    0.0184378  
   0.184990800    -0.0381511    0.0215783  
   0.186990700    -0.0371873    0.0247160  
   0.188990600    -0.0372832    0.0271533  
   0.190990500    -0.0343953    0.0310756  
   0.192990400    -0.0319841    0.0341012  
   0.194990300    -0.0293611    0.0368385  
   0.196990200    -0.0263892    0.0393277  
   0.198990100    -0.0231280    0.0415189  
   0.200990000    -0.0195294    0.0433337  
   0.202989900    -0.0155680    0.0448280  
   0.204989800    -0.0113055    0.0458144  
   0.206989700    -0.0069483    0.0463605  
   0.208989600    -0.0025433    0.0464219  
   0.210989500     0.0020080    0.0459952  
   0.212989400     0.0065120    0.0450970  
   0.214989300     0.0109870    0.0436862  
   0.216989200     0.0152108    0.0417123  
   0.218989100     0.0192121    0.0392634  
   0.220989000     0.0229809    0.0363019  
   0.222988900     0.0265284    0.0327857  
   0.224988800     0.0296046    0.0289058  
   0.226988700     0.0322110    0.0248046  
   0.228988600     0.0343179    0.0204078  
   0.230988500     0.0358802    0.0158056  
   0.232988400     0.0368915    0.0110225  
   0.234988300     0.0373757    0.0061603  
   0.236988200     0.0372907    0.0012643  
   0.238988100     0.0366339   -0.0035401  
   0.240988000     0.0353647   -0.0082140  
   0.242987900     0.0335713   -0.0126569  
   0.244987800     0.0312416   -0.0168451  
   0.246987700     0.0285032   -0.0206817  
   0.248987600     0.0253459   -0.0241587  
   0.250987500     0.0218385   -0.0271372  
   0.252987400     0.0179894   -0.0296274  
   0.254987300     0.0139355   -0.0316104  
   0.256987200     0.0097580   -0.0330616  
   0.258987100     0.0054926   -0.0339399  
   0.260987000     0.0012700   -0.0342087  
   0.262986900    -0.0028659   -0.0339806  
   0.264986800    -0.0068513   -0.0331824  
   0.266986700    -0.0106022   -0.0318390  
   0.268986600    -0.0140352   -0.0301058  
   0.270986500    -0.0171417   -0.0279848  
   0.272986400    -0.0198121   -0.0255195  
   0.274986300    -0.0220737   -0.0228012  
   0.276986200    -0.0238686   -0.0198389  
   0.278986100    -0.0251250   -0.0167098  
   0.280986000    -0.0258829   -0.0135085  
   0.282985900    -0.0261023   -0.0103091  
   0.284985800    -0.0258519   -0.0071583  
   0.286985700    -0.0251286   -0.0041824  
   0.288985600    -0.0239799   -0.0015404  
   0.290985500    -0.0224613    0.0007936  
   0.292985400    -0.0205866    0.0028070  
   0.294985300    -0.0184521    0.0043841  
   0.296985200    -0.0160801    0.0055211  
   0.298985100    -0.0135262    0.0063127  
   0.300985000    -0.0109054    0.0065965  
   0.302984900    -0.0082891    0.0064384  
   0.304984800    -0.0058056    0.0057447  
   0.306984700    -0.0034468    0.0045808  
   0.308984600    -0.0013376    0.0029988  
   0.310984500     0.0004799    0.0009388  
   0.312984400     0.0019044   -0.0014181  
   0.314984300     0.0029711   -0.0040733  
   0.316984200     0.0035995   -0.0069750  
   0.318984100     0.0037422   -0.0099379  
   0.320984000     0.0033670   -0.0130156  
   0.322983900     0.0025031   -0.0160186  
   0.324983800     0.0011351   -0.0189198  
   0.326983700    -0.0007179   -0.0216807  
   0.328983600    -0.0031156   -0.0241807  
   0.330983500    -0.0058610   -0.0263542  
   0.332983400    -0.0089812   -0.0282435  
   0.334983300    -0.0124528   -0.0296650  
   0.336983200    -0.0161551   -0.0306452  
   0.338983100    -0.0200800   -0.0311005  
   0.340983000    -0.0240775   -0.0310181  
   0.342982900    -0.0281330   -0.0304422  
   0.344982800    -0.0321421   -0.0291886  
   0.346982700    -0.0360804   -0.0273240  
   0.348982600    -0.0398097   -0.0249215  
   0.350982500    -0.0432422   -0.0220162  
   0.352982400    -0.0462903   -0.0185649  
   0.354982300    -0.0489366   -0.0144478  
   0.356982200    -0.0510524   -0.0091315  
   0.358982100    -0.0523582   -0.0035661  
   0.360982000    -0.0528406    0.0020786  
   0.362981900    -0.0524633    0.0077717  
   0.364981800    -0.0512702    0.0133468  
   0.366981700    -0.0492613    0.0187309  
   0.368981600    -0.0464819    0.0236950  
   0.370981500    -0.0430337    0.0281721  
   0.372981400    -0.0389486    0.0321390  
   0.374981300    -0.0343785    0.0354557  
   0.376981200    -0.0425661    0.0280574  
   0.378981100    -0.0381266    0.0314988  
   0.380981000    -0.0333396    0.0342276  
   0.382980900    -0.0289537    0.0357457  
   0.384980800    -0.0248166    0.0365175  
   0.386980700    -0.0207182    0.0366545  
   0.388980600    -0.0167843    0.0361602  
   0.390980500    -0.0130331    0.0350871  
   0.392980400    -0.0096208    0.0333994  
   0.394980300    -0.0065902    0.0311788  
   0.396980200    -0.0039709    0.0285512  
   0.398980100    -0.0019245    0.0255653  
   0.400980000    -0.0003667    0.0222945  
   0.402979900     0.0005828    0.0189051  
   0.404979800     0.0009511    0.0154015  
   0.406979700     0.0007173    0.0119521  
   0.408979600    -0.0001381    0.0085884  
   0.410979500    -0.0016023    0.0054683  
   0.412979400    -0.0036135    0.0026607  
   0.414979300    -0.0061520    0.0002548  
   0.416979200    -0.0091053   -0.0016778  
   0.418979100    -0.0124472   -0.0030728  
   0.420979000    -0.0160678   -0.0038830  
   0.422978900    -0.0199062   -0.0039914  
   0.424978800    -0.0238291   -0.0034706  
   0.426978700    -0.0277420   -0.0022493  
   0.428978600    -0.0315398   -0.0003132  
   0.430978500    -0.0350745    0.0022285  
   0.432978400    -0.0382952    0.0054464  
   0.434978300    -0.0410573    0.0091824  
   0.436978200    -0.0433366    0.0134683  
   0.438978100    -0.0449937    0.0181347  
   0.440978000    -0.0459997    0.0232139  
   0.442977900    -0.0462507    0.0284923  
   0.444977800    -0.0457678    0.0339697  
   0.446977700    -0.0445271    0.0394697  
   0.448977600    -0.0424746    0.0449098  
   0.450977500    -0.0396485    0.0501668  
   0.452977400    -0.0360507    0.0551121  
   0.454977300    -0.0317349    0.0597145  
   0.456977200    -0.0267177    0.0637659  
   0.458977100    -0.0210310    0.0671979  
   0.460977000    -0.0149457    0.0698788  
   0.462976900    -0.0083419    0.0717534  
   0.464976800    -0.0015140    0.0728132  
   0.466976700     0.0054980    0.0729162  
   0.468976600     0.0125657    0.0721044  
   0.470976500     0.0195305    0.0703856  
   0.472976400     0.0262597    0.0677512  
   0.474976300     0.0326537    0.0642400  
   0.476976200     0.0385766    0.0598436  
   0.478976100     0.0439413    0.0548073  
   0.480976000     0.0486110    0.0491305  
   0.482975900     0.0525116    0.0429547  
   0.484975800     0.0555835    0.0363344  
   0.486975700     0.0577867    0.0293114  
   0.488975600     0.0590808    0.0221476  
   0.490975500     0.0594114    0.0148195  
   0.492975400     0.0588466    0.0075253  
   0.494975300     0.0572542    0.0004369  
   0.496975200     0.0547058   -0.0063922  
   0.498975100     0.0514108   -0.0127386  
   0.500975000     0.0471790   -0.0185724  
   0.502974900     0.0423767   -0.0236641  
   0.504974800     0.0368851   -0.0279745  
   0.506974700     0.0308617   -0.0314894  
   0.508974600     0.0243414   -0.0342212  
   0.510974500     0.0175193   -0.0359086  
   0.512974400     0.0106428   -0.0366276  
   0.514974300     0.0038408   -0.0362928  
   0.516974200    -0.0026621   -0.0350602  
   0.518974100    -0.0087875   -0.0328503  
   0.520974000    -0.0144316   -0.0298142  
   0.522973900    -0.0194936   -0.0259316  
   0.524973800    -0.0238686   -0.0214249  
   0.526973700    -0.0274199   -0.0163377  
   0.528973600    -0.0300875   -0.0108335  
   0.530973500    -0.0318944   -0.0049882  
   0.532973400    -0.0326669    0.0010310  
   0.534973300    -0.0324660    0.0070396  
   0.536973200    -0.0313059    0.0128747  
   0.538973100    -0.0291529    0.0185060  
   0.540973000    -0.0261049    0.0237464  
   0.542972900    -0.0222517    0.0283906  
   0.544972800    -0.0177127    0.0323375  
   0.546972700    -0.0125012    0.0354919  
   0.548972600    -0.0068354    0.0377787  
   0.550972500    -0.0007864    0.0391175  
   0.552972400     0.0055007    0.0394071  
   0.554972300     0.0118916    0.0386430  
   0.556972200     0.0181131    0.0368197  
   0.558972100     0.0241475    0.0339913  
   0.560972000     0.0298806    0.0301402  
   0.562971900     0.0350173    0.0254239  
   0.564971800     0.0393798    0.0199372  
   0.566971700     0.0428957    0.0137468  
   0.568971600     0.0455383    0.0069489  
   0.570971500     0.0471475   -0.0003455  
   0.572971400     0.0478506   -0.0080678  
   0.574971300     0.0472910   -0.0159580  
   0.576971200     0.0455047   -0.0238846  
   0.578971100     0.0425721   -0.0316132  
   0.580971000     0.0384668   -0.0391134  
   0.582970900     0.0332676   -0.0460348  
   0.584970800     0.0270755   -0.0522424  
   0.586970700     0.0199160   -0.0576193  
   0.588970600     0.0119272   -0.0620916  
   0.590970500     0.0033525   -0.0655440  
   0.592970400    -0.0056952   -0.0677625  
   0.594970300    -0.0151150   -0.0687860  
   0.596970200    -0.0249338   -0.0684967  
   0.598970100    -0.0345189   -0.0669539  
   0.600970000    -0.0440089   -0.0641642  
   0.602969900    -0.0531334   -0.0601600  
   0.604969800    -0.0617571   -0.0549004  
   0.606969700    -0.0697142   -0.0485247  
   0.608969600    -0.0768424   -0.0411631  
   0.610969500    -0.0829972   -0.0328166  
   0.612969400    -0.0879833   -0.0237527  
   0.614969300    -0.0917983   -0.0140037  
   0.616969200    -0.0942596   -0.0036697  
   0.618969100    -0.0953921    0.0067805  
   0.620969000    -0.0951892    0.0172730  
   0.622968900    -0.0936708    0.0276420  
   0.624968800    -0.0908184    0.0377359  
   0.626968700    -0.0867080    0.0473589  
   0.628968600    -0.0812797    0.0563089  
   0.630968500    -0.0747922    0.0644688  
   0.632968400    -0.0673578    0.0716715  
   0.634968300    -0.0590614    0.0779964  
   0.636968200    -0.0499885    0.0830447  
   0.638968100    -0.0403936    0.0868252  
   0.640968000    -0.0305107    0.0891445  
   0.642967900    -0.0205583    0.0901379  
   0.644967800    -0.0105746    0.0896950  
   0.646967700    -0.0008968    0.0879993  
   0.648967600     0.0084213    0.0850635  
   0.650967500     0.0171776    0.0808973  
   0.652967400     0.0249813    0.0756246  
   0.654967300     0.0318928    0.0693839  
   0.656967200     0.0377358    0.0624538  
   0.658967100     0.0424030    0.0549273  
   0.660967000     0.0459538    0.0467428  
   0.662966900     0.0483195    0.0381957  
   0.664966800     0.0493856    0.0293587  
   0.666966700     0.0492374    0.0204267  
   0.668966600     0.0478133    0.0118352  
   0.670966500     0.0451795    0.0035434  
   0.672966400     0.0413639   -0.0041874  
   0.674966300     0.0364350   -0.0112337  
   0.676966200     0.0306645   -0.0171883  
   0.678966100     0.0240318   -0.0220450  
   0.680966000     0.0168647   -0.0258201  
   0.682965900     0.0092458   -0.0283246  
   0.684965800     0.0011493   -0.0296911  
   0.686965700    -0.0068140   -0.0297936  
   0.688965600    -0.0146365   -0.0285889  
   0.690965500    -0.0221647   -0.0261175  
   0.692965400    -0.0291774   -0.0224568  
   0.694965300    -0.0355702   -0.0177960  
   0.696965200    -0.0411506   -0.0121723  
   0.698965100    -0.0457821   -0.0057158  
   0.700965000    -0.0493625    0.0013921  
   0.702964900    -0.0517757    0.0090389  
   0.704964800    -0.0530281    0.0170808  
   0.706964700    -0.0529412    0.0252961  
   0.708964600    -0.0514825    0.0334871  
   0.710964500    -0.0488344    0.0413363  
   0.712964400    -0.0449118    0.0488245  
   0.714964300    -0.0398218    0.0555976  
   0.716964200    -0.0338427    0.0616762  
   0.718964100    -0.0270373    0.0668592  
   0.720964000    -0.0194336    0.0710234  
   0.722963900    -0.0113673    0.0741099  
   0.724963800    -0.0027599    0.0760839  
   0.726963700     0.0061071    0.0768247  
   0.728963600     0.0149469    0.0762176  
   0.730963500     0.0237652    0.0743151  
   0.732963400     0.0322936    0.0711101  
   0.734963300     0.0403425    0.0666925  
   0.736963200     0.0501932    0.0596193  
   0.738963100     0.0589567    0.0510635  
   0.740963000     0.0665362    0.0411873  
   0.742962900     0.0725788    0.0302191  
   0.744962800     0.0768372    0.0186804  
   0.746962700     0.0792448    0.0067833  
   0.748962600     0.0798400   -0.0052395  
   0.750962500     0.0635372    0.0128706  
   0.752962400     0.0644358    0.0011672  
   0.754962300     0.0634562   -0.0102171  
   0.756962200     0.0606844   -0.0211284  
   0.758962100     0.0562515   -0.0314152  
   0.760962000     0.0503646   -0.0404458  
   0.762961900     0.0431884   -0.0476343  
   0.764961800     0.0351385   -0.0528630  
   0.766961700     0.0264990   -0.0568603  
   0.768961600     0.0175235   -0.0594428  
   0.770961500     0.0082461   -0.0607594  
   0.772961400    -0.0010223   -0.0607972  
   0.774961300    -0.0101648   -0.0594882  
   0.776961200    -0.0189212   -0.0569853  
   0.778961100    -0.0271875   -0.0532926  
   0.780961000    -0.0347404   -0.0485407  
   0.782960900    -0.0414489   -0.0427938  
   0.784960800    -0.0470669   -0.0362164  
   0.786960700    -0.0515656   -0.0289275  
   0.788960600    -0.0548700   -0.0210031  
   0.790960500    -0.0570276   -0.0127842  
   0.792960400    -0.0578021   -0.0044370  
   0.794960300    -0.0572947    0.0037940  
   0.796960200    -0.0555712    0.0117948  
   0.798960100    -0.0526168    0.0194804  
   0.800960000    -0.0486443    0.0266173  
   0.802959900    -0.0436879    0.0328093  
   0.804959800    -0.0379321    0.0381474  
   0.806959700    -0.0314556    0.0424138  
   0.808959600    -0.0244665    0.0456235  
   0.810959500    -0.0170913    0.0476472  
   0.812959400    -0.0093865    0.0484399  
   0.814959300    -0.0017715    0.0480024  
   0.816959200     0.0057593    0.0463580  
   0.818959100     0.0129034    0.0434546  
   0.820959000     0.0196680    0.0394979  
   0.822958900     0.0256982    0.0344660  
   0.824958800     0.0310233    0.0285272  
   0.826958700     0.0355210    0.0215719  
   0.828958600     0.0387031    0.0141576  
   0.830958500     0.0406724    0.0062240  
   0.832958400     0.0414097   -0.0020225  
   0.834958300     0.0408676   -0.0103327  
   0.836958200     0.0391066   -0.0187853  
   0.838958100     0.0360818   -0.0267125  
   0.840958000     0.0318316   -0.0342176  
   0.842957900     0.0264634   -0.0410567  
   0.844957800     0.0200720   -0.0471275  
   0.846957700     0.0127523   -0.0522428  
   0.848957600     0.0047284   -0.0563044  
   0.850957500    -0.0038942   -0.0590955  
   0.852957400    -0.0129134   -0.0606653  
   0.854957300    -0.0221181   -0.0609064  
   0.856957200    -0.0313832   -0.0597954  
   0.858957100    -0.0404576   -0.0573764  
   0.860957000    -0.0492045   -0.0537044  
   0.862956900    -0.0576581   -0.0487834  
   0.864956800    -0.0652043   -0.0429389  
   0.866956700    -0.0719507   -0.0360370  
   0.868956600    -0.0777710   -0.0282797  
   0.870956500    -0.0823887   -0.0199587  
   0.872956400    -0.0857586   -0.0110681  
   0.874956300    -0.0879119   -0.0018503  
   0.876956200    -0.0886163    0.0076584  
   0.878956100    -0.0879795    0.0171572  
   0.880956000    -0.0860155    0.0264662  
   0.882955900    -0.0827201    0.0354320  
   0.884955800    -0.0782977    0.0440165  
   0.886955700    -0.0726384    0.0516990  
   0.888955600    -0.0660918    0.0584228  
   0.890955500    -0.0585977    0.0641350  
   0.892955400    -0.0505057    0.0687118  
   0.894955300    -0.0419357    0.0719868  
