! MS46122B
! 2250307/22442219
! 6/18/2025 7:47:44 AM
! C:\USERS\SPARKY\DOCUMENTS\VNA_DATA\JUNE18_2025\3.0K\ECAL_LOAD_E.S1P
! CHANNEL.1
! TR.MEASUREMENT
! RAW.DATA
# GHZ S RI R 50.0
! FREQ.GHZ         S11RE         S11IM         
!; PortSelection: Port_1
   0.001000000     0.0152958    0.0064332  
   0.002999900     0.0005927    0.0552949  
   0.004999800    -0.0014671    0.0618589  
   0.006999700    -0.0019094    0.0587227  
   0.008999600    -0.0017610    0.0518327  
   0.010999500    -0.0010753    0.0433478  
   0.012999400     0.0002961    0.0344039  
   0.014999300     0.0022317    0.0255799  
   0.016999200     0.0046588    0.0171980  
   0.018999100     0.0074013    0.0095036  
   0.020999000     0.0102328    0.0026765  
   0.022998900     0.0130355   -0.0033280  
   0.024998800     0.0132046   -0.0074084  
   0.026998700     0.0176596   -0.0128846  
   0.028998600     0.0192155   -0.0165496  
   0.030998500     0.0201430   -0.0195424  
   0.032998400     0.0183069   -0.0208590  
   0.034998300     0.0202553   -0.0240614  
   0.036998200     0.0194516   -0.0256789  
   0.038998100     0.0181891   -0.0270729  
   0.040998000     0.0165586   -0.0281646  
   0.042997900     0.0145336   -0.0290222  
   0.044997800     0.0104241   -0.0284976  
   0.046997700     0.0097648   -0.0300103  
   0.048997600     0.0071201   -0.0302286  
   0.050997500     0.0044616   -0.0302798  
   0.052997400     0.0017495   -0.0301773  
   0.054997300    -0.0008910   -0.0301397  
   0.056997200    -0.0033247   -0.0300316  
   0.058997100    -0.0056734   -0.0298961  
   0.060997000    -0.0078506   -0.0296583  
   0.062996900    -0.0099193   -0.0294878  
   0.064996800    -0.0118036   -0.0293629  
   0.066996700    -0.0135148   -0.0292049  
   0.068996600    -0.0151823   -0.0290164  
   0.070996500    -0.0167399   -0.0287088  
   0.072996400    -0.0181367   -0.0283040  
   0.074996300    -0.0195273   -0.0277851  
   0.076996200    -0.0208241   -0.0271875  
   0.078996100    -0.0220755   -0.0264778  
   0.080996000    -0.0232522   -0.0255938  
   0.082995900    -0.0244429   -0.0246639  
   0.084995800    -0.0255710   -0.0235848  
   0.086995700    -0.0266587   -0.0224158  
   0.088995600    -0.0277174   -0.0211345  
   0.090995500    -0.0287034   -0.0197269  
   0.092995400    -0.0295717   -0.0182790  
   0.094995300    -0.0303525   -0.0167393  
   0.096995200    -0.0310114   -0.0151746  
   0.098995100    -0.0315963   -0.0135358  
   0.100995000    -0.0319834   -0.0119306  
   0.102994900    -0.0322675   -0.0103051  
   0.104994800    -0.0324010   -0.0086627  
   0.106994700    -0.0323603   -0.0071043  
   0.108994600    -0.0321940   -0.0055630  
   0.110994500    -0.0318402   -0.0040949  
   0.112994400    -0.0313968   -0.0027136  
   0.114994300    -0.0307647   -0.0014408  
   0.116994200    -0.0300442   -0.0003244  
   0.118994100    -0.0292265    0.0006836  
   0.120994000    -0.0282665    0.0015186  
   0.122993900    -0.0273188    0.0022205  
   0.124993800    -0.0262827    0.0027432  
   0.126993700    -0.0252835    0.0031062  
   0.128993600    -0.0243021    0.0032775  
   0.130993500    -0.0233383    0.0033153  
   0.132993400    -0.0224679    0.0031814  
   0.134993300    -0.0216522    0.0028970  
   0.136993200    -0.0209844    0.0024737  
   0.138993100    -0.0204804    0.0019674  
   0.140993000    -0.0201606    0.0013768  
   0.142992900    -0.0199880    0.0007216  
   0.144992800    -0.0200624    0.0000314  
   0.146992700    -0.0203010   -0.0006523  
   0.148992600    -0.0207373   -0.0013223  
   0.150992500    -0.0213866   -0.0018800  
   0.152992400    -0.0222056   -0.0023767  
   0.154992300    -0.0232134   -0.0027000  
   0.156992200    -0.0244266   -0.0029199  
   0.158992100    -0.0257131   -0.0028841  
   0.160992000    -0.0271375   -0.0026536  
   0.162991900    -0.0286245   -0.0021509  
   0.164991800    -0.0301563   -0.0014132  
   0.166991700    -0.0316691   -0.0003713  
   0.168991600    -0.0331600    0.0009346  
   0.170991500    -0.0345318    0.0025709  
   0.172991400    -0.0357510    0.0044390  
   0.174991300    -0.0367964    0.0065965  
   0.176991200    -0.0376558    0.0090106  
   0.178991100    -0.0381930    0.0116330  
   0.180991000    -0.0384876    0.0144183  
   0.182990900    -0.0384600    0.0173593  
   0.184990800    -0.0379971    0.0204701  
   0.186990700    -0.0371528    0.0236177  
   0.188990600    -0.0373891    0.0260760  
   0.190990500    -0.0346836    0.0300294  
   0.192990400    -0.0323802    0.0331537  
   0.194990300    -0.0298615    0.0359883  
   0.196990200    -0.0270498    0.0385623  
   0.198990100    -0.0238492    0.0408607  
   0.200990000    -0.0202842    0.0428365  
   0.202989900    -0.0163962    0.0444690  
   0.204989800    -0.0121757    0.0456050  
   0.206989700    -0.0078111    0.0462590  
   0.208989600    -0.0033598    0.0465013  
   0.210989500     0.0012089    0.0462467  
   0.212989400     0.0057946    0.0454923  
   0.214989300     0.0103739    0.0441961  
   0.216989200     0.0146868    0.0423544  
   0.218989100     0.0188037    0.0399809  
   0.220989000     0.0227001    0.0371189  
   0.222988900     0.0263754    0.0337266  
   0.224988800     0.0296294    0.0298340  
   0.226988700     0.0324002    0.0257054  
   0.228988600     0.0346485    0.0212988  
   0.230988500     0.0363360    0.0166391  
   0.232988400     0.0375335    0.0118542  
   0.234988300     0.0381363    0.0068526  
   0.236988200     0.0382019    0.0018974  
   0.238988100     0.0376528   -0.0030116  
   0.240988000     0.0364754   -0.0078163  
   0.242987900     0.0347220   -0.0124333  
   0.244987800     0.0324642   -0.0167350  
   0.246987700     0.0297094   -0.0207340  
   0.248987600     0.0265604   -0.0243108  
   0.250987500     0.0230283   -0.0274763  
   0.252987400     0.0191279   -0.0301321  
   0.254987300     0.0149929   -0.0322492  
   0.256987200     0.0107234   -0.0337951  
   0.258987100     0.0063588   -0.0347705  
   0.260987000     0.0020297   -0.0351777  
   0.262986900    -0.0022656   -0.0349947  
   0.264986800    -0.0064044   -0.0342397  
   0.266986700    -0.0102825   -0.0329412  
   0.268986600    -0.0139042   -0.0312190  
   0.270986500    -0.0171514   -0.0290404  
   0.272986400    -0.0199870   -0.0265356  
   0.274986300    -0.0223695   -0.0237149  
   0.276986200    -0.0242979   -0.0206763  
   0.278986100    -0.0256601   -0.0174267  
   0.280986000    -0.0265048   -0.0141067  
   0.282985900    -0.0268381   -0.0107388  
   0.284985800    -0.0266020   -0.0074433  
   0.286985700    -0.0259392   -0.0043296  
   0.288985600    -0.0247819   -0.0015316  
   0.290985500    -0.0232253    0.0010053  
   0.292985400    -0.0213396    0.0031199  
   0.294985300    -0.0191420    0.0048728  
   0.296985200    -0.0166531    0.0061679  
   0.298985100    -0.0140386    0.0070523  
   0.300985000    -0.0112978    0.0074550  
   0.302984900    -0.0085426    0.0073287  
   0.304984800    -0.0058906    0.0067388  
   0.306984700    -0.0033794    0.0056155  
   0.308984600    -0.0011217    0.0040254  
   0.310984500     0.0008241    0.0020124  
   0.312984400     0.0024325   -0.0004294  
   0.314984300     0.0036558   -0.0031617  
   0.316984200     0.0044030   -0.0060926  
   0.318984100     0.0046471   -0.0092321  
   0.320984000     0.0044114   -0.0124061  
   0.322983900     0.0036114   -0.0155124  
   0.324983800     0.0023432   -0.0185960  
   0.326983700     0.0004809   -0.0214714  
   0.328983600    -0.0018691   -0.0241258  
   0.330983500    -0.0046242   -0.0264717  
   0.332983400    -0.0078221   -0.0285075  
   0.334983300    -0.0113286   -0.0300880  
   0.336983200    -0.0151263   -0.0311704  
   0.338983100    -0.0191152   -0.0317771  
   0.340983000    -0.0232811   -0.0318389  
   0.342982900    -0.0274063   -0.0313096  
   0.344982800    -0.0316229   -0.0301495  
   0.346982700    -0.0357111   -0.0283512  
   0.348982600    -0.0395889   -0.0259283  
   0.350982500    -0.0431827   -0.0230254  
   0.352982400    -0.0464287   -0.0195907  
   0.354982300    -0.0492831   -0.0154072  
   0.356982200    -0.0515552   -0.0099927  
   0.358982100    -0.0530184   -0.0042819  
   0.360982000    -0.0536396    0.0014861  
   0.362981900    -0.0533644    0.0073731  
   0.364981800    -0.0522421    0.0131409  
   0.366981700    -0.0502760    0.0187023  
   0.368981600    -0.0475036    0.0238826  
   0.370981500    -0.0440156    0.0285887  
   0.372981400    -0.0398729    0.0327236  
   0.374981300    -0.0351819    0.0362107  
   0.376981200    -0.0434885    0.0286374  
   0.378981100    -0.0389870    0.0323140  
   0.380981000    -0.0340653    0.0351718  
   0.382980900    -0.0295320    0.0368221  
   0.384980800    -0.0252712    0.0377082  
   0.386980700    -0.0209967    0.0378968  
   0.388980600    -0.0168548    0.0374862  
   0.390980500    -0.0129573    0.0363827  
   0.392980400    -0.0093341    0.0346915  
   0.394980300    -0.0061203    0.0324526  
   0.396980200    -0.0033876    0.0297737  
   0.398980100    -0.0011448    0.0267038  
   0.400980000     0.0005379    0.0233146  
   0.402979900     0.0015812    0.0197765  
   0.404979800     0.0020663    0.0161435  
   0.406979700     0.0018833    0.0124863  
   0.408979600     0.0010918    0.0089954  
   0.410979500    -0.0003337    0.0056603  
   0.412979400    -0.0023481    0.0027128  
   0.414979300    -0.0048871    0.0001154  
   0.416979200    -0.0079488   -0.0020312  
   0.418979100    -0.0113440   -0.0035824  
   0.420979000    -0.0150849   -0.0045339  
   0.422978900    -0.0190627   -0.0048365  
   0.424978800    -0.0231403   -0.0044167  
   0.426978700    -0.0272430   -0.0032514  
   0.428978600    -0.0312268   -0.0014196  
   0.430978500    -0.0349492    0.0011040  
   0.432978400    -0.0383632    0.0042983  
   0.434978300    -0.0413205    0.0080558  
   0.436978200    -0.0438052    0.0123944  
   0.438978100    -0.0456563    0.0171408  
   0.440978000    -0.0468271    0.0222887  
   0.442977900    -0.0472482    0.0277273  
   0.444977800    -0.0469097    0.0333128  
   0.446977700    -0.0457748    0.0389839  
   0.448977600    -0.0438033    0.0446047  
   0.450977500    -0.0410225    0.0500762  
   0.452977400    -0.0374793    0.0552068  
   0.454977300    -0.0331617    0.0599512  
   0.456977200    -0.0280899    0.0642269  
   0.458977100    -0.0224083    0.0678681  
   0.460977000    -0.0161975    0.0707504  
   0.462976900    -0.0095238    0.0728166  
   0.464976800    -0.0025240    0.0740109  
   0.466976700     0.0046171    0.0742459  
   0.468976600     0.0118747    0.0735282  
   0.470976500     0.0190089    0.0719026  
   0.472976400     0.0259578    0.0692999  
   0.474976300     0.0325679    0.0658328  
   0.476976200     0.0387049    0.0614586  
   0.478976100     0.0442524    0.0563212  
   0.480976000     0.0490824    0.0505825  
   0.482975900     0.0531757    0.0442686  
   0.484975800     0.0564302    0.0375499  
   0.486975700     0.0587601    0.0303888  
   0.488975600     0.0601735    0.0229975  
   0.490975500     0.0606500    0.0154991  
   0.492975400     0.0601007    0.0080170  
   0.494975300     0.0585505    0.0007311  
   0.496975200     0.0560438   -0.0063132  
   0.498975100     0.0526781   -0.0129263  
   0.500975000     0.0484653   -0.0189266  
   0.502974900     0.0435000   -0.0241884  
   0.504974800     0.0378481   -0.0287144  
   0.506974700     0.0317014   -0.0323909  
   0.508974600     0.0250048   -0.0352395  
   0.510974500     0.0180610   -0.0370917  
   0.512974400     0.0109494   -0.0378656  
   0.514974300     0.0039190   -0.0376012  
   0.516974200    -0.0028264   -0.0363302  
   0.518974100    -0.0091503   -0.0341297  
   0.520974000    -0.0149859   -0.0310144  
   0.522973900    -0.0202806   -0.0271015  
   0.524973800    -0.0248145   -0.0225022  
   0.526973700    -0.0285456   -0.0172544  
   0.528973600    -0.0313714   -0.0115919  
   0.530973500    -0.0332728   -0.0055754  
   0.532973400    -0.0341495    0.0006155  
   0.534973300    -0.0340168    0.0068017  
   0.536973200    -0.0328717    0.0128686  
   0.538973100    -0.0307273    0.0187196  
   0.540973000    -0.0276638    0.0241842  
   0.542972900    -0.0237388    0.0289916  
   0.544972800    -0.0190838    0.0331558  
   0.546972700    -0.0137889    0.0364782  
   0.548972600    -0.0079508    0.0389091  
   0.550972500    -0.0017200    0.0403867  
   0.552972400     0.0047379    0.0407647  
   0.554972300     0.0113076    0.0401101  
   0.556972200     0.0177698    0.0382990  
   0.558972100     0.0239884    0.0354454  
   0.560972000     0.0299607    0.0315704  
   0.562971900     0.0353426    0.0268591  
   0.564971800     0.0399750    0.0212908  
   0.566971700     0.0436280    0.0149045  
   0.568971600     0.0464473    0.0079720  
   0.570971500     0.0481669    0.0004604  
   0.572971400     0.0490492   -0.0074085  
   0.574971300     0.0485156   -0.0155265  
   0.576971200     0.0468237   -0.0236896  
   0.578971100     0.0438950   -0.0317233  
   0.580971000     0.0397790   -0.0393731  
   0.582970900     0.0345286   -0.0465492  
   0.584970800     0.0282486   -0.0529431  
   0.586970700     0.0210907   -0.0585535  
   0.588970600     0.0128608   -0.0632174  
   0.590970500     0.0041031   -0.0668120  
   0.592970400    -0.0051580   -0.0691912  
   0.594970300    -0.0147523   -0.0703288  
   0.596970200    -0.0248198   -0.0701414  
   0.598970100    -0.0346415   -0.0686715  
   0.600970000    -0.0443644   -0.0658945  
   0.602969900    -0.0537710   -0.0618429  
   0.604969800    -0.0626107   -0.0565399  
   0.606969700    -0.0707931   -0.0500812  
   0.608969600    -0.0781472   -0.0425659  
   0.610969500    -0.0844436   -0.0340900  
   0.612969400    -0.0896124   -0.0247909  
   0.614969300    -0.0935614   -0.0148400  
   0.616969200    -0.0961538   -0.0042975  
   0.618969100    -0.0973527    0.0063972  
   0.620969000    -0.0971463    0.0171367  
   0.622968900    -0.0956323    0.0277636  
   0.624968800    -0.0927600    0.0380931  
   0.626968700    -0.0885392    0.0479096  
   0.628968600    -0.0830471    0.0571322  
   0.630968500    -0.0764044    0.0655543  
   0.632968400    -0.0687918    0.0728761  
   0.634968300    -0.0602607    0.0794305  
   0.636968200    -0.0509503    0.0845642  
   0.638968100    -0.0411015    0.0884162  
   0.640968000    -0.0310205    0.0908280  
   0.642967900    -0.0207237    0.0918032  
   0.644967800    -0.0105491    0.0914128  
   0.646967700    -0.0005862    0.0896038  
   0.648967600     0.0089967    0.0865679  
   0.650967500     0.0179675    0.0823162  
   0.652967400     0.0259676    0.0768857  
   0.654967300     0.0330610    0.0704045  
   0.656967200     0.0390664    0.0632569  
   0.658967100     0.0438686    0.0555241  
   0.660967000     0.0475152    0.0470782  
   0.662966900     0.0499134    0.0383331  
   0.664966800     0.0510549    0.0292049  
   0.666966700     0.0508792    0.0200563  
   0.668966600     0.0494237    0.0111588  
   0.670966500     0.0466227    0.0026548  
   0.672966400     0.0427522   -0.0053578  
   0.674966300     0.0376381   -0.0126052  
   0.676966200     0.0316130   -0.0186748  
   0.678966100     0.0248551   -0.0236725  
   0.680966000     0.0173845   -0.0275403  
   0.682965900     0.0095230   -0.0301560  
   0.684965800     0.0011729   -0.0316276  
   0.686965700    -0.0070601   -0.0316727  
   0.688965600    -0.0151150   -0.0304189  
   0.690965500    -0.0228331   -0.0278705  
   0.692965400    -0.0301376   -0.0241393  
   0.694965300    -0.0367466   -0.0193212  
   0.696965200    -0.0424713   -0.0134781  
   0.698965100    -0.0472552   -0.0068490  
   0.700965000    -0.0509452    0.0005094  
   0.702964900    -0.0534618    0.0083971  
   0.704964800    -0.0546784    0.0166512  
   0.706964700    -0.0546543    0.0251521  
   0.708964600    -0.0531768    0.0335824  
   0.710964500    -0.0504509    0.0416891  
   0.712964400    -0.0464089    0.0494191  
   0.714964300    -0.0412108    0.0564178  
   0.716964200    -0.0349877    0.0626736  
   0.718964100    -0.0279969    0.0679848  
   0.720964000    -0.0201728    0.0722976  
   0.722963900    -0.0118405    0.0754715  
   0.724963800    -0.0030365    0.0774578  
   0.726963700     0.0061699    0.0782549  
   0.728963600     0.0153189    0.0775971  
   0.730963500     0.0242900    0.0756297  
   0.732963400     0.0331082    0.0723684  
   0.734963300     0.0413798    0.0678365  
   0.736963200     0.0514778    0.0605079  
   0.738963100     0.0604647    0.0517532  
   0.740963000     0.0681162    0.0416158  
   0.742962900     0.0742844    0.0303446  
   0.744962800     0.0785706    0.0184878  
   0.746962700     0.0809976    0.0062686  
   0.748962600     0.0815486   -0.0060537  
   0.750962500     0.0654064    0.0122893  
   0.752962400     0.0661828    0.0003526  
   0.754962300     0.0650988   -0.0114074  
   0.756962200     0.0621479   -0.0225866  
   0.758962100     0.0575118   -0.0331133  
   0.760962000     0.0513709   -0.0423909  
   0.762961900     0.0438986   -0.0497444  
   0.764961800     0.0355591   -0.0550252  
   0.766961700     0.0266321   -0.0590265  
   0.768961600     0.0173561   -0.0616641  
   0.770961500     0.0078067   -0.0629258  
   0.772961400    -0.0017356   -0.0628778  
   0.774961300    -0.0111622   -0.0614613  
   0.776961200    -0.0201931   -0.0587657  
   0.778961100    -0.0286469   -0.0549149  
   0.780961000    -0.0364311   -0.0498973  
   0.782960900    -0.0432899   -0.0439187  
   0.784960800    -0.0490218   -0.0370518  
   0.786960700    -0.0536024   -0.0294798  
   0.788960600    -0.0569627   -0.0212152  
   0.790960500    -0.0591351   -0.0126392  
   0.792960400    -0.0597947   -0.0040520  
   0.794960300    -0.0592183    0.0045078  
   0.796960200    -0.0573428    0.0127764  
   0.798960100    -0.0542544    0.0207066  
   0.800960000    -0.0500483    0.0281010  
   0.802959900    -0.0448267    0.0345070  
   0.804959800    -0.0387693    0.0400189  
   0.806959700    -0.0319983    0.0443904  
   0.808959600    -0.0246415    0.0477079  
   0.810959500    -0.0169751    0.0497094  
   0.812959400    -0.0089834    0.0505284  
   0.814959300    -0.0010087    0.0500442  
   0.816959200     0.0068263    0.0482893  
   0.818959100     0.0142623    0.0452990  
   0.820959000     0.0212715    0.0410958  
   0.822958900     0.0276351    0.0359267  
   0.824958800     0.0332044    0.0296829  
   0.826958700     0.0378026    0.0224975  
   0.828958600     0.0410966    0.0147905  
   0.830958500     0.0431647    0.0065079  
   0.832958400     0.0439019   -0.0021634  
   0.834958300     0.0433753   -0.0107920  
   0.836958200     0.0415062   -0.0195640  
   0.838958100     0.0383567   -0.0278127  
   0.840958000     0.0339395   -0.0356061  
   0.842957900     0.0283890   -0.0427226  
   0.844957800     0.0217388   -0.0490336  
   0.846957700     0.0141436   -0.0543470  
   0.848957600     0.0058291   -0.0585216  
   0.850957500    -0.0031142   -0.0614756  
   0.852957400    -0.0124702   -0.0631104  
   0.854957300    -0.0220725   -0.0633742  
   0.856957200    -0.0316457   -0.0622049  
   0.858957100    -0.0410905   -0.0597045  
   0.860957000    -0.0501365   -0.0558633  
   0.862956900    -0.0589049   -0.0507749  
   0.864956800    -0.0666404   -0.0446641  
   0.866956700    -0.0736188   -0.0375184  
   0.868956600    -0.0795885   -0.0294463  
   0.870956500    -0.0843440   -0.0207934  
   0.872956400    -0.0878277   -0.0115883  
   0.874956300    -0.0900255   -0.0020470  
   0.876956200    -0.0907513    0.0077834  
   0.878956100    -0.0900665    0.0175871  
   0.880956000    -0.0880103    0.0272583  
   0.882955900    -0.0846247    0.0365267  
   0.884955800    -0.0799056    0.0454414  
   0.886955700    -0.0740748    0.0533445  
   0.888955600    -0.0672407    0.0603246  
   0.890955500    -0.0594699    0.0662037  
   0.892955400    -0.0510518    0.0708860  
   0.894955300    -0.0421634    0.0742623  
