! MS46122B
! 2250307/22442219
! 6/12/2025 7:34:18 AM
! C:\USERS\SPARKY\DOCUMENTS\VNA_DATA\JUNE12_2025\3.1 KELVIN\ECAL-LOAD.S1P
! CHANNEL.1
! TR.MEASUREMENT
! RAW.DATA
# GHZ S RI R 50.0
! FREQ.GHZ         S11RE         S11IM         
!; PortSelection: Port_1
   0.001000000     0.0138556    0.0065098  
   0.002999900    -0.0008120    0.0555821  
   0.004999800    -0.0028712    0.0624327  
   0.006999700    -0.0031835    0.0595465  
   0.008999600    -0.0029217    0.0528366  
   0.010999500    -0.0020654    0.0445899  
   0.012999400    -0.0004896    0.0357954  
   0.014999300     0.0016677    0.0271082  
   0.016999200     0.0043418    0.0188627  
   0.018999100     0.0072977    0.0111938  
   0.020999000     0.0104198    0.0043714  
   0.022998900     0.0134752   -0.0016524  
   0.024998800     0.0138473   -0.0058236  
   0.026998700     0.0185582   -0.0113300  
   0.028998600     0.0203698   -0.0151429  
   0.030998500     0.0214895   -0.0182565  
   0.032998400     0.0197442   -0.0197834  
   0.034998300     0.0218845   -0.0231670  
   0.036998200     0.0212026   -0.0250482  
   0.038998100     0.0200410   -0.0266703  
   0.040998000     0.0184101   -0.0280566  
   0.042997900     0.0164041   -0.0291109  
   0.044997800     0.0121897   -0.0288275  
   0.046997700     0.0114630   -0.0306037  
   0.048997600     0.0087268   -0.0310727  
   0.050997500     0.0058804   -0.0313444  
   0.052997400     0.0030654   -0.0312763  
   0.054997300     0.0001987   -0.0314321  
   0.056997200    -0.0025100   -0.0315333  
   0.058997100    -0.0050569   -0.0314677  
   0.060997000    -0.0075138   -0.0313012  
   0.062996900    -0.0098243   -0.0311031  
   0.064996800    -0.0119546   -0.0309615  
   0.066996700    -0.0139247   -0.0307494  
   0.068996600    -0.0158365   -0.0304428  
   0.070996500    -0.0175712   -0.0299863  
   0.072996400    -0.0192115   -0.0294294  
   0.074996300    -0.0207345   -0.0287389  
   0.076996200    -0.0221904   -0.0279192  
   0.078996100    -0.0235555   -0.0269587  
   0.080996000    -0.0248234   -0.0258892  
   0.082995900    -0.0260289   -0.0246590  
   0.084995800    -0.0271512   -0.0233370  
   0.086995700    -0.0282056   -0.0219057  
   0.088995600    -0.0291884   -0.0204191  
   0.090995500    -0.0299974   -0.0188169  
   0.092995400    -0.0307470   -0.0171487  
   0.094995300    -0.0313694   -0.0154366  
   0.096995200    -0.0318227   -0.0137235  
   0.098995100    -0.0321682   -0.0119893  
   0.100995000    -0.0323712   -0.0102883  
   0.102994900    -0.0323977   -0.0085944  
   0.104994800    -0.0323099   -0.0069857  
   0.106994700    -0.0320432   -0.0054278  
   0.108994600    -0.0316413   -0.0039537  
   0.110994500    -0.0311117   -0.0025643  
   0.112994400    -0.0304311   -0.0013490  
   0.114994300    -0.0296518   -0.0002825  
   0.116994200    -0.0287693    0.0007222  
   0.118994100    -0.0278246    0.0015246  
   0.120994000    -0.0268062    0.0021598  
   0.122993900    -0.0257958    0.0026124  
   0.124993800    -0.0247855    0.0028963  
   0.126993700    -0.0237836    0.0030018  
   0.128993600    -0.0228615    0.0029825  
   0.130993500    -0.0219806    0.0027915  
   0.132993400    -0.0212145    0.0024584  
   0.134993300    -0.0205607    0.0019998  
   0.136993200    -0.0200954    0.0014345  
   0.138993100    -0.0197810    0.0008208  
   0.140993000    -0.0196711    0.0000963  
   0.142992900    -0.0197260   -0.0006208  
   0.144992800    -0.0200159   -0.0013295  
   0.146992700    -0.0205097   -0.0020112  
   0.148992600    -0.0212031   -0.0026093  
   0.150992500    -0.0220661   -0.0030965  
   0.152992400    -0.0230995   -0.0034772  
   0.154992300    -0.0242949   -0.0036691  
   0.156992200    -0.0256473   -0.0037010  
   0.158992100    -0.0270953   -0.0034868  
   0.160992000    -0.0286025   -0.0030485  
   0.162991900    -0.0301714   -0.0023441  
   0.164991800    -0.0317016   -0.0013331  
   0.166991700    -0.0332506   -0.0000656  
   0.168991600    -0.0347249    0.0014918  
   0.170991500    -0.0360021    0.0033085  
   0.172991400    -0.0370997    0.0054017  
   0.174991300    -0.0380547    0.0077326  
   0.176991200    -0.0387377    0.0103631  
   0.178991100    -0.0391158    0.0130784  
   0.180991000    -0.0391576    0.0160088  
   0.182990900    -0.0389093    0.0190265  
   0.184990800    -0.0382636    0.0222010  
   0.186990700    -0.0371938    0.0253605  
   0.188990600    -0.0372007    0.0277679  
   0.190990500    -0.0342166    0.0316746  
   0.192990400    -0.0317138    0.0346950  
   0.194990300    -0.0289923    0.0373817  
   0.196990200    -0.0259869    0.0398006  
   0.198990100    -0.0226448    0.0419264  
   0.200990000    -0.0189537    0.0436874  
   0.202989900    -0.0149457    0.0450669  
   0.204989800    -0.0106822    0.0459685  
   0.206989700    -0.0062568    0.0464073  
   0.208989600    -0.0018808    0.0463905  
   0.210989500     0.0026570    0.0458980  
   0.212989400     0.0071867    0.0448760  
   0.214989300     0.0116024    0.0433874  
   0.216989200     0.0157775    0.0413464  
   0.218989100     0.0197304    0.0387839  
   0.220989000     0.0234226    0.0357644  
   0.222988900     0.0269043    0.0321427  
   0.224988800     0.0298879    0.0282740  
   0.226988700     0.0323993    0.0241236  
   0.228988600     0.0343962    0.0197179  
   0.230988500     0.0358560    0.0150918  
   0.232988400     0.0368030    0.0103334  
   0.234988300     0.0371473    0.0054805  
   0.236988200     0.0369928    0.0006086  
   0.238988100     0.0362660   -0.0041419  
   0.240988000     0.0349206   -0.0087722  
   0.242987900     0.0330208   -0.0131492  
   0.244987800     0.0306646   -0.0172523  
   0.246987700     0.0278596   -0.0209952  
   0.248987600     0.0246517   -0.0243505  
   0.250987500     0.0211189   -0.0272459  
   0.252987400     0.0172561   -0.0296433  
   0.254987300     0.0131953   -0.0315180  
   0.256987200     0.0090644   -0.0328691  
   0.258987100     0.0048274   -0.0336390  
   0.260987000     0.0006569   -0.0338600  
   0.262986900    -0.0034187   -0.0335361  
   0.264986800    -0.0073420   -0.0326532  
   0.266986700    -0.0110106   -0.0312640  
   0.268986600    -0.0143762   -0.0294478  
   0.270986500    -0.0173693   -0.0273022  
   0.272986400    -0.0199719   -0.0248321  
   0.274986300    -0.0221215   -0.0220752  
   0.276986200    -0.0237991   -0.0191360  
   0.278986100    -0.0249729   -0.0160066  
   0.280986000    -0.0256454   -0.0128006  
   0.282985900    -0.0257719   -0.0096615  
   0.284985800    -0.0254264   -0.0065680  
   0.286985700    -0.0246470   -0.0036821  
   0.288985600    -0.0234302   -0.0011179  
   0.290985500    -0.0218512    0.0011509  
   0.292985400    -0.0199465    0.0030772  
   0.294985300    -0.0178004    0.0045494  
   0.296985200    -0.0154069    0.0055969  
   0.298985100    -0.0128537    0.0063089  
   0.300985000    -0.0102678    0.0065144  
   0.302984900    -0.0076905    0.0062509  
   0.304984800    -0.0052419    0.0054757  
   0.306984700    -0.0029361    0.0042286  
   0.308984600    -0.0008679    0.0025390  
   0.310984500     0.0008544    0.0004536  
   0.312984400     0.0021825   -0.0019567  
   0.314984300     0.0031752   -0.0046364  
   0.316984200     0.0036882   -0.0075771  
   0.318984100     0.0037513   -0.0105990  
   0.320984000     0.0032992   -0.0136097  
   0.322983900     0.0023442   -0.0165705  
   0.324983800     0.0008834   -0.0194639  
   0.326983700    -0.0010822   -0.0221575  
   0.328983600    -0.0034989   -0.0246016  
   0.330983500    -0.0063826   -0.0267250  
   0.332983400    -0.0095535   -0.0285250  
   0.334983300    -0.0130657   -0.0298842  
   0.336983200    -0.0167872   -0.0307399  
   0.338983100    -0.0207401   -0.0311298  
   0.340983000    -0.0247247   -0.0309730  
   0.342982900    -0.0288049   -0.0302512  
   0.344982800    -0.0327791   -0.0289557  
   0.346982700    -0.0366345   -0.0269964  
   0.348982600    -0.0403394   -0.0244949  
   0.350982500    -0.0436843   -0.0214988  
   0.352982400    -0.0466697   -0.0180374  
   0.354982300    -0.0492522   -0.0138550  
   0.356982200    -0.0512677   -0.0084807  
   0.358982100    -0.0524492   -0.0028713  
   0.360982000    -0.0528578    0.0027762  
   0.362981900    -0.0523456    0.0084470  
   0.364981800    -0.0510909    0.0140188  
   0.366981700    -0.0489644    0.0193101  
   0.368981600    -0.0460686    0.0242955  
   0.370981500    -0.0425523    0.0287039  
   0.372981400    -0.0383969    0.0325671  
   0.374981300    -0.0337729    0.0357575  
   0.376981200    -0.0420049    0.0284020  
   0.378981100    -0.0374997    0.0318048  
   0.380981000    -0.0326750    0.0344262  
   0.382980900    -0.0282857    0.0358703  
   0.384980800    -0.0241498    0.0365333  
   0.386980700    -0.0200988    0.0365718  
   0.388980600    -0.0161510    0.0359796  
   0.390980500    -0.0124521    0.0348131  
   0.392980400    -0.0090586    0.0330330  
   0.394980300    -0.0061110    0.0307764  
   0.396980200    -0.0035952    0.0280655  
   0.398980100    -0.0016179    0.0250017  
   0.400980000    -0.0001193    0.0217171  
   0.402979900     0.0007337    0.0182965  
   0.404979800     0.0010120    0.0147815  
   0.406979700     0.0006822    0.0113098  
   0.408979600    -0.0002512    0.0080022  
   0.410979500    -0.0018040    0.0048772  
   0.412979400    -0.0038828    0.0021231  
   0.414979300    -0.0064592   -0.0002415  
   0.416979200    -0.0095289   -0.0021422  
   0.418979100    -0.0129036   -0.0034944  
   0.420979000    -0.0166131   -0.0041904  
   0.422978900    -0.0204637   -0.0042590  
   0.424978800    -0.0244307   -0.0036702  
   0.426978700    -0.0283675   -0.0023505  
   0.428978600    -0.0321559   -0.0003308  
   0.430978500    -0.0356858    0.0023244  
   0.432978400    -0.0389082    0.0055829  
   0.434978300    -0.0416198    0.0094053  
   0.436978200    -0.0438385    0.0137619  
   0.438978100    -0.0454618    0.0185047  
   0.440978000    -0.0463994    0.0235985  
   0.442977900    -0.0466271    0.0289417  
   0.444977800    -0.0460513    0.0344695  
   0.446977700    -0.0447203    0.0399442  
   0.448977600    -0.0426254    0.0454144  
   0.450977500    -0.0397009    0.0506881  
   0.452977400    -0.0360086    0.0556377  
   0.454977300    -0.0316693    0.0601740  
   0.456977200    -0.0265407    0.0641918  
   0.458977100    -0.0208431    0.0676109  
   0.460977000    -0.0146726    0.0702201  
   0.462976900    -0.0080397    0.0720198  
   0.464976800    -0.0011556    0.0730174  
   0.466976700     0.0058560    0.0730663  
   0.468976600     0.0129554    0.0721822  
   0.470976500     0.0199019    0.0703725  
   0.472976400     0.0266033    0.0676818  
   0.474976300     0.0329971    0.0641085  
   0.476976200     0.0388752    0.0596470  
   0.478976100     0.0442251    0.0545305  
   0.480976000     0.0487959    0.0488351  
   0.482975900     0.0526863    0.0425805  
   0.484975800     0.0556854    0.0359379  
   0.486975700     0.0578113    0.0288780  
   0.488975600     0.0590271    0.0216614  
   0.490975500     0.0593277    0.0143666  
   0.492975400     0.0586661    0.0070655  
   0.494975300     0.0569815   -0.0000033  
   0.496975200     0.0543705   -0.0067787  
   0.498975100     0.0510072   -0.0131663  
   0.500975000     0.0467203   -0.0189077  
   0.502974900     0.0418426   -0.0239637  
   0.504974800     0.0362969   -0.0282095  
   0.506974700     0.0302665   -0.0316655  
   0.508974600     0.0236951   -0.0343148  
   0.510974500     0.0168657   -0.0359369  
   0.512974400     0.0099643   -0.0365580  
   0.514974300     0.0032411   -0.0361634  
   0.516974200    -0.0032938   -0.0348373  
   0.518974100    -0.0093856   -0.0325568  
   0.520974000    -0.0150410   -0.0294345  
   0.522973900    -0.0200590   -0.0255301  
   0.524973800    -0.0243182   -0.0209598  
   0.526973700    -0.0278234   -0.0158333  
   0.528973600    -0.0304620   -0.0102277  
   0.530973500    -0.0321355   -0.0044217  
   0.532973400    -0.0328581    0.0016344  
   0.534973300    -0.0325721    0.0076199  
   0.536973200    -0.0313632    0.0134772  
   0.538973100    -0.0291295    0.0190980  
   0.540973000    -0.0260283    0.0243026  
   0.542972900    -0.0221203    0.0288965  
   0.544972800    -0.0174795    0.0328326  
   0.546972700    -0.0122349    0.0359585  
   0.548972600    -0.0065208    0.0381628  
   0.550972500    -0.0004214    0.0394479  
   0.552972400     0.0058675    0.0396532  
   0.554972300     0.0122675    0.0388417  
   0.556972200     0.0185471    0.0369747  
   0.558972100     0.0245006    0.0340697  
   0.560972000     0.0302626    0.0301537  
   0.562971900     0.0353415    0.0254081  
   0.564971800     0.0397566    0.0198295  
   0.566971700     0.0432261    0.0135653  
   0.568971600     0.0458086    0.0067282  
   0.570971500     0.0473834   -0.0006043  
   0.572971400     0.0480657   -0.0083889  
   0.574971300     0.0474472   -0.0162441  
   0.576971200     0.0455771   -0.0241869  
   0.578971100     0.0425896   -0.0319658  
   0.580971000     0.0383884   -0.0394407  
   0.582970900     0.0331944   -0.0463257  
   0.584970800     0.0269293   -0.0525080  
   0.586970700     0.0197266   -0.0578829  
   0.588970600     0.0116876   -0.0623056  
   0.590970500     0.0030938   -0.0656852  
   0.592970400    -0.0059948   -0.0679301  
   0.594970300    -0.0154248   -0.0688486  
   0.596970200    -0.0252765   -0.0685022  
   0.598970100    -0.0348827   -0.0669558  
   0.600970000    -0.0443205   -0.0641112  
   0.602969900    -0.0534679   -0.0600411  
   0.604969800    -0.0620587   -0.0547403  
   0.606969700    -0.0699574   -0.0483486  
   0.608969600    -0.0770831   -0.0409233  
   0.610969500    -0.0831612   -0.0325780  
   0.612969400    -0.0881117   -0.0234406  
   0.614969300    -0.0918817   -0.0136776  
   0.616969200    -0.0943054   -0.0033227  
   0.618969100    -0.0953813    0.0071412  
   0.620969000    -0.0951602    0.0176149  
   0.622968900    -0.0935469    0.0279500  
   0.624968800    -0.0906762    0.0380171  
   0.626968700    -0.0865153    0.0475889  
   0.628968600    -0.0810662    0.0564926  
   0.630968500    -0.0745367    0.0646576  
   0.632968400    -0.0670691    0.0718253  
   0.634968300    -0.0587515    0.0781115  
   0.636968200    -0.0496619    0.0831184  
   0.638968100    -0.0400663    0.0868381  
   0.640968000    -0.0301864    0.0890789  
   0.642967900    -0.0202138    0.0900015  
   0.644967800    -0.0102585    0.0895642  
   0.646967700    -0.0006093    0.0877551  
   0.648967600     0.0086772    0.0848016  
   0.650967500     0.0174176    0.0806067  
   0.652967400     0.0251580    0.0752936  
   0.654967300     0.0320528    0.0690019  
   0.656967200     0.0378186    0.0620813  
   0.658967100     0.0424427    0.0544963  
   0.660967000     0.0459054    0.0464076  
   0.662966900     0.0482438    0.0377926  
   0.664966800     0.0493144    0.0289790  
   0.666966700     0.0490975    0.0201423  
   0.668966600     0.0475896    0.0115157  
   0.670966500     0.0449099    0.0032998  
   0.672966400     0.0410748   -0.0043705  
   0.674966300     0.0361172   -0.0114440  
   0.676966200     0.0303044   -0.0173135  
   0.678966100     0.0237037   -0.0220940  
   0.680966000     0.0165247   -0.0258355  
   0.682965900     0.0088991   -0.0282790  
   0.684965800     0.0008292   -0.0296787  
   0.686965700    -0.0071125   -0.0296899  
   0.688965600    -0.0149002   -0.0284105  
   0.690965500    -0.0224150   -0.0259150  
   0.692965400    -0.0294110   -0.0222677  
   0.694965300    -0.0357776   -0.0175358  
   0.696965200    -0.0412641   -0.0118960  
   0.698965100    -0.0458743   -0.0054170  
   0.700965000    -0.0494190    0.0017169  
   0.702964900    -0.0517746    0.0093270  
   0.704964800    -0.0529581    0.0173739  
   0.706964700    -0.0528499    0.0256106  
   0.708964600    -0.0513816    0.0337193  
   0.710964500    -0.0486456    0.0415540  
   0.712964400    -0.0447013    0.0490298  
   0.714964300    -0.0396204    0.0557672  
   0.716964200    -0.0335755    0.0617819  
   0.718964100    -0.0267231    0.0669286  
   0.720964000    -0.0191256    0.0710551  
   0.722963900    -0.0110645    0.0741004  
   0.724963800    -0.0024419    0.0759713  
   0.726963700     0.0064469    0.0766957  
   0.728963600     0.0152679    0.0760184  
   0.730963500     0.0239892    0.0740832  
   0.732963400     0.0325159    0.0708587  
   0.734963300     0.0405446    0.0664354  
   0.736963200     0.0503440    0.0592873  
   0.738963100     0.0590588    0.0507413  
   0.740963000     0.0665655    0.0408631  
   0.742962900     0.0725422    0.0298697  
   0.744962800     0.0767284    0.0183036  
   0.746962700     0.0791109    0.0064423  
   0.748962600     0.0796593   -0.0055589  
   0.750962500     0.0633867    0.0125163  
   0.752962400     0.0642343    0.0008825  
   0.754962300     0.0631851   -0.0105228  
   0.756962200     0.0603946   -0.0213756  
   0.758962100     0.0559326   -0.0316238  
   0.760962000     0.0500148   -0.0406023  
   0.762961900     0.0427933   -0.0477773  
   0.764961800     0.0347355   -0.0529290  
   0.766961700     0.0260859   -0.0568547  
   0.768961600     0.0170999   -0.0594181  
   0.770961500     0.0078357   -0.0607009  
   0.772961400    -0.0014074   -0.0606558  
   0.774961300    -0.0105676   -0.0593153  
   0.776961200    -0.0192789   -0.0567836  
   0.778961100    -0.0275190   -0.0530673  
   0.780961000    -0.0350457   -0.0482805  
   0.782960900    -0.0417173   -0.0424895  
   0.784960800    -0.0473033   -0.0358785  
   0.786960700    -0.0517358   -0.0285913  
   0.788960600    -0.0550477   -0.0206703  
   0.790960500    -0.0571689   -0.0124073  
   0.792960400    -0.0579133   -0.0041026  
   0.794960300    -0.0573582    0.0041294  
   0.796960200    -0.0555968    0.0121216  
   0.798960100    -0.0526184    0.0198077  
   0.800960000    -0.0486375    0.0268996  
   0.802959900    -0.0436239    0.0330499  
   0.804959800    -0.0378494    0.0383527  
   0.806959700    -0.0314406    0.0426272  
   0.808959600    -0.0244250    0.0458146  
   0.810959500    -0.0170442    0.0477985  
   0.812959400    -0.0093670    0.0485568  
   0.814959300    -0.0017285    0.0481263  
   0.816959200     0.0057703    0.0464556  
   0.818959100     0.0129206    0.0435726  
   0.820959000     0.0196207    0.0395523  
   0.822958900     0.0256586    0.0345535  
   0.824958800     0.0309399    0.0286125  
   0.826958700     0.0354213    0.0216798  
   0.828958600     0.0386072    0.0142835  
   0.830958500     0.0405623    0.0063099  
   0.832958400     0.0412664   -0.0019272  
   0.834958300     0.0406866   -0.0101864  
   0.836958200     0.0389548   -0.0186365  
   0.838958100     0.0358774   -0.0265427  
   0.840958000     0.0316119   -0.0340465  
   0.842957900     0.0262514   -0.0408669  
   0.844957800     0.0198760   -0.0468791  
   0.846957700     0.0125106   -0.0519884  
   0.848957600     0.0044805   -0.0559687  
   0.850957500    -0.0040591   -0.0587595  
   0.852957400    -0.0130749   -0.0603091  
   0.854957300    -0.0222848   -0.0605132  
   0.856957200    -0.0315071   -0.0593825  
   0.858957100    -0.0405765   -0.0569425  
   0.860957000    -0.0492943   -0.0532600  
   0.862956900    -0.0577366   -0.0483675  
   0.864956800    -0.0651790   -0.0424686  
   0.866956700    -0.0719390   -0.0355569  
   0.868956600    -0.0776927   -0.0278451  
   0.870956500    -0.0822792   -0.0195051  
   0.872956400    -0.0856194   -0.0106608  
   0.874956300    -0.0877268   -0.0014601  
   0.876956200    -0.0884385    0.0080360  
   0.878956100    -0.0877966    0.0174997  
   0.880956000    -0.0858161    0.0267768  
   0.882955900    -0.0825265    0.0356927  
   0.884955800    -0.0780482    0.0442482  
   0.886955700    -0.0724547    0.0519003  
   0.888955600    -0.0658657    0.0585762  
   0.890955500    -0.0584357    0.0642752  
   0.892955400    -0.0503238    0.0688020  
   0.894955300    -0.0417819    0.0720700  
