! MS46122B
! 2250307/22442219
! 6/15/2025 8:09:56 AM
! C:\USERS\SPARKY\DOCUMENTS\VNA_DATA\JUNE15_2025\3.2K\ECAL_OPEN_C.S1P
! CHANNEL.1
! TR.MEASUREMENT
! RAW.DATA
# GHZ S RI R 50.0
! FREQ.GHZ         S11RE         S11IM         
!; PortSelection: Port_1
   0.001000000     1.0273770   -0.0532892  
   0.002999900     0.9419987   -0.2066805  
   0.004999800     0.8803056   -0.3471953  
   0.006999700     0.8069035   -0.4785375  
   0.008999600     0.7183239   -0.5917155  
   0.010999500     0.6186073   -0.6922235  
   0.012999400     0.5087598   -0.7799600  
   0.014999300     0.3900676   -0.8531893  
   0.016999200     0.2628969   -0.9094158  
   0.018999100     0.1289642   -0.9467039  
   0.020999000    -0.0090061   -0.9635251  
   0.022998900    -0.1480181   -0.9584765  
   0.024998800    -0.2616394   -0.9063744  
   0.026998700    -0.4176400   -0.8820740  
   0.028998600    -0.5410555   -0.8118042  
   0.030998500    -0.6525891   -0.7221154  
   0.032998400    -0.7164236   -0.6092787  
   0.034998300    -0.8287454   -0.4955605  
   0.036998200    -0.8886980   -0.3648064  
   0.038998100    -0.9286683   -0.2273435  
   0.040998000    -0.9478663   -0.0851601  
   0.042997900    -0.9466357    0.0571033  
   0.044997800    -0.8997226    0.1745255  
   0.046997700    -0.8825306    0.3324855  
   0.048997600    -0.8216816    0.4602813  
   0.050997500    -0.7427765    0.5778903  
   0.052997400    -0.6484396    0.6809151  
   0.054997300    -0.5362907    0.7714257  
   0.056997200    -0.4129911    0.8427905  
   0.058997100    -0.2803663    0.8942966  
   0.060997000    -0.1412694    0.9249389  
   0.062996900     0.0012420    0.9337837  
   0.064996800     0.1435561    0.9209372  
   0.066996700     0.2822150    0.8863647  
   0.068996600     0.4139620    0.8314317  
   0.070996500     0.5359268    0.7570578  
   0.072996400     0.6451342    0.6651119  
   0.074996300     0.7395325    0.5577629  
   0.076996200     0.8163891    0.4374877  
   0.078996100     0.8741221    0.3068827  
   0.080996000     0.9112042    0.1694425  
   0.082995900     0.9270204    0.0280310  
   0.084995800     0.9209887   -0.1137918  
   0.086995700     0.8937963   -0.2525769  
   0.088995600     0.8457980   -0.3853505  
   0.090995500     0.7786971   -0.5088239  
   0.092995400     0.6938275   -0.6202610  
   0.094995300     0.5939302   -0.7176687  
   0.096995200     0.4807451   -0.7986705  
   0.098995100     0.3575611   -0.8618766  
   0.100995000     0.2269158   -0.9059243  
   0.102994900     0.0918153   -0.9299935  
   0.104994800    -0.0448488   -0.9342927  
   0.106994700    -0.1799252   -0.9190500  
   0.108994600    -0.3110490   -0.8840503  
   0.110994500    -0.4357133   -0.8305897  
   0.112994400    -0.5507800   -0.7601936  
   0.114994300    -0.6544907   -0.6741694  
   0.116994200    -0.7441736   -0.5741656  
   0.118994100    -0.8187866   -0.4626656  
   0.120994000    -0.8764586   -0.3417075  
   0.122993900    -0.9157057   -0.2137419  
   0.124993800    -0.9368174   -0.0817975  
   0.126993700    -0.9386129    0.0521787  
   0.128993600    -0.9215461    0.1850848  
   0.130993500    -0.8852564    0.3145599  
   0.132993400    -0.8306901    0.4374143  
   0.134993300    -0.7588162    0.5516669  
   0.136993200    -0.6712288    0.6542755  
   0.138993100    -0.5688260    0.7438452  
   0.140993000    -0.4543414    0.8174079  
   0.142992900    -0.3294846    0.8738518  
   0.144992800    -0.1974105    0.9119763  
   0.146992700    -0.0602613    0.9297376  
   0.148992600     0.0784553    0.9268595  
   0.150992500     0.2155196    0.9034230  
   0.152992400     0.3484047    0.8589856  
   0.154992300     0.4735357    0.7950506  
   0.156992200     0.5878068    0.7125881  
   0.158992100     0.6886649    0.6132614  
   0.160992000     0.7733204    0.4994842  
   0.162991900     0.8397605    0.3736512  
   0.164991800     0.8860445    0.2385587  
   0.166991700     0.9108231    0.0982487  
   0.168991600     0.9136272   -0.0445099  
   0.170991500     0.8943120   -0.1860272  
   0.172991400     0.8528500   -0.3227531  
   0.174991300     0.7913318   -0.4508396  
   0.176991200     0.7103881   -0.5679205  
   0.178991100     0.6125131   -0.6709945  
   0.180991000     0.5006541   -0.7567868  
   0.182990900     0.3771405   -0.8244346  
   0.184990800     0.2450186   -0.8721806  
   0.186990700     0.1079080   -0.8986289  
   0.188990600    -0.0053050   -0.9037797  
   0.190990500    -0.1642775   -0.8882788  
   0.192990400    -0.3005191   -0.8512898  
   0.194990300    -0.4254125   -0.7952313  
   0.196990200    -0.5392749   -0.7219558  
   0.198990100    -0.6403419   -0.6328685  
   0.200990000    -0.7267020   -0.5303583  
   0.202989900    -0.7969287   -0.4163187  
   0.204989800    -0.8492363   -0.2939224  
   0.206989700    -0.8825924   -0.1661198  
   0.208989600    -0.8970645   -0.0354463  
   0.210989500    -0.8923913    0.0957866  
   0.212989400    -0.8684550    0.2251836  
   0.214989300    -0.8262579    0.3491707  
   0.216989200    -0.7667473    0.4651231  
   0.218989100    -0.6916840    0.5709084  
   0.220989000    -0.6018457    0.6652117  
   0.222988900    -0.4988561    0.7457348  
   0.224988800    -0.3852777    0.8106316  
   0.226988700    -0.2636212    0.8582115  
   0.228988600    -0.1366769    0.8878506  
   0.230988500    -0.0063832    0.8987589  
   0.232988400     0.1241259    0.8908880  
   0.234988300     0.2531513    0.8640330  
   0.236988200     0.3770688    0.8184548  
   0.238988100     0.4932695    0.7551026  
   0.240988000     0.5991991    0.6754122  
   0.242987900     0.6920819    0.5811296  
   0.244987800     0.7706524    0.4742107  
   0.246987700     0.8329165    0.3560948  
   0.248987600     0.8772348    0.2295427  
   0.250987500     0.9027414    0.0971127  
   0.252987400     0.9077613   -0.0376270  
   0.254987300     0.8931832   -0.1712383  
   0.256987200     0.8592063   -0.3009424  
   0.258987100     0.8061075   -0.4243528  
   0.260987000     0.7349900   -0.5390870  
   0.262986900     0.6475337   -0.6423738  
   0.264986800     0.5451683   -0.7315372  
   0.266986700     0.4310866   -0.8044462  
   0.268986600     0.3076565   -0.8594486  
   0.270986500     0.1779352   -0.8951380  
   0.272986400     0.0448157   -0.9110820  
   0.274986300    -0.0889186   -0.9074432  
   0.276986200    -0.2205119   -0.8838834  
   0.278986100    -0.3473108   -0.8411466  
   0.280986000    -0.4666073   -0.7799161  
   0.282985900    -0.5753070   -0.7017745  
   0.284985800    -0.6711451   -0.6086113  
   0.286985700    -0.7515860   -0.5027507  
   0.288985600    -0.8151976   -0.3872705  
   0.290985500    -0.8607751   -0.2643456  
   0.292985400    -0.8877986   -0.1369520  
   0.294985300    -0.8960725   -0.0068442  
   0.296985200    -0.8851904    0.1236975  
   0.298985100    -0.8552523    0.2513673  
   0.300985000    -0.8069072    0.3739657  
   0.302984900    -0.7410443    0.4871541  
   0.304984800    -0.6590936    0.5895011  
   0.306984700    -0.5637398    0.6785347  
   0.308984600    -0.4567301    0.7519267  
   0.310984500    -0.3406612    0.8089606  
   0.312984400    -0.2175677    0.8480536  
   0.314984300    -0.0896395    0.8690866  
   0.316984200     0.0401364    0.8709834  
   0.318984100     0.1693542    0.8537449  
   0.320984000     0.2958118    0.8174042  
   0.322983900     0.4159428    0.7623590  
   0.324983800     0.5267097    0.6896253  
   0.326983700     0.6253916    0.6011474  
   0.328983600     0.7095852    0.4984646  
   0.330983500     0.7774604    0.3843985  
   0.332983400     0.8269522    0.2618858  
   0.334983300     0.8575295    0.1331779  
   0.336983200     0.8685789    0.0011402  
   0.338983100     0.8596504   -0.1310206  
   0.340983000     0.8309318   -0.2604792  
   0.342982900     0.7829618   -0.3839863  
   0.344982800     0.7167274   -0.4995167  
   0.346982700     0.6331362   -0.6042708  
   0.348982600     0.5347365   -0.6949546  
   0.350982500     0.4232902   -0.7698240  
   0.352982400     0.3019078   -0.8268610  
   0.354982300     0.1676784   -0.8659268  
   0.356982200     0.0135233   -0.8840119  
   0.358982100    -0.1404096   -0.8745317  
   0.360982000    -0.2892579   -0.8384945  
   0.362981900    -0.4291298   -0.7776819  
   0.364981800    -0.5559137   -0.6934471  
   0.366981700    -0.6654739   -0.5894444  
   0.368981600    -0.7551226   -0.4686963  
   0.370981500    -0.8225468   -0.3348381  
   0.372981400    -0.8658130   -0.1926442  
   0.374981300    -0.8847247   -0.0449278  
   0.376981200    -0.8718144   -0.1923000  
   0.378981100    -0.8911988   -0.0430139  
   0.380981000    -0.8848920    0.1073300  
   0.382980900    -0.8581229    0.2395393  
   0.384980800    -0.8144615    0.3603750  
   0.386980700    -0.7538268    0.4735048  
   0.388980600    -0.6777032    0.5762604  
   0.390980500    -0.5877385    0.6667821  
   0.392980400    -0.4863344    0.7429220  
   0.394980300    -0.3753438    0.8034870  
   0.396980200    -0.2570360    0.8476629  
   0.398980100    -0.1331343    0.8747529  
   0.400980000    -0.0066301    0.8833657  
   0.402979900     0.1205823    0.8735608  
   0.404979800     0.2449045    0.8456138  
   0.406979700     0.3643602    0.7996123  
   0.408979600     0.4764141    0.7365467  
   0.410979500     0.5786370    0.6570536  
   0.412979400     0.6689657    0.5624155  
   0.414979300     0.7444687    0.4545249  
   0.416979200     0.8032270    0.3360773  
   0.418979100     0.8432705    0.2097823  
   0.420979000     0.8639323    0.0779305  
   0.422978900     0.8640755   -0.0560758  
   0.424978800     0.8431277   -0.1891973  
   0.426978700     0.8017630   -0.3181787  
   0.428978600     0.7406194   -0.4392529  
   0.430978500     0.6615433   -0.5488165  
   0.432978400     0.5669519   -0.6445197  
   0.434978300     0.4584220   -0.7242557  
   0.436978200     0.3392616   -0.7864419  
   0.438978100     0.2119935   -0.8287015  
   0.440978000     0.0803926   -0.8507212  
   0.442977900    -0.0532686   -0.8521990  
   0.444977800    -0.1842208   -0.8331982  
   0.446977700    -0.3107390   -0.7945325  
   0.448977600    -0.4286946   -0.7373970  
   0.450977500    -0.5360521   -0.6632568  
   0.452977400    -0.6309810   -0.5738025  
   0.454977300    -0.7112874   -0.4709807  
   0.456977200    -0.7751721   -0.3576996  
   0.458977100    -0.8208300   -0.2366561  
   0.460977000    -0.8475401   -0.1106420  
   0.462976900    -0.8553811    0.0167990  
   0.464976800    -0.8442619    0.1435135  
   0.466976700    -0.8148757    0.2663993  
   0.468976600    -0.7679105    0.3829294  
   0.470976500    -0.7046603    0.4913199  
   0.472976400    -0.6266977    0.5887101  
   0.474976300    -0.5358971    0.6734102  
   0.476976200    -0.4343317    0.7442349  
   0.478976100    -0.3237754    0.7994474  
   0.480976000    -0.2076259    0.8380108  
   0.482975900    -0.0875763    0.8597932  
   0.484975800     0.0341764    0.8646286  
   0.486975700     0.1559832    0.8520248  
   0.488975600     0.2747403    0.8224805  
   0.490975500     0.3885820    0.7760444  
   0.492975400     0.4951951    0.7138153  
   0.494975300     0.5921183    0.6367728  
   0.496975200     0.6775137    0.5459665  
   0.498975100     0.7491239    0.4439512  
   0.500975000     0.8054196    0.3321954  
   0.502974900     0.8454984    0.2131123  
   0.504974800     0.8677822    0.0886553  
   0.506974700     0.8714810   -0.0387371  
   0.508974600     0.8560861   -0.1671063  
   0.510974500     0.8217645   -0.2920785  
   0.512974400     0.7688164   -0.4113246  
   0.514974300     0.6987982   -0.5209498  
   0.516974200     0.6128863   -0.6191843  
   0.518974100     0.5132386   -0.7034580  
   0.520974000     0.4020199   -0.7716085  
   0.522973900     0.2812938   -0.8226692  
   0.524973800     0.1543313   -0.8547016  
   0.526973700     0.0238973   -0.8672032  
   0.528973600    -0.1070009   -0.8597425  
   0.530973500    -0.2354587   -0.8328715  
   0.532973400    -0.3581949   -0.7865903  
   0.534973300    -0.4724361   -0.7221750  
   0.536973200    -0.5751843   -0.6415055  
   0.538973100    -0.6642364   -0.5466191  
   0.540973000    -0.7371206   -0.4403488  
   0.542972900    -0.7933850   -0.3245019  
   0.544972800    -0.8317649   -0.2021721  
   0.546972700    -0.8513416   -0.0751468  
   0.548972600    -0.8516105    0.0531649  
   0.550972500    -0.8329854    0.1797057  
   0.552972400    -0.7955164    0.3018718  
   0.554972300    -0.7401304    0.4169427  
   0.556972200    -0.6682884    0.5223068  
   0.558972100    -0.5816202    0.6154492  
   0.560972000    -0.4824200    0.6944503  
   0.562971900    -0.3728540    0.7574795  
   0.564971800    -0.2557862    0.8033256  
   0.566971700    -0.1332533    0.8313616  
   0.568971600    -0.0085158    0.8410946  
   0.570971500     0.1161876    0.8319808  
   0.572971400     0.2387413    0.8044733  
   0.574971300     0.3559783    0.7589086  
   0.576971200     0.4656496    0.6960132  
   0.578971100     0.5650483    0.6167523  
   0.580971000     0.6516418    0.5237505  
   0.582970900     0.7229076    0.4187693  
   0.584970800     0.7776142    0.3045332  
   0.586970700     0.8145094    0.1830953  
   0.588970600     0.8326939    0.0581756  
   0.590970500     0.8322476   -0.0689348  
   0.592970400     0.8124955   -0.1938373  
   0.594970300     0.7742041   -0.3148713  
   0.596970200     0.7180956   -0.4286028  
   0.598970100     0.6456773   -0.5325560  
   0.600970000     0.5581280   -0.6251518  
   0.602969900     0.4579297   -0.7032227  
   0.604969800     0.3469864   -0.7653218  
   0.606969700     0.2278429   -0.8102844  
   0.608969600     0.1032388   -0.8367462  
   0.610969500    -0.0239407   -0.8445145  
   0.612969400    -0.1504181   -0.8329125  
   0.614969300    -0.2728670   -0.8022481  
   0.616969200    -0.3889222   -0.7547582  
   0.618969100    -0.4959006   -0.6910756  
   0.620969000    -0.5918159   -0.6129304  
   0.622968900    -0.6753231   -0.5221521  
   0.624968800    -0.7446901   -0.4202073  
   0.626968700    -0.7985811   -0.3097809  
   0.628968600    -0.8359269   -0.1927214  
   0.630968500    -0.8563082   -0.0715359  
   0.632968400    -0.8589231    0.0509286  
   0.634968300    -0.8438848    0.1723263  
   0.636968200    -0.8121096    0.2903706  
   0.638968100    -0.7634306    0.4021826  
   0.640968000    -0.6994873    0.5056045  
   0.642967900    -0.6214880    0.5991343  
   0.644967800    -0.5310901    0.6802188  
   0.646967700    -0.4302272    0.7479912  
   0.648967600    -0.3205449    0.8003330  
   0.650967500    -0.2054737    0.8370599  
   0.652967400    -0.0862502    0.8561467  
   0.654967300     0.0345843    0.8587772  
   0.656967200     0.1547477    0.8439438  
   0.658967100     0.2711772    0.8122392  
   0.660967000     0.3831956    0.7637274  
   0.662966900     0.4874503    0.6993173  
   0.664966800     0.5822394    0.6194230  
   0.666966700     0.6652469    0.5256055  
   0.668966600     0.7333772    0.4205638  
   0.670966500     0.7856824    0.3059982  
   0.672966400     0.8201863    0.1847120  
   0.674966300     0.8365657    0.0592433  
   0.676966200     0.8337098   -0.0674520  
   0.678966100     0.8116567   -0.1918190  
   0.680966000     0.7709267   -0.3124707  
   0.682965900     0.7127177   -0.4250867  
   0.684965800     0.6380376   -0.5277718  
   0.686965700     0.5481951   -0.6182549  
   0.688965600     0.4455683   -0.6939133  
   0.690965500     0.3326713   -0.7532005  
   0.692965400     0.2125306   -0.7942417  
   0.694965300     0.0876797   -0.8166277  
   0.696965200    -0.0389734   -0.8196754  
   0.698965100    -0.1642283   -0.8033252  
   0.700965000    -0.2852533   -0.7681856  
   0.702964900    -0.3994164   -0.7151536  
   0.704964800    -0.5038456   -0.6456762  
   0.706964700    -0.5963309   -0.5613592  
   0.708964600    -0.6746268   -0.4643337  
   0.710964500    -0.7373093   -0.3568915  
   0.712964400    -0.7827150   -0.2417756  
   0.714964300    -0.8104737   -0.1216334  
   0.716964200    -0.8198314    0.0004217  
   0.718964100    -0.8108292    0.1214919  
   0.720964000    -0.7850170    0.2393353  
   0.722963900    -0.7424595    0.3511981  
   0.724963800    -0.6845463    0.4550935  
   0.726963700    -0.6123254    0.5495557  
   0.728963600    -0.5273626    0.6325430  
   0.730963500    -0.4320750    0.7019129  
   0.732963400    -0.3276330    0.7571208  
   0.734963300    -0.2163589    0.7970022  
   0.736963200    -0.0799823    0.8224466  
   0.738963100     0.0594392    0.8249595  
   0.740963000     0.1984274    0.8044121  
   0.742962900     0.3322042    0.7603466  
   0.744962800     0.4574375    0.6945931  
   0.746962700     0.5704383    0.6084065  
   0.748962600     0.6676079    0.5043384  
   0.750962500     0.5591706    0.6106026  
   0.752962400     0.6559790    0.5062675  
   0.754962300     0.7347633    0.3868977  
   0.756962200     0.7920949    0.2554046  
   0.758962100     0.8262010    0.1157704  
   0.760962000     0.8358974   -0.0282453  
   0.762961900     0.8222367   -0.1645755  
   0.764961800     0.7896116   -0.2851319  
   0.766961700     0.7394865   -0.3999010  
   0.768961600     0.6727003   -0.5060725  
   0.770961500     0.5905936   -0.6009558  
   0.772961400     0.4947872   -0.6828395  
   0.774961300     0.3880382   -0.7492431  
   0.776961200     0.2723193   -0.7988915  
   0.778961100     0.1498358   -0.8311280  
   0.780961000     0.0237886   -0.8441311  
   0.782960900    -0.1028995   -0.8379090  
   0.784960800    -0.2275492   -0.8121340  
   0.786960700    -0.3466394   -0.7678570  
   0.788960600    -0.4573375   -0.7064041  
   0.790960500    -0.5572643   -0.6286622  
   0.792960400    -0.6436211   -0.5369806  
   0.794960300    -0.7147743   -0.4340310  
   0.796960200    -0.7694715   -0.3226934  
   0.798960100    -0.8067250   -0.2046914  
   0.800960000    -0.8253604   -0.0833125  
   0.802959900    -0.8262423    0.0389406  
   0.804959800    -0.8092138    0.1590918  
   0.806959700    -0.7748075    0.2745059  
   0.808959600    -0.7243385    0.3833546  
   0.810959500    -0.6587895    0.4828652  
   0.812959400    -0.5796961    0.5716860  
   0.814959300    -0.4888713    0.6476987  
   0.816959200    -0.3880157    0.7098048  
   0.818959100    -0.2799396    0.7564449  
   0.820959000    -0.1657945    0.7871709  
   0.822958900    -0.0485772    0.8007510  
   0.824958800     0.0696846    0.7973046  
   0.826958700     0.1858963    0.7767744  
   0.828958600     0.2985508    0.7392585  
   0.830958500     0.4047136    0.6859621  
   0.832958400     0.5019842    0.6172469  
   0.834958300     0.5882268    0.5351261  
   0.836958200     0.6616168    0.4410487  
   0.838958100     0.7205017    0.3366780  
   0.840958000     0.7636119    0.2245462  
   0.842957900     0.7897319    0.1060812  
   0.844957800     0.7981663   -0.0153509  
   0.846957700     0.7878328   -0.1371267  
   0.848957600     0.7591320   -0.2564210  
   0.850957500     0.7125395   -0.3701585  
   0.852957400     0.6489661   -0.4759570  
   0.854957300     0.5697654   -0.5710734  
   0.856957200     0.4771469   -0.6532163  
   0.858957100     0.3729901   -0.7200545  
   0.860957000     0.2602782   -0.7702502  
   0.862956900     0.1419340   -0.8024711  
   0.864956800     0.0204469   -0.8169242  
   0.866956700    -0.1014233   -0.8129159  
   0.868956600    -0.2206020   -0.7910302  
   0.870956500    -0.3350220   -0.7517803  
   0.872956400    -0.4422119   -0.6962324  
   0.874956300    -0.5398822   -0.6259114  
   0.876956200    -0.6256617   -0.5418853  
   0.878956100    -0.6982190   -0.4465977  
   0.880956000    -0.7559480   -0.3418427  
   0.882955900    -0.7976885   -0.2300125  
   0.884955800    -0.8226681   -0.1138257  
   0.886955700    -0.8304378    0.0046663  
   0.888955600    -0.8216931    0.1224201  
   0.890955500    -0.7952467    0.2372304  
   0.892955400    -0.7533119    0.3469388  
   0.894955300    -0.6964191    0.4496019  
