! MS46122B
! 2250307/22442219
! 6/16/2025 7:44:25 AM
! C:\USERS\SPARKY\DOCUMENTS\VNA_DATA\JUNE16_2025\3.1K\ECAL_LOAD_D.S1P
! CHANNEL.1
! TR.MEASUREMENT
! RAW.DATA
# GHZ S RI R 50.0
! FREQ.GHZ         S11RE         S11IM         
!; PortSelection: Port_1
   0.001000000     0.0169318    0.0063120  
   0.002999900     0.0021779    0.0548891  
   0.004999800     0.0000388    0.0612314  
   0.006999700    -0.0005108    0.0578836  
   0.008999600    -0.0005344    0.0508168  
   0.010999500     0.0000216    0.0421849  
   0.012999400     0.0011740    0.0331176  
   0.014999300     0.0029305    0.0242024  
   0.016999200     0.0051571    0.0157604  
   0.018999100     0.0077024    0.0080348  
   0.020999000     0.0103242    0.0012044  
   0.022998900     0.0129129   -0.0047745  
   0.024998800     0.0129253   -0.0087751  
   0.026998700     0.0171226   -0.0142053  
   0.028998600     0.0185162   -0.0177544  
   0.030998500     0.0192924   -0.0206174  
   0.032998400     0.0173477   -0.0217857  
   0.034998300     0.0191222   -0.0248159  
   0.036998200     0.0182278   -0.0262498  
   0.038998100     0.0169100   -0.0274418  
   0.040998000     0.0152055   -0.0283768  
   0.042997900     0.0132134   -0.0289950  
   0.044997800     0.0091589   -0.0282819  
   0.046997700     0.0084982   -0.0295679  
   0.048997600     0.0059653   -0.0295832  
   0.050997500     0.0033886   -0.0295058  
   0.052997400     0.0008008   -0.0291685  
   0.054997300    -0.0016364   -0.0290997  
   0.056997200    -0.0039497   -0.0288724  
   0.058997100    -0.0061105   -0.0286014  
   0.060997000    -0.0080830   -0.0283170  
   0.062996900    -0.0099565   -0.0281309  
   0.064996800    -0.0116818   -0.0280116  
   0.066996700    -0.0132025   -0.0278992  
   0.068996600    -0.0146309   -0.0277754  
   0.070996500    -0.0159936   -0.0275351  
   0.072996400    -0.0172703   -0.0272449  
   0.074996300    -0.0184942   -0.0268742  
   0.076996200    -0.0196561   -0.0264391  
   0.078996100    -0.0208088   -0.0259003  
   0.080996000    -0.0219373   -0.0252118  
   0.082995900    -0.0230399   -0.0244654  
   0.084995800    -0.0241838   -0.0235819  
   0.086995700    -0.0252962   -0.0226005  
   0.088995600    -0.0263842   -0.0215095  
   0.090995500    -0.0274240   -0.0203057  
   0.092995400    -0.0284214   -0.0190283  
   0.094995300    -0.0293113   -0.0176666  
   0.096995200    -0.0301485   -0.0162289  
   0.098995100    -0.0308488   -0.0147416  
   0.100995000    -0.0314416   -0.0132120  
   0.102994900    -0.0319336   -0.0116396  
   0.104994800    -0.0322639   -0.0100365  
   0.106994700    -0.0324271   -0.0084712  
   0.108994600    -0.0324580   -0.0069109  
   0.110994500    -0.0323493   -0.0054030  
   0.112994400    -0.0320433   -0.0039825  
   0.114994300    -0.0316219   -0.0025761  
   0.116994200    -0.0310348   -0.0013173  
   0.118994100    -0.0303742   -0.0001825  
   0.120994000    -0.0295586    0.0008256  
   0.122993900    -0.0286837    0.0017423  
   0.124993800    -0.0277024    0.0024721  
   0.126993700    -0.0267249    0.0030352  
   0.128993600    -0.0257765    0.0034146  
   0.130993500    -0.0247958    0.0036411  
   0.132993400    -0.0238286    0.0037012  
   0.134993300    -0.0229759    0.0036039  
   0.136993200    -0.0222177    0.0033865  
   0.138993100    -0.0215769    0.0030335  
   0.140993000    -0.0210613    0.0025741  
   0.142992900    -0.0207194    0.0020376  
   0.144992800    -0.0206134    0.0014438  
   0.146992700    -0.0206683    0.0008209  
   0.148992600    -0.0209079    0.0001786  
   0.150992500    -0.0213520   -0.0004019  
   0.152992400    -0.0219746   -0.0009084  
   0.154992300    -0.0227900   -0.0012935  
   0.156992200    -0.0237561   -0.0015611  
   0.158992100    -0.0249136   -0.0016725  
   0.160992000    -0.0261570   -0.0015617  
   0.162991900    -0.0275225   -0.0012348  
   0.164991800    -0.0289194   -0.0006330  
   0.166991700    -0.0303494    0.0002020  
   0.168991600    -0.0318068    0.0013372  
   0.170991500    -0.0331283    0.0027579  
   0.172991400    -0.0343650    0.0044070  
   0.174991300    -0.0354711    0.0063842  
   0.176991200    -0.0363601    0.0085858  
   0.178991100    -0.0370282    0.0110057  
   0.180991000    -0.0374330    0.0136333  
   0.182990900    -0.0375180    0.0164391  
   0.184990800    -0.0372210    0.0193752  
   0.186990700    -0.0365603    0.0224131  
   0.188990600    -0.0369705    0.0248174  
   0.190990500    -0.0344617    0.0287351  
   0.192990400    -0.0323969    0.0318459  
   0.194990300    -0.0300961    0.0346928  
   0.196990200    -0.0274641    0.0373294  
   0.198990100    -0.0244530    0.0396985  
   0.200990000    -0.0210961    0.0417628  
   0.202989900    -0.0173166    0.0434925  
   0.204989800    -0.0132921    0.0448076  
   0.206989700    -0.0090650    0.0456614  
   0.208989600    -0.0046876    0.0460425  
   0.210989500    -0.0001650    0.0459579  
   0.212989400     0.0044047    0.0453564  
   0.214989300     0.0089438    0.0443015  
   0.216989200     0.0133141    0.0426750  
   0.218989100     0.0174847    0.0405068  
   0.220989000     0.0214267    0.0378428  
   0.222988900     0.0252285    0.0346252  
   0.224988800     0.0286436    0.0309142  
   0.226988700     0.0315617    0.0269050  
   0.228988600     0.0339665    0.0226118  
   0.230988500     0.0358475    0.0180195  
   0.232988400     0.0372637    0.0132618  
   0.234988300     0.0380723    0.0083687  
   0.236988200     0.0383255    0.0033636  
   0.238988100     0.0379699   -0.0015922  
   0.240988000     0.0369996   -0.0064639  
   0.242987900     0.0354719   -0.0111462  
   0.244987800     0.0333881   -0.0155855  
   0.246987700     0.0307990   -0.0197228  
   0.248987600     0.0277401   -0.0234828  
   0.250987500     0.0243234   -0.0268376  
   0.252987400     0.0205222   -0.0296495  
   0.254987300     0.0164351   -0.0320135  
   0.256987200     0.0122002   -0.0337779  
   0.258987100     0.0078134   -0.0349526  
   0.260987000     0.0034289   -0.0355575  
   0.262986900    -0.0009189   -0.0355662  
   0.264986800    -0.0051414   -0.0350327  
   0.266986700    -0.0091774   -0.0339069  
   0.268986600    -0.0129221   -0.0323093  
   0.270986500    -0.0163516   -0.0303104  
   0.272986400    -0.0193823   -0.0278954  
   0.274986300    -0.0219541   -0.0251874  
   0.276986200    -0.0240806   -0.0221759  
   0.278986100    -0.0256864   -0.0189917  
   0.280986000    -0.0267633   -0.0156288  
   0.282985900    -0.0272857   -0.0122330  
   0.284985800    -0.0273055   -0.0088731  
   0.286985700    -0.0267847   -0.0056515  
   0.288985600    -0.0258157   -0.0027128  
   0.290985500    -0.0244365   -0.0000530  
   0.292985400    -0.0226453    0.0022555  
   0.294985300    -0.0205504    0.0042194  
   0.296985200    -0.0181691    0.0056866  
   0.298985100    -0.0155551    0.0067979  
   0.300985000    -0.0128700    0.0074154  
   0.302984900    -0.0101233    0.0075343  
   0.304984800    -0.0073851    0.0071263  
   0.306984700    -0.0047918    0.0062300  
   0.308984600    -0.0024029    0.0048275  
   0.310984500    -0.0003343    0.0029314  
   0.312984400     0.0013977    0.0006633  
   0.314984300     0.0027988   -0.0019008  
   0.316984200     0.0037262   -0.0047561  
   0.318984100     0.0041987   -0.0077965  
   0.320984000     0.0041414   -0.0109347  
   0.322983900     0.0036063   -0.0140591  
   0.324983800     0.0025034   -0.0171599  
   0.326983700     0.0008918   -0.0200876  
   0.328983600    -0.0012351   -0.0228387  
   0.330983500    -0.0038485   -0.0252973  
   0.332983400    -0.0068363   -0.0274772  
   0.334983300    -0.0102116   -0.0292503  
   0.336983200    -0.0139082   -0.0305120  
   0.338983100    -0.0178133   -0.0312935  
   0.340983000    -0.0218693   -0.0315611  
   0.342982900    -0.0260306   -0.0312556  
   0.344982800    -0.0301946   -0.0302971  
   0.346982700    -0.0343367   -0.0287210  
   0.348982600    -0.0383040   -0.0265372  
   0.350982500    -0.0419556   -0.0238454  
   0.352982400    -0.0453322   -0.0205896  
   0.354982300    -0.0482961   -0.0165624  
   0.356982200    -0.0508039   -0.0112531  
   0.358982100    -0.0525040   -0.0057418  
   0.360982000    -0.0533356   -0.0000081  
   0.362981900    -0.0533381    0.0058205  
   0.364981800    -0.0524679    0.0115959  
   0.366981700    -0.0507938    0.0171847  
   0.368981600    -0.0482629    0.0225090  
   0.370981500    -0.0449844    0.0273225  
   0.372981400    -0.0410308    0.0316079  
   0.374981300    -0.0365444    0.0353092  
   0.376981200    -0.0446782    0.0275256  
   0.378981100    -0.0403207    0.0314008  
   0.380981000    -0.0355133    0.0344851  
   0.382980900    -0.0310673    0.0363547  
   0.384980800    -0.0268584    0.0374618  
   0.386980700    -0.0226151    0.0379199  
   0.388980600    -0.0184640    0.0377264  
   0.390980500    -0.0144981    0.0368419  
   0.392980400    -0.0108205    0.0353987  
   0.394980300    -0.0075006    0.0333405  
   0.396980200    -0.0046127    0.0308396  
   0.398980100    -0.0021936    0.0279530  
   0.400980000    -0.0003080    0.0246882  
   0.402979900     0.0009502    0.0212346  
   0.404979800     0.0016243    0.0176779  
   0.406979700     0.0016922    0.0140867  
   0.408979600     0.0011302    0.0105399  
   0.410979500    -0.0000511    0.0072432  
   0.412979400    -0.0018633    0.0041938  
   0.414979300    -0.0041914    0.0015181  
   0.416979200    -0.0070045   -0.0007408  
   0.418979100    -0.0102824   -0.0024197  
   0.420979000    -0.0138265   -0.0035617  
   0.422978900    -0.0176510   -0.0040793  
   0.424978800    -0.0216418   -0.0038381  
   0.426978700    -0.0256849   -0.0029374  
   0.428978600    -0.0296222   -0.0013103  
   0.430978500    -0.0333786    0.0009855  
   0.432978400    -0.0367905    0.0039372  
   0.434978300    -0.0398169    0.0074400  
   0.436978200    -0.0423616    0.0115638  
   0.438978100    -0.0443357    0.0161703  
   0.440978000    -0.0456717    0.0211383  
   0.442977900    -0.0463048    0.0264099  
   0.444977800    -0.0461378    0.0318990  
   0.446977700    -0.0451942    0.0374335  
   0.448977600    -0.0434660    0.0429776  
   0.450977500    -0.0409257    0.0483931  
   0.452977400    -0.0375744    0.0536160  
   0.454977300    -0.0334907    0.0583959  
   0.456977200    -0.0286854    0.0626985  
   0.458977100    -0.0231773    0.0664688  
   0.460977000    -0.0171540    0.0694478  
   0.462976900    -0.0106680    0.0716494  
   0.464976800    -0.0038041    0.0730570  
   0.466976700     0.0032332    0.0734930  
   0.468976600     0.0103797    0.0729935  
   0.470976500     0.0174916    0.0715838  
   0.472976400     0.0244055    0.0692404  
   0.474976300     0.0309920    0.0659687  
   0.476976200     0.0371745    0.0618381  
   0.478976100     0.0428193    0.0569022  
   0.480976000     0.0477877    0.0513832  
   0.482975900     0.0520015    0.0453030  
   0.484975800     0.0554325    0.0386449  
   0.486975700     0.0579492    0.0316595  
   0.488975600     0.0595429    0.0244149  
   0.490975500     0.0601968    0.0170044  
   0.492975400     0.0599335    0.0094926  
   0.494975300     0.0585840    0.0022590  
   0.496975200     0.0563310   -0.0048229  
   0.498975100     0.0531923   -0.0114270  
   0.500975000     0.0491883   -0.0175345  
   0.502974900     0.0444208   -0.0229482  
   0.504974800     0.0389664   -0.0276057  
   0.506974700     0.0329840   -0.0314500  
   0.508974600     0.0264350   -0.0344747  
   0.510974500     0.0195805   -0.0365446  
   0.512974400     0.0125301   -0.0375520  
   0.514974300     0.0055537   -0.0374868  
   0.516974200    -0.0011701   -0.0364816  
   0.518974100    -0.0075529   -0.0345037  
   0.520974000    -0.0134718   -0.0316343  
   0.522973900    -0.0188420   -0.0279130  
   0.524973800    -0.0235076   -0.0234997  
   0.526973700    -0.0273906   -0.0184463  
   0.528973600    -0.0303820   -0.0129173  
   0.530973500    -0.0324796   -0.0070271  
   0.532973400    -0.0336270   -0.0009169  
   0.534973300    -0.0336976    0.0052104  
   0.536973200    -0.0328071    0.0112672  
   0.538973100    -0.0309564    0.0170801  
   0.540973000    -0.0280545    0.0225741  
   0.542972900    -0.0243713    0.0274974  
   0.544972800    -0.0198938    0.0317633  
   0.546972700    -0.0147921    0.0352336  
   0.548972600    -0.0091348    0.0378829  
   0.550972500    -0.0030576    0.0395051  
   0.552972400     0.0033231    0.0400966  
   0.554972300     0.0097837    0.0396659  
   0.556972200     0.0162083    0.0381108  
   0.558972100     0.0224277    0.0355097  
   0.560972000     0.0283960    0.0318940  
   0.562971900     0.0338090    0.0274059  
   0.564971800     0.0385180    0.0219900  
   0.566971700     0.0423879    0.0158451  
   0.568971600     0.0452980    0.0090909  
   0.570971500     0.0472680    0.0018182  
   0.572971400     0.0482194   -0.0059308  
   0.574971300     0.0480300   -0.0138826  
   0.576971200     0.0465358   -0.0220423  
   0.578971100     0.0438571   -0.0300006  
   0.580971000     0.0400103   -0.0377073  
   0.582970900     0.0350031   -0.0448818  
   0.584970800     0.0290030   -0.0513824  
   0.586970700     0.0220230   -0.0570753  
   0.588970600     0.0140007   -0.0618908  
   0.590970500     0.0054578   -0.0656785  
   0.592970400    -0.0036470   -0.0682360  
   0.594970300    -0.0131230   -0.0696378  
   0.596970200    -0.0230376   -0.0696207  
   0.598970100    -0.0328689   -0.0683801  
   0.600970000    -0.0425445   -0.0658632  
   0.602969900    -0.0519054   -0.0620899  
   0.604969800    -0.0608286   -0.0570122  
   0.606969700    -0.0690935   -0.0507890  
   0.608969600    -0.0765357   -0.0435299  
   0.610969500    -0.0830677   -0.0352303  
   0.612969400    -0.0883589   -0.0261362  
   0.614969300    -0.0925148   -0.0163900  
   0.616969200    -0.0953558   -0.0059731  
   0.618969100    -0.0967666    0.0046253  
   0.620969000    -0.0968547    0.0152960  
   0.622968900    -0.0955598    0.0259059  
   0.624968800    -0.0929389    0.0362749  
   0.626968700    -0.0890138    0.0461767  
   0.628968600    -0.0837511    0.0554442  
   0.630968500    -0.0773267    0.0639277  
   0.632968400    -0.0699015    0.0714986  
   0.634968300    -0.0615880    0.0781454  
   0.636968200    -0.0524835    0.0835418  
   0.638968100    -0.0427315    0.0876317  
   0.640968000    -0.0327489    0.0902655  
   0.642967900    -0.0225223    0.0915312  
   0.644967800    -0.0123924    0.0914090  
   0.646967700    -0.0024050    0.0898424  
   0.648967600     0.0072217    0.0871108  
   0.650967500     0.0162816    0.0830704  
   0.652967400     0.0244336    0.0779207  
   0.654967300     0.0316953    0.0716791  
   0.656967200     0.0378789    0.0646824  
   0.658967100     0.0428619    0.0570614  
   0.660967000     0.0467670    0.0487561  
   0.662966900     0.0494089    0.0400333  
   0.664966800     0.0507854    0.0310501  
   0.666966700     0.0509256    0.0218974  
   0.668966600     0.0496471    0.0129757  
   0.670966500     0.0471587    0.0044113  
   0.672966400     0.0435598   -0.0036313  
   0.674966300     0.0386717   -0.0110636  
   0.676966200     0.0328397   -0.0173145  
   0.678966100     0.0262874   -0.0225415  
   0.680966000     0.0189587   -0.0266276  
   0.682965900     0.0111425   -0.0294720  
   0.684965800     0.0029780   -0.0311113  
   0.686965700    -0.0052439   -0.0314545  
   0.688965600    -0.0133271   -0.0305123  
   0.690965500    -0.0211228   -0.0282116  
   0.692965400    -0.0284543   -0.0247182  
   0.694965300    -0.0351890   -0.0201215  
   0.696965200    -0.0410784   -0.0145138  
   0.698965100    -0.0460309   -0.0080326  
   0.700965000    -0.0499468   -0.0008810  
   0.702964900    -0.0527044    0.0068402  
   0.704964800    -0.0541742    0.0150000  
   0.706964700    -0.0543742    0.0234953  
   0.708964600    -0.0532102    0.0318304  
   0.710964500    -0.0507227    0.0398697  
   0.712964400    -0.0469509    0.0477498  
   0.714964300    -0.0420091    0.0548636  
   0.716964200    -0.0359936    0.0612282  
   0.718964100    -0.0292014    0.0667438  
   0.720964000    -0.0215700    0.0712217  
   0.722963900    -0.0134162    0.0746502  
   0.724963800    -0.0047835    0.0768687  
   0.726963700     0.0043592    0.0779065  
   0.728963600     0.0134257    0.0775277  
   0.730963500     0.0224053    0.0758424  
   0.732963400     0.0312493    0.0728252  
   0.734963300     0.0396178    0.0685876  
   0.736963200     0.0498100    0.0615472  
   0.738963100     0.0589503    0.0530819  
   0.740963000     0.0668553    0.0431303  
   0.742962900     0.0732886    0.0320961  
   0.744962800     0.0778493    0.0204044  
   0.746962700     0.0806332    0.0082728  
   0.748962600     0.0814702   -0.0040024  
   0.750962500     0.0650216    0.0143289  
   0.752962400     0.0661096    0.0023865  
   0.754962300     0.0653278   -0.0093411  
   0.756962200     0.0627545   -0.0205669  
   0.758962100     0.0584045   -0.0312727  
   0.760962000     0.0525654   -0.0406585  
   0.762961900     0.0453896   -0.0481986  
   0.764961800     0.0372265   -0.0537112  
   0.766961700     0.0284424   -0.0580071  
   0.768961600     0.0192593   -0.0609154  
   0.770961500     0.0098055   -0.0624747  
   0.772961400     0.0003075   -0.0626819  
   0.774961300    -0.0090999   -0.0615579  
   0.776961200    -0.0181716   -0.0591631  
   0.778961100    -0.0267422   -0.0555866  
   0.780961000    -0.0345980   -0.0508698  
   0.782960900    -0.0416263   -0.0451188  
   0.784960800    -0.0475668   -0.0384568  
   0.786960700    -0.0523771   -0.0310733  
   0.788960600    -0.0559984   -0.0230171  
   0.790960500    -0.0583671   -0.0146161  
   0.792960400    -0.0593652   -0.0060044  
   0.794960300    -0.0590967    0.0024772  
   0.796960200    -0.0575397    0.0107790  
   0.798960100    -0.0547033    0.0187166  
   0.800960000    -0.0507564    0.0262227  
   0.802959900    -0.0458346    0.0327593  
   0.804959800    -0.0400326    0.0383985  
   0.806959700    -0.0334216    0.0430101  
   0.808959600    -0.0263376    0.0464992  
   0.810959500    -0.0187911    0.0488406  
   0.812959400    -0.0109163    0.0498702  
   0.814959300    -0.0029834    0.0496495  
   0.816959200     0.0047458    0.0481795  
   0.818959100     0.0122246    0.0454266  
   0.820959000     0.0192815    0.0415348  
   0.822958900     0.0257235    0.0366202  
   0.824958800     0.0313873    0.0306756  
   0.826958700     0.0361865    0.0236503  
   0.828958600     0.0396526    0.0161372  
   0.830958500     0.0420044    0.0080635  
   0.832958400     0.0429451   -0.0004097  
   0.834958300     0.0426519   -0.0089670  
   0.836958200     0.0411133   -0.0176809  
   0.838958100     0.0381693   -0.0259112  
   0.840958000     0.0340959   -0.0337060  
   0.842957900     0.0288180   -0.0409180  
   0.844957800     0.0224246   -0.0473332  
   0.846957700     0.0150942   -0.0527580  
   0.848957600     0.0069527   -0.0571224  
   0.850957500    -0.0018068   -0.0602852  
   0.852957400    -0.0109805   -0.0621283  
   0.854957300    -0.0204371   -0.0626182  
   0.856957200    -0.0299554   -0.0617638  
   0.858957100    -0.0393340   -0.0595246  
   0.860957000    -0.0483926   -0.0559861  
   0.862956900    -0.0571623   -0.0511846  
   0.864956800    -0.0650326   -0.0453427  
   0.866956700    -0.0720684   -0.0385018  
   0.868956600    -0.0782343   -0.0305783  
   0.870956500    -0.0832041   -0.0221715  
   0.872956400    -0.0868899   -0.0131227  
   0.874956300    -0.0893343   -0.0037194  
   0.876956200    -0.0902888    0.0060114  
   0.878956100    -0.0899220    0.0157854  
   0.880956000    -0.0881057    0.0254164  
   0.882955900    -0.0849862    0.0346974  
   0.884955800    -0.0806195    0.0436219  
   0.886955700    -0.0750614    0.0516405  
   0.888955600    -0.0684578    0.0587243  
   0.890955500    -0.0609387    0.0648061  
   0.892955400    -0.0527591    0.0696927  
   0.894955300    -0.0439793    0.0733295  
