! MS46122B
! 2250307/22442219
! 6/13/2025 3:24:40 PM
! C:\USERS\SPARKY\DOCUMENTS\VNA_DATA\JUNE13_2025\3.2K\ECAL_SHORT_C.S1P
! CHANNEL.1
! TR.MEASUREMENT
! RAW.DATA
# GHZ S RI R 50.0
! FREQ.GHZ         S11RE         S11IM         
!; PortSelection: Port_1
   0.001000000    -0.9751639    0.0486557  
   0.002999900    -0.9492689    0.2526063  
   0.004999800    -0.9147790    0.4006648  
   0.006999700    -0.8537380    0.5354449  
   0.008999600    -0.7688023    0.6547834  
   0.010999500    -0.6632639    0.7563381  
   0.012999400    -0.5417717    0.8381860  
   0.014999300    -0.4083430    0.8986496  
   0.016999200    -0.2668496    0.9378641  
   0.018999100    -0.1218143    0.9557737  
   0.020999000     0.0241328    0.9528704  
   0.022998900     0.1671845    0.9299952  
   0.024998800     0.2766878    0.8650863  
   0.026998700     0.4338769    0.8285869  
   0.028998600     0.5531591    0.7528235  
   0.030998500     0.6602103    0.6618095  
   0.032998400     0.7164288    0.5524804  
   0.034998300     0.8293116    0.4404476  
   0.036998200     0.8877953    0.3138650  
   0.038998100     0.9272901    0.1795072  
   0.040998000     0.9459820    0.0405555  
   0.042997900     0.9434333   -0.0996226  
   0.044997800     0.8919408   -0.2139200  
   0.046997700     0.8737191   -0.3710721  
   0.048997600     0.8088423   -0.4960101  
   0.050997500     0.7260997   -0.6091752  
   0.052997400     0.6286148   -0.7080742  
   0.054997300     0.5170373   -0.7919273  
   0.056997200     0.3947642   -0.8586145  
   0.058997100     0.2652432   -0.9067892  
   0.060997000     0.1307005   -0.9353554  
   0.062996900    -0.0060393   -0.9444070  
   0.064996800    -0.1424828   -0.9338173  
   0.066996700    -0.2755602   -0.9035617  
   0.068996600    -0.4026137   -0.8544307  
   0.070996500    -0.5209776   -0.7878754  
   0.072996400    -0.6280499   -0.7045531  
   0.074996300    -0.7218570   -0.6066324  
   0.076996200    -0.8002065   -0.4966927  
   0.078996100    -0.8616320   -0.3764042  
   0.080996000    -0.9050824   -0.2484834  
   0.082995900    -0.9296533   -0.1158399  
   0.084995800    -0.9347999    0.0189659  
   0.086995700    -0.9204909    0.1533280  
   0.088995600    -0.8870191    0.2842000  
   0.090995500    -0.8346673    0.4091889  
   0.092995400    -0.7647321    0.5255577  
   0.094995300    -0.6780639    0.6306360  
   0.096995200    -0.5769780    0.7224021  
   0.098995100    -0.4628653    0.7984732  
   0.100995000    -0.3381555    0.8567953  
   0.102994900    -0.2060362    0.8958045  
   0.104994800    -0.0691626    0.9144508  
   0.106994700     0.0694109    0.9123674  
   0.108994600     0.2066480    0.8893801  
   0.110994500     0.3387617    0.8457234  
   0.112994400     0.4631052    0.7823476  
   0.114994300     0.5762961    0.7008801  
   0.116994200     0.6758493    0.6026370  
   0.118994100     0.7593573    0.4901973  
   0.120994000     0.8246740    0.3665390  
   0.122993900     0.8703479    0.2342273  
   0.124993800     0.8950624    0.0967047  
   0.126993700     0.8982912   -0.0429666  
   0.128993600     0.8804221   -0.1811682  
   0.130993500     0.8416290   -0.3143804  
   0.132993400     0.7831373   -0.4399277  
   0.134993300     0.7061166   -0.5545034  
   0.136993200     0.6131945   -0.6555302  
   0.138993100     0.5066938   -0.7411188  
   0.140993000     0.3890035   -0.8091273  
   0.142992900     0.2633352   -0.8588804  
   0.144992800     0.1321524   -0.8888122  
   0.146992700    -0.0015807   -0.8991337  
   0.148992600    -0.1341938   -0.8897204  
   0.150992500    -0.2632015   -0.8609077  
   0.152992400    -0.3865491   -0.8137504  
   0.154992300    -0.5009506   -0.7497638  
   0.156992200    -0.6042299   -0.6701760  
   0.158992100    -0.6945401   -0.5768846  
   0.160992000    -0.7704589   -0.4721194  
   0.162991900    -0.8303899   -0.3574755  
   0.164991800    -0.8733661   -0.2359934  
   0.166991700    -0.8986794   -0.1103277  
   0.168991600    -0.9058458    0.0175910  
   0.170991500    -0.8944364    0.1453957  
   0.172991400    -0.8655887    0.2696912  
   0.174991300    -0.8194630    0.3888687  
   0.176991200    -0.7564084    0.5007825  
   0.178991100    -0.6783549    0.6027932  
   0.180991000    -0.5866983    0.6923864  
   0.182990900    -0.4830835    0.7682878  
   0.184990800    -0.3688511    0.8293565  
   0.186990700    -0.2468807    0.8734119  
   0.188990600    -0.1461482    0.8961544  
   0.190990500     0.0058867    0.9071678  
   0.192990400     0.1402557    0.8958647  
   0.194990300     0.2684230    0.8656890  
   0.196990200     0.3907691    0.8172210  
   0.198990100     0.5051686    0.7515665  
   0.200990000     0.6093951    0.6692990  
   0.202989900     0.7007815    0.5717555  
   0.204989800     0.7772335    0.4616500  
   0.206989700     0.8364038    0.3414411  
   0.208989600     0.8772864    0.2133616  
   0.210989500     0.8989260    0.0798305  
   0.212989400     0.8998865   -0.0560448  
   0.214989300     0.8809942   -0.1908266  
   0.216989200     0.8414562   -0.3205605  
   0.218989100     0.7832239   -0.4430384  
   0.220989000     0.7067741   -0.5555871  
   0.222988900     0.6141696   -0.6557645  
   0.224988800     0.5067925   -0.7406539  
   0.226988700     0.3887247   -0.8078458  
   0.228988600     0.2621686   -0.8563533  
   0.230988500     0.1301057   -0.8851221  
   0.232988400    -0.0045129   -0.8935888  
   0.234988300    -0.1392212   -0.8811510  
   0.236988200    -0.2698314   -0.8491414  
   0.238988100    -0.3942069   -0.7974530  
   0.240988000    -0.5080696   -0.7283632  
   0.242987900    -0.6098920   -0.6435259  
   0.244987800    -0.6974893   -0.5447069  
   0.246987700    -0.7693594   -0.4338440  
   0.248987600    -0.8237761   -0.3135916  
   0.250987500    -0.8597227   -0.1866035  
   0.252987400    -0.8760503   -0.0567130  
   0.254987300    -0.8727913    0.0731783  
   0.256987200    -0.8507437    0.2007437  
   0.258987100    -0.8103829    0.3231840  
   0.260987000    -0.7522941    0.4386673  
   0.262986900    -0.6776173    0.5446100  
   0.264986800    -0.5878444    0.6381249  
   0.266986700    -0.4852626    0.7174654  
   0.268986600    -0.3726963    0.7807007  
   0.270986500    -0.2525915    0.8263282  
   0.272986400    -0.1270259    0.8538882  
   0.274986300     0.0010709    0.8626701  
   0.276986200     0.1292354    0.8526801  
   0.278986100     0.2553089    0.8237081  
   0.280986000     0.3763699    0.7759277  
   0.282985900     0.4891610    0.7108849  
   0.284985800     0.5913069    0.6291367  
   0.286985700     0.6801627    0.5333043  
   0.288985600     0.7533139    0.4257285  
   0.290985500     0.8096844    0.3087547  
   0.292985400     0.8479055    0.1846976  
   0.294985300     0.8675608    0.0559364  
   0.296985200     0.8678497   -0.0748305  
   0.298985100     0.8481871   -0.2054395  
   0.300985000     0.8094218   -0.3317206  
   0.302984900     0.7516066   -0.4506005  
   0.304984800     0.6768104   -0.5596091  
   0.306984700     0.5868693   -0.6556659  
   0.308984600     0.4840294   -0.7367752  
   0.310984500     0.3710279   -0.8013292  
   0.312984400     0.2499729   -0.8486313  
   0.314984300     0.1234479   -0.8772365  
   0.316984200    -0.0055489   -0.8870269  
   0.318984100    -0.1352144   -0.8775182  
   0.320984000    -0.2626319   -0.8489639  
   0.322983900    -0.3839396   -0.8018642  
   0.324983800    -0.4970309   -0.7373289  
   0.326983700    -0.5989152   -0.6573148  
   0.328983600    -0.6875113   -0.5634505  
   0.330983500    -0.7610709   -0.4582678  
   0.332983400    -0.8184416   -0.3445818  
   0.334983300    -0.8584390   -0.2243669  
   0.336983200    -0.8804249   -0.0997845  
   0.338983100    -0.8846653    0.0263290  
   0.340983000    -0.8702130    0.1513155  
   0.342982900    -0.8384558    0.2727994  
   0.344982800    -0.7894974    0.3889893  
   0.346982700    -0.7233000    0.4978505  
   0.348982600    -0.6422721    0.5959635  
   0.350982500    -0.5478528    0.6812805  
   0.352982400    -0.4417808    0.7519455  
   0.354982300    -0.3204440    0.8084428  
   0.356982200    -0.1774772    0.8481888  
   0.358982100    -0.0300946    0.8633835  
   0.360982000     0.1168533    0.8533391  
   0.362981900     0.2597433    0.8185920  
   0.364981800     0.3952232    0.7602447  
   0.366981700     0.5190312    0.6798077  
   0.368981600     0.6275471    0.5794203  
   0.370981500     0.7173181    0.4617200  
   0.372981400     0.7863434    0.3294494  
   0.374981300     0.8316233    0.1862447  
   0.376981200     0.7915883    0.3039035  
   0.378981100     0.8321148    0.1580711  
   0.380981000     0.8462933    0.0072723  
   0.382980900     0.8356886   -0.1306348  
   0.384980800     0.8045947   -0.2592005  
   0.386980700     0.7538694   -0.3815827  
   0.388980600     0.6848818   -0.4946863  
   0.390980500     0.5996106   -0.5951145  
   0.392980400     0.5005156   -0.6808323  
   0.394980300     0.3903676   -0.7500811  
   0.396980200     0.2714352   -0.8014474  
   0.398980100     0.1464980   -0.8338827  
   0.400980000     0.0188274   -0.8476623  
   0.402979900    -0.1092846   -0.8415989  
   0.404979800    -0.2339025   -0.8168190  
   0.406979700    -0.3526519   -0.7741448  
   0.408979600    -0.4632986   -0.7145572  
   0.410979500    -0.5641382   -0.6395336  
   0.412979400    -0.6523021   -0.5509382  
   0.414979300    -0.7268899   -0.4502356  
   0.416979200    -0.7853467   -0.3405260  
   0.418979100    -0.8272021   -0.2241801  
   0.420979000    -0.8519348   -0.1035454  
   0.422978900    -0.8589662    0.0191409  
   0.424978800    -0.8484828    0.1415241  
   0.426978700    -0.8204711    0.2609531  
   0.428978600    -0.7762381    0.3742978  
   0.430978500    -0.7165415    0.4804256  
   0.432978400    -0.6431730    0.5760077  
   0.434978300    -0.5572185    0.6602033  
   0.436978200    -0.4604100    0.7314252  
   0.438978100    -0.3547010    0.7887812  
   0.440978000    -0.2417820    0.8305502  
   0.442977900    -0.1238372    0.8564486  
   0.444977800    -0.0035591    0.8654955  
   0.446977700     0.1173699    0.8575885  
   0.448977600     0.2360254    0.8327043  
   0.450977500     0.3505301    0.7912130  
   0.452977400     0.4587896    0.7333699  
   0.454977300     0.5588741    0.6597558  
   0.456977200     0.6478061    0.5716275  
   0.458977100     0.7235493    0.4708688  
   0.460977000     0.7835478    0.3596094  
   0.462976900     0.8270140    0.2404289  
   0.464976800     0.8523248    0.1155248  
   0.466976700     0.8589038   -0.0124418  
   0.468976600     0.8459024   -0.1404888  
   0.470976500     0.8141873   -0.2661521  
   0.472976400     0.7630046   -0.3855864  
   0.474976300     0.6942034   -0.4961857  
   0.476976200     0.6093839   -0.5948368  
   0.478976100     0.5103703   -0.6796420  
   0.480976000     0.4002719   -0.7478125  
   0.482975900     0.2815699   -0.7982433  
   0.484975800     0.1564475   -0.8300908  
   0.486975700     0.0283226   -0.8427056  
   0.488975600    -0.1006877   -0.8356614  
   0.490975500    -0.2266906   -0.8088044  
   0.492975400    -0.3470696   -0.7635573  
   0.494975300    -0.4593068   -0.7004552  
   0.496975200    -0.5601978   -0.6215299  
   0.498975100    -0.6470749   -0.5283543  
   0.500975000    -0.7190270   -0.4237131  
   0.502974900    -0.7739072   -0.3100910  
   0.504974800    -0.8112677   -0.1898298  
   0.506974700    -0.8299835   -0.0656507  
   0.508974600    -0.8300808    0.0608817  
   0.510974500    -0.8108175    0.1848600  
   0.512974400    -0.7738193    0.3045051  
   0.514974300    -0.7197339    0.4162993  
   0.516974200    -0.6500721    0.5181217  
   0.518974100    -0.5667521    0.6085133  
   0.520974000    -0.4713203    0.6851469  
   0.522973900    -0.3660862    0.7468869  
   0.524973800    -0.2533890    0.7927823  
   0.526973700    -0.1352015    0.8214875  
   0.528973600    -0.0142671    0.8328700  
   0.530973500     0.1073283    0.8262444  
   0.532973400     0.2264923    0.8023385  
   0.534973300     0.3411107    0.7612998  
   0.536973200     0.4485569    0.7039315  
   0.538973100     0.5463845    0.6318445  
   0.540973000     0.6325210    0.5466610  
   0.542972900     0.7059764    0.4497327  
   0.544972800     0.7640594    0.3431144  
   0.546972700     0.8065202    0.2282719  
   0.548972600     0.8317541    0.1084496  
   0.550972500     0.8395172   -0.0144124  
   0.552972400     0.8291076   -0.1376027  
   0.554972300     0.8004891   -0.2583206  
   0.556972200     0.7544222   -0.3739972  
   0.558972100     0.6917388   -0.4815174  
   0.560972000     0.6138924   -0.5789019  
   0.562971900     0.5225569   -0.6634805  
   0.564971800     0.4197626   -0.7337288  
   0.566971700     0.3082544   -0.7877258  
   0.568971600     0.1904867   -0.8250160  
   0.570971500     0.0685087   -0.8445641  
   0.572971400    -0.0552244   -0.8460277  
   0.574971300    -0.1785408   -0.8293487  
   0.576971200    -0.2981970   -0.7946828  
   0.578971100    -0.4112921   -0.7426771  
   0.580971000    -0.5158121   -0.6749168  
   0.582970900    -0.6088759   -0.5925814  
   0.584970800    -0.6881462   -0.4981898  
   0.586970700    -0.7530109   -0.3937231  
   0.588970600    -0.8016461   -0.2815047  
   0.590970500    -0.8335556   -0.1634222  
   0.592970400    -0.8479611   -0.0422835  
   0.594970300    -0.8447873    0.0794379  
   0.596970200    -0.8241425    0.1993611  
   0.598970100    -0.7863949    0.3147648  
   0.600970000    -0.7323421    0.4236917  
   0.602969900    -0.6634289    0.5236944  
   0.604969800    -0.5803545    0.6127313  
   0.606969700    -0.4851864    0.6888359  
   0.608969600    -0.3791646    0.7506500  
   0.610969500    -0.2655909    0.7960755  
   0.612969400    -0.1462404    0.8244746  
   0.614969300    -0.0238688    0.8348992  
   0.616969200     0.0982239    0.8272797  
   0.618969100     0.2177554    0.8018571  
   0.620969000     0.3321099    0.7594263  
   0.622968900     0.4391634    0.7003174  
   0.624968800     0.5367517    0.6256270  
   0.626968700     0.6222233    0.5366782  
   0.628968600     0.6944658    0.4357007  
   0.630968500     0.7503142    0.3243246  
   0.632968400     0.7894264    0.2056088  
   0.634968300     0.8092707    0.0816208  
   0.636968200     0.8105022   -0.0441428  
   0.638968100     0.7922621   -0.1685109  
   0.640968000     0.7550655   -0.2891615  
   0.642967900     0.6999874   -0.4028814  
   0.644967800     0.6276838   -0.5064320  
   0.646967700     0.5404046   -0.5977145  
   0.648967600     0.4404486   -0.6738709  
   0.650967500     0.3306117   -0.7337821  
   0.652967400     0.2132784   -0.7758617  
   0.654967300     0.0915475   -0.7992154  
   0.656967200    -0.0323254   -0.8043568  
   0.658967100    -0.1546807   -0.7906932  
   0.660967000    -0.2737871   -0.7589223  
   0.662966900    -0.3870191   -0.7091158  
   0.664966800    -0.4913376   -0.6430939  
   0.666966700    -0.5844766   -0.5620421  
   0.668966600    -0.6637476   -0.4681883  
   0.670966500    -0.7284970   -0.3640212  
   0.672966400    -0.7758075   -0.2519305  
   0.674966300    -0.8065020   -0.1345351  
   0.676966200    -0.8190715   -0.0150123  
   0.678966100    -0.8141273    0.1047566  
   0.680966000    -0.7919656    0.2221232  
   0.682965900    -0.7529172    0.3345306  
   0.684965800    -0.6988183    0.4396680  
   0.686965700    -0.6297043    0.5359601  
   0.688965600    -0.5475453    0.6211494  
   0.690965500    -0.4544981    0.6935846  
   0.692965400    -0.3519563    0.7519968  
   0.694965300    -0.2425113    0.7950602  
   0.696965200    -0.1279954    0.8220232  
   0.698965100    -0.0101601    0.8323649  
   0.700965000     0.1080427    0.8259379  
   0.702964900     0.2243137    0.8025913  
   0.704964800     0.3370423    0.7624472  
   0.706964700     0.4429691    0.7064244  
   0.708964600     0.5404018    0.6347358  
   0.710964500     0.6269243    0.5492774  
   0.712964400     0.7005734    0.4516110  
   0.714964300     0.7590238    0.3435152  
   0.716964200     0.8006315    0.2279790  
   0.718964100     0.8246263    0.1075684  
   0.720964000     0.8306632   -0.0150012  
   0.722963900     0.8184148   -0.1372002  
   0.724963800     0.7878695   -0.2564060  
   0.726963700     0.7400516   -0.3700189  
   0.728963600     0.6756562   -0.4756611  
   0.730963500     0.5959573   -0.5707964  
   0.732963400     0.5025110   -0.6532035  
   0.734963300     0.3972828   -0.7205291  
   0.736963200     0.2659149   -0.7777415  
   0.738963100     0.1256641   -0.8110403  
   0.740963000    -0.0178857   -0.8187576  
   0.742962900    -0.1599807   -0.8012741  
   0.744962800    -0.2964197   -0.7587687  
   0.746962700    -0.4226896   -0.6928720  
   0.748962600    -0.5348914   -0.6061107  
   0.750962500    -0.4533751   -0.6770295  
   0.752962400    -0.5628829   -0.5868325  
   0.754962300    -0.6544240   -0.4795831  
   0.756962200    -0.7250492   -0.3584707  
   0.758962100    -0.7735002   -0.2276509  
   0.760962000    -0.7984151   -0.0912755  
   0.762961900    -0.8003623    0.0403605  
   0.764961800    -0.7839094    0.1585021  
   0.766961700    -0.7503717    0.2723238  
   0.768961600    -0.7009155    0.3790063  
   0.770961500    -0.6365519    0.4772246  
   0.772961400    -0.5592564    0.5640882  
   0.774961300    -0.4708102    0.6385106  
   0.776961200    -0.3724834    0.6993302  
   0.778961100    -0.2669030    0.7447771  
   0.780961000    -0.1554119    0.7749075  
   0.782960900    -0.0407961    0.7887409  
   0.784960800     0.0755254    0.7857322  
   0.786960700     0.1901521    0.7660046  
   0.788960600     0.3011353    0.7296457  
   0.790960500     0.4060335    0.6777239  
   0.792960400     0.5025269    0.6107032  
   0.794960300     0.5881693    0.5301519  
   0.796960200     0.6611614    0.4380617  
   0.798960100     0.7198718    0.3359601  
   0.800960000     0.7632465    0.2260021  
   0.802959900     0.7900252    0.1105502  
   0.804959800     0.7995747   -0.0077694  
   0.806959700     0.7916920   -0.1264754  
   0.808959600     0.7659854   -0.2435685  
   0.810959500     0.7233353   -0.3554740  
   0.812959400     0.6641521   -0.4607746  
   0.814959300     0.5896247   -0.5559285  
   0.816959200     0.5015231   -0.6394184  
   0.818959100     0.4015421   -0.7088229  
   0.820959000     0.2919437   -0.7624848  
   0.822958900     0.1755283   -0.7994603  
   0.824958800     0.0547871   -0.8182212  
   0.826958700    -0.0676730   -0.8188049  
   0.828958600    -0.1886828   -0.8007815  
   0.830958500    -0.3053173   -0.7649757  
   0.832958400    -0.4151706   -0.7120199  
   0.834958300    -0.5153090   -0.6437374  
   0.836958200    -0.6037977   -0.5616959  
   0.838958100    -0.6790693   -0.4677954  
   0.840958000    -0.7396954   -0.3640561  
   0.842957900    -0.7838261   -0.2527393  
   0.844957800    -0.8112376   -0.1367397  
   0.846957700    -0.8212202   -0.0177436  
   0.848957600    -0.8141247    0.1008562  
   0.850957500    -0.7893574    0.2168771  
   0.852957400    -0.7481019    0.3277858  
   0.854957300    -0.6912518    0.4312761  
   0.856957200    -0.6201501    0.5254716  
   0.858957100    -0.5366601    0.6075847  
   0.860957000    -0.4423034    0.6763762  
   0.862956900    -0.3397747    0.7307034  
   0.864956800    -0.2311752    0.7693467  
   0.866956700    -0.1184253    0.7919036  
   0.868956600    -0.0035649    0.7980621  
   0.870956500     0.1110037    0.7877311  
   0.872956400     0.2232071    0.7609701  
   0.874956300     0.3310670    0.7181978  
   0.876956200     0.4322552    0.6596113  
   0.878956100     0.5246283    0.5864929  
   0.880956000     0.6055372    0.4997755  
   0.882955900     0.6730719    0.4016364  
   0.884955800     0.7251418    0.2939633  
   0.886955700     0.7606407    0.1786184  
   0.888955600     0.7780607    0.0589767  
   0.890955500     0.7771277   -0.0623049  
   0.892955400     0.7576182   -0.1823574  
   0.894955300     0.7194970   -0.2980977  
