! MS46122B
! 2250307/22442219
! 6/12/2025 7:35:32 AM
! C:\USERS\SPARKY\DOCUMENTS\VNA_DATA\JUNE12_2025\3.1 KELVIN\ECAL-SHORT.S1P
! CHANNEL.1
! TR.MEASUREMENT
! RAW.DATA
# GHZ S RI R 50.0
! FREQ.GHZ         S11RE         S11IM         
!; PortSelection: Port_1
   0.001000000    -0.9790794    0.0484536  
   0.002999900    -0.9529804    0.2531483  
   0.004999800    -0.9184333    0.4015621  
   0.006999700    -0.8570566    0.5370790  
   0.008999600    -0.7717605    0.6570683  
   0.010999500    -0.6659043    0.7589138  
   0.012999400    -0.5438965    0.8411396  
   0.014999300    -0.4096801    0.9018311  
   0.016999200    -0.2678553    0.9412926  
   0.018999100    -0.1221425    0.9593912  
   0.020999000     0.0241531    0.9563107  
   0.022998900     0.1677208    0.9333582  
   0.024998800     0.2776587    0.8682589  
   0.026998700     0.4353811    0.8316013  
   0.028998600     0.5551533    0.7555687  
   0.030998500     0.6624520    0.6642672  
   0.032998400     0.7188662    0.5546570  
   0.034998300     0.8321776    0.4421358  
   0.036998200     0.8909080    0.3150877  
   0.038998100     0.9304706    0.1802477  
   0.040998000     0.9492864    0.0408835  
   0.042997900     0.9467670   -0.0998912  
   0.044997800     0.8951746   -0.2146601  
   0.046997700     0.8765862   -0.3723454  
   0.048997600     0.8117330   -0.4976644  
   0.050997500     0.7286806   -0.6112014  
   0.052997400     0.6311245   -0.7098722  
   0.054997300     0.5187002   -0.7948804  
   0.056997200     0.3961293   -0.8615091  
   0.058997100     0.2662353   -0.9098197  
   0.060997000     0.1311944   -0.9384620  
   0.062996900    -0.0058936   -0.9475731  
   0.064996800    -0.1428167   -0.9369315  
   0.066996700    -0.2763415   -0.9066676  
   0.068996600    -0.4038496   -0.8573172  
   0.070996500    -0.5225797   -0.7905809  
   0.072996400    -0.6300128   -0.7069860  
   0.074996300    -0.7241284   -0.6087417  
   0.076996200    -0.8027940   -0.4984389  
   0.078996100    -0.8645123   -0.3778229  
   0.080996000    -0.9080262   -0.2494441  
   0.082995900    -0.9327430   -0.1163551  
   0.084995800    -0.9379824    0.0188601  
   0.086995700    -0.9236521    0.1537036  
   0.088995600    -0.8901051    0.2849878  
   0.090995500    -0.8375555    0.4104293  
   0.092995400    -0.7674900    0.5271646  
   0.094995300    -0.6803895    0.6327845  
   0.096995200    -0.5788442    0.7250051  
   0.098995100    -0.4643931    0.8012683  
   0.100995000    -0.3393832    0.8598166  
   0.102994900    -0.2068662    0.8988401  
   0.104994800    -0.0694852    0.9176764  
   0.106994700     0.0696760    0.9155843  
   0.108994600     0.2073928    0.8925170  
   0.110994500     0.3398472    0.8487045  
   0.112994400     0.4646799    0.7851733  
   0.114994300     0.5784234    0.7033758  
   0.116994200     0.6782969    0.6047575  
   0.118994100     0.7621402    0.4919123  
   0.120994000     0.8277232    0.3677806  
   0.122993900     0.8735037    0.2349594  
   0.124993800     0.8983252    0.0969637  
   0.126993700     0.9015257   -0.0432533  
   0.128993600     0.8835661   -0.1818632  
   0.130993500     0.8446472   -0.3155063  
   0.132993400     0.7858638   -0.4415344  
   0.134993300     0.7086564   -0.5565218  
   0.136993200     0.6154717   -0.6579206  
   0.138993100     0.5085781   -0.7438207  
   0.140993000     0.3905971   -0.8119678  
   0.142992900     0.2642592   -0.8619887  
   0.144992800     0.1327443   -0.8919592  
   0.146992700    -0.0013023   -0.9022989  
   0.148992600    -0.1346660   -0.8928896  
   0.150992500    -0.2640380   -0.8639970  
   0.152992400    -0.3877004   -0.8167278  
   0.154992300    -0.5026416   -0.7526254  
   0.156992200    -0.6062458   -0.6725994  
   0.158992100    -0.6969591   -0.5790550  
   0.160992000    -0.7731266   -0.4738662  
   0.162991900    -0.8332912   -0.3588555  
   0.164991800    -0.8764153   -0.2369429  
   0.166991700    -0.9018419   -0.1108173  
   0.168991600    -0.9090767    0.0175550  
   0.170991500    -0.8976265    0.1457946  
   0.172991400    -0.8686144    0.2705718  
   0.174991300    -0.8223611    0.3902053  
   0.176991200    -0.7590669    0.5024994  
   0.178991100    -0.6807995    0.6049147  
   0.180991000    -0.5887574    0.6948308  
   0.182990900    -0.4847341    0.7710177  
   0.184990800    -0.3701042    0.8323058  
   0.186990700    -0.2475298    0.8765156  
   0.188990600    -0.1466651    0.8993211  
   0.190990500     0.0060204    0.9103810  
   0.192990400     0.1408155    0.8990018  
   0.194990300     0.2694838    0.8687311  
   0.196990200     0.3922349    0.8200555  
   0.198990100     0.5070481    0.7542292  
   0.200990000     0.6116899    0.6715098  
   0.202989900     0.7033789    0.5738984  
   0.204989800     0.7800993    0.4632972  
   0.206989700     0.8395191    0.3426453  
   0.208989600     0.8804508    0.2141050  
   0.210989500     0.9020603    0.0803389  
   0.212989400     0.9033670   -0.0563615  
   0.214989300     0.8842345   -0.1915630  
   0.216989200     0.8446261   -0.3217137  
   0.218989100     0.7861867   -0.4447041  
   0.220989000     0.7095144   -0.5577112  
   0.222988900     0.6164281   -0.6583005  
   0.224988800     0.5088753   -0.7434567  
   0.226988700     0.3903157   -0.8109049  
   0.228988600     0.2633500   -0.8595978  
   0.230988500     0.1307345   -0.8885949  
   0.232988400    -0.0045396   -0.8970503  
   0.234988300    -0.1396349   -0.8846449  
   0.236988200    -0.2707621   -0.8525209  
   0.238988100    -0.3956158   -0.8006684  
   0.240988000    -0.5099724   -0.7313361  
   0.242987900    -0.6122162   -0.6461875  
   0.244987800    -0.7001398   -0.5468132  
   0.246987700    -0.7723619   -0.4356875  
   0.248987600    -0.8270196   -0.3150139  
   0.250987500    -0.8631588   -0.1875852  
   0.252987400    -0.8795481   -0.0570556  
   0.254987300    -0.8763224    0.0733252  
   0.256987200    -0.8541697    0.2014279  
   0.258987100    -0.8135695    0.3244781  
   0.260987000    -0.7553942    0.4403715  
   0.262986900    -0.6803182    0.5466521  
   0.264986800    -0.5903521    0.6405419  
   0.266986700    -0.4874924    0.7203208  
   0.268986600    -0.3743291    0.7837018  
   0.270986500    -0.2537645    0.8295634  
   0.272986400    -0.1277280    0.8572215  
   0.274986300     0.0008004    0.8660800  
   0.276986200     0.1294065    0.8561758  
   0.278986100     0.2560224    0.8269942  
   0.280986000     0.3775772    0.7792001  
   0.282985900     0.4908481    0.7138578  
   0.284985800     0.5933327    0.6318594  
   0.286985700     0.6826069    0.5357066  
   0.288985600     0.7561151    0.4277229  
   0.290985500     0.8127201    0.3103189  
   0.292985400     0.8511632    0.1858033  
   0.294985300     0.8709632    0.0565833  
   0.296985200     0.8712110   -0.0747312  
   0.298985100     0.8516605   -0.2057893  
   0.300985000     0.8127256   -0.3326469  
   0.302984900     0.7549228   -0.4521236  
   0.304984800     0.6797289   -0.5614700  
   0.306984700     0.5894781   -0.6579224  
   0.308984600     0.4862983   -0.7394538  
   0.310984500     0.3728663   -0.8042721  
   0.312984400     0.2512617   -0.8517931  
   0.314984300     0.1243387   -0.8805496  
   0.316984200    -0.0052183   -0.8904024  
   0.318984100    -0.1353897   -0.8809102  
   0.320984000    -0.2632935   -0.8523064  
   0.322983900    -0.3851499   -0.8049752  
   0.324983800    -0.4987279   -0.7402509  
   0.326983700    -0.6009791   -0.6599447  
   0.328983600    -0.6899548   -0.5657501  
   0.330983500    -0.7638373   -0.4602257  
   0.332983400    -0.8213009   -0.3461096  
   0.334983300    -0.8615934   -0.2252704  
   0.336983200    -0.8836555   -0.1003033  
   0.338983100    -0.8879014    0.0263335  
   0.340983000    -0.8735139    0.1516382  
   0.342982900    -0.8416617    0.2737827  
   0.344982800    -0.7924168    0.3904927  
   0.346982700    -0.7260729    0.4996105  
   0.348982600    -0.6448032    0.5982104  
   0.350982500    -0.5500044    0.6837614  
   0.352982400    -0.4434070    0.7548230  
   0.354982300    -0.3219097    0.8114097  
   0.356982200    -0.1781569    0.8514482  
   0.358982100    -0.0304294    0.8666744  
   0.360982000     0.1170554    0.8566343  
   0.362981900     0.2606181    0.8218194  
   0.364981800     0.3965656    0.7633364  
   0.366981700     0.5206804    0.6827336  
   0.368981600     0.6296405    0.5820743  
   0.370981500     0.7200940    0.4636604  
   0.372981400     0.7894242    0.3311341  
   0.374981300     0.8348202    0.1876232  
   0.376981200     0.7945601    0.3054667  
   0.378981100     0.8353322    0.1591060  
   0.380981000     0.8496560    0.0077293  
   0.382980900     0.8391154   -0.1307069  
   0.384980800     0.8080551   -0.2598730  
   0.386980700     0.7571015   -0.3826976  
   0.388980600     0.6879076   -0.4962155  
   0.390980500     0.6023096   -0.5972180  
   0.392980400     0.5028713   -0.6832675  
   0.394980300     0.3921907   -0.7526657  
   0.396980200     0.2729249   -0.8044804  
   0.398980100     0.1474817   -0.8371741  
   0.400980000     0.0193366   -0.8509684  
   0.402979900    -0.1092823   -0.8448983  
   0.404979800    -0.2344526   -0.8200505  
   0.406979700    -0.3537031   -0.7773284  
   0.408979600    -0.4647784   -0.7174984  
   0.410979500    -0.5658299   -0.6422842  
   0.412979400    -0.6545343   -0.5532190  
   0.414979300    -0.7292636   -0.4523613  
   0.416979200    -0.7881034   -0.3420634  
   0.418979100    -0.8300028   -0.2255298  
   0.420979000    -0.8549030   -0.1041758  
   0.422978900    -0.8621555    0.0186960  
   0.424978800    -0.8515189    0.1414687  
   0.426978700    -0.8235478    0.2613385  
   0.428978600    -0.7791389    0.3752167  
   0.430978500    -0.7193076    0.4815934  
   0.432978400    -0.6457477    0.5776214  
   0.434978300    -0.5594447    0.6621555  
   0.436978200    -0.4623462    0.7337003  
   0.438978100    -0.3562815    0.7912903  
   0.440978000    -0.2430164    0.8332824  
   0.442977900    -0.1247246    0.8593060  
   0.444977800    -0.0039643    0.8684492  
   0.446977700     0.1173222    0.8605208  
   0.448977600     0.2364097    0.8356392  
   0.450977500     0.3513486    0.7940593  
   0.452977400     0.4599888    0.7361246  
   0.454977300     0.5605019    0.6623034  
   0.456977200     0.6497612    0.5738978  
   0.458977100     0.7258057    0.4727996  
   0.460977000     0.7861143    0.3613018  
   0.462976900     0.8298302    0.2416776  
   0.464976800     0.8552626    0.1161733  
   0.466976700     0.8618600   -0.0120782  
   0.468976600     0.8490220   -0.1409323  
   0.470976500     0.8171412   -0.2669782  
   0.472976400     0.7659066   -0.3868213  
   0.474976300     0.6968324   -0.4979051  
   0.476976200     0.6117489   -0.5969169  
   0.478976100     0.5125076   -0.6820639  
   0.480976000     0.4017871   -0.7505906  
   0.482975900     0.2823763   -0.8013049  
   0.484975800     0.1570007   -0.8332099  
   0.486975700     0.0280601   -0.8459749  
   0.488975600    -0.1011228   -0.8388550  
   0.490975500    -0.2276512   -0.8118725  
   0.492975400    -0.3484935   -0.7664869  
   0.494975300    -0.4610870   -0.7031000  
   0.496975200    -0.5623379   -0.6238133  
   0.498975100    -0.6496521   -0.5302805  
   0.500975000    -0.7217230   -0.4253567  
   0.502974900    -0.7768490   -0.3112018  
   0.504974800    -0.8143123   -0.1906836  
   0.506974700    -0.8331727   -0.0659627  
   0.508974600    -0.8330896    0.0608550  
   0.510974500    -0.8138399    0.1852879  
   0.512974400    -0.7766959    0.3055510  
   0.514974300    -0.7225887    0.4175288  
   0.516974200    -0.6526694    0.5197687  
   0.518974100    -0.5691143    0.6104449  
   0.520974000    -0.4735780    0.6873962  
   0.522973900    -0.3678758    0.7493342  
   0.524973800    -0.2548788    0.7953624  
   0.526973700    -0.1362282    0.8242821  
   0.528973600    -0.0150235    0.8358507  
   0.530973500     0.1070551    0.8292714  
   0.532973400     0.2267926    0.8054246  
   0.534973300     0.3416226    0.7643387  
   0.536973200     0.4494952    0.7067686  
   0.538973100     0.5477054    0.6345553  
   0.540973000     0.6342340    0.5490178  
   0.542972900     0.7079632    0.4518703  
   0.544972800     0.7664230    0.3449992  
   0.546972700     0.8091210    0.2297490  
   0.548972600     0.8345739    0.1096289  
   0.550972500     0.8424576   -0.0137903  
   0.552972400     0.8320791   -0.1374469  
   0.554972300     0.8034366   -0.2584547  
   0.556972200     0.7572579   -0.3748704  
   0.558972100     0.6944838   -0.4827262  
   0.560972000     0.6162105   -0.5806673  
   0.562971900     0.5247616   -0.6653816  
   0.564971800     0.4217041   -0.7359586  
   0.566971700     0.3098365   -0.7901576  
   0.568971600     0.1914763   -0.8277534  
   0.570971500     0.0692117   -0.8473822  
   0.572971400    -0.0552963   -0.8489088  
   0.574971300    -0.1786370   -0.8322124  
   0.576971200    -0.2990263   -0.7974952  
   0.578971100    -0.4124668   -0.7453631  
   0.580971000    -0.5173224   -0.6773832  
   0.582970900    -0.6106398   -0.5946835  
   0.584970800    -0.6903321   -0.5000529  
   0.586970700    -0.7554283   -0.3952858  
   0.588970600    -0.8043069   -0.2827398  
   0.590970500    -0.8362840   -0.1642061  
   0.592970400    -0.8509117   -0.0426369  
   0.594970300    -0.8476825    0.0794720  
   0.596970200    -0.8269985    0.1997864  
   0.598970100    -0.7891322    0.3156205  
   0.600970000    -0.7350467    0.4249482  
   0.602969900    -0.6658193    0.5252764  
   0.604969800    -0.5825309    0.6146190  
   0.606969700    -0.4870918    0.6910157  
   0.608969600    -0.3807473    0.7531003  
   0.610969500    -0.2667617    0.7987066  
   0.612969400    -0.1469389    0.8272695  
   0.614969300    -0.0243971    0.8378820  
   0.616969200     0.0984518    0.8302118  
   0.618969100     0.2183181    0.8047761  
   0.620969000     0.3330435    0.7621823  
   0.622968900     0.4404587    0.7029520  
   0.624968800     0.5385370    0.6280386  
   0.626968700     0.6243528    0.5388434  
   0.628968600     0.6969332    0.4375128  
   0.630968500     0.7530245    0.3257518  
   0.632968400     0.7922786    0.2065758  
   0.634968300     0.8123521    0.0819881  
   0.636968200     0.8134962   -0.0440360  
   0.638968100     0.7953262   -0.1690143  
   0.640968000     0.7579395   -0.2900361  
   0.642967900     0.7027121   -0.4042931  
   0.644967800     0.6302738   -0.5080246  
   0.646967700     0.5426103   -0.5998444  
   0.648967600     0.4425630   -0.6762856  
   0.650967500     0.3321342   -0.7365307  
   0.652967400     0.2143765   -0.7786444  
   0.654967300     0.0921730   -0.8022856  
   0.656967200    -0.0319843   -0.8074346  
   0.658967100    -0.1549584   -0.7937545  
   0.660967000    -0.2745452   -0.7619234  
   0.662966900    -0.3881668   -0.7120100  
   0.664966800    -0.4928907   -0.6457514  
   0.666966700    -0.5865005   -0.5643846  
   0.668966600    -0.6659375   -0.4704899  
   0.670966500    -0.7310010   -0.3657435  
   0.672966400    -0.7786218   -0.2532111  
   0.674966300    -0.8093314   -0.1354552  
   0.676966200    -0.8219947   -0.0155291  
   0.678966100    -0.8169730    0.1045440  
   0.680966000    -0.7949386    0.2225337  
   0.682965900    -0.7557422    0.3353387  
   0.684965800    -0.7015141    0.4408965  
   0.686965700    -0.6322117    0.5374438  
   0.688965600    -0.5498046    0.6229698  
   0.690965500    -0.4564518    0.6956789  
   0.692965400    -0.3535856    0.7543678  
   0.694965300    -0.2438080    0.7975788  
   0.696965200    -0.1289310    0.8247560  
   0.698965100    -0.0106611    0.8351771  
   0.700965000     0.1078268    0.8289793  
   0.702964900     0.2248138    0.8054017  
   0.704964800     0.3377408    0.7652984  
   0.706964700     0.4441026    0.7090840  
   0.708964600     0.5419240    0.6371828  
   0.710964500     0.6288237    0.5515258  
   0.712964400     0.7027746    0.4536043  
   0.714964300     0.7615213    0.3451247  
   0.716964200     0.8034179    0.2291726  
   0.718964100     0.8275869    0.1083304  
   0.720964000     0.8337643   -0.0146678  
   0.722963900     0.8216445   -0.1374679  
   0.724963800     0.7908969   -0.2570751  
   0.726963700     0.7429847   -0.3712055  
   0.728963600     0.6783606   -0.4772658  
   0.730963500     0.5984173   -0.5728228  
   0.732963400     0.5046719   -0.6555484  
   0.734963300     0.3990108   -0.7232481  
   0.736963200     0.2670707   -0.7806740  
   0.738963100     0.1263771   -0.8141458  
   0.740963000    -0.0177054   -0.8220416  
   0.742962900    -0.1604672   -0.8043987  
   0.744962800    -0.2974001   -0.7617524  
   0.746962700    -0.4241615   -0.6956351  
   0.748962600    -0.5368676   -0.6085573  
   0.750962500    -0.4549323   -0.6798037  
   0.752962400    -0.5647674   -0.5894009  
   0.754962300    -0.6567480   -0.4816770  
   0.756962200    -0.7276901   -0.3599925  
   0.758962100    -0.7762717   -0.2287758  
   0.760962000    -0.8013840   -0.0919149  
   0.762961900    -0.8033856    0.0401818  
   0.764961800    -0.7869043    0.1585542  
   0.766961700    -0.7532986    0.2730037  
   0.768961600    -0.7036541    0.3802508  
   0.770961500    -0.6392493    0.4785703  
   0.772961400    -0.5616471    0.5657997  
   0.774961300    -0.4729672    0.6405038  
   0.776961200    -0.3745299    0.7014436  
   0.778961100    -0.2685164    0.7472960  
   0.780961000    -0.1565196    0.7776973  
   0.782960900    -0.0414893    0.7916145  
   0.784960800     0.0750508    0.7888218  
   0.786960700     0.1901394    0.7689172  
   0.788960600     0.3016635    0.7327448  
   0.790960500     0.4069224    0.6806051  
   0.792960400     0.5038524    0.6134753  
   0.794960300     0.5898517    0.5327579  
   0.796960200     0.6631835    0.4403428  
   0.798960100     0.7222800    0.3378954  
   0.800960000     0.7659400    0.2275169  
   0.802959900     0.7929142    0.1115366  
   0.804959800     0.8025418   -0.0072127  
   0.806959700     0.7947657   -0.1263980  
   0.808959600     0.7690432   -0.2440509  
   0.810959500     0.7263492   -0.3565844  
   0.812959400     0.6668242   -0.4621671  
   0.814959300     0.5919459   -0.5577627  
   0.816959200     0.5034460   -0.6415749  
   0.818959100     0.4031885   -0.7112630  
   0.820959000     0.2931341   -0.7651283  
   0.822958900     0.1762863   -0.8022326  
   0.824958800     0.0549994   -0.8210813  
   0.826958700    -0.0679975   -0.8216105  
   0.828958600    -0.1894000   -0.8035312  
   0.830958500    -0.3065022   -0.7675076  
   0.832958400    -0.4167290   -0.7143555  
   0.834958300    -0.5171744   -0.6458238  
   0.836958200    -0.6060458   -0.5635018  
   0.838958100    -0.6815258   -0.4691409  
   0.840958000    -0.7423084   -0.3649552  
   0.842957900    -0.7865790   -0.2533169  
   0.844957800    -0.8140926   -0.1367490  
   0.846957700    -0.8240765   -0.0176951  
   0.848957600    -0.8168625    0.1014047  
   0.850957500    -0.7921009    0.2175614  
   0.852957400    -0.7506075    0.3290620  
   0.854957300    -0.6935301    0.4328914  
   0.856957200    -0.6222057    0.5274529  
   0.858957100    -0.5384628    0.6099284  
   0.860957000    -0.4438368    0.6788620  
   0.862956900    -0.3409134    0.7334412  
   0.864956800    -0.2319736    0.7722154  
   0.866956700    -0.1188231    0.7948898  
   0.868956600    -0.0036414    0.8009208  
   0.870956500     0.1113633    0.7907575  
   0.872956400     0.2240005    0.7639257  
   0.874956300     0.3322847    0.7210330  
   0.876956200     0.4339426    0.6622834  
   0.878956100     0.5265299    0.5889174  
   0.880956000     0.6079267    0.5019719  
   0.882955900     0.6755626    0.4034555  
   0.884955800     0.7280071    0.2953834  
   0.886955700     0.7636360    0.1796834  
   0.888955600     0.7810954    0.0595823  
   0.890955500     0.7801849   -0.0622249  
   0.892955400     0.7604471   -0.1826537  
   0.894955300     0.7224038   -0.2988752  
