! MS46122B
! 2250307/22442219
! 6/20/2025 7:46:47 AM
! C:\USERS\SPARKY\DOCUMENTS\VNA_DATA\JUNE20_2025\3.0K\ECAL_OPEN_F.S1P
! CHANNEL.1
! TR.MEASUREMENT
! RAW.DATA
# GHZ S RI R 50.0
! FREQ.GHZ         S11RE         S11IM         
!; PortSelection: Port_1
   0.001000000     1.0276440   -0.0531184  
   0.002999900     0.9422621   -0.2067620  
   0.004999800     0.8806615   -0.3474120  
   0.006999700     0.8070779   -0.4783944  
   0.008999600     0.7184544   -0.5916384  
   0.010999500     0.6187381   -0.6920947  
   0.012999400     0.5089350   -0.7797829  
   0.014999300     0.3900374   -0.8531637  
   0.016999200     0.2626759   -0.9093238  
   0.018999100     0.1291267   -0.9465728  
   0.020999000    -0.0089293   -0.9634168  
   0.022998900    -0.1478638   -0.9583964  
   0.024998800    -0.2614634   -0.9061981  
   0.026998700    -0.4174787   -0.8820561  
   0.028998600    -0.5409427   -0.8116505  
   0.030998500    -0.6523570   -0.7220566  
   0.032998400    -0.7160972   -0.6092548  
   0.034998300    -0.8284354   -0.4957682  
   0.036998200    -0.8884962   -0.3648128  
   0.038998100    -0.9285133   -0.2273864  
   0.040998000    -0.9476820   -0.0852289  
   0.042997900    -0.9464563    0.0570184  
   0.044997800    -0.8995690    0.1743734  
   0.046997700    -0.8825064    0.3324108  
   0.048997600    -0.8216130    0.4601673  
   0.050997500    -0.7427837    0.5776656  
   0.052997400    -0.6473891    0.6817687  
   0.054997300    -0.5368190    0.7710197  
   0.056997200    -0.4131325    0.8425647  
   0.058997100    -0.2804520    0.8941767  
   0.060997000    -0.1413357    0.9248586  
   0.062996900     0.0010385    0.9336651  
   0.064996800     0.1433493    0.9208623  
   0.066996700     0.2819669    0.8863379  
   0.068996600     0.4136488    0.8314364  
   0.070996500     0.5356386    0.7571236  
   0.072996400     0.6448696    0.6652005  
   0.074996300     0.7392340    0.5579738  
   0.076996200     0.8161213    0.4377762  
   0.078996100     0.8739023    0.3072339  
   0.080996000     0.9110087    0.1698636  
   0.082995900     0.9268782    0.0284765  
   0.084995800     0.9209520   -0.1132814  
   0.086995700     0.8937292   -0.2520763  
   0.088995600     0.8458333   -0.3848996  
   0.090995500     0.7787201   -0.5083749  
   0.092995400     0.6939867   -0.6197875  
   0.094995300     0.5941176   -0.7171181  
   0.096995200     0.4809911   -0.7982690  
   0.098995100     0.3579715   -0.8613790  
   0.100995000     0.2273830   -0.9055188  
   0.102994900     0.0923737   -0.9296040  
   0.104994800    -0.0444937   -0.9340830  
   0.106994700    -0.1795442   -0.9188973  
   0.108994600    -0.3108875   -0.8838616  
   0.110994500    -0.4355048   -0.8304208  
   0.112994400    -0.5504264   -0.7601301  
   0.114994300    -0.6541634   -0.6741975  
   0.116994200    -0.7438222   -0.5742671  
   0.118994100    -0.8184850   -0.4627647  
   0.120994000    -0.8762255   -0.3418634  
   0.122993900    -0.9155700   -0.2139239  
   0.124993800    -0.9366478   -0.0819553  
   0.126993700    -0.9385283    0.0518567  
   0.128993600    -0.9214631    0.1848355  
   0.130993500    -0.8852004    0.3142357  
   0.132993400    -0.8307366    0.4370901  
   0.134993300    -0.7588955    0.5514178  
   0.136993200    -0.6712763    0.6541887  
   0.138993100    -0.5691155    0.7435086  
   0.140993000    -0.4546476    0.8172037  
   0.142992900    -0.3298386    0.8737060  
   0.144992800    -0.1978269    0.9118687  
   0.146992700    -0.0606918    0.9296830  
   0.148992600     0.0780468    0.9269109  
   0.150992500     0.2150849    0.9035208  
   0.152992400     0.3481214    0.8591852  
   0.154992300     0.4731185    0.7952480  
   0.156992200     0.5875114    0.7129288  
   0.158992100     0.6883592    0.6135818  
   0.160992000     0.7731098    0.4998815  
   0.162991900     0.8395492    0.3740399  
   0.164991800     0.8858925    0.2388464  
   0.166991700     0.9106519    0.0986285  
   0.168991600     0.9135071   -0.0441604  
   0.170991500     0.8942692   -0.1857214  
   0.172991400     0.8527593   -0.3224383  
   0.174991300     0.7914409   -0.4504299  
   0.176991200     0.7104260   -0.5675542  
   0.178991100     0.6124914   -0.6707513  
   0.180991000     0.5004459   -0.7566659  
   0.182990900     0.3770582   -0.8241965  
   0.184990800     0.2451692   -0.8718624  
   0.186990700     0.1076768   -0.8983977  
   0.188990600    -0.0054242   -0.9034702  
   0.190990500    -0.1643218   -0.8880610  
   0.192990400    -0.3004621   -0.8510056  
   0.194990300    -0.4254163   -0.7950277  
   0.196990200    -0.5393103   -0.7216934  
   0.198990100    -0.6402940   -0.6326857  
   0.200990000    -0.7267257   -0.5300747  
   0.202989900    -0.7969002   -0.4160638  
   0.204989800    -0.8490522   -0.2937050  
   0.206989700    -0.8824119   -0.1659626  
   0.208989600    -0.8968904   -0.0353994  
   0.210989500    -0.8922237    0.0958195  
   0.212989400    -0.8682991    0.2250820  
   0.214989300    -0.8261064    0.3490667  
   0.216989200    -0.7665946    0.4648311  
   0.218989100    -0.6917039    0.5707773  
   0.220989000    -0.6018448    0.6648221  
   0.222988900    -0.4990190    0.7455004  
   0.224988800    -0.3854795    0.8104790  
   0.226988700    -0.2638388    0.8580239  
   0.228988600    -0.1369774    0.8877324  
   0.230988500    -0.0067184    0.8986540  
   0.232988400     0.1237486    0.8908398  
   0.234988300     0.2527285    0.8641173  
   0.236988200     0.3766369    0.8185505  
   0.238988100     0.4931400    0.7551804  
   0.240988000     0.5987846    0.6755862  
   0.242987900     0.6917357    0.5813751  
   0.244987800     0.7702183    0.4744914  
   0.246987700     0.8326470    0.3563949  
   0.248987600     0.8770166    0.2298399  
   0.250987500     0.9024747    0.0973449  
   0.252987400     0.9076900   -0.0371957  
   0.254987300     0.8931188   -0.1708971  
   0.256987200     0.8591193   -0.3005277  
   0.258987100     0.8061208   -0.4239989  
   0.260987000     0.7350017   -0.5387445  
   0.262986900     0.6476266   -0.6420223  
   0.264986800     0.5452953   -0.7312177  
   0.266986700     0.4312175   -0.8041716  
   0.268986600     0.3078484   -0.8591877  
   0.270986500     0.1781865   -0.8949003  
   0.272986400     0.0450466   -0.9109274  
   0.274986300    -0.0885101   -0.9074627  
   0.276986200    -0.2201220   -0.8837599  
   0.278986100    -0.3469156   -0.8411591  
   0.280986000    -0.4662056   -0.7799639  
   0.282985900    -0.5749306   -0.7018666  
   0.284985800    -0.6707449   -0.6087486  
   0.286985700    -0.7512816   -0.5029215  
   0.288985600    -0.8149332   -0.3875401  
   0.290985500    -0.8604658   -0.2649062  
   0.292985400    -0.8876354   -0.1373502  
   0.294985300    -0.8960248   -0.0074178  
   0.296985200    -0.8852787    0.1230954  
   0.298985100    -0.8552802    0.2509117  
   0.300985000    -0.8071011    0.3733763  
   0.302984900    -0.7411007    0.4868852  
   0.304984800    -0.6594718    0.5889410  
   0.306984700    -0.5639397    0.6782413  
   0.308984600    -0.4568764    0.7517004  
   0.310984500    -0.3410320    0.8086120  
   0.312984400    -0.2179448    0.8479194  
   0.314984300    -0.0900396    0.8688931  
   0.316984200     0.0396689    0.8708788  
   0.318984100     0.1688415    0.8536794  
   0.320984000     0.2955683    0.8173359  
   0.322983900     0.4156082    0.7623172  
   0.324983800     0.5263715    0.6896532  
   0.326983700     0.6250129    0.6011785  
   0.328983600     0.7091919    0.4985474  
   0.330983500     0.7771466    0.3844893  
   0.332983400     0.8266480    0.2620470  
   0.334983300     0.8572889    0.1332880  
   0.336983200     0.8684962    0.0015622  
   0.338983100     0.8595018   -0.1307269  
   0.340983000     0.8307868   -0.2601894  
   0.342982900     0.7828597   -0.3836716  
   0.344982800     0.7166456   -0.4992008  
   0.346982700     0.6331342   -0.6039676  
   0.348982600     0.5347161   -0.6947028  
   0.350982500     0.4234123   -0.7695858  
   0.352982400     0.3020585   -0.8265926  
   0.354982300     0.1678738   -0.8657499  
   0.356982200     0.0137768   -0.8838412  
   0.358982100    -0.1400719   -0.8744220  
   0.360982000    -0.2887583   -0.8384070  
   0.362981900    -0.4287228   -0.7776964  
   0.364981800    -0.5554594   -0.6935955  
   0.366981700    -0.6648939   -0.5899205  
   0.368981600    -0.7547360   -0.4688865  
   0.370981500    -0.8221618   -0.3353709  
   0.372981400    -0.8655924   -0.1929951  
   0.374981300    -0.8845738   -0.0453824  
   0.376981200    -0.8716596   -0.1927246  
   0.378981100    -0.8910275   -0.0434343  
   0.380981000    -0.8847848    0.1069027  
   0.382980900    -0.8580952    0.2391315  
   0.384980800    -0.8145073    0.3599905  
   0.386980700    -0.7539754    0.4728826  
   0.388980600    -0.6778708    0.5758757  
   0.390980500    -0.5879352    0.6663464  
   0.392980400    -0.4865087    0.7427287  
   0.394980300    -0.3756110    0.8034197  
   0.396980200    -0.2573366    0.8473916  
   0.398980100    -0.1333511    0.8745808  
   0.400980000    -0.0068106    0.8831608  
   0.402979900     0.1203606    0.8734561  
   0.404979800     0.2446613    0.8454767  
   0.406979700     0.3641260    0.7995161  
   0.408979600     0.4761839    0.7364560  
   0.410979500     0.5784183    0.6570330  
   0.412979400     0.6687418    0.5624151  
   0.414979300     0.7442783    0.4545567  
   0.416979200     0.8029659    0.3361655  
   0.418979100     0.8430845    0.2098581  
   0.420979000     0.8637088    0.0781038  
   0.422978900     0.8639137   -0.0559424  
   0.424978800     0.8429635   -0.1890485  
   0.426978700     0.8016810   -0.3180104  
   0.428978600     0.7404958   -0.4389091  
   0.430978500     0.6614637   -0.5486249  
   0.432978400     0.5669642   -0.6442400  
   0.434978300     0.4585857   -0.7240166  
   0.436978200     0.3395987   -0.7861615  
   0.438978100     0.2123376   -0.8284466  
   0.440978000     0.0804714   -0.8505418  
   0.442977900    -0.0528827   -0.8520348  
   0.444977800    -0.1839379   -0.8330520  
   0.446977700    -0.3101865   -0.7945687  
   0.448977600    -0.4284851   -0.7372962  
   0.450977500    -0.5357396   -0.6632457  
   0.452977400    -0.6306067   -0.5739135  
   0.454977300    -0.7109774   -0.4710601  
   0.456977200    -0.7747981   -0.3578615  
   0.458977100    -0.8205961   -0.2365657  
   0.460977000    -0.8472485   -0.1107315  
   0.462976900    -0.8551382    0.0167158  
   0.464976800    -0.8441616    0.1432804  
   0.466976700    -0.8145911    0.2662047  
   0.468976600    -0.7677657    0.3827440  
   0.470976500    -0.7044357    0.4912233  
   0.472976400    -0.6264772    0.5885745  
   0.474976300    -0.5357280    0.6732447  
   0.476976200    -0.4339708    0.7440382  
   0.478976100    -0.3236772    0.7993095  
   0.480976000    -0.2075395    0.8378344  
   0.482975900    -0.0875852    0.8596240  
   0.484975800     0.0343610    0.8645179  
   0.486975700     0.1559112    0.8518435  
   0.488975600     0.2746994    0.8223730  
   0.490975500     0.3884730    0.7760164  
   0.492975400     0.4950423    0.7138181  
   0.494975300     0.5920064    0.6367480  
   0.496975200     0.6773445    0.5460902  
   0.498975100     0.7488969    0.4441476  
   0.500975000     0.8053214    0.3323254  
   0.502974900     0.8452285    0.2133378  
   0.504974800     0.8676948    0.0888487  
   0.506974700     0.8713987   -0.0383967  
   0.508974600     0.8560989   -0.1667556  
   0.510974500     0.8217517   -0.2916937  
   0.512974400     0.7688832   -0.4109368  
   0.514974300     0.6989118   -0.5205417  
   0.516974200     0.6129799   -0.6189320  
   0.518974100     0.5134300   -0.7031409  
   0.520974000     0.4022515   -0.7713336  
   0.522973900     0.2816212   -0.8223420  
   0.524973800     0.1546427   -0.8545154  
   0.526973700     0.0241856   -0.8669621  
   0.528973600    -0.1066106   -0.8594980  
   0.530973500    -0.2350828   -0.8327593  
   0.532973400    -0.3578459   -0.7865219  
   0.534973300    -0.4719685   -0.7221357  
   0.536973200    -0.5748476   -0.6414689  
   0.538973100    -0.6637960   -0.5465357  
   0.540973000    -0.7368512   -0.4402654  
   0.542972900    -0.7930177   -0.3244991  
   0.544972800    -0.8314559   -0.2022007  
   0.546972700    -0.8510097   -0.0751368  
   0.548972600    -0.8513420    0.0530807  
   0.550972500    -0.8327310    0.1796939  
   0.552972400    -0.7951903    0.3018275  
   0.554972300    -0.7398728    0.4169159  
   0.556972200    -0.6680615    0.5222112  
   0.558972100    -0.5814424    0.6153716  
   0.560972000    -0.4822353    0.6943276  
   0.562971900    -0.3726803    0.7574071  
   0.564971800    -0.2554761    0.8033698  
   0.566971700    -0.1331290    0.8312436  
   0.568971600    -0.0085028    0.8409308  
   0.570971500     0.1162539    0.8318306  
   0.572971400     0.2387677    0.8043733  
   0.574971300     0.3559118    0.7588277  
   0.576971200     0.4657275    0.6958202  
   0.578971100     0.5648903    0.6167871  
   0.580971000     0.6514949    0.5237007  
   0.582970900     0.7228831    0.4187746  
   0.584970800     0.7775991    0.3043747  
   0.586970700     0.8143486    0.1832308  
   0.588970600     0.8327190    0.0578256  
   0.590970500     0.8320697   -0.0686440  
   0.592970400     0.8124276   -0.1938227  
   0.594970300     0.7740737   -0.3146734  
   0.596970200     0.7178583   -0.4287949  
   0.598970100     0.6454530   -0.5325400  
   0.600970000     0.5581226   -0.6250148  
   0.602969900     0.4577118   -0.7030566  
   0.604969800     0.3466322   -0.7652364  
   0.606969700     0.2274783   -0.8100746  
   0.608969600     0.1028412   -0.8365780  
   0.610969500    -0.0244149   -0.8442667  
   0.612969400    -0.1508965   -0.8326082  
   0.614969300    -0.2734007   -0.8019536  
   0.616969200    -0.3891950   -0.7542881  
   0.618969100    -0.4961274   -0.6905357  
   0.620969000    -0.5920274   -0.6124845  
   0.622968900    -0.6754016   -0.5215575  
   0.624968800    -0.7446889   -0.4196327  
   0.626968700    -0.7985714   -0.3092010  
   0.628968600    -0.8358298   -0.1921697  
   0.630968500    -0.8561577   -0.0710761  
   0.632968400    -0.8587213    0.0513837  
   0.634968300    -0.8436123    0.1725791  
   0.636968200    -0.8117558    0.2907675  
   0.638968100    -0.7631956    0.4023910  
   0.640968000    -0.6991511    0.5058550  
   0.642967900    -0.6213256    0.5992180  
   0.644967800    -0.5306595    0.6805729  
   0.646967700    -0.4299571    0.7481589  
   0.648967600    -0.3203651    0.8004084  
   0.650967500    -0.2052610    0.8371503  
   0.652967400    -0.0862063    0.8562133  
   0.654967300     0.0347782    0.8588256  
   0.656967200     0.1547720    0.8439927  
   0.658967100     0.2712364    0.8122716  
   0.660967000     0.3830399    0.7639070  
   0.662966900     0.4874699    0.6992962  
   0.664966800     0.5822402    0.6195976  
   0.666966700     0.6651542    0.5257007  
   0.668966600     0.7332851    0.4207990  
   0.670966500     0.7857804    0.3059155  
   0.672966400     0.8201257    0.1847997  
   0.674966300     0.8364724    0.0593530  
   0.676966200     0.8335338   -0.0674368  
   0.678966100     0.8115044   -0.1918020  
   0.680966000     0.7708651   -0.3123823  
   0.682965900     0.7124845   -0.4249917  
   0.684965800     0.6377730   -0.5276395  
   0.686965700     0.5479286   -0.6181399  
   0.688965600     0.4453592   -0.6937845  
   0.690965500     0.3325602   -0.7529373  
   0.692965400     0.2123393   -0.7939703  
   0.694965300     0.0875725   -0.8163413  
   0.696965200    -0.0391104   -0.8193641  
   0.698965100    -0.1645726   -0.8029245  
   0.700965000    -0.2853688   -0.7678474  
   0.702964900    -0.3995700   -0.7147990  
   0.704964800    -0.5038987   -0.6452869  
   0.706964700    -0.5962385   -0.5609245  
   0.708964600    -0.6746013   -0.4640174  
   0.710964500    -0.7372216   -0.3564897  
   0.712964400    -0.7826149   -0.2414780  
   0.714964300    -0.8103430   -0.1213585  
   0.716964200    -0.8196899    0.0007497  
   0.718964100    -0.8106862    0.1216321  
   0.720964000    -0.7848927    0.2394997  
   0.722963900    -0.7422662    0.3511890  
   0.724963800    -0.6845101    0.4552232  
   0.726963700    -0.6123640    0.5495920  
   0.728963600    -0.5275633    0.6323555  
   0.730963500    -0.4318759    0.7020695  
   0.732963400    -0.3275213    0.7572461  
   0.734963300    -0.2163128    0.7970485  
   0.736963200    -0.0801066    0.8223209  
   0.738963100     0.0593682    0.8250314  
   0.740963000     0.1983505    0.8044586  
   0.742962900     0.3320663    0.7604950  
   0.744962800     0.4573880    0.6946413  
   0.746962700     0.5705869    0.6084492  
   0.748962600     0.6675416    0.5043150  
   0.750962500     0.5588571    0.6106219  
   0.752962400     0.6560415    0.5062647  
   0.754962300     0.7345562    0.3867200  
   0.756962200     0.7919415    0.2553068  
   0.758962100     0.8259804    0.1158614  
   0.760962000     0.8356228   -0.0283703  
   0.762961900     0.8219388   -0.1646644  
   0.764961800     0.7892342   -0.2851796  
   0.766961700     0.7391115   -0.3998995  
   0.768961600     0.6722896   -0.5059918  
   0.770961500     0.5901597   -0.6009182  
   0.772961400     0.4946224   -0.6826482  
   0.774961300     0.3876580   -0.7490309  
   0.776961200     0.2719321   -0.7987537  
   0.778961100     0.1494963   -0.8309035  
   0.780961000     0.0234754   -0.8438430  
   0.782960900    -0.1032864   -0.8375957  
   0.784960800    -0.2276465   -0.8118285  
   0.786960700    -0.3468167   -0.7675474  
   0.788960600    -0.4576428   -0.7059392  
   0.790960500    -0.5573964   -0.6281964  
   0.792960400    -0.6436940   -0.5366322  
   0.794960300    -0.7148721   -0.4337184  
   0.796960200    -0.7696111   -0.3224423  
   0.798960100    -0.8068407   -0.2043224  
   0.800960000    -0.8253564   -0.0829172  
   0.802959900    -0.8261681    0.0393319  
   0.804959800    -0.8091404    0.1592721  
   0.806959700    -0.7746750    0.2747508  
   0.808959600    -0.7241651    0.3835047  
   0.810959500    -0.6586349    0.4831906  
   0.812959400    -0.5794380    0.5718731  
   0.814959300    -0.4885195    0.6479486  
   0.816959200    -0.3878051    0.7099819  
   0.818959100    -0.2796001    0.7565997  
   0.820959000    -0.1654126    0.7871395  
   0.822958900    -0.0481791    0.8007073  
   0.824958800     0.0701450    0.7972130  
   0.826958700     0.1862401    0.7764575  
   0.828958600     0.2990225    0.7389411  
   0.830958500     0.4049130    0.6856316  
   0.832958400     0.5021598    0.6169229  
   0.834958300     0.5883695    0.5345964  
   0.836958200     0.6616763    0.4404655  
   0.838958100     0.7204171    0.3361143  
   0.840958000     0.7634924    0.2239151  
   0.842957900     0.7893525    0.1055145  
   0.844957800     0.7977592   -0.0158896  
   0.846957700     0.7873546   -0.1375773  
   0.848957600     0.7586068   -0.2569316  
   0.850957500     0.7118508   -0.3706480  
   0.852957400     0.6483579   -0.4762333  
   0.854957300     0.5691090   -0.5714123  
   0.856957200     0.4764815   -0.6534179  
   0.858957100     0.3724489   -0.7200081  
   0.860957000     0.2597149   -0.7702057  
   0.862956900     0.1412315   -0.8024074  
   0.864956800     0.0198451   -0.8168203  
   0.866956700    -0.1019645   -0.8127518  
   0.868956600    -0.2210269   -0.7908359  
   0.870956500    -0.3352927   -0.7516420  
   0.872956400    -0.4424770   -0.6960241  
   0.874956300    -0.5400998   -0.6256855  
   0.876956200    -0.6259420   -0.5415456  
   0.878956100    -0.6984047   -0.4463851  
   0.880956000    -0.7560377   -0.3416262  
   0.882955900    -0.7978558   -0.2298695  
   0.884955800    -0.8227519   -0.1138674  
   0.886955700    -0.8305507    0.0046941  
   0.888955600    -0.8215689    0.1224461  
   0.890955500    -0.7953504    0.2375595  
   0.892955400    -0.7533097    0.3470362  
   0.894955300    -0.6963259    0.4497381  
