! MS46122B
! 2250307/22442219
! 6/16/2025 7:45:06 AM
! C:\USERS\SPARKY\DOCUMENTS\VNA_DATA\JUNE16_2025\3.1K\ECAL_OPEN_D.S1P
! CHANNEL.1
! TR.MEASUREMENT
! RAW.DATA
# GHZ S RI R 50.0
! FREQ.GHZ         S11RE         S11IM         
!; PortSelection: Port_1
   0.001000000     1.0273590   -0.0530305  
   0.002999900     0.9417532   -0.2064516  
   0.004999800     0.8801839   -0.3470521  
   0.006999700     0.8067776   -0.4782742  
   0.008999600     0.7182603   -0.5916796  
   0.010999500     0.6186303   -0.6922170  
   0.012999400     0.5087642   -0.7799462  
   0.014999300     0.3898341   -0.8532680  
   0.016999200     0.2625462   -0.9094261  
   0.018999100     0.1288984   -0.9467546  
   0.020999000    -0.0089843   -0.9633285  
   0.022998900    -0.1483460   -0.9587790  
   0.024998800    -0.2616274   -0.9064413  
   0.026998700    -0.4177061   -0.8821378  
   0.028998600    -0.5410938   -0.8118129  
   0.030998500    -0.6525849   -0.7221738  
   0.032998400    -0.7163673   -0.6093712  
   0.034998300    -0.8288044   -0.4955297  
   0.036998200    -0.8886293   -0.3650190  
   0.038998100    -0.9287965   -0.2272618  
   0.040998000    -0.9478862   -0.0851218  
   0.042997900    -0.9466146    0.0571442  
   0.044997800    -0.8997711    0.1744576  
   0.046997700    -0.8824845    0.3324027  
   0.048997600    -0.8217101    0.4603167  
   0.050997500    -0.7427829    0.5778880  
   0.052997400    -0.6487256    0.6805170  
   0.054997300    -0.5364439    0.7714084  
   0.056997200    -0.4129648    0.8427342  
   0.058997100    -0.2801765    0.8942234  
   0.060997000    -0.1411258    0.9248856  
   0.062996900     0.0013396    0.9336351  
   0.064996800     0.1436699    0.9207577  
   0.066996700     0.2823514    0.8861940  
   0.068996600     0.4140699    0.8312318  
   0.070996500     0.5359833    0.7568941  
   0.072996400     0.6451911    0.6649257  
   0.074996300     0.7395376    0.5576104  
   0.076996200     0.8163549    0.4372916  
   0.078996100     0.8741008    0.3067000  
   0.080996000     0.9111241    0.1692253  
   0.082995900     0.9269684    0.0278702  
   0.084995800     0.9209408   -0.1138965  
   0.086995700     0.8936957   -0.2526741  
   0.088995600     0.8457091   -0.3854383  
   0.090995500     0.7785878   -0.5089030  
   0.092995400     0.6936647   -0.6203662  
   0.094995300     0.5938288   -0.7175979  
   0.096995200     0.4807880   -0.7986358  
   0.098995100     0.3577743   -0.8617116  
   0.100995000     0.2268906   -0.9059409  
   0.102994900     0.0918460   -0.9299859  
   0.104994800    -0.0446631   -0.9343069  
   0.106994700    -0.1798968   -0.9191213  
   0.108994600    -0.3111618   -0.8840734  
   0.110994500    -0.4356123   -0.8306591  
   0.112994400    -0.5506032   -0.7603236  
   0.114994300    -0.6544659   -0.6742829  
   0.116994200    -0.7441928   -0.5743091  
   0.118994100    -0.8187764   -0.4628667  
   0.120994000    -0.8763980   -0.3419538  
   0.122993900    -0.9157886   -0.2140171  
   0.124993800    -0.9368976   -0.0820806  
   0.126993700    -0.9386972    0.0519072  
   0.128993600    -0.9216608    0.1848804  
   0.130993500    -0.8853869    0.3143388  
   0.132993400    -0.8308806    0.4372478  
   0.134993300    -0.7590380    0.5515516  
   0.136993200    -0.6714233    0.6542008  
   0.138993100    -0.5691003    0.7437377  
   0.140993000    -0.4545518    0.8174409  
   0.142992900    -0.3296787    0.8738886  
   0.144992800    -0.1975616    0.9120093  
   0.146992700    -0.0603840    0.9298371  
   0.148992600     0.0783884    0.9269061  
   0.150992500     0.2154693    0.9035256  
   0.152992400     0.3485024    0.8591185  
   0.154992300     0.4735290    0.7950946  
   0.156992200     0.5878492    0.7126269  
   0.158992100     0.6886780    0.6132710  
   0.160992000     0.7734273    0.4994363  
   0.162991900     0.8398015    0.3736837  
   0.164991800     0.8860030    0.2387082  
   0.166991700     0.9107958    0.0984632  
   0.168991600     0.9136276   -0.0445347  
   0.170991500     0.8942541   -0.1860686  
   0.172991400     0.8528831   -0.3228096  
   0.174991300     0.7914203   -0.4507109  
   0.176991200     0.7102970   -0.5680400  
   0.178991100     0.6124996   -0.6710792  
   0.180991000     0.5004941   -0.7569369  
   0.182990900     0.3770485   -0.8245409  
   0.184990800     0.2451925   -0.8721447  
   0.186990700     0.1078757   -0.8986626  
   0.188990600    -0.0053922   -0.9037369  
   0.190990500    -0.1642994   -0.8882798  
   0.192990400    -0.3005321   -0.8512535  
   0.194990300    -0.4254630   -0.7952762  
   0.196990200    -0.5394629   -0.7219446  
   0.198990100    -0.6404395   -0.6328003  
   0.200990000    -0.7268922   -0.5301901  
   0.202989900    -0.7970070   -0.4161660  
   0.204989800    -0.8492533   -0.2937519  
   0.206989700    -0.8825939   -0.1659411  
   0.208989600    -0.8970650   -0.0354460  
   0.210989500    -0.8922812    0.0959423  
   0.212989400    -0.8683395    0.2253179  
   0.214989300    -0.8261632    0.3493052  
   0.216989200    -0.7665522    0.4652789  
   0.218989100    -0.6914905    0.5710526  
   0.220989000    -0.6016181    0.6652272  
   0.222988900    -0.4985485    0.7457160  
   0.224988800    -0.3850093    0.8106729  
   0.226988700    -0.2633689    0.8581706  
   0.228988600    -0.1362926    0.8878220  
   0.230988500    -0.0061301    0.8987145  
   0.232988400     0.1243315    0.8907855  
   0.234988300     0.2531604    0.8640825  
   0.236988200     0.3771958    0.8182710  
   0.238988100     0.4933925    0.7549856  
   0.240988000     0.5992095    0.6753272  
   0.242987900     0.6920838    0.5810887  
   0.244987800     0.7705244    0.4741263  
   0.246987700     0.8329018    0.3560660  
   0.248987600     0.8772410    0.2294882  
   0.250987500     0.9027448    0.0971544  
   0.252987400     0.9078525   -0.0374786  
   0.254987300     0.8932596   -0.1711872  
   0.256987200     0.8592830   -0.3010136  
   0.258987100     0.8062608   -0.4242568  
   0.260987000     0.7351509   -0.5389921  
   0.262986900     0.6477183   -0.6423113  
   0.264986800     0.5454211   -0.7314437  
   0.266986700     0.4313289   -0.8044121  
   0.268986600     0.3079274   -0.8594733  
   0.270986500     0.1782689   -0.8951570  
   0.272986400     0.0450611   -0.9111946  
   0.274986300    -0.0886261   -0.9075432  
   0.276986200    -0.2202798   -0.8840197  
   0.278986100    -0.3470705   -0.8413256  
   0.280986000    -0.4663849   -0.7801581  
   0.282985900    -0.5750844   -0.7020214  
   0.284985800    -0.6710473   -0.6088898  
   0.286985700    -0.7514526   -0.5029635  
   0.288985600    -0.8150737   -0.3874786  
   0.290985500    -0.8607683   -0.2645412  
   0.292985400    -0.8877441   -0.1371308  
   0.294985300    -0.8961596   -0.0070476  
   0.296985200    -0.8853310    0.1234452  
   0.298985100    -0.8552421    0.2512364  
   0.300985000    -0.8070052    0.3737916  
   0.302984900    -0.7409428    0.4873050  
   0.304984800    -0.6593137    0.5892362  
   0.306984700    -0.5636577    0.6785693  
   0.308984600    -0.4565428    0.7519951  
   0.310984500    -0.3405997    0.8090016  
   0.312984400    -0.2173979    0.8481014  
   0.314984300    -0.0896536    0.8689761  
   0.316984200     0.0400603    0.8709279  
   0.318984100     0.1693877    0.8537074  
   0.320984000     0.2957794    0.8173251  
   0.322983900     0.4159209    0.7622876  
   0.324983800     0.5265349    0.6896923  
   0.326983700     0.6252009    0.6012278  
   0.328983600     0.7094902    0.4984374  
   0.330983500     0.7773829    0.3843528  
   0.332983400     0.8269006    0.2618867  
   0.334983300     0.8575161    0.1331709  
   0.336983200     0.8685023    0.0011193  
   0.338983100     0.8595922   -0.1310406  
   0.340983000     0.8308526   -0.2605057  
   0.342982900     0.7829769   -0.3838890  
   0.344982800     0.7166834   -0.4995386  
   0.346982700     0.6331325   -0.6043177  
   0.348982600     0.5345699   -0.6950606  
   0.350982500     0.4232846   -0.7698399  
   0.352982400     0.3018643   -0.8267986  
   0.354982300     0.1676490   -0.8659530  
   0.356982200     0.0134563   -0.8839638  
   0.358982100    -0.1405110   -0.8744337  
   0.360982000    -0.2893346   -0.8384349  
   0.362981900    -0.4293292   -0.7775916  
   0.364981800    -0.5559912   -0.6934180  
   0.366981700    -0.6654330   -0.5893935  
   0.368981600    -0.7551780   -0.4686238  
   0.370981500    -0.8225335   -0.3347144  
   0.372981400    -0.8658744   -0.1925178  
   0.374981300    -0.8847547   -0.0448422  
   0.376981200    -0.8718656   -0.1922757  
   0.378981100    -0.8911802   -0.0428203  
   0.380981000    -0.8848246    0.1073327  
   0.382980900    -0.8580766    0.2396035  
   0.384980800    -0.8144470    0.3603790  
   0.386980700    -0.7538087    0.4734829  
   0.388980600    -0.6777827    0.5763555  
   0.390980500    -0.5877400    0.6667030  
   0.392980400    -0.4863414    0.7429514  
   0.394980300    -0.3754905    0.8036596  
   0.396980200    -0.2570950    0.8476595  
   0.398980100    -0.1331334    0.8748111  
   0.400980000    -0.0067303    0.8833848  
   0.402979900     0.1204325    0.8734843  
   0.404979800     0.2448693    0.8456210  
   0.406979700     0.3643159    0.7996358  
   0.408979600     0.4763440    0.7366168  
   0.410979500     0.5785186    0.6571033  
   0.412979400     0.6689184    0.5625426  
   0.414979300     0.7443827    0.4546631  
   0.416979200     0.8031660    0.3362642  
   0.418979100     0.8431732    0.2099162  
   0.420979000     0.8638651    0.0782051  
   0.422978900     0.8640286   -0.0558179  
   0.424978800     0.8431960   -0.1890777  
   0.426978700     0.8018346   -0.3179426  
   0.428978600     0.7406292   -0.4388464  
   0.430978500     0.6617063   -0.5486383  
   0.432978400     0.5670357   -0.6443171  
   0.434978300     0.4585589   -0.7241424  
   0.436978200     0.3393687   -0.7863073  
   0.438978100     0.2121030   -0.8285794  
   0.440978000     0.0805145   -0.8506348  
   0.442977900    -0.0529402   -0.8521335  
   0.444977800    -0.1842339   -0.8331780  
   0.446977700    -0.3105563   -0.7945504  
   0.448977600    -0.4286962   -0.7373672  
   0.450977500    -0.5358400   -0.6632954  
   0.452977400    -0.6309850   -0.5738404  
   0.454977300    -0.7112179   -0.4709947  
   0.456977200    -0.7750458   -0.3578514  
   0.458977100    -0.8208535   -0.2364986  
   0.460977000    -0.8475392   -0.1106510  
   0.462976900    -0.8553672    0.0167124  
   0.464976800    -0.8442868    0.1434361  
   0.466976700    -0.8149655    0.2662802  
   0.468976600    -0.7680647    0.3827450  
   0.470976500    -0.7047337    0.4912425  
   0.472976400    -0.6268280    0.5886712  
   0.474976300    -0.5360637    0.6733592  
   0.476976200    -0.4344494    0.7441506  
   0.478976100    -0.3241085    0.7993322  
   0.480976000    -0.2077878    0.8380000  
   0.482975900    -0.0877894    0.8598142  
   0.484975800     0.0340498    0.8646282  
   0.486975700     0.1557841    0.8520633  
   0.488975600     0.2745826    0.8225328  
   0.490975500     0.3884686    0.7761429  
   0.492975400     0.4950665    0.7139226  
   0.494975300     0.5920475    0.6368795  
   0.496975200     0.6774052    0.5460837  
   0.498975100     0.7490687    0.4440838  
   0.500975000     0.8054730    0.3323224  
   0.502974900     0.8453696    0.2132216  
   0.504974800     0.8677452    0.0887711  
   0.506974700     0.8714650   -0.0385601  
   0.508974600     0.8561643   -0.1669724  
   0.510974500     0.8218337   -0.2920535  
   0.512974400     0.7688712   -0.4111410  
   0.514974300     0.6987920   -0.5208541  
   0.516974200     0.6128686   -0.6191807  
   0.518974100     0.5132294   -0.7033861  
   0.520974000     0.4020405   -0.7715380  
   0.522973900     0.2813062   -0.8226111  
   0.524973800     0.1543643   -0.8547376  
   0.526973700     0.0238988   -0.8671769  
   0.528973600    -0.1069488   -0.8597437  
   0.530973500    -0.2354869   -0.8329473  
   0.532973400    -0.3582143   -0.7866035  
   0.534973300    -0.4725275   -0.7221890  
   0.536973200    -0.5752047   -0.6415402  
   0.538973100    -0.6642460   -0.5466312  
   0.540973000    -0.7372162   -0.4403061  
   0.542972900    -0.7933013   -0.3244882  
   0.544972800    -0.8317832   -0.2019812  
   0.546972700    -0.8513794   -0.0750910  
   0.548972600    -0.8516220    0.0532370  
   0.550972500    -0.8329725    0.1797239  
   0.552972400    -0.7955034    0.3019200  
   0.554972300    -0.7400941    0.4170041  
   0.556972200    -0.6683019    0.5222545  
   0.558972100    -0.5815809    0.6154138  
   0.560972000    -0.4823900    0.6944113  
   0.562971900    -0.3727940    0.7574366  
   0.564971800    -0.2556319    0.8033646  
   0.566971700    -0.1332361    0.8312804  
   0.568971600    -0.0085829    0.8409307  
   0.570971500     0.1161301    0.8318592  
   0.572971400     0.2386619    0.8043607  
   0.574971300     0.3558812    0.7588363  
   0.576971200     0.4654433    0.6959713  
   0.578971100     0.5648172    0.6167490  
   0.580971000     0.6513251    0.5237346  
   0.582970900     0.7227824    0.4186775  
   0.584970800     0.7775129    0.3043407  
   0.586970700     0.8143681    0.1830729  
   0.588970600     0.8325712    0.0582088  
   0.590970500     0.8321069   -0.0688806  
   0.592970400     0.8124354   -0.1937473  
   0.594970300     0.7741427   -0.3145691  
   0.596970200     0.7180094   -0.4286767  
   0.598970100     0.6456350   -0.5325252  
   0.600970000     0.5582203   -0.6250457  
   0.602969900     0.4581487   -0.7030547  
   0.604969800     0.3470117   -0.7653440  
   0.606969700     0.2279374   -0.8102461  
   0.608969600     0.1032513   -0.8368051  
   0.610969500    -0.0237295   -0.8445077  
   0.612969400    -0.1502339   -0.8330471  
   0.614969300    -0.2727128   -0.8023549  
   0.616969200    -0.3887989   -0.7549050  
   0.618969100    -0.4958304   -0.6912192  
   0.620969000    -0.5918636   -0.6131883  
   0.622968900    -0.6753397   -0.5223356  
   0.624968800    -0.7446810   -0.4204272  
   0.626968700    -0.7986262   -0.3100268  
   0.628968600    -0.8359949   -0.1929741  
   0.630968500    -0.8563064   -0.0717611  
   0.632968400    -0.8589983    0.0506545  
   0.634968300    -0.8440264    0.1721165  
   0.636968200    -0.8122167    0.2901157  
   0.638968100    -0.7636297    0.4018734  
   0.640968000    -0.6997635    0.5051950  
   0.642967900    -0.6217244    0.5989262  
   0.644967800    -0.5313519    0.6800497  
   0.646967700    -0.4304643    0.7478588  
   0.648967600    -0.3208032    0.8001975  
   0.650967500    -0.2057690    0.8368515  
   0.652967400    -0.0864929    0.8560887  
   0.654967300     0.0343280    0.8587611  
   0.656967200     0.1543916    0.8438998  
   0.658967100     0.2709661    0.8122103  
   0.660967000     0.3827218    0.7638183  
   0.662966900     0.4871242    0.6993356  
   0.664966800     0.5820566    0.6194542  
   0.666966700     0.6649665    0.5258191  
   0.668966600     0.7330951    0.4207294  
   0.670966500     0.7855646    0.3062375  
   0.672966400     0.8201793    0.1849135  
   0.674966300     0.8365031    0.0595239  
   0.676966200     0.8336774   -0.0672863  
   0.678966100     0.8116499   -0.1917173  
   0.680966000     0.7708187   -0.3121142  
   0.682965900     0.7127734   -0.4249053  
   0.684965800     0.6381075   -0.5276480  
   0.686965700     0.5482336   -0.6182094  
   0.688965600     0.4456192   -0.6940101  
   0.690965500     0.3327138   -0.7532420  
   0.692965400     0.2126435   -0.7941987  
   0.694965300     0.0876790   -0.8166759  
   0.696965200    -0.0389161   -0.8197059  
   0.698965100    -0.1641361   -0.8032556  
   0.700965000    -0.2852111   -0.7681832  
   0.702964900    -0.3994628   -0.7151847  
   0.704964800    -0.5038369   -0.6455691  
   0.706964700    -0.5961230   -0.5613418  
   0.708964600    -0.6745196   -0.4643694  
   0.710964500    -0.7372131   -0.3569321  
   0.712964400    -0.7826190   -0.2418621  
   0.714964300    -0.8103616   -0.1217181  
   0.716964200    -0.8197664    0.0003679  
   0.718964100    -0.8107008    0.1213681  
   0.720964000    -0.7849242    0.2391757  
   0.722963900    -0.7423509    0.3509616  
   0.724963800    -0.6844895    0.4549417  
   0.726963700    -0.6123081    0.5493625  
   0.728963600    -0.5275046    0.6321676  
   0.730963500    -0.4320394    0.7017945  
   0.732963400    -0.3274535    0.7570315  
   0.734963300    -0.2162601    0.7968723  
   0.736963200    -0.0801393    0.8223028  
   0.738963100     0.0593176    0.8249110  
   0.740963000     0.1982976    0.8043541  
   0.742962900     0.3320027    0.7603141  
   0.744962800     0.4572192    0.6946302  
   0.746962700     0.5704419    0.6085458  
   0.748962600     0.6674473    0.5044741  
   0.750962500     0.5589377    0.6107656  
   0.752962400     0.6559892    0.5064200  
   0.754962300     0.7346810    0.3870389  
   0.756962200     0.7921587    0.2556075  
   0.758962100     0.8262839    0.1160076  
   0.760962000     0.8359876   -0.0280629  
   0.762961900     0.8223785   -0.1643766  
   0.764961800     0.7898180   -0.2849724  
   0.766961700     0.7398667   -0.3996490  
   0.768961600     0.6729791   -0.5059053  
   0.770961500     0.5908560   -0.6008947  
   0.772961400     0.4950890   -0.6827696  
   0.774961300     0.3883583   -0.7492143  
   0.776961200     0.2727343   -0.7989669  
   0.778961100     0.1502156   -0.8311244  
   0.780961000     0.0241325   -0.8442389  
   0.782960900    -0.1025465   -0.8380094  
   0.784960800    -0.2271334   -0.8123307  
   0.786960700    -0.3462192   -0.7681382  
   0.788960600    -0.4570455   -0.7065730  
   0.790960500    -0.5568901   -0.6289639  
   0.792960400    -0.6433427   -0.5373785  
   0.794960300    -0.7145358   -0.4344570  
   0.796960200    -0.7692446   -0.3232131  
   0.798960100    -0.8065577   -0.2050871  
   0.800960000    -0.8252177   -0.0837319  
   0.802959900    -0.8262017    0.0384881  
   0.804959800    -0.8090973    0.1587513  
   0.806959700    -0.7748356    0.2740750  
   0.808959600    -0.7243436    0.3829493  
   0.810959500    -0.6588499    0.4826204  
   0.812959400    -0.5797929    0.5714033  
   0.814959300    -0.4890386    0.6474752  
   0.816959200    -0.3881564    0.7095762  
   0.818959100    -0.2800511    0.7562580  
   0.820959000    -0.1659169    0.7870337  
   0.822958900    -0.0486663    0.8007042  
   0.824958800     0.0695242    0.7971821  
   0.826958700     0.1858954    0.7767247  
   0.828958600     0.2985775    0.7392083  
   0.830958500     0.4046989    0.6858677  
   0.832958400     0.5019625    0.6172940  
   0.834958300     0.5882774    0.5350309  
   0.836958200     0.6616080    0.4409904  
   0.838958100     0.7205364    0.3365485  
   0.840958000     0.7636481    0.2244463  
   0.842957900     0.7897280    0.1059644  
   0.844957800     0.7980831   -0.0154786  
   0.846957700     0.7878201   -0.1372940  
   0.848957600     0.7590553   -0.2565195  
   0.850957500     0.7123923   -0.3701907  
   0.852957400     0.6488614   -0.4759949  
   0.854957300     0.5697409   -0.5710391  
   0.856957200     0.4770692   -0.6532898  
   0.858957100     0.3729450   -0.7200491  
   0.860957000     0.2602776   -0.7702383  
   0.862956900     0.1418994   -0.8024438  
   0.864956800     0.0203839   -0.8168845  
   0.866956700    -0.1014758   -0.8128715  
   0.868956600    -0.2206167   -0.7909303  
   0.870956500    -0.3351123   -0.7516532  
   0.872956400    -0.4421643   -0.6961578  
   0.874956300    -0.5398462   -0.6258213  
   0.876956200    -0.6256676   -0.5417249  
   0.878956100    -0.6981362   -0.4465910  
   0.880956000    -0.7558999   -0.3417760  
   0.882955900    -0.7976466   -0.2300089  
   0.884955800    -0.8225793   -0.1138802  
   0.886955700    -0.8304549    0.0045510  
   0.888955600    -0.8216874    0.1224090  
   0.890955500    -0.7952965    0.2373303  
   0.892955400    -0.7533582    0.3468456  
   0.894955300    -0.6964985    0.4495263  
