! MS46122B
! 2250307/22442219
! 6/20/2025 7:45:14 AM
! C:\USERS\SPARKY\DOCUMENTS\VNA_DATA\JUNE20_2025\3.0K\ECAL_LOAD_F.S1P
! CHANNEL.1
! TR.MEASUREMENT
! RAW.DATA
# GHZ S RI R 50.0
! FREQ.GHZ         S11RE         S11IM         
!; PortSelection: Port_1
   0.001000000     0.0194280    0.0061810  
   0.002999900     0.0043999    0.0541959  
   0.004999800     0.0020608    0.0602472  
   0.006999700     0.0013143    0.0567311  
   0.008999600     0.0010767    0.0494103  
   0.010999500     0.0013762    0.0406256  
   0.012999400     0.0023182    0.0313830  
   0.014999300     0.0037983    0.0222815  
   0.016999200     0.0057337    0.0137884  
   0.018999100     0.0079674    0.0060381  
   0.020999000     0.0103201   -0.0008001  
   0.022998900     0.0125956   -0.0067550  
   0.024998800     0.0123455   -0.0106194  
   0.026998700     0.0162195   -0.0159300  
   0.028998600     0.0173602   -0.0193290  
   0.030998500     0.0178992   -0.0219968  
   0.032998400     0.0158499   -0.0229288  
   0.034998300     0.0173404   -0.0256909  
   0.036998200     0.0163813   -0.0268650  
   0.038998100     0.0149725   -0.0277703  
   0.040998000     0.0132324   -0.0283843  
   0.042997900     0.0112346   -0.0287132  
   0.044997800     0.0072800   -0.0277761  
   0.046997700     0.0066291   -0.0286905  
   0.048997600     0.0042205   -0.0284420  
   0.050997500     0.0018176   -0.0281130  
   0.052997400    -0.0005525   -0.0277040  
   0.054997300    -0.0028478   -0.0272329  
   0.056997200    -0.0048742   -0.0268991  
   0.058997100    -0.0067344   -0.0265567  
   0.060997000    -0.0084328   -0.0262004  
   0.062996900    -0.0100161   -0.0259740  
   0.064996800    -0.0113908   -0.0258836  
   0.066996700    -0.0126413   -0.0258154  
   0.068996600    -0.0138037   -0.0257594  
   0.070996500    -0.0148787   -0.0256871  
   0.072996400    -0.0159411   -0.0255237  
   0.074996300    -0.0169528   -0.0254172  
   0.076996200    -0.0179745   -0.0251733  
   0.078996100    -0.0189555   -0.0248934  
   0.080996000    -0.0199908   -0.0245081  
   0.082995900    -0.0210503   -0.0240130  
   0.084995800    -0.0221363   -0.0234235  
   0.086995700    -0.0233141   -0.0227366  
   0.088995600    -0.0244603   -0.0219079  
   0.090995500    -0.0256286   -0.0210069  
   0.092995400    -0.0267761   -0.0199405  
   0.094995300    -0.0278816   -0.0187903  
   0.096995200    -0.0288775   -0.0175410  
   0.098995100    -0.0298368   -0.0161697  
   0.100995000    -0.0306989   -0.0147931  
   0.102994900    -0.0314151   -0.0133029  
   0.104994800    -0.0320598   -0.0117499  
   0.106994700    -0.0325553   -0.0101773  
   0.108994600    -0.0328202   -0.0085840  
   0.110994500    -0.0329406   -0.0069880  
   0.112994400    -0.0329283   -0.0054150  
   0.114994300    -0.0327431   -0.0038863  
   0.116994200    -0.0323805   -0.0024349  
   0.118994100    -0.0318735   -0.0010563  
   0.120994000    -0.0311796    0.0001941  
   0.122993900    -0.0303890    0.0013366  
   0.124993800    -0.0295175    0.0023426  
   0.126993700    -0.0285902    0.0031890  
   0.128993600    -0.0275909    0.0038482  
   0.130993500    -0.0265581    0.0043324  
   0.132993400    -0.0255177    0.0046550  
   0.134993300    -0.0244825    0.0048096  
   0.136993200    -0.0235930    0.0048043  
   0.138993100    -0.0227183    0.0046368  
   0.140993000    -0.0219840    0.0043124  
   0.142992900    -0.0214052    0.0038929  
   0.144992800    -0.0210104    0.0033549  
   0.146992700    -0.0207997    0.0027640  
   0.148992600    -0.0207608    0.0021483  
   0.150992500    -0.0209577    0.0015306  
   0.152992400    -0.0213002    0.0009435  
   0.154992300    -0.0218943    0.0004085  
   0.156992200    -0.0226629   -0.0000227  
   0.158992100    -0.0235823   -0.0002809  
   0.160992000    -0.0246703   -0.0003945  
   0.162991900    -0.0258865   -0.0002977  
   0.164991800    -0.0271662    0.0000376  
   0.166991700    -0.0285927    0.0006088  
   0.168991600    -0.0300052    0.0014739  
   0.170991500    -0.0313743    0.0025716  
   0.172991400    -0.0326589    0.0040179  
   0.174991300    -0.0338777    0.0056623  
   0.176991200    -0.0349090    0.0076396  
   0.178991100    -0.0357549    0.0098572  
   0.180991000    -0.0363399    0.0123363  
   0.182990900    -0.0366523    0.0149416  
   0.184990800    -0.0366061    0.0178008  
   0.186990700    -0.0361760    0.0207151  
   0.188990600    -0.0368297    0.0229790  
   0.190990500    -0.0346652    0.0269027  
   0.192990400    -0.0328571    0.0301418  
   0.194990300    -0.0308311    0.0330527  
   0.196990200    -0.0284494    0.0357837  
   0.198990100    -0.0256826    0.0382987  
   0.200990000    -0.0225070    0.0405567  
   0.202989900    -0.0189291    0.0425063  
   0.204989800    -0.0150807    0.0440591  
   0.206989700    -0.0109630    0.0451345  
   0.208989600    -0.0066123    0.0457623  
   0.210989500    -0.0021718    0.0459799  
   0.212989400     0.0024300    0.0456544  
   0.214989300     0.0070057    0.0448477  
   0.216989200     0.0114732    0.0434692  
   0.218989100     0.0157688    0.0415250  
   0.220989000     0.0198662    0.0391146  
   0.222988900     0.0238144    0.0360909  
   0.224988800     0.0274503    0.0325621  
   0.226988700     0.0305922    0.0286556  
   0.228988600     0.0332648    0.0244574  
   0.230988500     0.0354404    0.0199824  
   0.232988400     0.0370916    0.0152114  
   0.234988300     0.0381917    0.0102721  
   0.236988200     0.0387044    0.0052230  
   0.238988100     0.0386078    0.0001403  
   0.240988000     0.0378735   -0.0048389  
   0.242987900     0.0365471   -0.0097052  
   0.244987800     0.0346248   -0.0143512  
   0.246987700     0.0322048   -0.0187272  
   0.248987600     0.0292862   -0.0227332  
   0.250987500     0.0259126   -0.0263008  
   0.252987400     0.0221766   -0.0294151  
   0.254987300     0.0180942   -0.0320291  
   0.256987200     0.0138214   -0.0340461  
   0.258987100     0.0093575   -0.0354888  
   0.260987000     0.0048329   -0.0363349  
   0.262986900     0.0003322   -0.0365761  
   0.264986800    -0.0040478   -0.0362422  
   0.266986700    -0.0082986   -0.0353171  
   0.268986600    -0.0122570   -0.0338512  
   0.270986500    -0.0159212   -0.0319304  
   0.272986400    -0.0191960   -0.0295935  
   0.274986300    -0.0220691   -0.0269068  
   0.276986200    -0.0244348   -0.0239188  
   0.278986100    -0.0262859   -0.0206272  
   0.280986000    -0.0276343   -0.0172090  
   0.282985900    -0.0283818   -0.0136751  
   0.284985800    -0.0286096   -0.0101539  
   0.286985700    -0.0282535   -0.0067570  
   0.288985600    -0.0274589   -0.0035848  
   0.290985500    -0.0261983   -0.0007243  
   0.292985400    -0.0244858    0.0018393  
   0.294985300    -0.0224405    0.0040418  
   0.296985200    -0.0200252    0.0057622  
   0.298985100    -0.0174485    0.0071585  
   0.300985000    -0.0146448    0.0080411  
   0.302984900    -0.0117829    0.0083764  
   0.304984800    -0.0089232    0.0082115  
   0.306984700    -0.0061261    0.0074899  
   0.308984600    -0.0035856    0.0062429  
   0.310984500    -0.0012733    0.0045011  
   0.312984400     0.0007404    0.0023389  
   0.314984300     0.0023492   -0.0001426  
   0.316984200     0.0035345   -0.0029940  
   0.318984100     0.0043133   -0.0060129  
   0.320984000     0.0045641   -0.0091874  
   0.322983900     0.0042314   -0.0124136  
   0.324983800     0.0033559   -0.0155826  
   0.326983700     0.0019721   -0.0187110  
   0.328983600     0.0000250   -0.0216504  
   0.330983500    -0.0024453   -0.0243164  
   0.332983400    -0.0052782   -0.0267399  
   0.334983300    -0.0085734   -0.0287388  
   0.336983200    -0.0121641   -0.0302846  
   0.338983100    -0.0160763   -0.0313262  
   0.340983000    -0.0201535   -0.0318244  
   0.342982900    -0.0243443   -0.0318019  
   0.344982800    -0.0286229   -0.0310557  
   0.346982700    -0.0328880   -0.0297313  
   0.348982600    -0.0369569   -0.0278044  
   0.350982500    -0.0408214   -0.0252467  
   0.352982400    -0.0444152   -0.0221165  
   0.354982300    -0.0476654   -0.0182061  
   0.356982200    -0.0504454   -0.0130787  
   0.358982100    -0.0523935   -0.0075470  
   0.360982000    -0.0535463   -0.0017778  
   0.362981900    -0.0538359    0.0040682  
   0.364981800    -0.0532389    0.0099822  
   0.366981700    -0.0517770    0.0157057  
   0.368981600    -0.0494729    0.0211735  
   0.370981500    -0.0463915    0.0262769  
   0.372981400    -0.0425789    0.0308357  
   0.374981300    -0.0381758    0.0347595  
   0.376981200    -0.0461818    0.0267441  
   0.378981100    -0.0419124    0.0308909  
   0.380981000    -0.0371198    0.0342581  
   0.382980900    -0.0326919    0.0363930  
   0.384980800    -0.0284222    0.0377705  
   0.386980700    -0.0240753    0.0384352  
   0.388980600    -0.0198396    0.0384459  
   0.390980500    -0.0157035    0.0377717  
   0.392980400    -0.0118812    0.0364603  
   0.394980300    -0.0083459    0.0345538  
   0.396980200    -0.0052151    0.0321740  
   0.398980100    -0.0025864    0.0293141  
   0.400980000    -0.0004748    0.0261473  
   0.402979900     0.0010268    0.0227074  
   0.404979800     0.0019737    0.0191286  
   0.406979700     0.0022365    0.0154753  
   0.408979600     0.0019323    0.0118588  
   0.410979500     0.0008973    0.0083656  
   0.412979400    -0.0006777    0.0051640  
   0.414979300    -0.0028808    0.0023148  
   0.416979200    -0.0055969   -0.0001219  
   0.418979100    -0.0087081   -0.0020422  
   0.420979000    -0.0122523   -0.0034163  
   0.422978900    -0.0160644   -0.0041354  
   0.424978800    -0.0200515   -0.0041583  
   0.426978700    -0.0240994   -0.0034722  
   0.428978600    -0.0281369   -0.0020956  
   0.430978500    -0.0319767    0.0000012  
   0.432978400    -0.0355808    0.0027303  
   0.434978300    -0.0387619    0.0061116  
   0.436978200    -0.0415021    0.0101418  
   0.438978100    -0.0436856    0.0145898  
   0.440978000    -0.0452611    0.0194811  
   0.442977900    -0.0460791    0.0247127  
   0.444977800    -0.0461668    0.0302104  
   0.446977700    -0.0454360    0.0358284  
   0.448977600    -0.0439572    0.0414256  
   0.450977500    -0.0416026    0.0469338  
   0.452977400    -0.0384698    0.0522220  
   0.454977300    -0.0345803    0.0572245  
   0.456977200    -0.0299008    0.0617173  
   0.458977100    -0.0245378    0.0656734  
   0.460977000    -0.0186039    0.0688960  
   0.462976900    -0.0121404    0.0713394  
   0.464976800    -0.0053418    0.0729563  
   0.466976700     0.0017387    0.0736959  
   0.468976600     0.0089539    0.0733967  
   0.470976500     0.0161261    0.0722200  
   0.472976400     0.0231663    0.0700872  
   0.474976300     0.0299210    0.0669961  
   0.476976200     0.0362630    0.0630546  
   0.478976100     0.0421080    0.0582802  
   0.480976000     0.0472845    0.0528488  
   0.482975900     0.0517337    0.0468158  
   0.484975800     0.0553732    0.0402782  
   0.486975700     0.0581479    0.0332828  
   0.488975600     0.0600065    0.0260517  
   0.490975500     0.0609000    0.0185461  
   0.492975400     0.0608195    0.0109826  
   0.494975300     0.0597239    0.0035950  
   0.496975200     0.0576429   -0.0036167  
   0.498975100     0.0546631   -0.0104015  
   0.500975000     0.0508600   -0.0166976  
   0.502974900     0.0461185   -0.0223211  
   0.504974800     0.0407654   -0.0272225  
   0.506974700     0.0348087   -0.0313162  
   0.508974600     0.0282745   -0.0345881  
   0.510974500     0.0213817   -0.0368927  
   0.512974400     0.0142488   -0.0381788  
   0.514974300     0.0071660   -0.0383088  
   0.516974200     0.0002735   -0.0374861  
   0.518974100    -0.0062573   -0.0357086  
   0.520974000    -0.0123818   -0.0329934  
   0.522973900    -0.0179319   -0.0293807  
   0.524973800    -0.0228210   -0.0250403  
   0.526973700    -0.0269604   -0.0199958  
   0.528973600    -0.0302012   -0.0145065  
   0.530973500    -0.0325641   -0.0085739  
   0.532973400    -0.0339117   -0.0024698  
   0.534973300    -0.0342155    0.0038117  
   0.536973200    -0.0335197    0.0099571  
   0.538973100    -0.0317920    0.0159637  
   0.540973000    -0.0291215    0.0215963  
   0.542972900    -0.0255723    0.0266990  
   0.544972800    -0.0211931    0.0311912  
   0.546972700    -0.0161564    0.0349037  
   0.548972600    -0.0104916    0.0377612  
   0.550972500    -0.0044176    0.0396580  
   0.552972400     0.0019462    0.0404752  
   0.554972300     0.0084874    0.0402678  
   0.556972200     0.0150353    0.0389114  
   0.558972100     0.0213745    0.0365208  
   0.560972000     0.0274731    0.0330630  
   0.562971900     0.0331046    0.0286932  
   0.564971800     0.0379812    0.0235096  
   0.566971700     0.0420711    0.0174080  
   0.568971600     0.0452205    0.0107057  
   0.570971500     0.0474147    0.0034274  
   0.572971400     0.0485735   -0.0043741  
   0.574971300     0.0486149   -0.0124062  
   0.576971200     0.0473252   -0.0205804  
   0.578971100     0.0448440   -0.0286590  
   0.580971000     0.0411609   -0.0364857  
   0.582970900     0.0363245   -0.0438577  
   0.584970800     0.0304048   -0.0505783  
   0.586970700     0.0235751   -0.0564481  
   0.588970600     0.0155830   -0.0614739  
   0.590970500     0.0070826   -0.0654180  
   0.592970400    -0.0020519   -0.0682833  
   0.594970300    -0.0116060   -0.0698411  
   0.596970200    -0.0214944   -0.0700690  
   0.598970100    -0.0315069   -0.0690342  
   0.600970000    -0.0413132   -0.0666969  
   0.602969900    -0.0508461   -0.0630450  
   0.604969800    -0.0599738   -0.0581231  
   0.606969700    -0.0684398   -0.0519967  
   0.608969600    -0.0761050   -0.0447725  
   0.610969500    -0.0828316   -0.0365600  
   0.612969400    -0.0883956   -0.0274547  
   0.614969300    -0.0927603   -0.0176628  
   0.616969200    -0.0958317   -0.0071565  
   0.618969100    -0.0974534    0.0035886  
   0.620969000    -0.0977205    0.0143435  
   0.622968900    -0.0966187    0.0251040  
   0.624968800    -0.0941697    0.0356545  
   0.626968700    -0.0903246    0.0457610  
   0.628968600    -0.0851215    0.0552760  
   0.630968500    -0.0788116    0.0639675  
   0.632968400    -0.0714065    0.0717752  
   0.634968300    -0.0630680    0.0786802  
   0.636968200    -0.0539352    0.0841994  
   0.638968100    -0.0440670    0.0886358  
   0.640968000    -0.0339770    0.0914858  
   0.642967900    -0.0236138    0.0929152  
   0.644967800    -0.0132673    0.0929317  
   0.646967700    -0.0031182    0.0915623  
   0.648967600     0.0066796    0.0889114  
   0.650967500     0.0160178    0.0850146  
   0.652967400     0.0244094    0.0799025  
   0.654967300     0.0318891    0.0736612  
   0.656967200     0.0383620    0.0665855  
   0.658967100     0.0435664    0.0589424  
   0.660967000     0.0476742    0.0505815  
   0.662966900     0.0505476    0.0416684  
   0.664966800     0.0521156    0.0324643  
   0.666966700     0.0524029    0.0231353  
   0.668966600     0.0512753    0.0140338  
   0.670966500     0.0488945    0.0052327  
   0.672966400     0.0453634   -0.0030580  
   0.674966300     0.0405545   -0.0108179  
   0.676966200     0.0345743   -0.0173314  
   0.678966100     0.0280509   -0.0227496  
   0.680966000     0.0206302   -0.0270825  
   0.682965900     0.0127109   -0.0301585  
   0.684965800     0.0043983   -0.0319950  
   0.686965700    -0.0039862   -0.0325867  
   0.688965600    -0.0122933   -0.0317351  
   0.690965500    -0.0203197   -0.0296052  
   0.692965400    -0.0278620   -0.0262399  
   0.694965300    -0.0348288   -0.0216810  
   0.696965200    -0.0409837   -0.0161399  
   0.698965100    -0.0462138   -0.0096039  
   0.700965000    -0.0503820   -0.0023941  
   0.702964900    -0.0533614    0.0054128  
   0.704964800    -0.0551226    0.0136227  
   0.706964700    -0.0555309    0.0222842  
   0.708964600    -0.0545772    0.0308025  
   0.710964500    -0.0522507    0.0390876  
   0.712964400    -0.0485307    0.0472049  
   0.714964300    -0.0436545    0.0545423  
   0.716964200    -0.0377613    0.0611563  
   0.718964100    -0.0309744    0.0668974  
   0.720964000    -0.0233547    0.0716653  
   0.722963900    -0.0151309    0.0752929  
   0.724963800    -0.0063863    0.0777420  
   0.726963700     0.0028647    0.0790016  
   0.728963600     0.0120863    0.0788298  
   0.730963500     0.0212454    0.0772838  
   0.732963400     0.0302570    0.0744431  
   0.734963300     0.0388430    0.0702275  
   0.736963200     0.0493565    0.0633310  
   0.738963100     0.0587907    0.0548352  
   0.740963000     0.0669558    0.0449570  
   0.742962900     0.0737034    0.0338342  
   0.744962800     0.0784928    0.0219820  
   0.746962700     0.0814947    0.0097170  
   0.748962600     0.0825711   -0.0027944  
   0.750962500     0.0658372    0.0156760  
   0.752962400     0.0671690    0.0035922  
   0.754962300     0.0665657   -0.0083996  
   0.756962200     0.0640473   -0.0198785  
   0.758962100     0.0597938   -0.0308231  
   0.760962000     0.0539708   -0.0405361  
   0.762961900     0.0467545   -0.0483356  
   0.764961800     0.0385317   -0.0540929  
   0.766961700     0.0296769   -0.0586068  
   0.768961600     0.0203609   -0.0616907  
   0.770961500     0.0107473   -0.0634353  
   0.772961400     0.0010323   -0.0638014  
   0.774961300    -0.0085730   -0.0628324  
   0.776961200    -0.0178611   -0.0605419  
   0.778961100    -0.0266933   -0.0570279  
   0.780961000    -0.0347819   -0.0522952  
   0.782960900    -0.0420852   -0.0465660  
   0.784960800    -0.0482544   -0.0398340  
   0.786960700    -0.0533086   -0.0323612  
   0.788960600    -0.0571632   -0.0242708  
   0.790960500    -0.0596949   -0.0156825  
   0.792960400    -0.0608950   -0.0068508  
   0.794960300    -0.0607338    0.0018501  
   0.796960200    -0.0592842    0.0103841  
   0.798960100    -0.0565890    0.0184870  
   0.800960000    -0.0526608    0.0262857  
   0.802959900    -0.0476952    0.0330789  
   0.804959800    -0.0418751    0.0389518  
   0.806959700    -0.0352632    0.0438306  
   0.808959600    -0.0280429    0.0475362  
   0.810959500    -0.0203099    0.0500413  
   0.812959400    -0.0122561    0.0512804  
   0.814959300    -0.0041437    0.0512559  
   0.816959200     0.0038582    0.0498664  
   0.818959100     0.0114969    0.0472353  
   0.820959000     0.0188587    0.0434265  
   0.822958900     0.0255225    0.0385415  
   0.824958800     0.0314109    0.0326743  
   0.826958700     0.0365538    0.0255631  
   0.828958600     0.0402615    0.0178931  
   0.830958500     0.0428090    0.0097021  
   0.832958400     0.0440238    0.0010979  
   0.834958300     0.0439029   -0.0076451  
   0.836958200     0.0425105   -0.0165545  
   0.838958100     0.0396845   -0.0250848  
   0.840958000     0.0356881   -0.0330998  
   0.842957900     0.0304908   -0.0406029  
   0.844957800     0.0241665   -0.0472681  
   0.846957700     0.0168221   -0.0529880  
   0.848957600     0.0086353   -0.0575950  
   0.850957500    -0.0002354   -0.0610399  
   0.852957400    -0.0095428   -0.0631047  
   0.854957300    -0.0191629   -0.0638289  
   0.856957200    -0.0288722   -0.0631710  
   0.858957100    -0.0384808   -0.0610604  
   0.860957000    -0.0477994   -0.0576468  
   0.862956900    -0.0567246   -0.0529449  
   0.864956800    -0.0649486   -0.0471690  
   0.866956700    -0.0722510   -0.0403597  
   0.868956600    -0.0787120   -0.0324170  
   0.870956500    -0.0839006   -0.0239688  
   0.872956400    -0.0878524   -0.0148212  
   0.874956300    -0.0904924   -0.0052833  
   0.876956200    -0.0916727    0.0046171  
   0.878956100    -0.0914693    0.0145759  
   0.880956000    -0.0898158    0.0244095  
   0.882955900    -0.0867906    0.0339394  
   0.884955800    -0.0824145    0.0431070  
   0.886955700    -0.0769369    0.0514093  
   0.888955600    -0.0703344    0.0587585  
   0.890955500    -0.0628285    0.0650746  
   0.892955400    -0.0545057    0.0702307  
   0.894955300    -0.0456214    0.0740987  
