! MS46122B
! 2250307/22442219
! 6/18/2025 7:46:25 AM
! C:\USERS\SPARKY\DOCUMENTS\VNA_DATA\JUNE18_2025\3.0K\ECAL_OPEN_E.S1P
! CHANNEL.1
! TR.MEASUREMENT
! RAW.DATA
# GHZ S RI R 50.0
! FREQ.GHZ         S11RE         S11IM         
!; PortSelection: Port_1
   0.001000000     1.0270780   -0.0526398  
   0.002999900     0.9417145   -0.2062482  
   0.004999800     0.8800407   -0.3466894  
   0.006999700     0.8068340   -0.4781099  
   0.008999600     0.7183709   -0.5917139  
   0.010999500     0.6187218   -0.6922889  
   0.012999400     0.5088254   -0.7802388  
   0.014999300     0.3899316   -0.8533404  
   0.016999200     0.2626025   -0.9095622  
   0.018999100     0.1291352   -0.9468266  
   0.020999000    -0.0089911   -0.9634878  
   0.022998900    -0.1482859   -0.9589540  
   0.024998800    -0.2616495   -0.9065887  
   0.026998700    -0.4178278   -0.8823506  
   0.028998600    -0.5415109   -0.8118421  
   0.030998500    -0.6528408   -0.7223467  
   0.032998400    -0.7166118   -0.6095146  
   0.034998300    -0.8289595   -0.4958658  
   0.036998200    -0.8889424   -0.3650848  
   0.038998100    -0.9291379   -0.2271232  
   0.040998000    -0.9482961   -0.0851216  
   0.042997900    -0.9470831    0.0573656  
   0.044997800    -0.9001211    0.1745370  
   0.046997700    -0.8828509    0.3326128  
   0.048997600    -0.8219870    0.4606138  
   0.050997500    -0.7430584    0.5781999  
   0.052997400    -0.6493983    0.6809679  
   0.054997300    -0.5366098    0.7717764  
   0.056997200    -0.4130508    0.8432065  
   0.058997100    -0.2802319    0.8947262  
   0.060997000    -0.1410457    0.9252999  
   0.062996900     0.0014867    0.9340764  
   0.064996800     0.1439012    0.9211852  
   0.066996700     0.2826262    0.8866150  
   0.068996600     0.4144394    0.8315626  
   0.070996500     0.5364996    0.7571594  
   0.072996400     0.6457011    0.6651129  
   0.074996300     0.7400784    0.5576417  
   0.076996200     0.8169608    0.4371972  
   0.078996100     0.8746449    0.3065599  
   0.080996000     0.9115760    0.1690224  
   0.082995900     0.9273883    0.0275771  
   0.084995800     0.9213031   -0.1142735  
   0.086995700     0.8939922   -0.2531726  
   0.088995600     0.8459452   -0.3860547  
   0.090995500     0.7786937   -0.5095059  
   0.092995400     0.6937479   -0.6209280  
   0.094995300     0.5936914   -0.7181652  
   0.096995200     0.4804891   -0.7993075  
   0.098995100     0.3572460   -0.8624406  
   0.100995000     0.2266768   -0.9063500  
   0.102994900     0.0914429   -0.9304198  
   0.104994800    -0.0452601   -0.9346914  
   0.106994700    -0.1804301   -0.9193374  
   0.108994600    -0.3118222   -0.8842877  
   0.110994500    -0.4364588   -0.8306817  
   0.112994400    -0.5513861   -0.7602659  
   0.114994300    -0.6550625   -0.6742382  
   0.116994200    -0.7448491   -0.5741058  
   0.118994100    -0.8193013   -0.4625856  
   0.120994000    -0.8770186   -0.3414369  
   0.122993900    -0.9163720   -0.2134054  
   0.124993800    -0.9373073   -0.0814837  
   0.126993700    -0.9390509    0.0527011  
   0.128993600    -0.9218596    0.1856422  
   0.130993500    -0.8854572    0.3151638  
   0.132993400    -0.8307910    0.4381019  
   0.134993300    -0.7588323    0.5524137  
   0.136993200    -0.6710398    0.6551519  
   0.138993100    -0.5685580    0.7445348  
   0.140993000    -0.4539021    0.8181509  
   0.142992900    -0.3289540    0.8745144  
   0.144992800    -0.1966909    0.9125257  
   0.146992700    -0.0594172    0.9302028  
   0.148992600     0.0794477    0.9271610  
   0.150992500     0.2165917    0.9035829  
   0.152992400     0.3496491    0.8589528  
   0.154992300     0.4746656    0.7948238  
   0.156992200     0.5890120    0.7122300  
   0.158992100     0.6896768    0.6126429  
   0.160992000     0.7743487    0.4986211  
   0.162991900     0.8406224    0.3726797  
   0.164991800     0.8867828    0.2373894  
   0.166991700     0.9113086    0.0970168  
   0.168991600     0.9139364   -0.0457980  
   0.170991500     0.8943890   -0.1873437  
   0.172991400     0.8527337   -0.3240659  
   0.174991300     0.7910486   -0.4521167  
   0.176991200     0.7098524   -0.5692409  
   0.178991100     0.6118513   -0.6721371  
   0.180991000     0.4998650   -0.7578422  
   0.182990900     0.3760578   -0.8253924  
   0.184990800     0.2440255   -0.8729138  
   0.186990700     0.1068461   -0.8991697  
   0.188990600    -0.0065323   -0.9042003  
   0.190990500    -0.1655142   -0.8885195  
   0.192990400    -0.3017219   -0.8512833  
   0.194990300    -0.4266702   -0.7951286  
   0.196990200    -0.5405984   -0.7216402  
   0.198990100    -0.6415287   -0.6323627  
   0.200990000    -0.7279450   -0.5295545  
   0.202989900    -0.7979006   -0.4154129  
   0.204989800    -0.8500369   -0.2928789  
   0.206989700    -0.8832391   -0.1649251  
   0.208989600    -0.8975451   -0.0342807  
   0.210989500    -0.8926663    0.0971577  
   0.212989400    -0.8685021    0.2265798  
   0.214989300    -0.8260673    0.3505655  
   0.216989200    -0.7662679    0.4664478  
   0.218989100    -0.6910391    0.5722988  
   0.220989000    -0.6009371    0.6662818  
   0.222988900    -0.4977440    0.7467482  
   0.224988800    -0.3840113    0.8116089  
   0.226988700    -0.2622824    0.8589568  
   0.228988600    -0.1350450    0.8884542  
   0.230988500    -0.0047623    0.8991141  
   0.232988400     0.1257707    0.8910251  
   0.234988300     0.2547897    0.8639805  
   0.236988200     0.3786281    0.8182263  
   0.238988100     0.4948808    0.7545441  
   0.240988000     0.6005934    0.6746188  
   0.242987900     0.6933970    0.5801747  
   0.244987800     0.7716678    0.4730552  
   0.246987700     0.8338413    0.3548526  
   0.248987600     0.8780624    0.2281270  
   0.250987500     0.9032313    0.0955363  
   0.252987400     0.9082621   -0.0389754  
   0.254987300     0.8933846   -0.1727564  
   0.256987200     0.8591206   -0.3026782  
   0.258987100     0.8059068   -0.4258805  
   0.260987000     0.7345936   -0.5405667  
   0.262986900     0.6468920   -0.6437137  
   0.264986800     0.5443909   -0.7327678  
   0.266986700     0.4301203   -0.8055894  
   0.268986600     0.3064918   -0.8604454  
   0.270986500     0.1766951   -0.8959329  
   0.272986400     0.0433677   -0.9117092  
   0.274986300    -0.0903880   -0.9079141  
   0.276986200    -0.2221946   -0.8841115  
   0.278986100    -0.3488959   -0.8410349  
   0.280986000    -0.4681457   -0.7795527  
   0.282985900    -0.5767901   -0.7011585  
   0.284985800    -0.6725415   -0.6076915  
   0.286985700    -0.7528416   -0.5016183  
   0.288985600    -0.8163425   -0.3858305  
   0.290985500    -0.8616782   -0.2627644  
   0.292985400    -0.8884767   -0.1351197  
   0.294985300    -0.8965344   -0.0050409  
   0.296985200    -0.8853955    0.1254591  
   0.298985100    -0.8549989    0.2534569  
   0.300985000    -0.8064371    0.3758195  
   0.302984900    -0.7400758    0.4891944  
   0.304984800    -0.6580910    0.5911124  
   0.306984700    -0.5622566    0.6801319  
   0.308984600    -0.4548706    0.7533913  
   0.310984500    -0.3387701    0.8100902  
   0.312984400    -0.2152883    0.8489547  
   0.314984300    -0.0874179    0.8696054  
   0.316984200     0.0423388    0.8711976  
   0.318984100     0.1714496    0.8536391  
   0.320984000     0.2979785    0.8169683  
   0.322983900     0.4179284    0.7616170  
   0.324983800     0.5286921    0.6885777  
   0.326983700     0.6270676    0.5999256  
   0.328983600     0.7112256    0.4968617  
   0.330983500     0.7787954    0.3825918  
   0.332983400     0.8279700    0.2599928  
   0.334983300     0.8583421    0.1310084  
   0.336983200     0.8690866   -0.0011172  
   0.338983100     0.8598242   -0.1333295  
   0.340983000     0.8307087   -0.2627716  
   0.342982900     0.7824070   -0.3862282  
   0.344982800     0.7158386   -0.5016418  
   0.346982700     0.6319369   -0.6062725  
   0.348982600     0.5332168   -0.6967542  
   0.350982500     0.4214931   -0.7713502  
   0.352982400     0.2999567   -0.8281031  
   0.354982300     0.1655450   -0.8668590  
   0.356982200     0.0112147   -0.8844988  
   0.358982100    -0.1428228   -0.8745798  
   0.360982000    -0.2916990   -0.8380569  
   0.362981900    -0.4314082   -0.7768360  
   0.364981800    -0.5580505   -0.6922650  
   0.366981700    -0.6673636   -0.5877295  
   0.368981600    -0.7567045   -0.4665602  
   0.370981500    -0.8237156   -0.3327631  
   0.372981400    -0.8667071   -0.1901021  
   0.374981300    -0.8852192   -0.0423872  
   0.376981200    -0.8728067   -0.1896884  
   0.378981100    -0.8916768   -0.0404028  
   0.380981000    -0.8848454    0.1099400  
   0.382980900    -0.8578111    0.2421347  
   0.384980800    -0.8137760    0.3628865  
   0.386980700    -0.7527466    0.4758917  
   0.388980600    -0.6762744    0.5785789  
   0.390980500    -0.5860187    0.6686935  
   0.392980400    -0.4842815    0.7446983  
   0.394980300    -0.3730435    0.8051957  
   0.396980200    -0.2545263    0.8488138  
   0.398980100    -0.1306100    0.8755355  
   0.400980000    -0.0039033    0.8837572  
   0.402979900     0.1233058    0.8735801  
   0.404979800     0.2477273    0.8451667  
   0.406979700     0.3670419    0.7988384  
   0.408979600     0.4789536    0.7353691  
   0.410979500     0.5809994    0.6555184  
   0.412979400     0.6711073    0.5605676  
   0.414979300     0.7462395    0.4523822  
   0.416979200     0.8046136    0.3336836  
   0.418979100     0.8443182    0.2071387  
   0.420979000     0.8645975    0.0752873  
   0.422978900     0.8643032   -0.0588784  
   0.424978800     0.8429160   -0.1920463  
   0.426978700     0.8011141   -0.3210092  
   0.428978600     0.7394578   -0.4418194  
   0.430978500     0.6600341   -0.5513515  
   0.432978400     0.5649583   -0.6467029  
   0.434978300     0.4560878   -0.7262097  
   0.436978200     0.3365585   -0.7879978  
   0.438978100     0.2090659   -0.8298221  
   0.440978000     0.0771359   -0.8513635  
   0.442977900    -0.0564676   -0.8523351  
   0.444977800    -0.1875806   -0.8328443  
   0.446977700    -0.3138860   -0.7936884  
   0.448977600    -0.4317292   -0.7360501  
   0.450977500    -0.5387714   -0.6615334  
   0.452977400    -0.6334416   -0.5716130  
   0.454977300    -0.7134991   -0.4684327  
   0.456977200    -0.7767830   -0.3550704  
   0.458977100    -0.8221874   -0.2335083  
   0.460977000    -0.8483809   -0.1075697  
   0.462976900    -0.8557729    0.0199042  
   0.464976800    -0.8442733    0.1465748  
   0.466976700    -0.8143527    0.2694717  
   0.468976600    -0.7670754    0.3857936  
   0.470976500    -0.7033581    0.4941282  
   0.472976400    -0.6250141    0.5912808  
   0.474976300    -0.5338106    0.6757945  
   0.476976200    -0.4318413    0.7462325  
   0.478976100    -0.3212779    0.8010770  
   0.480976000    -0.2048877    0.8391967  
   0.482975900    -0.0846067    0.8605476  
   0.484975800     0.0371764    0.8650007  
   0.486975700     0.1590129    0.8519671  
   0.488975600     0.2777410    0.8219649  
   0.490975500     0.3914798    0.7751747  
   0.492975400     0.4979632    0.7125074  
   0.494975300     0.5946469    0.6350651  
   0.496975200     0.6797673    0.5440643  
   0.498975100     0.7509962    0.4415651  
   0.500975000     0.8071112    0.3294220  
   0.502974900     0.8465330    0.2101884  
   0.504974800     0.8684378    0.0855024  
   0.506974700     0.8716395   -0.0419030  
   0.508974600     0.8558474   -0.1702727  
   0.510974500     0.8210106   -0.2954086  
   0.512974400     0.7675725   -0.4142958  
   0.514974300     0.6970226   -0.5237356  
   0.516974200     0.6106166   -0.6218226  
   0.518974100     0.5106082   -0.7056401  
   0.520974000     0.3991406   -0.7734085  
   0.522973900     0.2781642   -0.8240335  
   0.524973800     0.1510610   -0.8556124  
   0.526973700     0.0203058   -0.8675908  
   0.528973600    -0.1104396   -0.8596566  
   0.530973500    -0.2388890   -0.8322718  
   0.532973400    -0.3615693   -0.7854469  
   0.534973300    -0.4755575   -0.7206421  
   0.536973200    -0.5780784   -0.6394671  
   0.538973100    -0.6667932   -0.5441399  
   0.540973000    -0.7393435   -0.4374428  
   0.542972900    -0.7951320   -0.3213305  
   0.544972800    -0.8330433   -0.1985579  
   0.546972700    -0.8521890   -0.0715709  
   0.548972600    -0.8518471    0.0568250  
   0.550972500    -0.8326695    0.1833985  
   0.552972400    -0.7946369    0.3053927  
   0.554972300    -0.7387901    0.4203424  
   0.556972200    -0.6664671    0.5253832  
   0.558972100    -0.5793395    0.6182127  
   0.560972000    -0.4797032    0.6968253  
   0.562971900    -0.3697747    0.7594342  
   0.564971800    -0.2523645    0.8048611  
   0.566971700    -0.1297401    0.8322786  
   0.568971600    -0.0049410    0.8414145  
   0.570971500     0.1198595    0.8317440  
   0.572971400     0.2423246    0.8036984  
   0.574971300     0.3593934    0.7576947  
   0.576971200     0.4689265    0.6941491  
   0.578971100     0.5677244    0.6146729  
   0.580971000     0.6540706    0.5211164  
   0.582970900     0.7251619    0.4155988  
   0.584970800     0.7792853    0.3010189  
   0.586970700     0.8155240    0.1796342  
   0.588970600     0.8332370    0.0543990  
   0.590970500     0.8321912   -0.0725746  
   0.592970400     0.8119197   -0.1976047  
   0.594970300     0.7730155   -0.3184775  
   0.596970200     0.7163740   -0.4321550  
   0.598970100     0.6434481   -0.5358371  
   0.600970000     0.5556635   -0.6280009  
   0.602969900     0.4548077   -0.7057297  
   0.604969800     0.3436033   -0.7675253  
   0.606969700     0.2241494   -0.8118120  
   0.608969600     0.0994012   -0.8377953  
   0.610969500    -0.0279767   -0.8450030  
   0.612969400    -0.1544671   -0.8328226  
   0.614969300    -0.2766681   -0.8015824  
   0.616969200    -0.3926139   -0.7535284  
   0.618969100    -0.4994344   -0.6891536  
   0.620969000    -0.5952596   -0.6107184  
   0.622968900    -0.6782637   -0.5194495  
   0.624968800    -0.7471090   -0.4172181  
   0.626968700    -0.8005912   -0.3063662  
   0.628968600    -0.8374352   -0.1890795  
   0.630968500    -0.8570403   -0.0678674  
   0.632968400    -0.8592459    0.0548019  
   0.634968300    -0.8436309    0.1760224  
   0.636968200    -0.8112435    0.2941208  
   0.638968100    -0.7620570    0.4058015  
   0.640968000    -0.6976700    0.5087636  
   0.642967900    -0.6191852    0.6020854  
   0.644967800    -0.5283317    0.6828570  
   0.646967700    -0.4270180    0.7502093  
   0.648967600    -0.3170996    0.8020070  
   0.650967500    -0.2017055    0.8381694  
   0.652967400    -0.0823757    0.8567808  
   0.654967300     0.0386773    0.8587961  
   0.656967200     0.1587519    0.8433542  
   0.658967100     0.2750447    0.8110893  
   0.660967000     0.3865947    0.7622015  
   0.662966900     0.4908762    0.6968793  
   0.664966800     0.5853291    0.6167023  
   0.666966700     0.6678793    0.5225573  
   0.668966600     0.7354512    0.4173849  
   0.670966500     0.7873669    0.3022498  
   0.672966400     0.8214525    0.1807539  
   0.674966300     0.8371180    0.0549684  
   0.676966200     0.8336152   -0.0716417  
   0.678966100     0.8110079   -0.1961235  
   0.680966000     0.7696677   -0.3165468  
   0.682965900     0.7107938   -0.4289000  
   0.684965800     0.6355707   -0.5313521  
   0.686965700     0.5451987   -0.6214932  
   0.688965600     0.4421841   -0.6966884  
   0.690965500     0.3289807   -0.7553777  
   0.692965400     0.2084870   -0.7958326  
   0.694965300     0.0834857   -0.8176039  
   0.696965200    -0.0433720   -0.8200307  
   0.698965100    -0.1687359   -0.8029394  
   0.700965000    -0.2895564   -0.7671865  
   0.702964900    -0.4035491   -0.7135669  
   0.704964800    -0.5076376   -0.6432401  
   0.706964700    -0.5995765   -0.5585302  
   0.708964600    -0.6773922   -0.4610885  
   0.710964500    -0.7395694   -0.3532067  
   0.712964400    -0.7843960   -0.2379127  
   0.714964300    -0.8114912   -0.1175505  
   0.716964200    -0.8203007    0.0046420  
   0.718964100    -0.8106898    0.1255527  
   0.720964000    -0.7840837    0.2435137  
   0.722963900    -0.7409772    0.3552096  
   0.724963800    -0.6822558    0.4590027  
   0.726963700    -0.6095237    0.5531183  
   0.728963600    -0.5243663    0.6354136  
   0.730963500    -0.4283231    0.7045614  
   0.732963400    -0.3234905    0.7592158  
   0.734963300    -0.2122045    0.7984147  
   0.736963200    -0.0756687    0.8232223  
   0.738963100     0.0637686    0.8249311  
   0.740963000     0.2028766    0.8036560  
   0.742962900     0.3365478    0.7589101  
   0.744962800     0.4614806    0.6924700  
   0.746962700     0.5742983    0.6055726  
   0.748962600     0.6707688    0.5008674  
   0.750962500     0.5624545    0.6078225  
   0.752962400     0.6593367    0.5027940  
   0.754962300     0.7373723    0.3828798  
   0.756962200     0.7941334    0.2509333  
   0.758962100     0.8274729    0.1111725  
   0.760962000     0.8364027   -0.0332200  
   0.762961900     0.8218580   -0.1695797  
   0.764961800     0.7884918   -0.2900599  
   0.766961700     0.7376881   -0.4046507  
   0.768961600     0.6701670   -0.5104792  
   0.770961500     0.5874148   -0.6050208  
   0.772961400     0.4910308   -0.6863472  
   0.774961300     0.3837734   -0.7520978  
   0.776961200     0.2676350   -0.8011662  
   0.778961100     0.1449310   -0.8326768  
   0.780961000     0.0186968   -0.8448015  
   0.782960900    -0.1080750   -0.8377728  
   0.784960800    -0.2324732   -0.8112464  
   0.786960700    -0.3514283   -0.7661851  
   0.788960600    -0.4617345   -0.7039577  
   0.790960500    -0.5612284   -0.6255575  
   0.792960400    -0.6470709   -0.5333055  
   0.794960300    -0.7175621   -0.4299686  
   0.796960200    -0.7715563   -0.3182238  
   0.798960100    -0.8081061   -0.1999811  
   0.800960000    -0.8260203   -0.0784122  
   0.802959900    -0.8261387    0.0439171  
   0.804959800    -0.8083713    0.1639563  
   0.806959700    -0.7731744    0.2793161  
   0.808959600    -0.7220411    0.3878163  
   0.810959500    -0.6558650    0.4870761  
   0.812959400    -0.5762415    0.5753816  
   0.814959300    -0.4847707    0.6509817  
   0.816959200    -0.3836299    0.7125140  
   0.818959100    -0.2751483    0.7584131  
   0.820959000    -0.1607994    0.7884293  
   0.822958900    -0.0433409    0.8014552  
   0.824958800     0.0749747    0.7972174  
   0.826958700     0.1910732    0.7758293  
   0.828958600     0.3037191    0.7375895  
   0.830958500     0.4095426    0.6836410  
   0.832958400     0.5063686    0.6143479  
   0.834958300     0.5923226    0.5313947  
   0.836958200     0.6650832    0.4368438  
   0.838958100     0.7233127    0.3320397  
   0.840958000     0.7658378    0.2193873  
   0.842957900     0.7910210    0.1007690  
   0.844957800     0.7986662   -0.0208191  
   0.846957700     0.7875563   -0.1427001  
   0.848957600     0.7579794   -0.2617621  
   0.850957500     0.7107399   -0.3753934  
   0.852957400     0.6463158   -0.4807199  
   0.854957300     0.5664176   -0.5753778  
   0.856957200     0.4733267   -0.6568823  
   0.858957100     0.3687143   -0.7229554  
   0.860957000     0.2555490   -0.7725255  
   0.862956900     0.1368152   -0.8039823  
   0.864956800     0.0151370   -0.8176128  
   0.866956700    -0.1069374   -0.8128124  
   0.868956600    -0.2258741   -0.7900514  
   0.870956500    -0.3400238   -0.7500878  
   0.872956400    -0.4468817   -0.6937633  
   0.874956300    -0.5441450   -0.6227368  
   0.876956200    -0.6293970   -0.5381624  
   0.878956100    -0.7013853   -0.4422461  
   0.880956000    -0.7583879   -0.3369573  
   0.882955900    -0.7995425   -0.2250428  
   0.884955800    -0.8236902   -0.1087654  
   0.886955700    -0.8308513    0.0097975  
   0.888955600    -0.8212680    0.1277698  
   0.890955500    -0.7940400    0.2424794  
   0.892955400    -0.7513800    0.3518901  
   0.894955300    -0.6938102    0.4543359  
