! MS46122B
! 2250307/22442219
! 6/20/2025 7:47:37 AM
! C:\USERS\SPARKY\DOCUMENTS\VNA_DATA\JUNE20_2025\3.0K\ECAL_SHORT_F.S1P
! CHANNEL.1
! TR.MEASUREMENT
! RAW.DATA
# GHZ S RI R 50.0
! FREQ.GHZ         S11RE         S11IM         
!; PortSelection: Port_1
   0.001000000    -0.9704331    0.0484431  
   0.002999900    -0.9442453    0.2515022  
   0.004999800    -0.9099935    0.3991334  
   0.006999700    -0.8493141    0.5333523  
   0.008999600    -0.7646556    0.6518568  
   0.010999500    -0.6597473    0.7526223  
   0.012999400    -0.5388910    0.8338902  
   0.014999300    -0.4058709    0.8940170  
   0.016999200    -0.2653515    0.9330574  
   0.018999100    -0.1212081    0.9508250  
   0.020999000     0.0240098    0.9478427  
   0.022998900     0.1662853    0.9250309  
   0.024998800     0.2752664    0.8603714  
   0.026998700     0.4316318    0.8241685  
   0.028998600     0.5503442    0.7487961  
   0.030998500     0.6565923    0.6583737  
   0.032998400     0.7126262    0.5495110  
   0.034998300     0.8249909    0.4380455  
   0.036998200     0.8831375    0.3121044  
   0.038998100     0.9223571    0.1784183  
   0.040998000     0.9410024    0.0402113  
   0.042997900     0.9384110   -0.0992484  
   0.044997800     0.8869142   -0.2130240  
   0.046997700     0.8689682   -0.3692614  
   0.048997600     0.8044811   -0.4934855  
   0.050997500     0.7222252   -0.6060962  
   0.052997400     0.6250408   -0.7043979  
   0.054997300     0.5141115   -0.7878150  
   0.056997200     0.3925241   -0.8542673  
   0.058997100     0.2637321   -0.9020443  
   0.060997000     0.1298506   -0.9304761  
   0.062996900    -0.0061471   -0.9394804  
   0.064996800    -0.1419350   -0.9289522  
   0.066996700    -0.2743484   -0.8988284  
   0.068996600    -0.4007164   -0.8499234  
   0.070996500    -0.5184234   -0.7836549  
   0.072996400    -0.6249639   -0.7007781  
   0.074996300    -0.7182470   -0.6033525  
   0.076996200    -0.7962483   -0.4938920  
   0.078996100    -0.8572915   -0.3743303  
   0.080996000    -0.9004840   -0.2470039  
   0.082995900    -0.9249296   -0.1150709  
   0.084995800    -0.9300144    0.0190951  
   0.086995700    -0.9156985    0.1527241  
   0.088995600    -0.8823853    0.2828873  
   0.090995500    -0.8302842    0.4071400  
   0.092995400    -0.7606951    0.5228699  
   0.094995300    -0.6743850    0.6275137  
   0.096995200    -0.5736434    0.7188762  
   0.098995100    -0.4602136    0.7943062  
   0.100995000    -0.3363104    0.8522457  
   0.102994900    -0.2047779    0.8910396  
   0.104994800    -0.0686440    0.9095118  
   0.106994700     0.0692446    0.9073070  
   0.108994600     0.2056480    0.8844502  
   0.110994500     0.3368516    0.8409624  
   0.112994400     0.4606256    0.7779974  
   0.114994300     0.5731612    0.6967402  
   0.116994200     0.6720963    0.5991815  
   0.118994100     0.7551827    0.4873265  
   0.120994000     0.8201104    0.3644081  
   0.122993900     0.8653995    0.2328273  
   0.124993800     0.8900442    0.0960194  
   0.126993700     0.8932256   -0.0428730  
   0.128993600     0.8752420   -0.1801818  
   0.130993500     0.8368088   -0.3127861  
   0.132993400     0.7784749   -0.4376496  
   0.134993300     0.7021794   -0.5514285  
   0.136993200     0.6096912   -0.6520084  
   0.138993100     0.5037069   -0.7371708  
   0.140993000     0.3869301   -0.8046557  
   0.142992900     0.2617173   -0.8542451  
   0.144992800     0.1312377   -0.8840616  
   0.146992700    -0.0016732   -0.8943477  
   0.148992600    -0.1335873   -0.8849915  
   0.150992500    -0.2619480   -0.8563941  
   0.152992400    -0.3847079   -0.8094019  
   0.154992300    -0.4984228   -0.7458894  
   0.156992200    -0.6011793   -0.6666771  
   0.158992100    -0.6910272   -0.5739393  
   0.160992000    -0.7666044   -0.4697291  
   0.162991900    -0.8262702   -0.3557156  
   0.164991800    -0.8690445   -0.2348713  
   0.166991700    -0.8943208   -0.1098189  
   0.168991600    -0.9013233    0.0174629  
   0.170991500    -0.8901321    0.1446639  
   0.172991400    -0.8614633    0.2682450  
   0.174991300    -0.8155982    0.3868409  
   0.176991200    -0.7529153    0.4981574  
   0.178991100    -0.6752480    0.5997018  
   0.180991000    -0.5840530    0.6889083  
   0.182990900    -0.4810300    0.7644161  
   0.184990800    -0.3672035    0.8250648  
   0.186990700    -0.2459752    0.8690773  
   0.188990600    -0.1458098    0.8917565  
   0.190990500     0.0054941    0.9027833  
   0.192990400     0.1391239    0.8914938  
   0.194990300     0.2666802    0.8615234  
   0.196990200     0.3884756    0.8133294  
   0.198990100     0.5022463    0.7480804  
   0.200990000     0.6060456    0.6661249  
   0.202989900     0.6969258    0.5692421  
   0.204989800     0.7730641    0.4597803  
   0.206989700     0.8319913    0.3401516  
   0.208989600     0.8726321    0.2127224  
   0.210989500     0.8942627    0.0799614  
   0.212989400     0.8952600   -0.0552925  
   0.214989300     0.8764815   -0.1893326  
   0.216989200     0.8371845   -0.3185617  
   0.218989100     0.7793444   -0.4401580  
   0.220989000     0.7033743   -0.5523054  
   0.222988900     0.6112034   -0.6520772  
   0.224988800     0.5045715   -0.7364666  
   0.226988700     0.3871496   -0.8033698  
   0.228988600     0.2613414   -0.8516732  
   0.230988500     0.1299793   -0.8803573  
   0.232988400    -0.0039380   -0.8888742  
   0.234988300    -0.1379779   -0.8766287  
   0.236988200    -0.2679165   -0.8447123  
   0.238988100    -0.3915837   -0.7934543  
   0.240988000    -0.5049911   -0.7248637  
   0.242987900    -0.6062629   -0.6404843  
   0.244987800    -0.6935155   -0.5422591  
   0.246987700    -0.7651366   -0.4319861  
   0.248987600    -0.8193297   -0.3123877  
   0.250987500    -0.8551536   -0.1860349  
   0.252987400    -0.8714867   -0.0567805  
   0.254987300    -0.8682856    0.0724078  
   0.256987200    -0.8463996    0.1993643  
   0.258987100    -0.8063246    0.3211900  
   0.260987000    -0.7485498    0.4361698  
   0.262986900    -0.6741815    0.5415900  
   0.264986800    -0.5849472    0.6346499  
   0.266986700    -0.4829712    0.7135924  
   0.268986600    -0.3709235    0.7765319  
   0.270986500    -0.2514396    0.8219538  
   0.272986400    -0.1265609    0.8492994  
   0.274986300     0.0008621    0.8582419  
   0.276986200     0.1284686    0.8481765  
   0.278986100     0.2538676    0.8194117  
   0.280986000     0.3742944    0.7719423  
   0.282985900     0.4865402    0.7072210  
   0.284985800     0.5881056    0.6258618  
   0.286985700     0.6765675    0.5305462  
   0.288985600     0.7492920    0.4235190  
   0.290985500     0.8054182    0.3071924  
   0.292985400     0.8434402    0.1837713  
   0.294985300     0.8630421    0.0557676  
   0.296985200     0.8633214   -0.0742860  
   0.298985100     0.8438316   -0.2042480  
   0.300985000     0.8052324   -0.3299789  
   0.302984900     0.7478101   -0.4481686  
   0.304984800     0.6734537   -0.5566308  
   0.306984700     0.5839199   -0.6522257  
   0.308984600     0.4817422   -0.7329134  
   0.310984500     0.3693637   -0.7971864  
   0.312984400     0.2488651   -0.8442590  
   0.314984300     0.1230945   -0.8728060  
   0.316984200    -0.0052435   -0.8825423  
   0.318984100    -0.1342340   -0.8732073  
   0.320984000    -0.2610195   -0.8448006  
   0.322983900    -0.3817204   -0.7980102  
   0.324983800    -0.4943362   -0.7338774  
   0.326983700    -0.5956582   -0.6544327  
   0.328983600    -0.6839428   -0.5609402  
   0.330983500    -0.7571529   -0.4562937  
   0.332983400    -0.8143510   -0.3431172  
   0.334983300    -0.8541453   -0.2234557  
   0.336983200    -0.8760243   -0.0994985  
   0.338983100    -0.8803028    0.0259605  
   0.340983000    -0.8660364    0.1502864  
   0.342982900    -0.8344060    0.2712938  
   0.344982800    -0.7856188    0.3868594  
   0.346982700    -0.7198825    0.4952230  
   0.348982600    -0.6392017    0.5928000  
   0.350982500    -0.5452718    0.6776635  
   0.352982400    -0.4395757    0.7481015  
   0.354982300    -0.3190351    0.8042385  
   0.356982200    -0.1766371    0.8438876  
   0.358982100    -0.0300672    0.8589489  
   0.360982000     0.1161053    0.8489156  
   0.362981900     0.2582131    0.8143292  
   0.364981800     0.3929913    0.7563276  
   0.366981700     0.5161756    0.6763040  
   0.368981600     0.6239542    0.5765963  
   0.370981500     0.7134783    0.4593004  
   0.372981400     0.7821243    0.3277695  
   0.374981300     0.8271176    0.1854710  
   0.376981200     0.7871828    0.3025355  
   0.378981100     0.8273932    0.1575398  
   0.380981000     0.8416559    0.0075618  
   0.382980900     0.8311802   -0.1296156  
   0.384980800     0.8003045   -0.2573918  
   0.386980700     0.7499108   -0.3792507  
   0.388980600     0.6813737   -0.4917423  
   0.390980500     0.5966176   -0.5916712  
   0.392980400     0.4980946   -0.6769692  
   0.394980300     0.3883932   -0.7456208  
   0.396980200     0.2702706   -0.7970026  
   0.398980100     0.1460502   -0.8293784  
   0.400980000     0.0188378   -0.8432078  
   0.402979900    -0.1083387   -0.8371279  
   0.404979800    -0.2323429   -0.8126697  
   0.406979700    -0.3504997   -0.7702771  
   0.408979600    -0.4605982   -0.7110445  
   0.410979500    -0.5607375   -0.6366450  
   0.412979400    -0.6486834   -0.5484296  
   0.414979300    -0.7229332   -0.4483041  
   0.416979200    -0.7812842   -0.3390396  
   0.418979100    -0.8229888   -0.2234646  
   0.420979000    -0.8475714   -0.1034082  
   0.422978900    -0.8547050    0.0187416  
   0.424978800    -0.8443543    0.1404183  
   0.426978700    -0.8165774    0.2594128  
   0.428978600    -0.7724407    0.3724362  
   0.430978500    -0.7132300    0.4778197  
   0.432978400    -0.6404195    0.5727434  
   0.434978300    -0.5547978    0.6567888  
   0.436978200    -0.4584350    0.7277150  
   0.438978100    -0.3534224    0.7847621  
   0.440978000    -0.2410230    0.8264103  
   0.442977900    -0.1236729    0.8522189  
   0.444977800    -0.0039456    0.8612846  
   0.446977700     0.1162609    0.8534476  
   0.448977600     0.2343507    0.8287339  
   0.450977500     0.3483167    0.7875413  
   0.452977400     0.4559961    0.7299742  
   0.454977300     0.5554653    0.6568519  
   0.456977200     0.6441635    0.5692631  
   0.458977100     0.7194775    0.4690520  
   0.460977000     0.7791985    0.3584469  
   0.462976900     0.8224908    0.2398522  
   0.464976800     0.8477884    0.1157388  
   0.466976700     0.8543477   -0.0115579  
   0.468976600     0.8414122   -0.1389045  
   0.470976500     0.8100781   -0.2639482  
   0.472976400     0.7592553   -0.3827522  
   0.474976300     0.6908900   -0.4928298  
   0.476976200     0.6066044   -0.5909986  
   0.478976100     0.5081918   -0.6753689  
   0.480976000     0.3987209   -0.7432616  
   0.482975900     0.2806698   -0.7935019  
   0.484975800     0.1563426   -0.8251952  
   0.486975700     0.0288518   -0.8378668  
   0.488975600    -0.0993528   -0.8308821  
   0.490975500    -0.2247076   -0.8043210  
   0.492975400    -0.3444951   -0.7595296  
   0.494975300    -0.4561345   -0.6968628  
   0.496975200    -0.5564141   -0.6183918  
   0.498975100    -0.6430949   -0.5256705  
   0.500975000    -0.7145629   -0.4216867  
   0.502974900    -0.7693307   -0.3086410  
   0.504974800    -0.8065405   -0.1893219  
   0.506974700    -0.8252026   -0.0658209  
   0.508974600    -0.8254054    0.0599758  
   0.510974500    -0.8063345    0.1833434  
   0.512974400    -0.7694670    0.3024015  
   0.514974300    -0.7160001    0.4135556  
   0.516974200    -0.6467949    0.5150276  
   0.518974100    -0.5638323    0.6048045  
   0.520974000    -0.4690049    0.6811424  
   0.522973900    -0.3645075    0.7426204  
   0.524973800    -0.2525079    0.7883297  
   0.526973700    -0.1349013    0.8169346  
   0.528973600    -0.0147163    0.8283975  
   0.530973500     0.1062896    0.8219171  
   0.532973400     0.2247257    0.7981849  
   0.534973300     0.3386231    0.7576688  
   0.536973200     0.4456384    0.7005470  
   0.538973100     0.5429401    0.6289259  
   0.540973000     0.6288421    0.5442121  
   0.542972900     0.7017468    0.4479416  
   0.544972800     0.7596775    0.3419376  
   0.546972700     0.8019603    0.2277754  
   0.548972600     0.8272016    0.1086482  
   0.550972500     0.8350416   -0.0135058  
   0.552972400     0.8247298   -0.1359170  
   0.554972300     0.7964165   -0.2559362  
   0.556972200     0.7506657   -0.3712025  
   0.558972100     0.6885239   -0.4781928  
   0.560972000     0.6111274   -0.5751427  
   0.562971900     0.5204137   -0.6593098  
   0.564971800     0.4183409   -0.7291892  
   0.566971700     0.3075704   -0.7830489  
   0.568971600     0.1906196   -0.8201861  
   0.570971500     0.0690625   -0.8398783  
   0.572971400    -0.0540128   -0.8414437  
   0.574971300    -0.1765023   -0.8250293  
   0.576971200    -0.2957314   -0.7907000  
   0.578971100    -0.4081892   -0.7392929  
   0.580971000    -0.5121422   -0.6719598  
   0.582970900    -0.6048798   -0.5900415  
   0.584970800    -0.6838421   -0.4964992  
   0.586970700    -0.7484968   -0.3927083  
   0.588970600    -0.7970486   -0.2811222  
   0.590970500    -0.8289102   -0.1637622  
   0.592970400    -0.8432980   -0.0433002  
   0.594970300    -0.8404676    0.0777299  
   0.596970200    -0.8201007    0.1969824  
   0.598970100    -0.7827682    0.3118598  
   0.600970000    -0.7291842    0.4202312  
   0.602969900    -0.6608139    0.5197855  
   0.604969800    -0.5784124    0.6084070  
   0.606969700    -0.4839166    0.6842750  
   0.608969600    -0.3787745    0.7458558  
   0.610969500    -0.2656983    0.7912892  
   0.612969400    -0.1470635    0.8196839  
   0.614969300    -0.0256271    0.8303573  
   0.616969200     0.0960852    0.8229520  
   0.618969100     0.2148267    0.7979211  
   0.620969000     0.3286154    0.7559494  
   0.622968900     0.4351262    0.6973462  
   0.624968800     0.5323090    0.6233447  
   0.626968700     0.6174040    0.5350344  
   0.628968600     0.6893626    0.4350221  
   0.630968500     0.7452555    0.3240871  
   0.632968400     0.7843391    0.2062564  
   0.634968300     0.8042828    0.0829979  
   0.636968200     0.8057111   -0.0419698  
   0.638968100     0.7877560   -0.1658168  
   0.640968000     0.7510922   -0.2857169  
   0.642967900     0.6966113   -0.3988518  
   0.644967800     0.6248424   -0.5020745  
   0.646967700     0.5384014   -0.5927825  
   0.648967600     0.4391027   -0.6688745  
   0.650967500     0.3299960   -0.7286244  
   0.652967400     0.2134247   -0.7705415  
   0.654967300     0.0924844   -0.7940838  
   0.656967200    -0.0308072   -0.7994311  
   0.658967100    -0.1524404   -0.7860683  
   0.660967000    -0.2709778   -0.7547019  
   0.662966900    -0.3836558   -0.7053871  
   0.664966800    -0.4875192   -0.6399676  
   0.666966700    -0.5802786   -0.5594917  
   0.668966600    -0.6592491   -0.4663590  
   0.670966500    -0.7236849   -0.3629249  
   0.672966400    -0.7710049   -0.2514341  
   0.674966300    -0.8016811   -0.1348168  
   0.676966200    -0.8143243   -0.0159642  
   0.678966100    -0.8096411    0.1033704  
   0.680966000    -0.7878101    0.2198166  
   0.682965900    -0.7491861    0.3318082  
   0.684965800    -0.6955543    0.4363427  
   0.686965700    -0.6269709    0.5322451  
   0.688965600    -0.5453613    0.6171081  
   0.690965500    -0.4529704    0.6892183  
   0.692965400    -0.3511110    0.7474635  
   0.694965300    -0.2423105    0.7904484  
   0.696965200    -0.1285271    0.8173970  
   0.698965100    -0.0112873    0.8279153  
   0.700965000     0.1062796    0.8216326  
   0.702964900     0.2220037    0.7986056  
   0.704964800     0.3341418    0.7588280  
   0.706964700     0.4396026    0.7031890  
   0.708964600     0.5365484    0.6320728  
   0.710964500     0.6227265    0.5472093  
   0.712964400     0.6961417    0.4500849  
   0.714964300     0.7543847    0.3426391  
   0.716964200     0.7959754    0.2278036  
   0.718964100     0.8198598    0.1081424  
   0.720964000     0.8260430   -0.0138364  
   0.722963900     0.8141519   -0.1354267  
   0.724963800     0.7837219   -0.2539299  
   0.726963700     0.7362714   -0.3669885  
   0.728963600     0.6722604   -0.4721421  
   0.730963500     0.5932398   -0.5667650  
   0.732963400     0.5005082   -0.6486450  
   0.734963300     0.3959197   -0.7158328  
   0.736963200     0.2653655   -0.7728867  
   0.738963100     0.1260175   -0.8061290  
   0.740963000    -0.0166436   -0.8141329  
   0.742962900    -0.1579293   -0.7967830  
   0.744962800    -0.2936192   -0.7547502  
   0.746962700    -0.4192165   -0.6894790  
   0.748962600    -0.5308856   -0.6034186  
   0.750962500    -0.4498154   -0.6737975  
   0.752962400    -0.5587569   -0.5843306  
   0.754962300    -0.6497754   -0.4777472  
   0.756962200    -0.7203460   -0.3575841  
   0.758962100    -0.7687138   -0.2276592  
   0.760962000    -0.7937489   -0.0922900  
   0.762961900    -0.7959851    0.0386697  
   0.764961800    -0.7798650    0.1561686  
   0.766961700    -0.7467598    0.2694152  
   0.768961600    -0.6978200    0.3755401  
   0.770961500    -0.6340318    0.4732261  
   0.772961400    -0.5573028    0.5598480  
   0.774961300    -0.4696354    0.6340103  
   0.776961200    -0.3721439    0.6945564  
   0.778961100    -0.2671672    0.7401294  
   0.780961000    -0.1562753    0.7703556  
   0.782960900    -0.0423708    0.7842437  
   0.784960800     0.0732547    0.7815918  
   0.786960700     0.1873199    0.7621290  
   0.788960600     0.2976757    0.7260950  
   0.790960500     0.4022776    0.6748355  
   0.792960400     0.4980208    0.6084130  
   0.794960300     0.5836588    0.5285331  
   0.796960200     0.6563782    0.4369972  
   0.798960100     0.7150981    0.3355953  
   0.800960000     0.7583834    0.2263098  
   0.802959900     0.7852612    0.1115642  
   0.804959800     0.7948587   -0.0060690  
   0.806959700     0.7873147   -0.1240437  
   0.808959600     0.7620000   -0.2405844  
   0.810959500     0.7198603   -0.3519529  
   0.812959400     0.6611804   -0.4567764  
   0.814959300     0.5872488   -0.5515494  
   0.816959200     0.4998885   -0.6346774  
   0.818959100     0.4006468   -0.7038549  
   0.820959000     0.2917144   -0.7574203  
   0.822958900     0.1761840   -0.7944137  
   0.824958800     0.0561720   -0.8133468  
   0.826958700    -0.0656502   -0.8141741  
   0.828958600    -0.1858818   -0.7965945  
   0.830958500    -0.3020716   -0.7611651  
   0.832958400    -0.4113827   -0.7088390  
   0.834958300    -0.5110077   -0.6412350  
   0.836958200    -0.5992298   -0.5598509  
   0.838958100    -0.6742995   -0.4666547  
   0.840958000    -0.7347551   -0.3637079  
   0.842957900    -0.7789140   -0.2531017  
   0.844957800    -0.8064765   -0.1378040  
   0.846957700    -0.8167178   -0.0197029  
   0.848957600    -0.8099315    0.0984137  
   0.850957500    -0.7856038    0.2136149  
   0.852957400    -0.7446972    0.3243260  
   0.854957300    -0.6885021    0.4271709  
   0.856957200    -0.6179398    0.5211368  
   0.858957100    -0.5350383    0.6030020  
   0.860957000    -0.4413113    0.6716103  
   0.862956900    -0.3394928    0.7258671  
   0.864956800    -0.2315993    0.7643346  
   0.866956700    -0.1196786    0.7871806  
   0.868956600    -0.0054101    0.7935482  
   0.870956500     0.1085610    0.7833950  
   0.872956400     0.2201346    0.7570006  
   0.874956300     0.3275126    0.7146354  
   0.876956200     0.4283868    0.6566223  
   0.878956100     0.5201577    0.5840901  
   0.880956000     0.6007611    0.4980719  
   0.882955900     0.6680646    0.4006380  
   0.884955800     0.7201655    0.2936151  
   0.886955700     0.7554744    0.1791617  
   0.888955600     0.7730497    0.0602859  
   0.890955500     0.7722814   -0.0604158  
   0.892955400     0.7530521   -0.1795938  
   0.894955300     0.7155236   -0.2947327  
