! MS46122B
! 2250307/22442219
! 6/13/2025 3:23:46 PM
! C:\USERS\SPARKY\DOCUMENTS\VNA_DATA\JUNE13_2025\3.2K\ECAL_OPEN_C.S1P
! CHANNEL.1
! TR.MEASUREMENT
! RAW.DATA
# GHZ S RI R 50.0
! FREQ.GHZ         S11RE         S11IM         
!; PortSelection: Port_1
   0.001000000     1.0275010   -0.0537754  
   0.002999900     0.9422418   -0.2071130  
   0.004999800     0.8806023   -0.3480608  
   0.006999700     0.8068182   -0.4786426  
   0.008999600     0.7181898   -0.5916829  
   0.010999500     0.6184834   -0.6921645  
   0.012999400     0.5086362   -0.7798283  
   0.014999300     0.3897559   -0.8531693  
   0.016999200     0.2624160   -0.9092997  
   0.018999100     0.1287854   -0.9464747  
   0.020999000    -0.0090321   -0.9630168  
   0.022998900    -0.1483306   -0.9583560  
   0.024998800    -0.2616406   -0.9060248  
   0.026998700    -0.4176211   -0.8817533  
   0.028998600    -0.5409173   -0.8114053  
   0.030998500    -0.6524542   -0.7217990  
   0.032998400    -0.7161992   -0.6089866  
   0.034998300    -0.8283569   -0.4954537  
   0.036998200    -0.8883352   -0.3646570  
   0.038998100    -0.9283652   -0.2270626  
   0.040998000    -0.9474773   -0.0851864  
   0.042997900    -0.9462150    0.0572670  
   0.044997800    -0.8993984    0.1746106  
   0.046997700    -0.8822399    0.3325640  
   0.048997600    -0.8213270    0.4603314  
   0.050997500    -0.7424415    0.5778519  
   0.052997400    -0.6469948    0.6818233  
   0.054997300    -0.5364324    0.7708825  
   0.056997200    -0.4127130    0.8426350  
   0.058997100    -0.2799685    0.8941268  
   0.060997000    -0.1409171    0.9247712  
   0.062996900     0.0014271    0.9335461  
   0.064996800     0.1437764    0.9205990  
   0.066996700     0.2824255    0.8860709  
   0.068996600     0.4140643    0.8310853  
   0.070996500     0.5359594    0.7567852  
   0.072996400     0.6450865    0.6648089  
   0.074996300     0.7394916    0.5575334  
   0.076996200     0.8162925    0.4372520  
   0.078996100     0.8739645    0.3067397  
   0.080996000     0.9110735    0.1692912  
   0.082995900     0.9268290    0.0278939  
   0.084995800     0.9208267   -0.1138658  
   0.086995700     0.8935960   -0.2526303  
   0.088995600     0.8455893   -0.3853459  
   0.090995500     0.7784391   -0.5088451  
   0.092995400     0.6935697   -0.6202991  
   0.094995300     0.5936046   -0.7174854  
   0.096995200     0.4805535   -0.7985259  
   0.098995100     0.3575856   -0.8615844  
   0.100995000     0.2266326   -0.9058067  
   0.102994900     0.0916765   -0.9297646  
   0.104994800    -0.0451066   -0.9340950  
   0.106994700    -0.1800397   -0.9188171  
   0.108994600    -0.3113489   -0.8837501  
   0.110994500    -0.4358603   -0.8302786  
   0.112994400    -0.5508919   -0.7598184  
   0.114994300    -0.6545748   -0.6738433  
   0.116994200    -0.7442552   -0.5738196  
   0.118994100    -0.8187390   -0.4623166  
   0.120994000    -0.8761297   -0.3414153  
   0.122993900    -0.9156808   -0.2133563  
   0.124993800    -0.9366714   -0.0814698  
   0.126993700    -0.9384295    0.0524485  
   0.128993600    -0.9213389    0.1853768  
   0.130993500    -0.8850140    0.3147533  
   0.132993400    -0.8304687    0.4375797  
   0.134993300    -0.7585770    0.5518226  
   0.136993200    -0.6709253    0.6545346  
   0.138993100    -0.5686221    0.7438343  
   0.140993000    -0.4541506    0.8174820  
   0.142992900    -0.3293268    0.8738761  
   0.144992800    -0.1972344    0.9120179  
   0.146992700    -0.0601715    0.9297660  
   0.148992600     0.0785880    0.9268755  
   0.150992500     0.2157224    0.9034527  
   0.152992400     0.3485991    0.8590572  
   0.154992300     0.4735836    0.7950755  
   0.156992200     0.5879546    0.7126747  
   0.158992100     0.6887181    0.6132872  
   0.160992000     0.7734454    0.4995031  
   0.162991900     0.8398438    0.3736976  
   0.164991800     0.8861340    0.2385994  
   0.166991700     0.9108723    0.0982633  
   0.168991600     0.9137084   -0.0444547  
   0.170991500     0.8944148   -0.1860829  
   0.172991400     0.8528181   -0.3227251  
   0.174991300     0.7913842   -0.4508827  
   0.176991200     0.7103181   -0.5681220  
   0.178991100     0.6124813   -0.6711324  
   0.180991000     0.5005433   -0.7568974  
   0.182990900     0.3768970   -0.8245910  
   0.184990800     0.2450930   -0.8722048  
   0.186990700     0.1076218   -0.8987226  
   0.188990600    -0.0055875   -0.9038115  
   0.190990500    -0.1645411   -0.8883016  
   0.192990400    -0.3007383   -0.8512574  
   0.194990300    -0.4257340   -0.7951954  
   0.196990200    -0.5395564   -0.7218500  
   0.198990100    -0.6406288   -0.6327926  
   0.200990000    -0.7269596   -0.5301431  
   0.202989900    -0.7972524   -0.4160786  
   0.204989800    -0.8494248   -0.2937152  
   0.206989700    -0.8827778   -0.1658713  
   0.208989600    -0.8972214   -0.0354428  
   0.210989500    -0.8924983    0.0959613  
   0.212989400    -0.8686151    0.2253072  
   0.214989300    -0.8263339    0.3493465  
   0.216989200    -0.7667825    0.4651741  
   0.218989100    -0.6918351    0.5710890  
   0.220989000    -0.6019608    0.6653737  
   0.222988900    -0.4990243    0.7458917  
   0.224988800    -0.3854445    0.8108439  
   0.226988700    -0.2637615    0.8583825  
   0.228988600    -0.1366643    0.8881253  
   0.230988500    -0.0065441    0.8990713  
   0.232988400     0.1240398    0.8911617  
   0.234988300     0.2530850    0.8642460  
   0.236988200     0.3770224    0.8188225  
   0.238988100     0.4933568    0.7554286  
   0.240988000     0.5993189    0.6756874  
   0.242987900     0.6922380    0.5813649  
   0.244987800     0.7708377    0.4744093  
   0.246987700     0.8331194    0.3562409  
   0.248987600     0.8775278    0.2296140  
   0.250987500     0.9029658    0.0970677  
   0.252987400     0.9080551   -0.0376720  
   0.254987300     0.8935032   -0.1713090  
   0.256987200     0.8594058   -0.3010611  
   0.258987100     0.8063031   -0.4246192  
   0.260987000     0.7350971   -0.5394142  
   0.262986900     0.6475826   -0.6427243  
   0.264986800     0.5450960   -0.7319192  
   0.266986700     0.4309037   -0.8047887  
   0.268986600     0.3074122   -0.8598092  
   0.270986500     0.1777082   -0.8954215  
   0.272986400     0.0444898   -0.9113703  
   0.274986300    -0.0892561   -0.9077049  
   0.276986200    -0.2208713   -0.8840646  
   0.278986100    -0.3477373   -0.8412673  
   0.280986000    -0.4670075   -0.7799925  
   0.282985900    -0.5757307   -0.7017614  
   0.284985800    -0.6715283   -0.6085067  
   0.286985700    -0.7521382   -0.5023929  
   0.288985600    -0.8155779   -0.3870922  
   0.290985500    -0.8611240   -0.2642439  
   0.292985400    -0.8881823   -0.1367172  
   0.294985300    -0.8963131   -0.0066450  
   0.296985200    -0.8856131    0.1237150  
   0.298985100    -0.8554850    0.2515602  
   0.300985000    -0.8071696    0.3741368  
   0.302984900    -0.7412935    0.4874029  
   0.304984800    -0.6592870    0.5897241  
   0.306984700    -0.5639192    0.6787667  
   0.308984600    -0.4566416    0.7524046  
   0.310984500    -0.3407472    0.8091788  
   0.312984400    -0.2173654    0.8483470  
   0.314984300    -0.0896077    0.8693395  
   0.316984200     0.0402207    0.8712197  
   0.318984100     0.1694660    0.8539965  
   0.320984000     0.2960454    0.8175801  
   0.322983900     0.4162693    0.7624723  
   0.324983800     0.5268616    0.6898176  
   0.326983700     0.6256514    0.6011754  
   0.328983600     0.7099012    0.4983722  
   0.330983500     0.7778155    0.3841894  
   0.332983400     0.8272554    0.2616317  
   0.334983300     0.8577482    0.1328112  
   0.336983200     0.8688238    0.0007298  
   0.338983100     0.8599021   -0.1314958  
   0.340983000     0.8309875   -0.2609685  
   0.342982900     0.7829804   -0.3843783  
   0.344982800     0.7165818   -0.5000907  
   0.346982700     0.6329452   -0.6048606  
   0.348982600     0.5343266   -0.6955069  
   0.350982500     0.4228728   -0.7702796  
   0.352982400     0.3014597   -0.8272342  
   0.354982300     0.1671812   -0.8662778  
   0.356982200     0.0130454   -0.8842255  
   0.358982100    -0.1409069   -0.8747101  
   0.360982000    -0.2898535   -0.8386022  
   0.362981900    -0.4296562   -0.7776728  
   0.364981800    -0.5563272   -0.6932928  
   0.366981700    -0.6658084   -0.5892934  
   0.368981600    -0.7553623   -0.4685555  
   0.370981500    -0.8227625   -0.3347729  
   0.372981400    -0.8661675   -0.1922722  
   0.374981300    -0.8849639   -0.0446761  
   0.376981200    -0.8721547   -0.1919210  
   0.378981100    -0.8913551   -0.0427658  
   0.380981000    -0.8850328    0.1076329  
   0.382980900    -0.8581438    0.2397892  
   0.384980800    -0.8146109    0.3606367  
   0.386980700    -0.7539099    0.4736542  
   0.388980600    -0.6776469    0.5765439  
   0.390980500    -0.5876800    0.6670151  
   0.392980400    -0.4862898    0.7431763  
   0.394980300    -0.3752100    0.8038278  
   0.396980200    -0.2569627    0.8478547  
   0.398980100    -0.1329224    0.8749561  
   0.400980000    -0.0063266    0.8835151  
   0.402979900     0.1209143    0.8736842  
   0.404979800     0.2452637    0.8456146  
   0.406979700     0.3647296    0.7996108  
   0.408979600     0.4767904    0.7364603  
   0.410979500     0.5789990    0.6569092  
   0.412979400     0.6693540    0.5621871  
   0.414979300     0.7448167    0.4542310  
   0.416979200     0.8035046    0.3357553  
   0.418979100     0.8435320    0.2093164  
   0.420979000     0.8641087    0.0775192  
   0.422978900     0.8641703   -0.0565634  
   0.424978800     0.8431514   -0.1896902  
   0.426978700     0.8017358   -0.3187047  
   0.428978600     0.7404633   -0.4397212  
   0.430978500     0.6613693   -0.5492711  
   0.432978400     0.5667890   -0.6448428  
   0.434978300     0.4582943   -0.7245425  
   0.436978200     0.3390625   -0.7867023  
   0.438978100     0.2117937   -0.8289236  
   0.440978000     0.0800283   -0.8509223  
   0.442977900    -0.0533207   -0.8523249  
   0.444977800    -0.1844139   -0.8332712  
   0.446977700    -0.3108642   -0.7946715  
   0.448977600    -0.4288929   -0.7374063  
   0.450977500    -0.5362507   -0.6632900  
   0.452977400    -0.6310588   -0.5739158  
   0.454977300    -0.7114052   -0.4708815  
   0.456977200    -0.7752098   -0.3576196  
   0.458977100    -0.8209369   -0.2364643  
   0.460977000    -0.8476025   -0.1104595  
   0.462976900    -0.8553771    0.0169616  
   0.464976800    -0.8441275    0.1437655  
   0.466976700    -0.8147888    0.2666203  
   0.468976600    -0.7678342    0.3830987  
   0.470976500    -0.7045210    0.4915091  
   0.472976400    -0.6264220    0.5889149  
   0.474976300    -0.5356183    0.6736237  
   0.476976200    -0.4339815    0.7443328  
   0.478976100    -0.3234423    0.7995673  
   0.480976000    -0.2072818    0.8380796  
   0.482975900    -0.0872196    0.8597838  
   0.484975800     0.0345635    0.8646157  
   0.486975700     0.1563459    0.8519402  
   0.488975600     0.2751062    0.8224020  
   0.490975500     0.3889309    0.7758974  
   0.492975400     0.4955072    0.7136535  
   0.494975300     0.5924664    0.6365539  
   0.496975200     0.6777925    0.5458784  
   0.498975100     0.7492812    0.4437219  
   0.500975000     0.8057364    0.3317517  
   0.502974900     0.8455572    0.2127594  
   0.504974800     0.8679261    0.0882185  
   0.506974700     0.8715232   -0.0391423  
   0.508974600     0.8560886   -0.1675163  
   0.510974500     0.8217189   -0.2925647  
   0.512974400     0.7687504   -0.4116315  
   0.514974300     0.6986775   -0.5212354  
   0.516974200     0.6127228   -0.6194297  
   0.518974100     0.5130073   -0.7036602  
   0.520974000     0.4016438   -0.7719790  
   0.522973900     0.2810885   -0.8228003  
   0.524973800     0.1543025   -0.8548038  
   0.526973700     0.0235806   -0.8672816  
   0.528973600    -0.1072483   -0.8597250  
   0.530973500    -0.2357130   -0.8328108  
   0.532973400    -0.3584936   -0.7865117  
   0.534973300    -0.4726337   -0.7220536  
   0.536973200    -0.5753801   -0.6413230  
   0.538973100    -0.6643655   -0.5464111  
   0.540973000    -0.7372224   -0.4400598  
   0.542972900    -0.7933657   -0.3243110  
   0.544972800    -0.8317504   -0.2018965  
   0.546972700    -0.8513064   -0.0748633  
   0.548972600    -0.8515154    0.0533732  
   0.550972500    -0.8329190    0.1798987  
   0.552972400    -0.7953763    0.3020888  
   0.554972300    -0.7399638    0.4171343  
   0.556972200    -0.6680937    0.5225218  
   0.558972100    -0.5814339    0.6156053  
   0.560972000    -0.4822073    0.6945660  
   0.562971900    -0.3726415    0.7576070  
   0.564971800    -0.2555614    0.8034605  
   0.566971700    -0.1330499    0.8314435  
   0.568971600    -0.0084200    0.8411177  
   0.570971500     0.1164628    0.8320037  
   0.572971400     0.2389905    0.8044527  
   0.574971300     0.3562270    0.7589709  
   0.576971200     0.4659600    0.6959159  
   0.578971100     0.5652667    0.6167005  
   0.580971000     0.6517624    0.5236877  
   0.582970900     0.7231173    0.4187544  
   0.584970800     0.7778205    0.3044975  
   0.586970700     0.8146399    0.1830893  
   0.588970600     0.8328928    0.0581077  
   0.590970500     0.8323390   -0.0690225  
   0.592970400     0.8126863   -0.1939980  
   0.594970300     0.7743722   -0.3148445  
   0.596970200     0.7181820   -0.4287598  
   0.598970100     0.6456061   -0.5328848  
   0.600970000     0.5582348   -0.6252531  
   0.602969900     0.4579262   -0.7033621  
   0.604969800     0.3469325   -0.7654497  
   0.606969700     0.2277938   -0.8103575  
   0.608969600     0.1030355   -0.8368528  
   0.610969500    -0.0241918   -0.8446348  
   0.612969400    -0.1506882   -0.8329182  
   0.614969300    -0.2729379   -0.8022161  
   0.616969200    -0.3890328   -0.7546781  
   0.618969100    -0.4959149   -0.6909746  
   0.620969000    -0.5919629   -0.6128200  
   0.622968900    -0.6754347   -0.5219926  
   0.624968800    -0.7446594   -0.4201853  
   0.626968700    -0.7986682   -0.3096202  
   0.628968600    -0.8360006   -0.1924308  
   0.630968500    -0.8563510   -0.0712888  
   0.632968400    -0.8589103    0.0511635  
   0.634968300    -0.8438159    0.1724392  
   0.636968200    -0.8119813    0.2906632  
   0.638968100    -0.7633060    0.4024946  
   0.640968000    -0.6994574    0.5056521  
   0.642967900    -0.6214210    0.5993047  
   0.644967800    -0.5308201    0.6805549  
   0.646967700    -0.4299717    0.7482704  
   0.648967600    -0.3203467    0.8005475  
   0.650967500    -0.2051447    0.8372406  
   0.652967400    -0.0860056    0.8563427  
   0.654967300     0.0351354    0.8588810  
   0.656967200     0.1550265    0.8440568  
   0.658967100     0.2715632    0.8122203  
   0.660967000     0.3833883    0.7638789  
   0.662966900     0.4879506    0.6992131  
   0.664966800     0.5827456    0.6190595  
   0.666966700     0.6654182    0.5254296  
   0.668966600     0.7336411    0.4202477  
   0.670966500     0.7859201    0.3055869  
   0.672966400     0.8204121    0.1842986  
   0.674966300     0.8367025    0.0586386  
   0.676966200     0.8336819   -0.0679801  
   0.678966100     0.8115059   -0.1923948  
   0.680966000     0.7709722   -0.3130971  
   0.682965900     0.7123770   -0.4255902  
   0.684965800     0.6376150   -0.5281973  
   0.686965700     0.5476431   -0.6186558  
   0.688965600     0.4449797   -0.6942831  
   0.690965500     0.3320344   -0.7534410  
   0.692965400     0.2118349   -0.7943786  
   0.694965300     0.0870162   -0.8166572  
   0.696965200    -0.0395959   -0.8195643  
   0.698965100    -0.1648243   -0.8030033  
   0.700965000    -0.2858784   -0.7679046  
   0.702964900    -0.4000281   -0.7147257  
   0.704964800    -0.5043902   -0.6451792  
   0.706964700    -0.5966690   -0.5607817  
   0.708964600    -0.6751295   -0.4637411  
   0.710964500    -0.7376043   -0.3561059  
   0.712964400    -0.7829370   -0.2410382  
   0.714964300    -0.8106056   -0.1208932  
   0.716964200    -0.8198815    0.0011859  
   0.718964100    -0.8107966    0.1222273  
   0.720964000    -0.7848845    0.2400741  
   0.722963900    -0.7423007    0.3518892  
   0.724963800    -0.6842004    0.4558179  
   0.726963700    -0.6119851    0.5501247  
   0.728963600    -0.5270116    0.6329956  
   0.730963500    -0.4314236    0.7025052  
   0.732963400    -0.3268681    0.7575902  
   0.734963300    -0.2155664    0.7973713  
   0.736963200    -0.0794057    0.8226839  
   0.738963100     0.0600060    0.8250716  
   0.740963000     0.1990288    0.8043794  
   0.742962900     0.3326911    0.7604448  
   0.744962800     0.4579316    0.6944198  
   0.746962700     0.5709032    0.6081731  
   0.748962600     0.6679403    0.5040214  
   0.750962500     0.5592047    0.6104144  
   0.752962400     0.6563030    0.5060205  
   0.754962300     0.7349167    0.3866689  
   0.756962200     0.7922236    0.2551132  
   0.758962100     0.8262451    0.1155693  
   0.760962000     0.8358083   -0.0285414  
   0.762961900     0.8221413   -0.1647253  
   0.764961800     0.7894083   -0.2852633  
   0.766961700     0.7393408   -0.4000000  
   0.768961600     0.6725250   -0.5061297  
   0.770961500     0.5904602   -0.6010230  
   0.772961400     0.4947335   -0.6828067  
   0.774961300     0.3879153   -0.7491374  
   0.776961200     0.2722989   -0.7988268  
   0.778961100     0.1497053   -0.8311359  
   0.780961000     0.0236720   -0.8440475  
   0.782960900    -0.1029971   -0.8377602  
   0.784960800    -0.2276689   -0.8120495  
   0.786960700    -0.3467406   -0.7677639  
   0.788960600    -0.4573790   -0.7062546  
   0.790960500    -0.5573360   -0.6285087  
   0.792960400    -0.6437421   -0.5368172  
   0.794960300    -0.7149415   -0.4339238  
   0.796960200    -0.7696875   -0.3225540  
   0.798960100    -0.8069083   -0.2046107  
   0.800960000    -0.8253796   -0.0830625  
   0.802959900    -0.8262621    0.0392135  
   0.804959800    -0.8091870    0.1592645  
   0.806959700    -0.7746811    0.2747656  
   0.808959600    -0.7242205    0.3835978  
   0.810959500    -0.6586038    0.4831983  
   0.812959400    -0.5794721    0.5718760  
   0.814959300    -0.4885606    0.6479683  
   0.816959200    -0.3877362    0.7099944  
   0.818959100    -0.2795324    0.7566023  
   0.820959000    -0.1654095    0.7872006  
   0.822958900    -0.0481811    0.8008335  
   0.824958800     0.0700535    0.7971722  
   0.826958700     0.1862457    0.7766141  
   0.828958600     0.2989742    0.7389770  
   0.830958500     0.4050434    0.6856257  
   0.832958400     0.5022302    0.6170396  
   0.834958300     0.5884279    0.5346956  
   0.836958200     0.6617181    0.4406213  
   0.838958100     0.7205610    0.3362379  
   0.840958000     0.7636869    0.2239594  
   0.842957900     0.7895931    0.1055560  
   0.844957800     0.7979140   -0.0158574  
   0.846957700     0.7875373   -0.1376611  
   0.848957600     0.7587467   -0.2568573  
   0.850957500     0.7120632   -0.3705498  
   0.852957400     0.6485483   -0.4762526  
   0.854957300     0.5691363   -0.5714589  
   0.856957200     0.4765474   -0.6534736  
   0.858957100     0.3725100   -0.7200801  
   0.860957000     0.2598062   -0.7702870  
   0.862956900     0.1413614   -0.8024309  
   0.864956800     0.0199799   -0.8168263  
   0.866956700    -0.1018791   -0.8127882  
   0.868956600    -0.2210508   -0.7908171  
   0.870956500    -0.3353477   -0.7515557  
   0.872956400    -0.4425420   -0.6959380  
   0.874956300    -0.5402073   -0.6255850  
   0.876956200    -0.6259277   -0.5415087  
   0.878956100    -0.6984221   -0.4462515  
   0.880956000    -0.7560246   -0.3413120  
   0.882955900    -0.7979231   -0.2295505  
   0.884955800    -0.8226454   -0.1134828  
   0.886955700    -0.8304654    0.0051032  
   0.888955600    -0.8215111    0.1230313  
   0.890955500    -0.7951897    0.2379293  
   0.892955400    -0.7530797    0.3473843  
   0.894955300    -0.6960611    0.4500975  
