! MS46122B
! 2250307/22442219
! 6/15/2025 8:08:56 AM
! C:\USERS\SPARKY\DOCUMENTS\VNA_DATA\JUNE15_2025\3.2K\ECAL_LOAD_C.S1P
! CHANNEL.1
! TR.MEASUREMENT
! RAW.DATA
# GHZ S RI R 50.0
! FREQ.GHZ         S11RE         S11IM         
!; PortSelection: Port_1
   0.001000000     0.0182124    0.0062464  
   0.002999900     0.0033205    0.0545374  
   0.004999800     0.0010942    0.0607213  
   0.006999700     0.0004212    0.0572521  
   0.008999600     0.0003025    0.0500722  
   0.010999500     0.0007178    0.0413672  
   0.012999400     0.0017509    0.0322172  
   0.014999300     0.0033539    0.0232202  
   0.016999200     0.0054231    0.0147390  
   0.018999100     0.0078143    0.0069817  
   0.020999000     0.0102846    0.0001463  
   0.022998900     0.0127426   -0.0058407  
   0.024998800     0.0125849   -0.0097185  
   0.026998700     0.0166107   -0.0151116  
   0.028998600     0.0178696   -0.0185866  
   0.030998500     0.0185410   -0.0213474  
   0.032998400     0.0165181   -0.0223786  
   0.034998300     0.0181809   -0.0252489  
   0.036998200     0.0172155   -0.0265696  
   0.038998100     0.0158872   -0.0276058  
   0.040998000     0.0141756   -0.0283768  
   0.042997900     0.0121238   -0.0288197  
   0.044997800     0.0081576   -0.0280132  
   0.046997700     0.0075307   -0.0291143  
   0.048997600     0.0050599   -0.0289850  
   0.050997500     0.0025628   -0.0287795  
   0.052997400     0.0002832   -0.0283120  
   0.054997300    -0.0022419   -0.0281280  
   0.056997200    -0.0043933   -0.0278433  
   0.058997100    -0.0063947   -0.0275343  
   0.060997000    -0.0082341   -0.0272225  
   0.062996900    -0.0099374   -0.0270119  
   0.064996800    -0.0114644   -0.0269031  
   0.066996700    -0.0129064   -0.0268440  
   0.068996600    -0.0141747   -0.0267446  
   0.070996500    -0.0154056   -0.0265917  
   0.072996400    -0.0165256   -0.0263796  
   0.074996300    -0.0176480   -0.0261306  
   0.076996200    -0.0187541   -0.0258243  
   0.078996100    -0.0198099   -0.0254329  
   0.080996000    -0.0208961   -0.0248887  
   0.082995900    -0.0220218   -0.0242743  
   0.084995800    -0.0231648   -0.0235757  
   0.086995700    -0.0242761   -0.0227018  
   0.088995600    -0.0254095   -0.0217850  
   0.090995500    -0.0264858   -0.0207190  
   0.092995400    -0.0276034   -0.0195320  
   0.094995300    -0.0286023   -0.0183051  
   0.096995200    -0.0295424   -0.0169287  
   0.098995100    -0.0303681   -0.0155589  
   0.100995000    -0.0311058   -0.0140620  
   0.102994900    -0.0317282   -0.0124979  
   0.104994800    -0.0321870   -0.0109448  
   0.106994700    -0.0325283   -0.0093521  
   0.108994600    -0.0327123   -0.0077534  
   0.110994500    -0.0327425   -0.0062126  
   0.112994400    -0.0325691   -0.0046985  
   0.114994300    -0.0322193   -0.0032107  
   0.116994200    -0.0317729   -0.0018344  
   0.118994100    -0.0311558   -0.0005627  
   0.120994000    -0.0304298    0.0005781  
   0.122993900    -0.0295907    0.0016045  
   0.124993800    -0.0286795    0.0024876  
   0.126993700    -0.0276811    0.0031705  
   0.128993600    -0.0266524    0.0037085  
   0.130993500    -0.0256793    0.0040546  
   0.132993400    -0.0246582    0.0042966  
   0.134993300    -0.0237147    0.0043246  
   0.136993200    -0.0228377    0.0041751  
   0.138993100    -0.0220832    0.0039322  
   0.140993000    -0.0214329    0.0035586  
   0.142992900    -0.0209379    0.0030453  
   0.144992800    -0.0207086    0.0024846  
   0.146992700    -0.0206248    0.0018602  
   0.148992600    -0.0206826    0.0012407  
   0.150992500    -0.0209958    0.0006316  
   0.152992400    -0.0214392    0.0000485  
   0.154992300    -0.0221556   -0.0004363  
   0.156992200    -0.0230389   -0.0007854  
   0.158992100    -0.0240540   -0.0009697  
   0.160992000    -0.0252393   -0.0010090  
   0.162991900    -0.0265228   -0.0008079  
   0.164991800    -0.0278729   -0.0003804  
   0.166991700    -0.0293106    0.0003115  
   0.168991600    -0.0307236    0.0012773  
   0.170991500    -0.0320841    0.0025427  
   0.172991400    -0.0333445    0.0040730  
   0.174991300    -0.0345634    0.0058623  
   0.176991200    -0.0355402    0.0079499  
   0.178991100    -0.0362800    0.0102560  
   0.180991000    -0.0368176    0.0127768  
   0.182990900    -0.0370205    0.0154889  
   0.184990800    -0.0368852    0.0183874  
   0.186990700    -0.0363660    0.0213885  
   0.188990600    -0.0368844    0.0237110  
   0.190990500    -0.0345613    0.0276122  
   0.192990400    -0.0326622    0.0308144  
   0.194990300    -0.0304937    0.0337190  
   0.196990200    -0.0279879    0.0364276  
   0.198990100    -0.0251337    0.0388644  
   0.200990000    -0.0218416    0.0410497  
   0.202989900    -0.0182262    0.0428930  
   0.204989800    -0.0142532    0.0443350  
   0.206989700    -0.0100600    0.0453099  
   0.208989600    -0.0057416    0.0458451  
   0.210989500    -0.0012229    0.0459052  
   0.212989400     0.0033287    0.0454803  
   0.214989300     0.0079021    0.0445303  
   0.216989200     0.0123331    0.0430521  
   0.218989100     0.0165704    0.0410147  
   0.220989000     0.0206165    0.0384393  
   0.222988900     0.0244984    0.0353167  
   0.224988800     0.0280280    0.0317449  
   0.226988700     0.0310419    0.0277588  
   0.228988600     0.0336009    0.0235360  
   0.230988500     0.0356785    0.0189747  
   0.232988400     0.0371718    0.0142263  
   0.234988300     0.0381192    0.0092977  
   0.236988200     0.0385221    0.0042687  
   0.238988100     0.0383124   -0.0007625  
   0.240988000     0.0374532   -0.0056960  
   0.242987900     0.0360078   -0.0104957  
   0.244987800     0.0340164   -0.0150361  
   0.246987700     0.0315143   -0.0192797  
   0.248987600     0.0285327   -0.0231982  
   0.250987500     0.0251408   -0.0266418  
   0.252987400     0.0213403   -0.0296346  
   0.254987300     0.0172160   -0.0320902  
   0.256987200     0.0129500   -0.0340114  
   0.258987100     0.0085191   -0.0353446  
   0.260987000     0.0040536   -0.0360548  
   0.262986900    -0.0003815   -0.0361773  
   0.264986800    -0.0047114   -0.0357213  
   0.266986700    -0.0088394   -0.0346873  
   0.268986600    -0.0127449   -0.0331547  
   0.270986500    -0.0162729   -0.0311821  
   0.272986400    -0.0194603   -0.0287853  
   0.274986300    -0.0222021   -0.0260725  
   0.276986200    -0.0244358   -0.0230654  
   0.278986100    -0.0261815   -0.0198010  
   0.280986000    -0.0273720   -0.0163559  
   0.282985900    -0.0279947   -0.0128807  
   0.284985800    -0.0281065   -0.0094373  
   0.286985700    -0.0277019   -0.0061149  
   0.288985600    -0.0267872   -0.0030317  
   0.290985500    -0.0254583   -0.0002414  
   0.292985400    -0.0237316    0.0022018  
   0.294985300    -0.0216209    0.0042876  
   0.296985200    -0.0192177    0.0059222  
   0.298985100    -0.0165684    0.0071895  
   0.300985000    -0.0138135    0.0079135  
   0.302984900    -0.0109866    0.0081871  
   0.304984800    -0.0081596    0.0079184  
   0.306984700    -0.0054587    0.0070828  
   0.308984600    -0.0029685    0.0057576  
   0.310984500    -0.0007802    0.0039165  
   0.312984400     0.0011471    0.0017204  
   0.314984300     0.0026652   -0.0008451  
   0.316984200     0.0037704   -0.0037057  
   0.318984100     0.0043786   -0.0067233  
   0.320984000     0.0044841   -0.0099278  
   0.322983900     0.0040739   -0.0130955  
   0.324983800     0.0030963   -0.0162822  
   0.326983700     0.0015882   -0.0193391  
   0.328983600    -0.0004396   -0.0221895  
   0.330983500    -0.0029671   -0.0248026  
   0.332983400    -0.0058774   -0.0271001  
   0.334983300    -0.0092085   -0.0289904  
   0.336983200    -0.0129122   -0.0304497  
   0.338983100    -0.0168080   -0.0313804  
   0.340983000    -0.0208837   -0.0317723  
   0.342982900    -0.0250858   -0.0316052  
   0.344982800    -0.0293289   -0.0308027  
   0.346982700    -0.0335213   -0.0293476  
   0.348982600    -0.0375509   -0.0272915  
   0.350982500    -0.0413866   -0.0246609  
   0.352982400    -0.0448291   -0.0214597  
   0.354982300    -0.0479621   -0.0175231  
   0.356982200    -0.0506798   -0.0123192  
   0.358982100    -0.0525034   -0.0067512  
   0.360982000    -0.0535511   -0.0009815  
   0.362981900    -0.0536746    0.0048527  
   0.364981800    -0.0529604    0.0107465  
   0.366981700    -0.0513949    0.0164311  
   0.368981600    -0.0489803    0.0218292  
   0.370981500    -0.0458002    0.0267657  
   0.372981400    -0.0419384    0.0312325  
   0.374981300    -0.0374526    0.0350843  
   0.376981200    -0.0455306    0.0271607  
   0.378981100    -0.0412113    0.0311992  
   0.380981000    -0.0364313    0.0344559  
   0.382980900    -0.0319639    0.0364514  
   0.384980800    -0.0276983    0.0377361  
   0.386980700    -0.0234052    0.0382921  
   0.388980600    -0.0191715    0.0381876  
   0.390980500    -0.0151187    0.0374527  
   0.392980400    -0.0113345    0.0360589  
   0.394980300    -0.0078879    0.0340962  
   0.396980200    -0.0048995    0.0316405  
   0.398980100    -0.0023367    0.0287411  
   0.400980000    -0.0003125    0.0255179  
   0.402979900     0.0010669    0.0220727  
   0.404979800     0.0019059    0.0184447  
   0.406979700     0.0020994    0.0148197  
   0.408979600     0.0016536    0.0112486  
   0.410979500     0.0005656    0.0078442  
   0.412979400    -0.0011403    0.0046946  
   0.414979300    -0.0034051    0.0019011  
   0.416979200    -0.0061584   -0.0004482  
   0.418979100    -0.0093381   -0.0023237  
   0.420979000    -0.0129063   -0.0035763  
   0.422978900    -0.0167212   -0.0042034  
   0.424978800    -0.0207523   -0.0041420  
   0.426978700    -0.0247971   -0.0033517  
   0.428978600    -0.0288078   -0.0018406  
   0.430978500    -0.0326167    0.0003286  
   0.432978400    -0.0361399    0.0031555  
   0.434978300    -0.0392881    0.0065999  
   0.436978200    -0.0419410    0.0106410  
   0.438978100    -0.0440751    0.0151950  
   0.440978000    -0.0455350    0.0201316  
   0.442977900    -0.0462690    0.0253656  
   0.444977800    -0.0462472    0.0308770  
   0.446977700    -0.0454335    0.0364907  
   0.448977600    -0.0438423    0.0420486  
   0.450977500    -0.0413950    0.0475366  
   0.452977400    -0.0381910    0.0528147  
   0.454977300    -0.0341986    0.0577407  
   0.456977200    -0.0294708    0.0621760  
   0.458977100    -0.0240516    0.0660282  
   0.460977000    -0.0180543    0.0691932  
   0.462976900    -0.0115934    0.0715324  
   0.464976800    -0.0047454    0.0730251  
   0.466976700     0.0023417    0.0736411  
   0.468976600     0.0095163    0.0732696  
   0.470976500     0.0166886    0.0719702  
   0.472976400     0.0236527    0.0697613  
   0.474976300     0.0303817    0.0665975  
   0.476976200     0.0366381    0.0625616  
   0.478976100     0.0424216    0.0576923  
   0.480976000     0.0475113    0.0522677  
   0.482975900     0.0519119    0.0461663  
   0.484975800     0.0554267    0.0396099  
   0.486975700     0.0580971    0.0325693  
   0.488975600     0.0598235    0.0253057  
   0.490975500     0.0606388    0.0178465  
   0.492975400     0.0604720    0.0103262  
   0.494975300     0.0592509    0.0029832  
   0.496975200     0.0571124   -0.0042113  
   0.498975100     0.0540460   -0.0109403  
   0.500975000     0.0501788   -0.0171706  
   0.502974900     0.0453898   -0.0227031  
   0.504974800     0.0399984   -0.0274964  
   0.506974700     0.0340062   -0.0314890  
   0.508974600     0.0274624   -0.0346609  
   0.510974500     0.0205898   -0.0368660  
   0.512974400     0.0134824   -0.0380276  
   0.514974300     0.0063988   -0.0380507  
   0.516974200    -0.0004160   -0.0371833  
   0.518974100    -0.0068754   -0.0353167  
   0.520974000    -0.0129111   -0.0325058  
   0.522973900    -0.0184255   -0.0288601  
   0.524973800    -0.0232126   -0.0244645  
   0.526973700    -0.0272561   -0.0194583  
   0.528973600    -0.0304160   -0.0139195  
   0.530973500    -0.0326428   -0.0080314  
   0.532973400    -0.0338910   -0.0018815  
   0.534973300    -0.0341189    0.0043254  
   0.536973200    -0.0333470    0.0104472  
   0.538973100    -0.0315897    0.0163903  
   0.540973000    -0.0287645    0.0219821  
   0.542972900    -0.0251785    0.0270121  
   0.544972800    -0.0207716    0.0314421  
   0.546972700    -0.0156747    0.0350566  
   0.548972600    -0.0100406    0.0377869  
   0.550972500    -0.0039573    0.0395918  
   0.552972400     0.0024358    0.0403467  
   0.554972300     0.0089734    0.0400205  
   0.556972200     0.0154470    0.0386108  
   0.558972100     0.0218036    0.0361264  
   0.560972000     0.0278124    0.0326229  
   0.562971900     0.0334069    0.0281838  
   0.564971800     0.0381896    0.0228592  
   0.566971700     0.0421742    0.0168228  
   0.568971600     0.0452091    0.0100933  
   0.570971500     0.0473208    0.0027969  
   0.572971400     0.0484347   -0.0050107  
   0.574971300     0.0483951   -0.0129779  
   0.576971200     0.0469811   -0.0211476  
   0.578971100     0.0444254   -0.0292038  
   0.580971000     0.0406833   -0.0369826  
   0.582970900     0.0357729   -0.0442829  
   0.584970800     0.0298300   -0.0509075  
   0.586970700     0.0229615   -0.0566788  
   0.588970600     0.0149879   -0.0616286  
   0.590970500     0.0064349   -0.0655130  
   0.592970400    -0.0026767   -0.0682380  
   0.594970300    -0.0121663   -0.0697150  
   0.596970200    -0.0220828   -0.0698996  
   0.598970100    -0.0320164   -0.0687466  
   0.600970000    -0.0417780   -0.0663704  
   0.602969900    -0.0512523   -0.0626459  
   0.604969800    -0.0602468   -0.0576614  
   0.606969700    -0.0685963   -0.0515193  
   0.608969600    -0.0762000   -0.0442564  
   0.610969500    -0.0828607   -0.0360466  
   0.612969400    -0.0882938   -0.0269338  
   0.614969300    -0.0925684   -0.0171267  
   0.616969200    -0.0955216   -0.0067296  
   0.618969100    -0.0970649    0.0039336  
   0.620969000    -0.0972654    0.0146828  
   0.622968900    -0.0960930    0.0253669  
   0.624968800    -0.0935427    0.0357874  
   0.626968700    -0.0896430    0.0458457  
   0.628968600    -0.0844457    0.0552330  
   0.630968500    -0.0780839    0.0638306  
   0.632968400    -0.0706929    0.0715313  
   0.634968300    -0.0623654    0.0783623  
   0.636968200    -0.0532618    0.0837522  
   0.638968100    -0.0434539    0.0880906  
   0.640968000    -0.0333436    0.0908213  
   0.642967900    -0.0231250    0.0921851  
   0.644967800    -0.0128797    0.0921583  
   0.646967700    -0.0027276    0.0906904  
   0.648967600     0.0069973    0.0880017  
   0.650967500     0.0161819    0.0840381  
   0.652967400     0.0244317    0.0789357  
   0.654967300     0.0318449    0.0726611  
   0.656967200     0.0381510    0.0656062  
   0.658967100     0.0433126    0.0580043  
   0.660967000     0.0472479    0.0497014  
   0.662966900     0.0500727    0.0408435  
   0.664966800     0.0515293    0.0317779  
   0.666966700     0.0517501    0.0224999  
   0.668966600     0.0505837    0.0134733  
   0.670966500     0.0481767    0.0047513  
   0.672966400     0.0445722   -0.0034059  
   0.674966300     0.0397772   -0.0110286  
   0.676966200     0.0338965   -0.0174011  
   0.678966100     0.0273050   -0.0227298  
   0.680966000     0.0199042   -0.0269568  
   0.682965900     0.0120849   -0.0299155  
   0.684965800     0.0037888   -0.0316765  
   0.686965700    -0.0045226   -0.0321392  
   0.688965600    -0.0127190   -0.0312499  
   0.690965500    -0.0206210   -0.0290936  
   0.692965400    -0.0281110   -0.0256070  
   0.694965300    -0.0349843   -0.0210766  
   0.696965200    -0.0409949   -0.0154503  
   0.698965100    -0.0461011   -0.0089950  
   0.700965000    -0.0501544   -0.0017847  
   0.702964900    -0.0530364    0.0059623  
   0.704964800    -0.0546360    0.0141289  
   0.706964700    -0.0549834    0.0227430  
   0.708964600    -0.0539183    0.0311704  
   0.710964500    -0.0514973    0.0393964  
   0.712964400    -0.0478023    0.0473676  
   0.714964300    -0.0428693    0.0545965  
   0.716964200    -0.0369764    0.0611089  
   0.718964100    -0.0301584    0.0667511  
   0.720964000    -0.0225063    0.0713879  
   0.722963900    -0.0143223    0.0749290  
   0.724963800    -0.0056052    0.0772770  
   0.726963700     0.0035824    0.0784423  
   0.728963600     0.0127192    0.0781942  
   0.730963500     0.0218170    0.0765631  
   0.732963400     0.0307314    0.0735793  
   0.734963300     0.0391946    0.0694333  
   0.736963200     0.0495694    0.0624504  
   0.738963100     0.0588908    0.0540156  
   0.740963000     0.0669418    0.0441038  
   0.742962900     0.0735182    0.0330222  
   0.744962800     0.0782135    0.0212481  
   0.746962700     0.0810998    0.0090169  
   0.748962600     0.0820715   -0.0033611  
   0.750962500     0.0654890    0.0150404  
   0.752962400     0.0667257    0.0030183  
   0.754962300     0.0660291   -0.0088432  
   0.756962200     0.0634927   -0.0202251  
   0.758962100     0.0592019   -0.0310704  
   0.760962000     0.0533696   -0.0405912  
   0.762961900     0.0461454   -0.0483144  
   0.764961800     0.0380168   -0.0539801  
   0.766961700     0.0291550   -0.0583732  
   0.768961600     0.0199275   -0.0613655  
   0.770961500     0.0103911   -0.0630305  
   0.772961400     0.0007413   -0.0633173  
   0.774961300    -0.0088145   -0.0622984  
   0.776961200    -0.0179760   -0.0599512  
   0.778961100    -0.0266784   -0.0563946  
   0.780961000    -0.0346794   -0.0517025  
   0.782960900    -0.0418387   -0.0459567  
   0.784960800    -0.0479372   -0.0392541  
   0.786960700    -0.0528556   -0.0318529  
   0.788960600    -0.0565835   -0.0237446  
   0.790960500    -0.0590810   -0.0152119  
   0.792960400    -0.0601852   -0.0065247  
   0.794960300    -0.0599870    0.0021308  
   0.796960200    -0.0585134    0.0105297  
   0.798960100    -0.0557449    0.0185534  
   0.800960000    -0.0518479    0.0261996  
   0.802959900    -0.0468675    0.0328800  
   0.804959800    -0.0410749    0.0386759  
   0.806959700    -0.0345245    0.0434361  
   0.808959600    -0.0272669    0.0470637  
   0.810959500    -0.0196779    0.0495180  
   0.812959400    -0.0116978    0.0506710  
   0.814959300    -0.0036714    0.0505268  
   0.816959200     0.0042362    0.0491258  
   0.818959100     0.0118004    0.0465149  
   0.820959000     0.0189807    0.0426388  
   0.822958900     0.0255108    0.0377258  
   0.824958800     0.0313392    0.0318051  
   0.826958700     0.0362877    0.0248065  
   0.828958600     0.0399520    0.0173118  
   0.830958500     0.0423420    0.0091099  
   0.832958400     0.0434799    0.0005716  
   0.834958300     0.0433266   -0.0080795  
   0.836958200     0.0418572   -0.0168732  
   0.838958100     0.0390349   -0.0252760  
   0.840958000     0.0349553   -0.0331969  
   0.842957900     0.0297498   -0.0405484  
   0.844957800     0.0234479   -0.0470831  
   0.846957700     0.0160730   -0.0526742  
   0.848957600     0.0079491   -0.0571723  
   0.850957500    -0.0008177   -0.0604682  
   0.852957400    -0.0100962   -0.0624738  
   0.854957300    -0.0196015   -0.0630802  
   0.856957200    -0.0292023   -0.0623301  
   0.858957100    -0.0387000   -0.0601719  
   0.860957000    -0.0478726   -0.0567134  
   0.862956900    -0.0566893   -0.0519615  
   0.864956800    -0.0647376   -0.0461661  
   0.866956700    -0.0719443   -0.0394013  
   0.868956600    -0.0782847   -0.0314946  
   0.870956500    -0.0833842   -0.0230856  
   0.872956400    -0.0871637   -0.0139818  
   0.874956300    -0.0897172   -0.0045151  
   0.876956200    -0.0908001    0.0052941  
   0.878956100    -0.0905296    0.0151462  
   0.880956000    -0.0888341    0.0248731  
   0.882955900    -0.0857697    0.0342374  
   0.884955800    -0.0814492    0.0433147  
   0.886955700    -0.0758881    0.0514448  
   0.888955600    -0.0692708    0.0586616  
   0.890955500    -0.0617678    0.0648879  
   0.892955400    -0.0535168    0.0699196  
   0.894955300    -0.0447258    0.0736020  
