! MS46122B
! 2250307/22442219
! 6/15/2025 8:10:45 AM
! C:\USERS\SPARKY\DOCUMENTS\VNA_DATA\JUNE15_2025\3.2K\ECAL_SHORT_C.S1P
! CHANNEL.1
! TR.MEASUREMENT
! RAW.DATA
# GHZ S RI R 50.0
! FREQ.GHZ         S11RE         S11IM         
!; PortSelection: Port_1
   0.001000000    -0.9637834    0.0484773  
   0.002999900    -0.9379097    0.2509415  
   0.004999800    -0.9039095    0.3974192  
   0.006999700    -0.8432270    0.5302574  
   0.008999600    -0.7591909    0.6481077  
   0.010999500    -0.6549824    0.7480679  
   0.012999400    -0.5349476    0.8285998  
   0.014999300    -0.4028281    0.8881497  
   0.016999200    -0.2632926    0.9268334  
   0.018999100    -0.1198461    0.9444441  
   0.020999000     0.0241133    0.9413531  
   0.022998900     0.1654808    0.9186314  
   0.024998800     0.2737647    0.8544472  
   0.026998700     0.4290437    0.8183669  
   0.028998600     0.5469252    0.7434037  
   0.030998500     0.6525611    0.6534922  
   0.032998400     0.7080203    0.5454161  
   0.034998300     0.8195764    0.4346359  
   0.036998200     0.8773291    0.3095371  
   0.038998100     0.9162390    0.1767431  
   0.040998000     0.9347202    0.0394110  
   0.042997900     0.9320748   -0.0992327  
   0.044997800     0.8808601   -0.2121339  
   0.046997700     0.8630774   -0.3671437  
   0.048997600     0.7988442   -0.4905902  
   0.050997500     0.7171907   -0.6024380  
   0.052997400     0.6214331   -0.6990877  
   0.054997300     0.5102085   -0.7831072  
   0.056997200     0.3896210   -0.8488154  
   0.058997100     0.2616512   -0.8963363  
   0.060997000     0.1286706   -0.9245386  
   0.062996900    -0.0064367   -0.9334257  
   0.064996800    -0.1413021   -0.9228781  
   0.066996700    -0.2727827   -0.8928222  
   0.068996600    -0.3983092   -0.8443986  
   0.070996500    -0.5151744   -0.7784215  
   0.072996400    -0.6209903   -0.6960652  
   0.074996300    -0.7136666   -0.5993719  
   0.076996200    -0.7910985   -0.4906753  
   0.078996100    -0.8517409   -0.3718497  
   0.080996000    -0.8945888   -0.2454284  
   0.082995900    -0.9188384   -0.1143274  
   0.084995800    -0.9239052    0.0189288  
   0.086995700    -0.9095761    0.1516452  
   0.088995600    -0.8764523    0.2809498  
   0.090995500    -0.8247313    0.4044316  
   0.092995400    -0.7555609    0.5193421  
   0.094995300    -0.6696545    0.6232746  
   0.096995200    -0.5697552    0.7138609  
   0.098995100    -0.4570915    0.7887987  
   0.100995000    -0.3338270    0.8462952  
   0.102994900    -0.2033292    0.8847829  
   0.104994800    -0.0682254    0.9030176  
   0.106994700     0.0688484    0.9008889  
   0.108994600     0.2041896    0.8781569  
   0.110994500     0.3344758    0.8349369  
   0.112994400     0.4572415    0.7723398  
   0.114994300     0.5691397    0.6915969  
   0.116994200     0.6673511    0.5946649  
   0.118994100     0.7497530    0.4836305  
   0.120994000     0.8142512    0.3615011  
   0.122993900     0.8593090    0.2309410  
   0.124993800     0.8836165    0.0950355  
   0.126993700     0.8868406   -0.0427915  
   0.128993600     0.8688967   -0.1790511  
   0.130993500     0.8307828   -0.3107540  
   0.132993400     0.7728492   -0.4347511  
   0.134993300     0.6970463   -0.5478459  
   0.136993200     0.6053054   -0.6475521  
   0.138993100     0.5000527   -0.7322562  
   0.140993000     0.3839914   -0.7993295  
   0.142992900     0.2595193   -0.8484167  
   0.144992800     0.1301080   -0.8781399  
   0.146992700    -0.0016411   -0.8883307  
   0.148992600    -0.1329060   -0.8790561  
   0.150992500    -0.2603265   -0.8506858  
   0.152992400    -0.3822198   -0.8041211  
   0.154992300    -0.4953579   -0.7409425  
   0.156992200    -0.5973411   -0.6623384  
   0.158992100    -0.6865398   -0.5700518  
   0.160992000    -0.7617823   -0.4666053  
   0.162991900    -0.8210258   -0.3532523  
   0.164991800    -0.8635496   -0.2331691  
   0.166991700    -0.8885713   -0.1089070  
   0.168991600    -0.8954594    0.0177185  
   0.170991500    -0.8843816    0.1439411  
   0.172991400    -0.8558504    0.2668086  
   0.174991300    -0.8101516    0.3846993  
   0.176991200    -0.7478101    0.4952941  
   0.178991100    -0.6706416    0.5961392  
   0.180991000    -0.5798355    0.6847553  
   0.182990900    -0.4774002    0.7597305  
   0.184990800    -0.3642651    0.8198363  
   0.186990700    -0.2436797    0.8634906  
   0.188990600    -0.1442460    0.8859546  
   0.190990500     0.0061242    0.8967573  
   0.192990400     0.1388650    0.8852836  
   0.194990300     0.2655440    0.8554630  
   0.196990200     0.3864039    0.8074816  
   0.198990100     0.4994084    0.7425309  
   0.200990000     0.6023342    0.6612394  
   0.202989900     0.6925789    0.5647441  
   0.204989800     0.7681293    0.4560287  
   0.206989700     0.8264001    0.3371954  
   0.208989600     0.8666739    0.2106802  
   0.210989500     0.8878881    0.0787787  
   0.212989400     0.8889226   -0.0552771  
   0.214989300     0.8701770   -0.1885085  
   0.216989200     0.8311240   -0.3165941  
   0.218989100     0.7735336   -0.4374288  
   0.220989000     0.6981911   -0.5487555  
   0.222988900     0.6064634   -0.6477521  
   0.224988800     0.5007336   -0.7314274  
   0.226988700     0.3841193   -0.7978248  
   0.228988600     0.2591559   -0.8457567  
   0.230988500     0.1287597   -0.8741471  
   0.232988400    -0.0042130   -0.8825241  
   0.234988300    -0.1370977   -0.8702424  
   0.236988200    -0.2661528   -0.8385443  
   0.238988100    -0.3889655   -0.7877582  
   0.240988000    -0.5015321   -0.7196051  
   0.242987900    -0.6022091   -0.6358204  
   0.244987800    -0.6887004   -0.5380266  
   0.246987700    -0.7597297   -0.4287452  
   0.248987600    -0.8135043   -0.3099659  
   0.250987500    -0.8490977   -0.1845627  
   0.252987400    -0.8652565   -0.0561777  
   0.254987300    -0.8620872    0.0721206  
   0.256987200    -0.8403103    0.1981479  
   0.258987100    -0.8002281    0.3192137  
   0.260987000    -0.7430018    0.4332453  
   0.262986900    -0.6690598    0.5379127  
   0.264986800    -0.5805438    0.6302595  
   0.266986700    -0.4791889    0.7086103  
   0.268986600    -0.3679719    0.7710447  
   0.270986500    -0.2493396    0.8161122  
   0.272986400    -0.1252973    0.8431697  
   0.274986300     0.0012377    0.8519723  
   0.276986200     0.1279268    0.8418800  
   0.278986100     0.2523614    0.8133230  
   0.280986000     0.3718995    0.7662287  
   0.282985900     0.4833284    0.7018020  
   0.284985800     0.5840871    0.6211029  
   0.286985700     0.6719230    0.5264888  
   0.288985600     0.7440903    0.4201894  
   0.290985500     0.7996822    0.3046557  
   0.292985400     0.8374503    0.1821291  
   0.294985300     0.8567750    0.0550333  
   0.296985200     0.8570361   -0.0741367  
   0.298985100     0.8377105   -0.2031544  
   0.300985000     0.7994034   -0.3278912  
   0.302984900     0.7423666   -0.4452982  
   0.304984800     0.6684761   -0.5529343  
   0.306984700     0.5796237   -0.6478155  
   0.308984600     0.4780431   -0.7278889  
   0.310984500     0.3664099   -0.7916585  
   0.312984400     0.2468102   -0.8384284  
   0.314984300     0.1218152   -0.8667018  
   0.316984200    -0.0056190   -0.8763751  
   0.318984100    -0.1336840   -0.8671114  
   0.320984000    -0.2595616   -0.8388114  
   0.322983900    -0.3794746   -0.7923282  
   0.324983800    -0.4912148   -0.7285300  
   0.326983700    -0.5919510   -0.6493568  
   0.328983600    -0.6794649   -0.5567124  
   0.330983500    -0.7521330   -0.4527805  
   0.332983400    -0.8088613   -0.3402946  
   0.334983300    -0.8483458   -0.2216778  
   0.336983200    -0.8700889   -0.0984189  
   0.338983100    -0.8741851    0.0260880  
   0.340983000    -0.8599314    0.1497235  
   0.342982900    -0.8284804    0.2698039  
   0.344982800    -0.7799248    0.3847337  
   0.346982700    -0.7147085    0.4918514  
   0.348982600    -0.6345266    0.5889376  
   0.350982500    -0.5411562    0.6732016  
   0.352982400    -0.4363859    0.7429298  
   0.354982300    -0.3165165    0.7987597  
   0.356982200    -0.1752577    0.8379554  
   0.358982100    -0.0295752    0.8529128  
   0.360982000     0.1155032    0.8428081  
   0.362981900     0.2566182    0.8083441  
   0.364981800     0.3904612    0.7507485  
   0.366981700     0.5126441    0.6712793  
   0.368981600     0.6196447    0.5721944  
   0.370981500     0.7085055    0.4556680  
   0.372981400     0.7763716    0.3251187  
   0.374981300     0.8210973    0.1838027  
   0.376981200     0.7814134    0.3000088  
   0.378981100     0.8213645    0.1561476  
   0.380981000     0.8354349    0.0072534  
   0.382980900     0.8248848   -0.1289241  
   0.384980800     0.7942449   -0.2556685  
   0.386980700     0.7441633   -0.3767108  
   0.388980600     0.6759848   -0.4883650  
   0.390980500     0.5918539   -0.5875577  
   0.392980400     0.4939219   -0.6721570  
   0.394980300     0.3850475   -0.7402368  
   0.396980200     0.2677790   -0.7912799  
   0.398980100     0.1443852   -0.8233546  
   0.400980000     0.0183206   -0.8367745  
   0.402979900    -0.1082109   -0.8309593  
   0.404979800    -0.2312883   -0.8065306  
   0.406979700    -0.3486234   -0.7643498  
   0.408979600    -0.4578765   -0.7056008  
   0.410979500    -0.5572738   -0.6316985  
   0.412979400    -0.6446248   -0.5438814  
   0.414979300    -0.7182785   -0.4446579  
   0.416979200    -0.7762074   -0.3360273  
   0.418979100    -0.8174959   -0.2212856  
   0.420979000    -0.8419037   -0.1020276  
   0.422978900    -0.8490162    0.0192498  
   0.424978800    -0.8385820    0.1399181  
   0.426978700    -0.8109832    0.2582159  
   0.428978600    -0.7671648    0.3702193  
   0.430978500    -0.7081739    0.4751443  
   0.432978400    -0.6357166    0.5695994  
   0.434978300    -0.5507038    0.6527917  
   0.436978200    -0.4550608    0.7231346  
   0.438978100    -0.3505035    0.7798563  
   0.440978000    -0.2387942    0.8210675  
   0.442977900    -0.1222952    0.8466157  
   0.444977800    -0.0033838    0.8555183  
   0.446977700     0.1160287    0.8476333  
   0.448977600     0.2333157    0.8230214  
   0.450977500     0.3464781    0.7819571  
   0.452977400     0.4533849    0.7246944  
   0.454977300     0.5520236    0.6519665  
   0.456977200     0.6399621    0.5648438  
   0.458977100     0.7146376    0.4653014  
   0.460977000     0.7739413    0.3553722  
   0.462976900     0.8167937    0.2377701  
   0.464976800     0.8418093    0.1143118  
   0.466976700     0.8481512   -0.0120587  
   0.468976600     0.8351706   -0.1384916  
   0.470976500     0.8038687   -0.2625349  
   0.472976400     0.7532248   -0.3804289  
   0.474976300     0.6853155   -0.4896449  
   0.476976200     0.6016169   -0.5869117  
   0.478976100     0.5039029   -0.6706312  
   0.480976000     0.3951351   -0.7378237  
   0.482975900     0.2777110   -0.7877321  
   0.484975800     0.1543950   -0.8190384  
   0.486975700     0.0279149   -0.8315973  
   0.488975600    -0.0994465   -0.8244566  
   0.490975500    -0.2237386   -0.7980253  
   0.492975400    -0.3425508   -0.7533597  
   0.494975300    -0.4531647   -0.6910291  
   0.496975200    -0.5528999   -0.6131365  
   0.498975100    -0.6386068   -0.5213014  
   0.500975000    -0.7096114   -0.4179352  
   0.502974900    -0.7637726   -0.3059323  
   0.504974800    -0.8005671   -0.1872950  
   0.506974700    -0.8191699   -0.0646867  
   0.508974600    -0.8191245    0.0599725  
   0.510974500    -0.8003145    0.1825784  
   0.512974400    -0.7637630    0.3006955  
   0.514974300    -0.7105759    0.4110109  
   0.516974200    -0.6417623    0.5117241  
   0.518974100    -0.5593837    0.6007022  
   0.520974000    -0.4651921    0.6764722  
   0.522973900    -0.3614310    0.7374759  
   0.524973800    -0.2502024    0.7827523  
   0.526973700    -0.1334039    0.8111156  
   0.528973600    -0.0142217    0.8224830  
   0.530973500     0.1059172    0.8158475  
   0.532973400     0.2237027    0.7923241  
   0.534973300     0.3367823    0.7518709  
   0.536973200     0.4429468    0.6951477  
   0.538973100     0.5394794    0.6238148  
   0.540973000     0.6246346    0.5396640  
   0.542972900     0.6969762    0.4439584  
   0.544972800     0.7544242    0.3386665  
   0.546972700     0.7963814    0.2253100  
   0.548972600     0.8213409    0.1068893  
   0.550972500     0.8289157   -0.0142916  
   0.552972400     0.8185788   -0.1360410  
   0.554972300     0.7903473   -0.2550737  
   0.556972200     0.7445701   -0.3693958  
   0.558972100     0.6828671   -0.4756090  
   0.560972000     0.6060136   -0.5716504  
   0.562971900     0.5158399   -0.6551573  
   0.564971800     0.4145017   -0.7244184  
   0.566971700     0.3042232   -0.7779301  
   0.568971600     0.1881768   -0.8145078  
   0.570971500     0.0674772   -0.8339503  
   0.572971400    -0.0547188   -0.8352773  
   0.574971300    -0.1762657   -0.8188893  
   0.576971200    -0.2943098   -0.7846792  
   0.578971100    -0.4062472   -0.7335233  
   0.580971000    -0.5093228   -0.6666123  
   0.582970900    -0.6011826   -0.5852478  
   0.584970800    -0.6795498   -0.4921710  
   0.586970700    -0.7436203   -0.3890826  
   0.588970600    -0.7916586   -0.2782649  
   0.590970500    -0.8231550   -0.1617018  
   0.592970400    -0.8373186   -0.0420745  
   0.594970300    -0.8342365    0.0782215  
   0.596970200    -0.8140330    0.1964851  
   0.598970100    -0.7767538    0.3104370  
   0.600970000    -0.7234129    0.4179996  
   0.602969900    -0.6554034    0.5167124  
   0.604969800    -0.5733923    0.6045615  
   0.606969700    -0.4795478    0.6797392  
   0.608969600    -0.3748672    0.7407323  
   0.610969500    -0.2627485    0.7855647  
   0.612969400    -0.1449229    0.8135733  
   0.614969300    -0.0244363    0.8239796  
   0.616969200     0.0963511    0.8164533  
   0.618969100     0.2142385    0.7913705  
   0.620969000     0.3270527    0.7494504  
   0.622968900     0.4325903    0.6911958  
   0.624968800     0.5289685    0.6174661  
   0.626968700     0.6132769    0.5297526  
   0.628968600     0.6842788    0.4300776  
   0.630968500     0.7396258    0.3203079  
   0.632968400     0.7781485    0.2031885  
   0.634968300     0.7978843    0.0808477  
   0.636968200     0.7990014   -0.0430393  
   0.638968100     0.7809194   -0.1658314  
   0.640968000     0.7444040   -0.2846995  
   0.642967900     0.6901817   -0.3968309  
   0.644967800     0.6188050   -0.4991219  
   0.646967700     0.5329999   -0.5889160  
   0.648967600     0.4342969   -0.6641988  
   0.650967500     0.3259950   -0.7233157  
   0.652967400     0.2103062   -0.7648161  
   0.654967300     0.0902809   -0.7878751  
   0.656967200    -0.0318873   -0.7929757  
   0.658967100    -0.1525743   -0.7795573  
   0.660967000    -0.2700164   -0.7479504  
   0.662966900    -0.3817003   -0.6992676  
   0.664966800    -0.4846789   -0.6341807  
   0.666966700    -0.5765345   -0.5542846  
   0.668966600    -0.6547585   -0.4616812  
   0.670966500    -0.7186502   -0.3589511  
   0.672966400    -0.7653922   -0.2484169  
   0.674966300    -0.7956923   -0.1326230  
   0.676966200    -0.8080750   -0.0147019  
   0.678966100    -0.8033250    0.1034930  
   0.680966000    -0.7814574    0.2193219  
   0.682965900    -0.7430041    0.3302980  
   0.684965800    -0.6896192    0.4339767  
   0.686965700    -0.6214193    0.5290214  
   0.688965600    -0.5403802    0.6130692  
   0.690965500    -0.4485968    0.6844690  
   0.692965400    -0.3473058    0.7422196  
   0.694965300    -0.2393011    0.7847461  
   0.696965200    -0.1261534    0.8112866  
   0.698965100    -0.0100515    0.8214958  
   0.700965000     0.1064499    0.8150992  
   0.702964900     0.2214002    0.7920894  
   0.704964800     0.3326148    0.7524399  
   0.706964700     0.4372141    0.6971493  
   0.708964600     0.5332247    0.6263570  
   0.710964500     0.6187496    0.5420027  
   0.712964400     0.6913624    0.4456069  
   0.714964300     0.7489664    0.3389059  
   0.716964200     0.7899708    0.2249468  
   0.718964100     0.8135834    0.1060952  
   0.720964000     0.8195640   -0.0148524  
   0.722963900     0.8075611   -0.1354965  
   0.724963800     0.7772255   -0.2529955  
   0.726963700     0.7299819   -0.3650543  
   0.728963600     0.6662086   -0.4694521  
   0.730963500     0.5878235   -0.5630480  
   0.732963400     0.4956767   -0.6441295  
   0.734963300     0.3918492   -0.7106235  
   0.736963200     0.2622922   -0.7669936  
   0.738963100     0.1240583   -0.7998391  
   0.740963000    -0.0174498   -0.8075565  
   0.742962900    -0.1575656   -0.7902140  
   0.744962800    -0.2921406   -0.7481465  
   0.746962700    -0.4165341   -0.6834298  
   0.748962600    -0.5272437   -0.5980900  
   0.750962500    -0.4468990   -0.6678326  
   0.752962400    -0.5548667   -0.5789446  
   0.754962300    -0.6449183   -0.4729617  
   0.756962200    -0.7148080   -0.3539171  
   0.758962100    -0.7626733   -0.2248838  
   0.760962000    -0.7874106   -0.0904305  
   0.762961900    -0.7893830    0.0393813  
   0.764961800    -0.7732233    0.1557280  
   0.766961700    -0.7402407    0.2681357  
   0.768961600    -0.6915504    0.3734250  
   0.770961500    -0.6280927    0.4702613  
   0.772961400    -0.5518067    0.5560721  
   0.774961300    -0.4647826    0.6295006  
   0.776961200    -0.3678973    0.6895084  
   0.778961100    -0.2637708    0.7344421  
   0.780961000    -0.1538750    0.7642972  
   0.782960900    -0.0405655    0.7782218  
   0.784960800     0.0740599    0.7752049  
   0.786960700     0.1871807    0.7556798  
   0.788960600     0.2965063    0.7196346  
   0.790960500     0.4001848    0.6687484  
   0.792960400     0.4954047    0.6026953  
   0.794960300     0.5800253    0.5232469  
   0.796960200     0.6520609    0.4323743  
   0.798960100     0.7101065    0.3316596  
   0.800960000     0.7528805    0.2231366  
   0.802959900     0.7792955    0.1091629  
   0.804959800     0.7886451   -0.0075323  
   0.806959700     0.7810169   -0.1247146  
   0.808959600     0.7556589   -0.2401924  
   0.810959500     0.7135577   -0.3505729  
   0.812959400     0.6551476   -0.4545124  
   0.814959300     0.5815577   -0.5484138  
   0.816959200     0.4947618   -0.6306968  
   0.818959100     0.3961718   -0.6991240  
   0.820959000     0.2879967   -0.7520348  
   0.822958900     0.1732535   -0.7885644  
   0.824958800     0.0541304   -0.8070285  
   0.826958700    -0.0667258   -0.8075174  
   0.828958600    -0.1859404   -0.7899086  
   0.830958500    -0.3010502   -0.7545733  
   0.832958400    -0.4093905   -0.7024928  
   0.834958300    -0.5081089   -0.6351771  
   0.836958200    -0.5954891   -0.5542729  
   0.838958100    -0.6697992   -0.4616573  
   0.840958000    -0.7294545   -0.3593971  
   0.842957900    -0.7731778   -0.2496613  
   0.844957800    -0.8003573   -0.1351095  
   0.846957700    -0.8102050   -0.0180947  
   0.848957600    -0.8032107    0.0991457  
   0.850957500    -0.7788922    0.2134571  
   0.852957400    -0.7382109    0.3229642  
   0.854957300    -0.6822910    0.4249372  
   0.856957200    -0.6122260    0.5178687  
   0.858957100    -0.5297944    0.5991592  
   0.860957000    -0.4367166    0.6667349  
   0.862956900    -0.3355839    0.7206303  
   0.864956800    -0.2285148    0.7586213  
   0.866956700    -0.1174870    0.7811591  
   0.868956600    -0.0040056    0.7870924  
   0.870956500     0.1088666    0.7770935  
   0.872956400     0.2197579    0.7506228  
   0.874956300     0.3261873    0.7084023  
   0.876956200     0.4259400    0.6506537  
   0.878956100     0.5169689    0.5785062  
   0.880956000     0.5967835    0.4930730  
   0.882955900     0.6632560    0.3963162  
   0.884955800     0.7148687    0.2898856  
   0.886955700     0.7495493    0.1765026  
   0.888955600     0.7668160    0.0584626  
   0.890955500     0.7659609   -0.0612738  
   0.892955400     0.7465165   -0.1796008  
   0.894955300     0.7090663   -0.2935602  
