! MS46122B
! 2250307/22442219
! 6/16/2025 7:46:01 AM
! C:\USERS\SPARKY\DOCUMENTS\VNA_DATA\JUNE16_2025\3.1K\ECAL_SHORT_D.S1P
! CHANNEL.1
! TR.MEASUREMENT
! RAW.DATA
# GHZ S RI R 50.0
! FREQ.GHZ         S11RE         S11IM         
!; PortSelection: Port_1
   0.001000000    -0.9683507    0.0485121  
   0.002999900    -0.9423121    0.2516551  
   0.004999800    -0.9082051    0.3988449  
   0.006999700    -0.8473017    0.5323779  
   0.008999600    -0.7628433    0.6507555  
   0.010999500    -0.6581706    0.7512571  
   0.012999400    -0.5375417    0.8323216  
   0.014999300    -0.4048022    0.8921327  
   0.016999200    -0.2645802    0.9310319  
   0.018999100    -0.1204302    0.9487360  
   0.020999000     0.0241441    0.9456834  
   0.022998900     0.1661500    0.9229444  
   0.024998800     0.2748328    0.8584064  
   0.026998700     0.4308780    0.8221160  
   0.028998600     0.5493339    0.7468758  
   0.030998500     0.6554356    0.6565213  
   0.032998400     0.7110823    0.5480786  
   0.034998300     0.8232175    0.4367203  
   0.036998200     0.8812429    0.3110416  
   0.038998100     0.9203677    0.1776616  
   0.040998000     0.9389186    0.0398861  
   0.042997900     0.9362917   -0.0995080  
   0.044997800     0.8849747   -0.2127046  
   0.046997700     0.8670310   -0.3687304  
   0.048997600     0.8025287   -0.4926683  
   0.050997500     0.7204919   -0.6049869  
   0.052997400     0.6245673   -0.7018880  
   0.054997300     0.5126166   -0.7867269  
   0.056997200     0.3915621   -0.8525679  
   0.058997100     0.2629812   -0.9003137  
   0.060997000     0.1294354   -0.9286688  
   0.062996900    -0.0062649   -0.9376597  
   0.064996800    -0.1417139   -0.9270437  
   0.066996700    -0.2738789   -0.8969948  
   0.068996600    -0.3999672   -0.8483045  
   0.070996500    -0.5174133   -0.7821764  
   0.072996400    -0.6237305   -0.6995065  
   0.074996300    -0.7167500   -0.6022391  
   0.076996200    -0.7946148   -0.4930979  
   0.078996100    -0.8555421   -0.3736958  
   0.080996000    -0.8986446   -0.2467828  
   0.082995900    -0.9230118   -0.1150562  
   0.084995800    -0.9281341    0.0188045  
   0.086995700    -0.9138519    0.1521320  
   0.088995600    -0.8805974    0.2820784  
   0.090995500    -0.8286082    0.4061522  
   0.092995400    -0.7591368    0.5215892  
   0.094995300    -0.6728520    0.6260455  
   0.096995200    -0.5726589    0.7170159  
   0.098995100    -0.4592982    0.7924152  
   0.100995000    -0.3355432    0.8503274  
   0.102994900    -0.2043967    0.8889758  
   0.104994800    -0.0685253    0.9073188  
   0.106994700     0.0690026    0.9052500  
   0.108994600     0.2051266    0.8823047  
   0.110994500     0.3361463    0.8388241  
   0.112994400     0.4595313    0.7759953  
   0.114994300     0.5718549    0.6948196  
   0.116994200     0.6705702    0.5974663  
   0.118994100     0.7534274    0.4858831  
   0.120994000     0.8181691    0.3632158  
   0.122993900     0.8633710    0.2319285  
   0.124993800     0.8878609    0.0954586  
   0.126993700     0.8909980   -0.0430968  
   0.128993600     0.8730890   -0.1801578  
   0.130993500     0.8346490   -0.3121727  
   0.132993400     0.7765464   -0.4368402  
   0.134993300     0.7003513   -0.5504146  
   0.136993200     0.6081205   -0.6506086  
   0.138993100     0.5024170   -0.7355809  
   0.140993000     0.3858446   -0.8029530  
   0.142992900     0.2607909   -0.8523847  
   0.144992800     0.1309709   -0.8821036  
   0.146992700    -0.0015360   -0.8923279  
   0.148992600    -0.1331669   -0.8831179  
   0.150992500    -0.2614096   -0.8545614  
   0.152992400    -0.3838370   -0.8077153  
   0.154992300    -0.4973283   -0.7443479  
   0.156992200    -0.5998756   -0.6653818  
   0.158992100    -0.6894801   -0.5727335  
   0.160992000    -0.7649682   -0.4688112  
   0.162991900    -0.8245724   -0.3550377  
   0.164991800    -0.8672250   -0.2344258  
   0.166991700    -0.8924157   -0.1096359  
   0.168991600    -0.8993767    0.0174947  
   0.170991500    -0.8882616    0.1441917  
   0.172991400    -0.8596104    0.2677182  
   0.174991300    -0.8138121    0.3860865  
   0.176991200    -0.7511517    0.4972680  
   0.178991100    -0.6736345    0.5985119  
   0.180991000    -0.5826169    0.6875331  
   0.182990900    -0.4797066    0.7629270  
   0.184990800    -0.3661407    0.8232845  
   0.186990700    -0.2449055    0.8671667  
   0.188990600    -0.1451468    0.8897496  
   0.190990500     0.0058781    0.9007421  
   0.192990400     0.1391585    0.8893043  
   0.194990300     0.2664746    0.8594515  
   0.196990200     0.3878966    0.8112568  
   0.198990100     0.5014653    0.7461583  
   0.200990000     0.6049006    0.6644626  
   0.202989900     0.6955619    0.5675688  
   0.204989800     0.7714691    0.4584353  
   0.206989700     0.8301885    0.3390934  
   0.208989600     0.8706788    0.2119926  
   0.210989500     0.8921637    0.0795741  
   0.212989400     0.8932080   -0.0552089  
   0.214989300     0.8744665   -0.1889739  
   0.216989200     0.8353699   -0.3177080  
   0.218989100     0.7775658   -0.4391480  
   0.220989000     0.7018474   -0.5510308  
   0.222988900     0.6099222   -0.6504989  
   0.224988800     0.5035763   -0.7347353  
   0.226988700     0.3864717   -0.8014946  
   0.228988600     0.2609608   -0.8497222  
   0.230988500     0.1298625   -0.8783765  
   0.232988400    -0.0037940   -0.8869572  
   0.234988300    -0.1373912   -0.8747050  
   0.236988200    -0.2670254   -0.8429223  
   0.238988100    -0.3904966   -0.7917911  
   0.240988000    -0.5036408   -0.7231957  
   0.242987900    -0.6047390   -0.6391272  
   0.244987800    -0.6918393   -0.5409536  
   0.246987700    -0.7632964   -0.4311112  
   0.248987600    -0.8173617   -0.3117897  
   0.250987500    -0.8531497   -0.1857878  
   0.252987400    -0.8694261   -0.0567153  
   0.254987300    -0.8661655    0.0722279  
   0.256987200    -0.8443531    0.1989188  
   0.258987100    -0.8042052    0.3205352  
   0.260987000    -0.7465047    0.4351820  
   0.262986900    -0.6724268    0.5403711  
   0.264986800    -0.5833958    0.6332133  
   0.266986700    -0.4815876    0.7119282  
   0.268986600    -0.3698251    0.7747011  
   0.270986500    -0.2505836    0.8199534  
   0.272986400    -0.1259625    0.8472859  
   0.274986300     0.0012462    0.8559718  
   0.276986200     0.1284710    0.8459325  
   0.278986100     0.2534783    0.8172528  
   0.280986000     0.3736265    0.7699867  
   0.282985900     0.4855302    0.7053131  
   0.284985800     0.5868070    0.6241648  
   0.286985700     0.6750343    0.5291127  
   0.288985600     0.7475665    0.4223761  
   0.290985500     0.8035263    0.3063281  
   0.292985400     0.8414525    0.1832301  
   0.294985300     0.8609707    0.0555244  
   0.296985200     0.8613297   -0.0742835  
   0.298985100     0.8419007   -0.2038039  
   0.300985000     0.8034753   -0.3290535  
   0.302984900     0.7462788   -0.4471804  
   0.304984800     0.6719410   -0.5552750  
   0.306984700     0.5826678   -0.6507344  
   0.308984600     0.4807073   -0.7312599  
   0.310984500     0.3685627   -0.7953485  
   0.312984400     0.2484109   -0.8423988  
   0.314984300     0.1228644   -0.8708562  
   0.316984200    -0.0051695   -0.8806275  
   0.318984100    -0.1338736   -0.8712852  
   0.320984000    -0.2603590   -0.8429239  
   0.322983900    -0.3808156   -0.7962122  
   0.324983800    -0.4931859   -0.7322103  
   0.326983700    -0.5943831   -0.6528307  
   0.328983600    -0.6823958   -0.5596640  
   0.330983500    -0.7554587   -0.4552524  
   0.332983400    -0.8124126   -0.3422996  
   0.334983300    -0.8521317   -0.2229754  
   0.336983200    -0.8740854   -0.0992135  
   0.338983100    -0.8782748    0.0259760  
   0.340983000    -0.8640143    0.1500081  
   0.342982900    -0.8324454    0.2707251  
   0.344982800    -0.7837940    0.3862311  
   0.346982700    -0.7183045    0.4939608  
   0.348982600    -0.6377881    0.5914466  
   0.350982500    -0.5440987    0.6761036  
   0.352982400    -0.4386544    0.7463568  
   0.354982300    -0.3184092    0.8023657  
   0.356982200    -0.1764669    0.8418449  
   0.358982100    -0.0301582    0.8569633  
   0.360982000     0.1156333    0.8469717  
   0.362981900     0.2574526    0.8125631  
   0.364981800     0.3920049    0.7546951  
   0.366981700     0.5147210    0.6748948  
   0.368981600     0.6222745    0.5754668  
   0.370981500     0.7117003    0.4583765  
   0.372981400     0.7801534    0.3272197  
   0.374981300     0.8249771    0.1853182  
   0.376981200     0.7851748    0.3021466  
   0.378981100     0.8254209    0.1575062  
   0.380981000     0.8396180    0.0078738  
   0.382980900     0.8291562   -0.1289501  
   0.384980800     0.7983935   -0.2563904  
   0.386980700     0.7481763   -0.3780441  
   0.388980600     0.6797492   -0.4903209  
   0.390980500     0.5952291   -0.5900293  
   0.392980400     0.4968768   -0.6751696  
   0.394980300     0.3875056   -0.7436658  
   0.396980200     0.2696667   -0.7950240  
   0.398980100     0.1456804   -0.8273107  
   0.400980000     0.0189939   -0.8409362  
   0.402979900    -0.1081810   -0.8350496  
   0.404979800    -0.2319616   -0.8105690  
   0.406979700    -0.3498670   -0.7683465  
   0.408979600    -0.4596412   -0.7093040  
   0.410979500    -0.5597983   -0.6348509  
   0.412979400    -0.6474974   -0.5468007  
   0.414979300    -0.7215178   -0.4469792  
   0.416979200    -0.7796034   -0.3380528  
   0.418979100    -0.8211277   -0.2227820  
   0.420979000    -0.8458044   -0.1029221  
   0.422978900    -0.8528764    0.0188170  
   0.424978800    -0.8424375    0.1403761  
   0.426978700    -0.8148209    0.2589443  
   0.428978600    -0.7709178    0.3715682  
   0.430978500    -0.7117136    0.4769121  
   0.432978400    -0.6388209    0.5719530  
   0.434978300    -0.5534558    0.6555477  
   0.436978200    -0.4573681    0.7263041  
   0.438978100    -0.3524473    0.7832689  
   0.440978000    -0.2402945    0.8247600  
   0.442977900    -0.1232075    0.8504940  
   0.444977800    -0.0038264    0.8594703  
   0.446977700     0.1161880    0.8516278  
   0.448977600     0.2340051    0.8269196  
   0.450977500     0.3476641    0.7857681  
   0.452977400     0.4551237    0.7282131  
   0.454977300     0.5543571    0.6553113  
   0.456977200     0.6427519    0.5678768  
   0.458977100     0.7178763    0.4679088  
   0.460977000     0.7774065    0.3576610  
   0.462976900     0.8205717    0.2391698  
   0.464976800     0.8457735    0.1153367  
   0.466976700     0.8523743   -0.0116914  
   0.468976600     0.8392770   -0.1387169  
   0.470976500     0.8079948   -0.2635066  
   0.472976400     0.7572147   -0.3819033  
   0.474976300     0.6889898   -0.4917156  
   0.476976200     0.6048886   -0.5895391  
   0.478976100     0.5067884   -0.6738356  
   0.480976000     0.3974564   -0.7414509  
   0.482975900     0.2794430   -0.7916774  
   0.484975800     0.1555421   -0.8232361  
   0.486975700     0.0282955   -0.8357864  
   0.488975600    -0.0995786   -0.8287326  
   0.490975500    -0.2245824   -0.8022394  
   0.492975400    -0.3440371   -0.7574222  
   0.494975300    -0.4553383   -0.6948170  
   0.496975200    -0.5554692   -0.6165560  
   0.498975100    -0.6417760   -0.5240984  
   0.500975000    -0.7130355   -0.4203873  
   0.502974900    -0.7675617   -0.3078336  
   0.504974800    -0.8046460   -0.1886109  
   0.506974700    -0.8232707   -0.0654587  
   0.508974600    -0.8233516    0.0598820  
   0.510974500    -0.8044859    0.1829819  
   0.512974400    -0.7677175    0.3017883  
   0.514974300    -0.7143223    0.4126154  
   0.516974200    -0.6453109    0.5139170  
   0.518974100    -0.5625283    0.6032554  
   0.520974000    -0.4680245    0.6794598  
   0.522973900    -0.3637274    0.7408342  
   0.524973800    -0.2519730    0.7864158  
   0.526973700    -0.1347432    0.8149788  
   0.528973600    -0.0149648    0.8264958  
   0.530973500     0.1057684    0.8198858  
   0.532973400     0.2240177    0.7962866  
   0.534973300     0.3378745    0.7556536  
   0.536973200     0.4444270    0.6988696  
   0.538973100     0.5415300    0.6274055  
   0.540973000     0.6270868    0.5428342  
   0.542972900     0.7000756    0.4467884  
   0.544972800     0.7578200    0.3409985  
   0.546972700     0.8000221    0.2270628  
   0.548972600     0.8251426    0.1082942  
   0.550972500     0.8329578   -0.0136395  
   0.552972400     0.8226576   -0.1359532  
   0.554972300     0.7943928   -0.2555906  
   0.556972200     0.7486250   -0.3706115  
   0.558972100     0.6866713   -0.4773060  
   0.560972000     0.6093445   -0.5741236  
   0.562971900     0.5188717   -0.6580100  
   0.564971800     0.4169185   -0.7277012  
   0.566971700     0.3064879   -0.7813892  
   0.568971600     0.1897335   -0.8184427  
   0.570971500     0.0685595   -0.8380576  
   0.572971400    -0.0544413   -0.8395370  
   0.574971300    -0.1764954   -0.8231763  
   0.576971200    -0.2952105   -0.7888533  
   0.578971100    -0.4076412   -0.7375489  
   0.580971000    -0.5113799   -0.6703398  
   0.582970900    -0.6036689   -0.5886680  
   0.584970800    -0.6825644   -0.4951346  
   0.586970700    -0.7470431   -0.3915480  
   0.588970600    -0.7954567   -0.2802613  
   0.590970500    -0.8272277   -0.1631249  
   0.592970400    -0.8415597   -0.0429023  
   0.594970300    -0.8385661    0.0778751  
   0.596970200    -0.8182506    0.1968066  
   0.598970100    -0.7808850    0.3113552  
   0.600970000    -0.7273548    0.4195309  
   0.602969900    -0.6590893    0.5187609  
   0.604969800    -0.5767634    0.6071219  
   0.606969700    -0.4824911    0.6827163  
   0.608969600    -0.3773988    0.7441619  
   0.610969500    -0.2647910    0.7893086  
   0.612969400    -0.1461845    0.8176244  
   0.614969300    -0.0250316    0.8281365  
   0.616969200     0.0961518    0.8206609  
   0.618969100     0.2147609    0.7955468  
   0.620969000     0.3281927    0.7535343  
   0.622968900     0.4343534    0.6950574  
   0.624968800     0.5313030    0.6210968  
   0.626968700     0.6162535    0.5329635  
   0.628968600     0.6877946    0.4330617  
   0.630968500     0.7432923    0.3224550  
   0.632968400     0.7822180    0.2046728  
   0.634968300     0.8021394    0.0815285  
   0.636968200     0.8032514   -0.0428557  
   0.638968100     0.7854117   -0.1664560  
   0.640968000     0.7486063   -0.2859786  
   0.642967900     0.6941535   -0.3986900  
   0.644967800     0.6224411   -0.5015358  
   0.646967700     0.5360081   -0.5920997  
   0.648967600     0.4370846   -0.6676701  
   0.650967500     0.3282985   -0.7270848  
   0.652967400     0.2119025   -0.7688726  
   0.654967300     0.0911428   -0.7922900  
   0.656967200    -0.0316309   -0.7974668  
   0.658967100    -0.1529591   -0.7840190  
   0.660967000    -0.2711065   -0.7524418  
   0.662966900    -0.3833987   -0.7033804  
   0.664966800    -0.4868989   -0.6380500  
   0.666966700    -0.5793541   -0.5576767  
   0.668966600    -0.6578937   -0.4647633  
   0.670966500    -0.7222012   -0.3615146  
   0.672966400    -0.7692857   -0.2504332  
   0.674966300    -0.7998349   -0.1340934  
   0.676966200    -0.8124128   -0.0155537  
   0.678966100    -0.8076200    0.1033878  
   0.680966000    -0.7857595    0.2195572  
   0.682965900    -0.7471817    0.3311951  
   0.684965800    -0.6936384    0.4355419  
   0.686965700    -0.6251061    0.5310155  
   0.688965600    -0.5438800    0.6155847  
   0.690965500    -0.4515749    0.6875873  
   0.692965400    -0.3498937    0.7456463  
   0.694965300    -0.2413810    0.7884762  
   0.696965200    -0.1278850    0.8152452  
   0.698965100    -0.0109404    0.8256848  
   0.700965000     0.1062996    0.8194065  
   0.702964900     0.2216617    0.7963596  
   0.704964800     0.3334602    0.7567100  
   0.706964700     0.4387520    0.7010512  
   0.708964600     0.5353454    0.6301742  
   0.710964500     0.6213266    0.5455210  
   0.712964400     0.6944880    0.4487344  
   0.714964300     0.7525891    0.3415273  
   0.716964200     0.7939860    0.2269006  
   0.718964100     0.8178707    0.1074450  
   0.720964000     0.8240770   -0.0142044  
   0.722963900     0.8119000   -0.1354084  
   0.724963800     0.7817498   -0.2537505  
   0.726963700     0.7343712   -0.3665279  
   0.728963600     0.6704885   -0.4714048  
   0.730963500     0.5915755   -0.5657442  
   0.732963400     0.4990402   -0.6473941  
   0.734963300     0.3946596   -0.7143491  
   0.736963200     0.2643504   -0.7710853  
   0.738963100     0.1254151   -0.8043154  
   0.740963000    -0.0169439   -0.8121623  
   0.742962900    -0.1578030   -0.7948267  
   0.744962800    -0.2931308   -0.7528526  
   0.746962700    -0.4183867   -0.6876181  
   0.748962600    -0.5297353   -0.6017166  
   0.750962500    -0.4488322   -0.6719462  
   0.752962400    -0.5574376   -0.5825844  
   0.754962300    -0.6481888   -0.4763006  
   0.756962200    -0.7185176   -0.3563410  
   0.758962100    -0.7666718   -0.2267369  
   0.760962000    -0.7915891   -0.0914614  
   0.762961900    -0.7936005    0.0389534  
   0.764961800    -0.7774945    0.1560134  
   0.766961700    -0.7443541    0.2690309  
   0.768961600    -0.6954679    0.3748508  
   0.770961500    -0.6317918    0.4723412  
   0.772961400    -0.5551263    0.5586909  
   0.774961300    -0.4675896    0.6324964  
   0.776961200    -0.3703536    0.6927981  
   0.778961100    -0.2656204    0.7381754  
   0.780961000    -0.1551137    0.7682386  
   0.782960900    -0.0412851    0.7821607  
   0.784960800     0.0739099    0.7792470  
   0.786960700     0.1876105    0.7597179  
   0.788960600     0.2976121    0.7237985  
   0.790960500     0.4019734    0.6726131  
   0.792960400     0.4973466    0.6062337  
   0.794960300     0.5827445    0.5265234  
   0.796960200     0.6551980    0.4351994  
   0.798960100     0.7136966    0.3339726  
   0.800960000     0.7568188    0.2248916  
   0.802959900     0.7835162    0.1104017  
   0.804959800     0.7930665   -0.0069582  
   0.806959700     0.7855088   -0.1247768  
   0.808959600     0.7600760   -0.2408886  
   0.810959500     0.7178552   -0.3519326  
   0.812959400     0.6592199   -0.4564582  
   0.814959300     0.5853212   -0.5509552  
   0.816959200     0.4980622   -0.6336560  
   0.818959100     0.3990981   -0.7026637  
   0.820959000     0.2904004   -0.7559482  
   0.822958900     0.1751464   -0.7927527  
   0.824958800     0.0553273   -0.8114769  
   0.826958700    -0.0661722   -0.8121899  
   0.828958600    -0.1860392   -0.7944781  
   0.830958500    -0.3017853   -0.7590803  
   0.832958400    -0.4107724   -0.7067698  
   0.834958300    -0.5101048   -0.6391988  
   0.836958200    -0.5980146   -0.5579849  
   0.838958100    -0.6727638   -0.4650367  
   0.840958000    -0.7330172   -0.3623084  
   0.842957900    -0.7770624   -0.2519375  
   0.844957800    -0.8044080   -0.1369997  
   0.846957700    -0.8144900   -0.0190722  
   0.848957600    -0.8076349    0.0985931  
   0.850957500    -0.7833675    0.2133809  
   0.852957400    -0.7425659    0.3237404  
   0.854957300    -0.6865341    0.4262874  
   0.856957200    -0.6161035    0.5198802  
   0.858957100    -0.5334002    0.6017053  
   0.860957000    -0.4399228    0.6699044  
   0.862956900    -0.3382774    0.7241673  
   0.864956800    -0.2306013    0.7625234  
   0.866956700    -0.1188378    0.7852588  
   0.868956600    -0.0048503    0.7914949  
   0.870956500     0.1088470    0.7814694  
   0.872956400     0.2201163    0.7550399  
   0.874956300     0.3272156    0.7127451  
   0.876956200     0.4277639    0.6547859  
   0.878956100     0.5192379    0.5823475  
   0.880956000     0.5996636    0.4965240  
   0.882955900     0.6664368    0.3993603  
   0.884955800     0.7186220    0.2923986  
   0.886955700     0.7538250    0.1782979  
   0.888955600     0.7712421    0.0597360  
   0.890955500     0.7704077   -0.0605312  
   0.892955400     0.7511348   -0.1796489  
   0.894955300     0.7135590   -0.2943264  
