! MS46122B
! 2250307/22442219
! 6/18/2025 7:48:29 AM
! C:\USERS\SPARKY\DOCUMENTS\VNA_DATA\JUNE18_2025\3.0K\ECAL_SHORT_E.S1P
! CHANNEL.1
! TR.MEASUREMENT
! RAW.DATA
# GHZ S RI R 50.0
! FREQ.GHZ         S11RE         S11IM         
!; PortSelection: Port_1
   0.001000000    -0.9764456    0.0482344  
   0.002999900    -0.9502857    0.2526407  
   0.004999800    -0.9160541    0.4009058  
   0.006999700    -0.8549236    0.5358132  
   0.008999600    -0.7698569    0.6554869  
   0.010999500    -0.6643506    0.7571061  
   0.012999400    -0.5426135    0.8389651  
   0.014999300    -0.4087475    0.8995014  
   0.016999200    -0.2672672    0.9387752  
   0.018999100    -0.1219622    0.9567314  
   0.020999000     0.0240008    0.9537569  
   0.022998900     0.1671435    0.9308402  
   0.024998800     0.2768068    0.8658772  
   0.026998700     0.4341145    0.8293566  
   0.028998600     0.5535597    0.7534794  
   0.030998500     0.6605274    0.6624378  
   0.032998400     0.7167464    0.5530633  
   0.034998300     0.8298116    0.4408412  
   0.036998200     0.8883996    0.3141164  
   0.038998100     0.9278972    0.1796139  
   0.040998000     0.9466128    0.0406535  
   0.042997900     0.9440681   -0.0998464  
   0.044997800     0.8926024   -0.2140263  
   0.046997700     0.8740602   -0.3714815  
   0.048997600     0.8093846   -0.4964678  
   0.050997500     0.7266011   -0.6096774  
   0.052997400     0.6300514   -0.7074018  
   0.054997300     0.5169933   -0.7928427  
   0.056997200     0.3948940   -0.8593701  
   0.058997100     0.2652815   -0.9075090  
   0.060997000     0.1306898   -0.9360836  
   0.062996900    -0.0061000   -0.9450647  
   0.064996800    -0.1426133   -0.9345038  
   0.066996700    -0.2758180   -0.9043134  
   0.068996600    -0.4029495   -0.8551550  
   0.070996500    -0.5213903   -0.7885376  
   0.072996400    -0.6285230   -0.7051836  
   0.074996300    -0.7223673   -0.6071716  
   0.076996200    -0.8008450   -0.4971267  
   0.078996100    -0.8623133   -0.3768114  
   0.080996000    -0.9058110   -0.2488441  
   0.082995900    -0.9305003   -0.1160441  
   0.084995800    -0.9355984    0.0188146  
   0.086995700    -0.9213163    0.1532682  
   0.088995600    -0.8877749    0.2843181  
   0.090995500    -0.8354216    0.4093992  
   0.092995400    -0.7654338    0.5258125  
   0.094995300    -0.6785830    0.6310861  
   0.096995200    -0.5774151    0.7230744  
   0.098995100    -0.4632274    0.7990400  
   0.100995000    -0.3384724    0.8574613  
   0.102994900    -0.2063601    0.8962423  
   0.104994800    -0.0692269    0.9151807  
   0.106994700     0.0695825    0.9129817  
   0.108994600     0.2069030    0.8899914  
   0.110994500     0.3391721    0.8463485  
   0.112994400     0.4634067    0.7829139  
   0.114994300     0.5769243    0.7012029  
   0.116994200     0.6764629    0.6029158  
   0.118994100     0.7600567    0.4903449  
   0.120994000     0.8254352    0.3666238  
   0.122993900     0.8710544    0.2341790  
   0.124993800     0.8958138    0.0964682  
   0.126993700     0.8990010   -0.0432438  
   0.128993600     0.8808780   -0.1815073  
   0.130993500     0.8422129   -0.3148660  
   0.132993400     0.7837194   -0.4404616  
   0.134993300     0.7066541   -0.5550802  
   0.136993200     0.6139048   -0.6561760  
   0.138993100     0.5072083   -0.7418136  
   0.140993000     0.3896047   -0.8097582  
   0.142992900     0.2636018   -0.8597165  
   0.144992800     0.1324766   -0.8896081  
   0.146992700    -0.0011486   -0.8999974  
   0.148992600    -0.1338535   -0.8907084  
   0.150992500    -0.2631133   -0.8618990  
   0.152992400    -0.3865999   -0.8147286  
   0.154992300    -0.5009194   -0.7509907  
   0.156992200    -0.6044881   -0.6712025  
   0.158992100    -0.6949375   -0.5779332  
   0.160992000    -0.7709439   -0.4730837  
   0.162991900    -0.8310552   -0.3583946  
   0.164991800    -0.8741387   -0.2368248  
   0.166991700    -0.8995427   -0.1109679  
   0.168991600    -0.9067914    0.0171036  
   0.170991500    -0.8954191    0.1450057  
   0.172991400    -0.8665985    0.2694536  
   0.174991300    -0.8204842    0.3887884  
   0.176991200    -0.7574053    0.5008751  
   0.178991100    -0.6794885    0.6029372  
   0.180991000    -0.5875612    0.6928158  
   0.182990900    -0.4837541    0.7688394  
   0.184990800    -0.3694293    0.8300084  
   0.186990700    -0.2470030    0.8740399  
   0.188990600    -0.1465453    0.8969656  
   0.190990500     0.0057259    0.9080590  
   0.192990400     0.1402028    0.8966832  
   0.194990300     0.2685307    0.8664924  
   0.196990200     0.3909736    0.8179756  
   0.198990100     0.5055400    0.7523568  
   0.200990000     0.6098799    0.6699271  
   0.202989900     0.7013834    0.5726148  
   0.204989800     0.7778444    0.4623308  
   0.206989700     0.8372421    0.3419679  
   0.208989600     0.8782855    0.2137665  
   0.210989500     0.8997555    0.0803376  
   0.212989400     0.9008597   -0.0555514  
   0.214989300     0.8819421   -0.1904748  
   0.216989200     0.8426445   -0.3204467  
   0.218989100     0.7843843   -0.4429849  
   0.220989000     0.7080526   -0.5558280  
   0.222988900     0.6151884   -0.6562700  
   0.224988800     0.5081096   -0.7411672  
   0.226988700     0.3899722   -0.8085656  
   0.228988600     0.2633516   -0.8572344  
   0.230988500     0.1311489   -0.8862299  
   0.232988400    -0.0036934   -0.8948211  
   0.234988300    -0.1385421   -0.8825317  
   0.236988200    -0.2693150   -0.8505943  
   0.238988100    -0.3938878   -0.7989009  
   0.240988000    -0.5080768   -0.7298481  
   0.242987900    -0.6100010   -0.6448855  
   0.244987800    -0.6979537   -0.5459433  
   0.246987700    -0.7700061   -0.4350116  
   0.248987600    -0.8245934   -0.3146747  
   0.250987500    -0.8606825   -0.1875466  
   0.252987400    -0.8770836   -0.0573449  
   0.254987300    -0.8739304    0.0728178  
   0.256987200    -0.8518272    0.2006321  
   0.258987100    -0.8114833    0.3232608  
   0.260987000    -0.7531617    0.4389421  
   0.262986900    -0.6784170    0.5450656  
   0.264986800    -0.5886128    0.6387071  
   0.266986700    -0.4859873    0.7182056  
   0.268986600    -0.3732115    0.7815312  
   0.270986500    -0.2529067    0.8272002  
   0.272986400    -0.1272111    0.8547636  
   0.274986300     0.0010224    0.8635677  
   0.276986200     0.1294336    0.8535699  
   0.278986100     0.2556086    0.8244750  
   0.280986000     0.3767093    0.7769517  
   0.282985900     0.4896636    0.7116191  
   0.284985800     0.5917969    0.6301851  
   0.286985700     0.6807899    0.5341996  
   0.288985600     0.7540559    0.4265158  
   0.290985500     0.8105425    0.3094755  
   0.292985400     0.8489145    0.1853477  
   0.294985300     0.8686931    0.0565637  
   0.296985200     0.8690373   -0.0744059  
   0.298985100     0.8495129   -0.2050671  
   0.300985000     0.8107875   -0.3316114  
   0.302984900     0.7530906   -0.4505845  
   0.304984800     0.6782799   -0.5597267  
   0.306984700     0.5882176   -0.6560468  
   0.308984600     0.4854002   -0.7373588  
   0.310984500     0.3723123   -0.8020667  
   0.312984400     0.2510808   -0.8495560  
   0.314984300     0.1245229   -0.8783573  
   0.316984200    -0.0046959   -0.8881767  
   0.318984100    -0.1345671   -0.8788431  
   0.320984000    -0.2621641   -0.8503458  
   0.322983900    -0.3837200   -0.8032007  
   0.324983800    -0.4970660   -0.7386348  
   0.326983700    -0.5991408   -0.6585530  
   0.328983600    -0.6879307   -0.5646488  
   0.330983500    -0.7618016   -0.4593204  
   0.332983400    -0.8189163   -0.3454921  
   0.334983300    -0.8593296   -0.2249197  
   0.336983200    -0.8813439   -0.1003502  
   0.338983100    -0.8856573    0.0260822  
   0.340983000    -0.8712608    0.1511483  
   0.342982900    -0.8394676    0.2729351  
   0.344982800    -0.7904245    0.3892852  
   0.346982700    -0.7242981    0.4981479  
   0.348982600    -0.6432195    0.5964258  
   0.350982500    -0.5486923    0.6818798  
   0.352982400    -0.4423777    0.7527682  
   0.354982300    -0.3211656    0.8092257  
   0.356982200    -0.1778429    0.8492079  
   0.358982100    -0.0305407    0.8644121  
   0.360982000     0.1167078    0.8544357  
   0.362981900     0.2597542    0.8197262  
   0.364981800     0.3953786    0.7614068  
   0.366981700     0.5193025    0.6809493  
   0.368981600     0.6280083    0.5805604  
   0.370981500     0.7180368    0.4626747  
   0.372981400     0.7873078    0.3304423  
   0.374981300     0.8325579    0.1874756  
   0.376981200     0.7923182    0.3051123  
   0.378981100     0.8330911    0.1591753  
   0.380981000     0.8474354    0.0082398  
   0.382980900     0.8369734   -0.1298405  
   0.384980800     0.8059691   -0.2586037  
   0.386980700     0.7553030   -0.3812166  
   0.388980600     0.6863885   -0.4944203  
   0.390980500     0.6010608   -0.5952359  
   0.392980400     0.5018367   -0.6811572  
   0.394980300     0.3914735   -0.7504665  
   0.396980200     0.2725971   -0.8020967  
   0.398980100     0.1473193   -0.8349023  
   0.400980000     0.0196216   -0.8486202  
   0.402979900    -0.1087486   -0.8425426  
   0.404979800    -0.2335910   -0.8178807  
   0.406979700    -0.3525913   -0.7752513  
   0.408979600    -0.4633785   -0.7156981  
   0.410979500    -0.5643290   -0.6406013  
   0.412979400    -0.6527157   -0.5518723  
   0.414979300    -0.7273248   -0.4512859  
   0.416979200    -0.7860310   -0.3411852  
   0.418979100    -0.8278699   -0.2250150  
   0.420979000    -0.8528075   -0.1040122  
   0.422978900    -0.8599981    0.0185554  
   0.424978800    -0.8494855    0.1410923  
   0.426978700    -0.8216215    0.2605445  
   0.428978600    -0.7772391    0.3744242  
   0.430978500    -0.7177849    0.4803638  
   0.432978400    -0.6443107    0.5762319  
   0.434978300    -0.5583135    0.6606038  
   0.436978200    -0.4614308    0.7319677  
   0.438978100    -0.3557024    0.7894803  
   0.440978000    -0.2425783    0.8314699  
   0.442977900    -0.1247756    0.8573501  
   0.444977800    -0.0042974    0.8664937  
   0.446977700     0.1167594    0.8586966  
   0.448977600     0.2355256    0.8338943  
   0.450977500     0.3501437    0.7924762  
   0.452977400     0.4585683    0.7345894  
   0.454977300     0.5588018    0.6611373  
   0.456977200     0.6478784    0.5730710  
   0.458977100     0.7237082    0.4722714  
   0.460977000     0.7839645    0.3610692  
   0.462976900     0.8275908    0.2419096  
   0.464976800     0.8530546    0.1167105  
   0.466976700     0.8598059   -0.0113170  
   0.468976600     0.8467813   -0.1395124  
   0.470976500     0.8153155   -0.2655280  
   0.472976400     0.7642486   -0.3850523  
   0.474976300     0.6956006   -0.4957005  
   0.476976200     0.6106145   -0.5947745  
   0.478976100     0.5115662   -0.6798021  
   0.480976000     0.4012987   -0.7481444  
   0.482975900     0.2824133   -0.7988109  
   0.484975800     0.1572472   -0.8307432  
   0.486975700     0.0287436   -0.8435113  
   0.488975600    -0.1002447   -0.8365715  
   0.490975500    -0.2264827   -0.8097230  
   0.492975400    -0.3470319   -0.7646161  
   0.494975300    -0.4593692   -0.7014039  
   0.496975200    -0.5604612   -0.6224563  
   0.498975100    -0.6476983   -0.5291005  
   0.500975000    -0.7196636   -0.4245245  
   0.502974900    -0.7747600   -0.3106505  
   0.504974800    -0.8121232   -0.1905449  
   0.506974700    -0.8310385   -0.0661701  
   0.508974600    -0.8310917    0.0602908  
   0.510974500    -0.8119478    0.1844430  
   0.512974400    -0.7749190    0.3044078  
   0.514974300    -0.7210513    0.4161178  
   0.516974200    -0.6513594    0.5181727  
   0.518974100    -0.5681255    0.6085997  
   0.520974000    -0.4727629    0.6855252  
   0.522973900    -0.3673482    0.7473823  
   0.524973800    -0.2545742    0.7934386  
   0.526973700    -0.1362813    0.8222138  
   0.528973600    -0.0153583    0.8337850  
   0.530973500     0.1064414    0.8272884  
   0.532973400     0.2256552    0.8034913  
   0.534973300     0.3404363    0.7625204  
   0.536973200     0.4479986    0.7052715  
   0.538973100     0.5461267    0.6332129  
   0.540973000     0.6323410    0.5478340  
   0.542972900     0.7059382    0.4509680  
   0.544972800     0.7643065    0.3442647  
   0.546972700     0.8068492    0.2293689  
   0.548972600     0.8323198    0.1095856  
   0.550972500     0.8401452   -0.0134993  
   0.552972400     0.8299238   -0.1368193  
   0.554972300     0.8013818   -0.2577405  
   0.556972200     0.7554180   -0.3736315  
   0.558972100     0.6928149   -0.4812210  
   0.560972000     0.6149086   -0.5788505  
   0.562971900     0.5236207   -0.6634687  
   0.564971800     0.4208845   -0.7339099  
   0.566971700     0.3092717   -0.7881279  
   0.568971600     0.1913423   -0.8257055  
   0.570971500     0.0691696   -0.8454319  
   0.572971400    -0.0545763   -0.8467902  
   0.574971300    -0.1778399   -0.8304408  
   0.576971200    -0.2978334   -0.7958775  
   0.578971100    -0.4110537   -0.7440546  
   0.580971000    -0.5157040   -0.6763494  
   0.582970900    -0.6089833   -0.5939997  
   0.584970800    -0.6885130   -0.4996637  
   0.586970700    -0.7535576   -0.3951930  
   0.588970600    -0.8023811   -0.2829467  
   0.590970500    -0.8344557   -0.1647965  
   0.592970400    -0.8491207   -0.0435671  
   0.594970300    -0.8460600    0.0783149  
   0.596970200    -0.8255824    0.1983446  
   0.598970100    -0.7879618    0.3138659  
   0.600970000    -0.7340692    0.4230832  
   0.602969900    -0.6649954    0.5232142  
   0.604969800    -0.5821588    0.6123918  
   0.606969700    -0.4870978    0.6886947  
   0.608969600    -0.3811119    0.7507454  
   0.610969500    -0.2675260    0.7963905  
   0.612969400    -0.1479290    0.8250218  
   0.614969300    -0.0258532    0.8357793  
   0.616969200     0.0966593    0.8283021  
   0.618969100     0.2164482    0.8030687  
   0.620969000     0.3308882    0.7607411  
   0.622968900     0.4380816    0.7018656  
   0.624968800     0.5360023    0.6272041  
   0.626968700     0.6218702    0.5383636  
   0.628968600     0.6942009    0.4373643  
   0.630968500     0.7504137    0.3259956  
   0.632968400     0.7898061    0.2072112  
   0.634968300     0.8098829    0.0830421  
   0.636968200     0.8113412   -0.0428056  
   0.638968100     0.7932802   -0.1675141  
   0.640968000     0.7563133   -0.2883394  
   0.642967900     0.7013654   -0.4023681  
   0.644967800     0.6291937   -0.5060063  
   0.646967700     0.5418499   -0.5976843  
   0.648967600     0.4420853   -0.6741471  
   0.650967500     0.3320590   -0.7343327  
   0.652967400     0.2146361   -0.7765111  
   0.654967300     0.0925542   -0.8003885  
   0.656967200    -0.0311447   -0.8055339  
   0.658967100    -0.1539731   -0.7920092  
   0.660967000    -0.2732257   -0.7603920  
   0.662966900    -0.3866702   -0.7106957  
   0.664966800    -0.4912189   -0.6447278  
   0.666966700    -0.5846857   -0.5636433  
   0.668966600    -0.6638747   -0.4699852  
   0.670966500    -0.7288399   -0.3657458  
   0.672966400    -0.7764229   -0.2535003  
   0.674966300    -0.8073140   -0.1359932  
   0.676966200    -0.8200509   -0.0163101  
   0.678966100    -0.8151932    0.1035599  
   0.680966000    -0.7931855    0.2212125  
   0.682965900    -0.7542959    0.3337114  
   0.684965800    -0.7002801    0.4389691  
   0.686965700    -0.6312287    0.5354362  
   0.688965600    -0.5490628    0.6208039  
   0.690965500    -0.4560658    0.6934049  
   0.692965400    -0.3534629    0.7521023  
   0.694965300    -0.2439716    0.7953189  
   0.696965200    -0.1294495    0.8225502  
   0.698965100    -0.0114563    0.8330352  
   0.700965000     0.1067214    0.8269863  
   0.702964900     0.2234621    0.8035720  
   0.704964800     0.3359956    0.7636687  
   0.706964700     0.4425084    0.7076211  
   0.708964600     0.5399264    0.6361412  
   0.710964500     0.6267738    0.5507219  
   0.712964400     0.7006122    0.4531226  
   0.714964300     0.7593513    0.3449931  
   0.716964200     0.8012878    0.2293308  
   0.718964100     0.8254808    0.1088203  
   0.720964000     0.8318638   -0.0140079  
   0.722963900     0.8194839   -0.1363663  
   0.724963800     0.7893698   -0.2559276  
   0.726963700     0.7415682   -0.3698300  
   0.728963600     0.6772605   -0.4757595  
   0.730963500     0.5976003   -0.5710889  
   0.732963400     0.5042171   -0.6536513  
   0.734963300     0.3988588   -0.7212793  
   0.736963200     0.2673419   -0.7786545  
   0.738963100     0.1270887   -0.8122389  
   0.740963000    -0.0166780   -0.8203197  
   0.742962900    -0.1589892   -0.8028236  
   0.744962800    -0.2956695   -0.7604946  
   0.746962700    -0.4222291   -0.6946905  
   0.748962600    -0.5346919   -0.6080114  
   0.750962500    -0.4528926   -0.6789129  
   0.752962400    -0.5625641   -0.5888067  
   0.754962300    -0.6543350   -0.4816039  
   0.756962200    -0.7253634   -0.3603136  
   0.758962100    -0.7739763   -0.2295291  
   0.760962000    -0.7992321   -0.0932069  
   0.762961900    -0.8013792    0.0386827  
   0.764961800    -0.7851307    0.1568508  
   0.766961700    -0.7518734    0.2709788  
   0.768961600    -0.7024266    0.3779460  
   0.770961500    -0.6383011    0.4762624  
   0.772961400    -0.5610479    0.5633630  
   0.774961300    -0.4726903    0.6380699  
   0.776961200    -0.3745961    0.6989985  
   0.778961100    -0.2688757    0.7448655  
   0.780961000    -0.1573121    0.7754312  
   0.782960900    -0.0425893    0.7895162  
   0.784960800     0.0737682    0.7868358  
   0.786960700     0.1885739    0.7671719  
   0.788960600     0.2998775    0.7312806  
   0.790960500     0.4049529    0.6794778  
   0.792960400     0.5017460    0.6126931  
   0.794960300     0.5876958    0.5322942  
   0.796960200     0.6609963    0.4401934  
   0.798960100     0.7201542    0.3381359  
   0.800960000     0.7638782    0.2280702  
   0.802959900     0.7909778    0.1124562  
   0.804959800     0.8007945   -0.0060253  
   0.806959700     0.7932043   -0.1249084  
   0.808959600     0.7676567   -0.2421361  
   0.810959500     0.7253529   -0.3546171  
   0.812959400     0.6662593   -0.4600135  
   0.814959300     0.5917013   -0.5555287  
   0.816959200     0.5036575   -0.6392470  
   0.818959100     0.4038247   -0.7089198  
   0.820959000     0.2941033   -0.7628535  
   0.822958900     0.1778006   -0.8001081  
   0.824958800     0.0567667   -0.8191914  
   0.826958700    -0.0659682   -0.8200057  
   0.828958600    -0.1870898   -0.8021038  
   0.830958500    -0.3038448   -0.7665452  
   0.832958400    -0.4139529   -0.7138070  
   0.834958300    -0.5142775   -0.6456540  
   0.836958200    -0.6031195   -0.5637278  
   0.838958100    -0.6785965   -0.4698993  
   0.840958000    -0.7395245   -0.3661350  
   0.842957900    -0.7839911   -0.2547716  
   0.844957800    -0.8116247   -0.1387836  
   0.846957700    -0.8219017   -0.0198185  
   0.848957600    -0.8150421    0.0989170  
   0.850957500    -0.7906294    0.2149181  
   0.852957400    -0.7494714    0.3263428  
   0.854957300    -0.6928482    0.4298532  
   0.856957200    -0.6220216    0.5244050  
   0.858957100    -0.5386163    0.6070200  
   0.860957000    -0.4443230    0.6759567  
   0.862956900    -0.3416735    0.7308056  
   0.864956800    -0.2329622    0.7697584  
   0.866956700    -0.1200384    0.7925961  
   0.868956600    -0.0050644    0.7988945  
   0.870956500     0.1097992    0.7889302  
   0.872956400     0.2221992    0.7624026  
   0.874956300     0.3303536    0.7197702  
   0.876956200     0.4319241    0.6613173  
   0.878956100     0.5243827    0.5883062  
   0.880956000     0.6057540    0.5016299  
   0.882955900     0.6733857    0.4034266  
   0.884955800     0.7258994    0.2955958  
   0.886955700     0.7615452    0.1803592  
   0.888955600     0.7791535    0.0607020  
   0.890955500     0.7783887   -0.0608601  
   0.892955400     0.7590786   -0.1811326  
   0.894955300     0.7211120   -0.2970397  
