! MS46122B
! 2250307/22442219
! 6/13/2025 3:28:58 PM
! C:\USERS\SPARKY\DOCUMENTS\VNA_DATA\JUNE13_2025\3.2K\PORT3_MOS2.S1P
! CHANNEL.1
! TR.MEASUREMENT
! RAW.DATA
# GHZ S RI R 50.0
! FREQ.GHZ         S11RE         S11IM         
!; PortSelection: Port_1
   0.001000000    -0.9295639    0.0515445  
   0.002999900    -0.9028487    0.2547701  
   0.004999800    -0.8661330    0.4016546  
   0.006999700    -0.8020268    0.5339829  
   0.008999600    -0.7140281    0.6495647  
   0.010999500    -0.6056139    0.7462502  
   0.012999400    -0.4816268    0.8220632  
   0.014999300    -0.3460757    0.8754502  
   0.016999200    -0.2040025    0.9066926  
   0.018999100    -0.0589524    0.9161754  
   0.020999000     0.0852730    0.9038466  
   0.022998900     0.2252368    0.8716083  
   0.024998800     0.3299735    0.8002236  
   0.026998700     0.4816380    0.7508071  
   0.028998600     0.5930921    0.6654577  
   0.030998500     0.6904727    0.5655844  
   0.032998400     0.7366114    0.4521841  
   0.034998300     0.8348075    0.3294972  
   0.036998200     0.8785143    0.1979346  
   0.038998100     0.9011212    0.0607420  
   0.040998000     0.9019238   -0.0784741  
   0.042997900     0.8805532   -0.2161436  
   0.044997800     0.8149801   -0.3228094  
   0.046997700     0.7740536   -0.4731769  
   0.048997600     0.6919059   -0.5858455  
   0.050997500     0.5932984   -0.6839435  
   0.052997400     0.4824309   -0.7651263  
   0.054997300     0.3594518   -0.8289012  
   0.056997200     0.2286779   -0.8732566  
   0.058997100     0.0938558   -0.8974496  
   0.060997000    -0.0424157   -0.9010826  
   0.062996900    -0.1773545   -0.8843964  
   0.064996800    -0.3079675   -0.8474228  
   0.066996700    -0.4313197   -0.7916207  
   0.068996600    -0.5445995   -0.7178694  
   0.070996500    -0.6449894   -0.6280534  
   0.072996400    -0.7308487   -0.5241535  
   0.074996300    -0.7996127   -0.4086102  
   0.076996200    -0.8499598   -0.2841101  
   0.078996100    -0.8808041   -0.1534784  
   0.080996000    -0.8917722   -0.0195161  
   0.082995900    -0.8823736    0.1143603  
   0.084995800    -0.8527377    0.2453990  
   0.086995700    -0.8034639    0.3707993  
   0.088995600    -0.7359290    0.4873905  
   0.090995500    -0.6511493    0.5925467  
   0.092995400    -0.5508971    0.6838427  
   0.094995300    -0.4379608    0.7588879  
   0.096995200    -0.3137795    0.8156381  
   0.098995100    -0.1821927    0.8527877  
   0.100995000    -0.0461375    0.8687727  
   0.102994900     0.0911749    0.8625076  
   0.104994800     0.2259017    0.8351173  
   0.106994700     0.3549856    0.7864425  
   0.108994600     0.4748931    0.7181226  
   0.110994500     0.5825297    0.6314330  
   0.112994400     0.6750607    0.5287151  
   0.114994300     0.7499152    0.4124655  
   0.116994200     0.8053691    0.2856345  
   0.118994100     0.8398887    0.1518784  
   0.120994000     0.8526407    0.0145994  
   0.122993900     0.8431336   -0.1227602  
   0.124993800     0.8124267   -0.2563812  
   0.126993700     0.7608150   -0.3832024  
   0.128993600     0.6901591   -0.4998852  
   0.130993500     0.6022906   -0.6033744  
   0.132993400     0.4995454   -0.6911353  
   0.134993300     0.3850221   -0.7617472  
   0.136993200     0.2615539   -0.8132862  
   0.138993100     0.1322302   -0.8446631  
   0.140993000     0.0005439   -0.8558046  
   0.142992900    -0.1310849   -0.8468994  
   0.144992800    -0.2588394   -0.8180975  
   0.146992700    -0.3802966   -0.7703187  
   0.148992600    -0.4923686   -0.7051165  
   0.150992500    -0.5932605   -0.6242278  
   0.152992400    -0.6802531   -0.5290913  
   0.154992300    -0.7520378   -0.4230745  
   0.156992200    -0.8069400   -0.3072807  
   0.158992100    -0.8444162   -0.1853483  
   0.160992000    -0.8630117   -0.0590834  
   0.162991900    -0.8626118    0.0682400  
   0.164991800    -0.8438248    0.1943234  
   0.166991700    -0.8063775    0.3159358  
   0.168991600    -0.7516174    0.4307774  
   0.170991500    -0.6800735    0.5368953  
   0.172991400    -0.5938215    0.6309512  
   0.174991300    -0.4941981    0.7113627  
   0.176991200    -0.3832370    0.7763399  
   0.178991100    -0.2631351    0.8241812  
   0.180991000    -0.1373231    0.8539056  
   0.182990900    -0.0080421    0.8641197  
   0.184990800     0.1223918    0.8547011  
   0.186990700     0.2509169    0.8258431  
   0.188990600     0.3500724    0.7875626  
   0.190990500     0.4832835    0.7122236  
   0.192990400     0.5890694    0.6259406  
   0.194990300     0.6780452    0.5266440  
   0.196990200     0.7504491    0.4146055  
   0.198990100     0.8047831    0.2924568  
   0.200990000     0.8393876    0.1623802  
   0.202989900     0.8530866    0.0280326  
   0.204989800     0.8457364   -0.1071783  
   0.206989700     0.8167001   -0.2391540  
   0.208989600     0.7677306   -0.3648047  
   0.210989500     0.6988019   -0.4815426  
   0.212989400     0.6122460   -0.5861129  
   0.214989300     0.5097423   -0.6752340  
   0.216989200     0.3954472   -0.7467737  
   0.218989100     0.2715246   -0.7986775  
   0.220989000     0.1410762   -0.8305165  
   0.222988900     0.0070272   -0.8412898  
   0.224988800    -0.1267012   -0.8304448  
   0.226988700    -0.2560586   -0.7985088  
   0.228988600    -0.3782182   -0.7470888  
   0.230988500    -0.4903081   -0.6774430  
   0.232988400    -0.5896713   -0.5912876  
   0.234988300    -0.6741683   -0.4903921  
   0.236988200    -0.7416613   -0.3781663  
   0.238988100    -0.7903935   -0.2567937  
   0.240988000    -0.8195450   -0.1304843  
   0.242987900    -0.8287477   -0.0019596  
   0.244987800    -0.8178037    0.1260488  
   0.246987700    -0.7871978    0.2508282  
   0.248987600    -0.7373349    0.3698902  
   0.250987500    -0.6700386    0.4795150  
   0.252987400    -0.5867087    0.5768367  
   0.254987300    -0.4900661    0.6598176  
   0.256987200    -0.3820500    0.7268037  
   0.258987100    -0.2651013    0.7766508  
   0.260987000    -0.1412682    0.8079617  
   0.262986900    -0.0138755    0.8197448  
   0.264986800     0.1143144    0.8118681  
   0.266986700     0.2396613    0.7840618  
   0.268986600     0.3592514    0.7374785  
   0.270986500     0.4699033    0.6732621  
   0.272986400     0.5695237    0.5922620  
   0.274986300     0.6555681    0.4971564  
   0.276986200     0.7261613    0.3892596  
   0.278986100     0.7793891    0.2713266  
   0.280986000     0.8138460    0.1458057  
   0.282985900     0.8283490    0.0164115  
   0.284985800     0.8225837   -0.1141488  
   0.286985700     0.7961113   -0.2421024  
   0.288985600     0.7503135   -0.3637204  
   0.290985500     0.6863161   -0.4764795  
   0.292985400     0.6059285   -0.5779417  
   0.294985300     0.5107784   -0.6656064  
   0.296985200     0.4024404   -0.7379098  
   0.298985100     0.2838393   -0.7925569  
   0.300985000     0.1580523   -0.8280359  
   0.302984900     0.0283896   -0.8435348  
   0.304984800    -0.1014830   -0.8385071  
   0.306984700    -0.2286915   -0.8134928  
   0.308984600    -0.3492155   -0.7695767  
   0.310984500    -0.4609745   -0.7083317  
   0.312984400    -0.5619444   -0.6310149  
   0.314984300    -0.6493973   -0.5395703  
   0.316984200    -0.7220980   -0.4361240  
   0.318984100    -0.7782531   -0.3221621  
   0.320984000    -0.8166500   -0.2005398  
   0.322983900    -0.8364138   -0.0748988  
   0.324983800    -0.8361003    0.0526236  
   0.326983700    -0.8164192    0.1779575  
   0.328983600    -0.7782953    0.2986177  
   0.330983500    -0.7220551    0.4116284  
   0.332983400    -0.6499512    0.5141397  
   0.334983300    -0.5634782    0.6044136  
   0.336983200    -0.4642155    0.6808499  
   0.338983100    -0.3542472    0.7411969  
   0.340983000    -0.2367631    0.7838430  
   0.342982900    -0.1135765    0.8085486  
   0.344982800     0.0125749    0.8140337  
   0.346982700     0.1391014    0.7999209  
   0.348982600     0.2624295    0.7660920  
   0.350982500     0.3792971    0.7133866  
   0.352982400     0.4868501    0.6426281  
   0.354982300     0.5859163    0.5519195  
   0.356982200     0.6759093    0.4342214  
   0.358982100     0.7433798    0.3021041  
   0.360982000     0.7859699    0.1603465  
   0.362981900     0.8022127    0.0132958  
   0.364981800     0.7911763   -0.1346962  
   0.366981700     0.7534965   -0.2786303  
   0.368981600     0.6902318   -0.4134779  
   0.370981500     0.6030989   -0.5346161  
   0.372981400     0.4950266   -0.6376210  
   0.374981300     0.3692608   -0.7195140  
   0.376981200     0.4646082   -0.6539276  
   0.378981100     0.3364957   -0.7299618  
   0.380981000     0.1966543   -0.7813748  
   0.382980900     0.0633156   -0.8048619  
   0.384980800    -0.0658911   -0.8062653  
   0.386980700    -0.1934856   -0.7875394  
   0.388980600    -0.3158032   -0.7486020  
   0.390980500    -0.4293129   -0.6916591  
   0.392980400    -0.5319746   -0.6181926  
   0.394980300    -0.6209928   -0.5311393  
   0.396980200    -0.6954616   -0.4318747  
   0.398980100    -0.7537612   -0.3231538  
   0.400980000    -0.7945746   -0.2075204  
   0.402979900    -0.8177988   -0.0872625  
   0.404979800    -0.8225426    0.0342200  
   0.406979700    -0.8096602    0.1544169  
   0.408979600    -0.7792062    0.2708951  
   0.410979500    -0.7313367    0.3823238  
   0.412979400    -0.6677047    0.4856071  
   0.414979300    -0.5891155    0.5789307  
   0.416979200    -0.4978364    0.6591683  
   0.418979100    -0.3956522    0.7248861  
   0.420979000    -0.2844329    0.7749707  
   0.422978900    -0.1668155    0.8078907  
   0.424978800    -0.0446271    0.8230581  
   0.426978700     0.0788125    0.8194990  
   0.428978600     0.2008408    0.7976372  
   0.430978500     0.3181281    0.7572495  
   0.432978400     0.4279673    0.6994802  
   0.434978300     0.5281098    0.6253357  
   0.436978200     0.6161064    0.5365901  
   0.438978100     0.6899287    0.4345461  
   0.440978000     0.7471455    0.3217169  
   0.442977900     0.7864051    0.2007131  
   0.444977800     0.8062649    0.0746735  
   0.446977700     0.8059459   -0.0536436  
   0.448977600     0.7851217   -0.1806865  
   0.450977500     0.7441543   -0.3029074  
   0.452977400     0.6841657   -0.4180354  
   0.454977300     0.6052357   -0.5227917  
   0.456977200     0.5097117   -0.6136214  
   0.458977100     0.4008324   -0.6877562  
   0.460977000     0.2808191   -0.7430315  
   0.462976900     0.1539450   -0.7777085  
   0.464976800     0.0233016   -0.7909994  
   0.466976700    -0.1075147   -0.7828565  
   0.468976600    -0.2348588   -0.7536157  
   0.470976500    -0.3549738   -0.7042221  
   0.472976400    -0.4654901   -0.6360883  
   0.474976300    -0.5626909   -0.5514823  
   0.476976200    -0.6444507   -0.4525943  
   0.478976100    -0.7089120   -0.3434489  
   0.480976000    -0.7546117   -0.2261832  
   0.482975900    -0.7811984   -0.1045696  
   0.484975800    -0.7883465    0.0188088  
   0.486975700    -0.7763795    0.1418813  
   0.488975600    -0.7459012    0.2608207  
   0.490975500    -0.6972273    0.3730335  
   0.492975400    -0.6325436    0.4764231  
   0.494975300    -0.5529790    0.5685208  
   0.496975200    -0.4599954    0.6473243  
   0.498975100    -0.3570488    0.7106051  
   0.500975000    -0.2458052    0.7577270  
   0.502974900    -0.1291804    0.7874480  
   0.504974800    -0.0090426    0.7992452  
   0.506974700     0.1120118    0.7924868  
   0.508974600     0.2315744    0.7671769  
   0.510974500     0.3461018    0.7240503  
   0.512974400     0.4528672    0.6637306  
   0.514974300     0.5490147    0.5881183  
   0.516974200     0.6331400    0.4984618  
   0.518974100     0.7021739    0.3970605  
   0.520974000     0.7551488    0.2858047  
   0.522973900     0.7905080    0.1671219  
   0.524973800     0.8073295    0.0446697  
   0.526973700     0.8052229   -0.0801033  
   0.528973600     0.7836635   -0.2031720  
   0.530973500     0.7427122   -0.3220435  
   0.532973400     0.6840482   -0.4335187  
   0.534973300     0.6082477   -0.5346804  
   0.536973200     0.5174250   -0.6231482  
   0.538973100     0.4143145   -0.6959029  
   0.540973000     0.3007486   -0.7517083  
   0.542972900     0.1801088   -0.7888198  
   0.544972800     0.0551413   -0.8067142  
   0.546972700    -0.0716003   -0.8052619  
   0.548972600    -0.1970481   -0.7834758  
   0.550972500    -0.3170916   -0.7425380  
   0.552972400    -0.4295202   -0.6830309  
   0.554972300    -0.5311829   -0.6062456  
   0.556972200    -0.6192899   -0.5146344  
   0.558972100    -0.6915969   -0.4102732  
   0.560972000    -0.7466494   -0.2962804  
   0.562971900    -0.7829028   -0.1756684  
   0.564971800    -0.7995290   -0.0513862  
   0.566971700    -0.7964932    0.0733540  
   0.568971600    -0.7740806    0.1959065  
   0.570971500    -0.7331658    0.3132049  
   0.572971400    -0.6744099    0.4225002  
   0.574971300    -0.5990288    0.5214965  
   0.576971200    -0.5087672    0.6076214  
   0.578971100    -0.4060364    0.6787173  
   0.580971000    -0.2935210    0.7325330  
   0.582970900    -0.1741327    0.7678844  
   0.584970800    -0.0508380    0.7842839  
   0.586970700     0.0732777    0.7809688  
   0.588970600     0.1954462    0.7578872  
   0.590970500     0.3122610    0.7158454  
   0.592970400     0.4211958    0.6561258  
   0.594970300     0.5194453    0.5793950  
   0.596970200     0.6045764    0.4882769  
   0.598970100     0.6740211    0.3840226  
   0.600970000     0.7262674    0.2700589  
   0.602969900     0.7596166    0.1487837  
   0.604969800     0.7732086    0.0232410  
   0.606969700     0.7664997   -0.1031053  
   0.608969600     0.7393701   -0.2268575  
   0.610969500     0.6925137   -0.3453827  
   0.612969400     0.6270041   -0.4545301  
   0.614969300     0.5449636   -0.5513147  
   0.616969200     0.4488106   -0.6333525  
   0.618969100     0.3410997   -0.6985972  
   0.620969000     0.2255886   -0.7454134  
   0.622968900     0.1036379   -0.7732973  
   0.624968800    -0.0208620   -0.7822473  
   0.626968700    -0.1453009   -0.7706638  
   0.628968600    -0.2661537   -0.7401794  
   0.630968500    -0.3806661   -0.6911734  
   0.632968400    -0.4858189   -0.6252483  
   0.634968300    -0.5788672   -0.5435961  
   0.636968200    -0.6579636   -0.4489186  
   0.638968100    -0.7212530   -0.3434102  
   0.640968000    -0.7671753   -0.2301660  
   0.642967900    -0.7954279   -0.1110254  
   0.644967800    -0.8052636    0.0102953  
   0.646967700    -0.7962602    0.1313149  
   0.648967600    -0.7690042    0.2487814  
   0.650967500    -0.7252386    0.3607071  
   0.652967400    -0.6651325    0.4640470  
   0.654967300    -0.5904735    0.5572324  
   0.656967200    -0.5031776    0.6381548  
   0.658967100    -0.4044936    0.7050121  
   0.660967000    -0.2968870    0.7566755  
   0.662966900    -0.1820018    0.7915812  
   0.664966800    -0.0627968    0.8092068  
   0.666966700     0.0590296    0.8088858  
   0.668966600     0.1790020    0.7896733  
   0.670966500     0.2955650    0.7523823  
   0.672966400     0.4051223    0.6969813  
   0.674966300     0.5052102    0.6262126  
   0.676966200     0.5937093    0.5403937  
   0.678966100     0.6675715    0.4419931  
   0.680966000     0.7259168    0.3328765  
   0.682965900     0.7665124    0.2159098  
   0.684965800     0.7887571    0.0937874  
   0.686965700     0.7913536   -0.0312393  
   0.688965600     0.7744018   -0.1552180  
   0.690965500     0.7378324   -0.2753710  
   0.692965400     0.6827688   -0.3885425  
   0.694965300     0.6107492   -0.4914301  
   0.696965200     0.5226212   -0.5818654  
   0.698965100     0.4211917   -0.6569706  
   0.700965000     0.3089579   -0.7149982  
   0.702964900     0.1887609   -0.7542587  
   0.704964800     0.0638099   -0.7741191  
   0.706964700    -0.0626004   -0.7730904  
   0.708964600    -0.1868393   -0.7519887  
   0.710964500    -0.3063139   -0.7112273  
   0.712964400    -0.4170588   -0.6518732  
   0.714964300    -0.5163832   -0.5757441  
   0.716964200    -0.6017414   -0.4853757  
   0.718964100    -0.6710986   -0.3836665  
   0.720964000    -0.7231856   -0.2729172  
   0.722963900    -0.7570943   -0.1563444  
   0.724963800    -0.7730443   -0.0365950  
   0.726963700    -0.7696292    0.0834596  
   0.728963600    -0.7484479    0.2013353  
   0.730963500    -0.7091970    0.3139610  
   0.732963400    -0.6536146    0.4189717  
   0.734963300    -0.5828509    0.5140057  
   0.736963200    -0.4839581    0.6078938  
   0.738963100    -0.3691376    0.6839437  
   0.740963000    -0.2426324    0.7387245  
   0.742962900    -0.1081995    0.7708039  
   0.744962800     0.0300147    0.7792071  
   0.746962700     0.1681101    0.7634830  
   0.748962600     0.3018461    0.7234554  
   0.750962500     0.1695749    0.7631215  
   0.752962400     0.3022573    0.7214666  
   0.754962300     0.4257991    0.6574115  
   0.756962200     0.5366583    0.5721569  
   0.758962100     0.6308914    0.4684628  
   0.760962000     0.7059308    0.3494949  
   0.762961900     0.7570264    0.2252857  
   0.764961800     0.7842925    0.1064585  
   0.766961700     0.7927414   -0.0155461  
   0.768961600     0.7821716   -0.1383900  
   0.770961500     0.7527202   -0.2579272  
   0.772961400     0.7050614   -0.3721941  
   0.774961300     0.6400877   -0.4774711  
   0.776961200     0.5586336   -0.5717961  
   0.778961100     0.4633428   -0.6528428  
   0.780961000     0.3560582   -0.7179443  
   0.782960900     0.2390605   -0.7654281  
   0.784960800     0.1159158   -0.7942098  
   0.786960700    -0.0108762   -0.8024753  
   0.788960600    -0.1373313   -0.7908571  
   0.790960500    -0.2600073   -0.7591340  
   0.792960400    -0.3756181   -0.7081073  
   0.794960300    -0.4810957   -0.6398157  
   0.796960200    -0.5742972   -0.5559732  
   0.798960100    -0.6525477   -0.4589643  
   0.800960000    -0.7141154   -0.3517865  
   0.802959900    -0.7580398   -0.2365842  
   0.804959800    -0.7833918   -0.1168460  
   0.806959700    -0.7899263    0.0047110  
   0.808959600    -0.7776172    0.1251982  
   0.810959500    -0.7469187    0.2417385  
   0.812959400    -0.6988577    0.3515419  
   0.814959300    -0.6353318    0.4523301  
   0.816959200    -0.5569623    0.5418508  
   0.818959100    -0.4661766    0.6183851  
   0.820959000    -0.3648479    0.6800058  
   0.822958900    -0.2557008    0.7256539  
   0.824958800    -0.1407380    0.7540722  
   0.826958700    -0.0230199    0.7645147  
   0.828958600     0.0953757    0.7567338  
   0.830958500     0.2110686    0.7313114  
   0.832958400     0.3216293    0.6882452  
   0.834958300     0.4245001    0.6288182  
   0.836958200     0.5168554    0.5542262  
   0.838958100     0.5972407    0.4660638  
   0.840958000     0.6633001    0.3657782  
   0.842957900     0.7130488    0.2563401  
   0.844957800     0.7457104    0.1395377  
   0.846957700     0.7596303    0.0187990  
   0.848957600     0.7542228   -0.1033408  
   0.850957500     0.7291887   -0.2232611  
   0.852957400     0.6855140   -0.3382523  
   0.854957300     0.6239439   -0.4450026  
   0.856957200     0.5460147   -0.5406211  
   0.858957100     0.4538549   -0.6228763  
   0.860957000     0.3500214   -0.6889744  
   0.862956900     0.2372108   -0.7380029  
   0.864956800     0.1188879   -0.7684396  
   0.866956700    -0.0025410   -0.7801198  
   0.868956600    -0.1237461   -0.7728772  
   0.870956500    -0.2422221   -0.7465590  
   0.872956400    -0.3551290   -0.7024986  
   0.874956300    -0.4592181   -0.6418049  
   0.876956200    -0.5527377   -0.5658382  
   0.878956100    -0.6335067   -0.4765449  
   0.880956000    -0.6991602   -0.3761756  
   0.882955900    -0.7487071   -0.2673261  
   0.884955800    -0.7808709   -0.1525329  
   0.886955700    -0.7952725   -0.0341763  
   0.888955600    -0.7916481    0.0841701  
   0.890955500    -0.7705365    0.2006385  
   0.892955400    -0.7320550    0.3117912  
   0.894955300    -0.6775426    0.4161816  
