! MS46122B
! 2250307/22442219
! 6/18/2025 7:53:03 AM
! C:\USERS\SPARKY\DOCUMENTS\VNA_DATA\JUNE18_2025\3.0K\PORT4_MOS6.S1P
! CHANNEL.1
! TR.MEASUREMENT
! RAW.DATA
# GHZ S RI R 50.0
! FREQ.GHZ         S11RE         S11IM         
!; PortSelection: Port_1
   0.001000000     1.0233500   -0.0583165  
   0.002999900     0.9328610   -0.2180694  
   0.004999800     0.8658680   -0.3627865  
   0.006999700     0.7859390   -0.4964968  
   0.008999600     0.6901441   -0.6109642  
   0.010999500     0.5824558   -0.7115836  
   0.012999400     0.4643779   -0.7975904  
   0.014999300     0.3367296   -0.8669297  
   0.016999200     0.2007593   -0.9168044  
   0.018999100     0.0593506   -0.9455845  
   0.020999000    -0.0853107   -0.9514276  
   0.022998900    -0.2290775   -0.9335347  
   0.024998800    -0.3432181   -0.8691524  
   0.026998700    -0.5008351   -0.8262169  
   0.028998600    -0.6205432   -0.7388613  
   0.030998500    -0.7245522   -0.6324890  
   0.032998400    -0.7773340   -0.5079534  
   0.034998300    -0.8757801   -0.3753403  
   0.036998200    -0.9189447   -0.2321221  
   0.038998100    -0.9389167   -0.0844044  
   0.040998000    -0.9364223    0.0642948  
   0.042997900    -0.9111875    0.2100344  
   0.044997800    -0.8439444    0.3229084  
   0.046997700    -0.7965440    0.4804627  
   0.048997600    -0.7099733    0.5994486  
   0.050997500    -0.6056315    0.7034803  
   0.052997400    -0.4886004    0.7886036  
   0.054997300    -0.3542882    0.8563936  
   0.056997200    -0.2129453    0.9010974  
   0.058997100    -0.0662324    0.9221666  
   0.060997000     0.0818847    0.9191963  
   0.062996900     0.2279097    0.8925650  
   0.064996800     0.3677471    0.8427515  
   0.066996700     0.4979353    0.7715213  
   0.068996600     0.6149366    0.6803746  
   0.070996500     0.7158533    0.5716826  
   0.072996400     0.7986240    0.4488968  
   0.074996300     0.8606154    0.3145894  
   0.076996200     0.9003730    0.1722390  
   0.078996100     0.9170210    0.0256546  
   0.080996000     0.9102445   -0.1213513  
   0.082995900     0.8800144   -0.2650584  
   0.084995800     0.8279846   -0.4018141  
   0.086995700     0.7548208   -0.5278174  
   0.088995600     0.6633396   -0.6405403  
   0.090995500     0.5556199   -0.7368515  
   0.092995400     0.4347200   -0.8148721  
   0.094995300     0.3037663   -0.8731595  
   0.096995200     0.1659300   -0.9104258  
   0.098995100     0.0247175   -0.9256572  
   0.100995000    -0.1166353   -0.9194432  
   0.102994900    -0.2551539   -0.8917193  
   0.104994800    -0.3870575   -0.8437349  
   0.106994700    -0.5100525   -0.7765487  
   0.108994600    -0.6214280   -0.6915214  
   0.110994500    -0.7182208   -0.5912758  
   0.112994400    -0.7987497   -0.4775214  
   0.114994300    -0.8613263   -0.3530123  
   0.116994200    -0.9041045   -0.2206002  
   0.118994100    -0.9264974   -0.0833202  
   0.120994000    -0.9282846    0.0557562  
   0.122993900    -0.9085498    0.1938743  
   0.124993800    -0.8685344    0.3276467  
   0.126993700    -0.8086241    0.4538479  
   0.128993600    -0.7298369    0.5700098  
   0.130993500    -0.6342809    0.6732093  
   0.132993400    -0.5234817    0.7609388  
   0.134993300    -0.4000918    0.8309290  
   0.136993200    -0.2667403    0.8808548  
   0.138993100    -0.1265728    0.9095511  
   0.140993000     0.0167818    0.9162529  
   0.142992900     0.1603404    0.9005442  
   0.144992800     0.3002942    0.8620742  
   0.146992700     0.4324079    0.8014748  
   0.148992600     0.5538088    0.7202638  
   0.150992500     0.6608856    0.6206099  
   0.152992400     0.7507675    0.5044671  
   0.154992300     0.8205390    0.3756444  
   0.156992200     0.8692140    0.2363229  
   0.158992100     0.8942119    0.0913332  
   0.160992000     0.8956056   -0.0560094  
   0.162991900     0.8728893   -0.2010898  
   0.164991800     0.8267717   -0.3410362  
   0.166991700     0.7590812   -0.4706073  
   0.168991600     0.6713342   -0.5870945  
   0.170991500     0.5662897   -0.6878619  
   0.172991400     0.4466857   -0.7698522  
   0.174991300     0.3165385   -0.8310059  
   0.176991200     0.1784650   -0.8706133  
   0.178991100     0.0365491   -0.8873622  
   0.180991000    -0.1050413   -0.8814485  
   0.182990900    -0.2430653   -0.8535900  
   0.184990800    -0.3746277   -0.8043137  
   0.186990700    -0.4957624   -0.7354285  
   0.188990600    -0.5853564   -0.6662370  
   0.190990500    -0.6945370   -0.5507606  
   0.192990400    -0.7725331   -0.4338129  
   0.194990300    -0.8296996   -0.3100041  
   0.196990200    -0.8669781   -0.1802665  
   0.198990100    -0.8840159   -0.0468241  
   0.200990000    -0.8807622    0.0875710  
   0.202989900    -0.8573114    0.2197507  
   0.204989800    -0.8141989    0.3463826  
   0.206989700    -0.7530179    0.4643873  
   0.208989600    -0.6750531    0.5717912  
   0.210989500    -0.5815037    0.6665874  
   0.212989400    -0.4746128    0.7467452  
   0.214989300    -0.3569132    0.8099208  
   0.216989200    -0.2313664    0.8543724  
   0.218989100    -0.1007344    0.8799188  
   0.220989000     0.0329007    0.8853962  
   0.222988900     0.1666612    0.8705903  
   0.224988800     0.2970974    0.8356875  
   0.226988700     0.4206598    0.7814428  
   0.228988600     0.5346380    0.7090490  
   0.230988500     0.6367902    0.6200061  
   0.232988400     0.7247224    0.5160518  
   0.234988300     0.7954711    0.3991347  
   0.236988200     0.8482627    0.2720569  
   0.238988100     0.8807359    0.1383760  
   0.240988000     0.8918770    0.0011228  
   0.242987900     0.8820766   -0.1359552  
   0.244987800     0.8508577   -0.2701564  
   0.246987700     0.7991188   -0.3983795  
   0.248987600     0.7278107   -0.5178042  
   0.250987500     0.6387401   -0.6244122  
   0.252987400     0.5341073   -0.7157387  
   0.254987300     0.4172266   -0.7892960  
   0.256987200     0.2905431   -0.8433626  
   0.258987100     0.1571644   -0.8773925  
   0.260987000     0.0201034   -0.8902411  
   0.262986900    -0.1175410   -0.8815731  
   0.264986800    -0.2518805   -0.8511650  
   0.266986700    -0.3796202   -0.8006313  
   0.268986600    -0.4973891   -0.7311268  
   0.270986500    -0.6020724   -0.6449712  
   0.272986400    -0.6920038   -0.5439824  
   0.274986300    -0.7650359   -0.4310637  
   0.276986200    -0.8197564   -0.3079827  
   0.278986100    -0.8546971   -0.1782251  
   0.280986000    -0.8693882   -0.0442737  
   0.282985900    -0.8630283    0.0901049  
   0.284985800    -0.8362741    0.2216475  
   0.286985700    -0.7896722    0.3471229  
   0.288985600    -0.7248765    0.4627838  
   0.290985500    -0.6433750    0.5667361  
   0.292985400    -0.5473357    0.6568831  
   0.294985300    -0.4384609    0.7313316  
   0.296985200    -0.3192444    0.7888073  
   0.298985100    -0.1915909    0.8272951  
   0.300985000    -0.0592850    0.8452878  
   0.302984900     0.0742381    0.8425983  
   0.304984800     0.2056516    0.8191616  
   0.306984700     0.3317455    0.7755969  
   0.308984600     0.4493022    0.7132958  
   0.310984500     0.5555575    0.6336349  
   0.312984400     0.6481393    0.5382049  
   0.314984300     0.7246489    0.4297683  
   0.316984200     0.7837041    0.3104328  
   0.318984100     0.8237602    0.1821816  
   0.320984000     0.8434435    0.0488451  
   0.322983900     0.8416514   -0.0867496  
   0.324983800     0.8182546   -0.2202000  
   0.326983700     0.7741824   -0.3484162  
   0.328983600     0.7105082   -0.4677337  
   0.330983500     0.6288813   -0.5752356  
   0.332983400     0.5319600   -0.6680613  
   0.334983300     0.4223485   -0.7445484  
   0.336983200     0.3020533   -0.8027062  
   0.338983100     0.1745716   -0.8414705  
   0.340983000     0.0431272   -0.8598325  
   0.342982900    -0.0893114   -0.8579706  
   0.344982800    -0.2199625   -0.8353336  
   0.346982700    -0.3459218   -0.7926602  
   0.348982600    -0.4637916   -0.7312751  
   0.350982500    -0.5705687   -0.6527150  
   0.352982400    -0.6635704   -0.5585706  
   0.354982300    -0.7439150   -0.4463668  
   0.356982200    -0.8100303   -0.3085559  
   0.358982100    -0.8503697   -0.1625026  
   0.360982000    -0.8642792   -0.0132984  
   0.362981900    -0.8518714    0.1354452  
   0.364981800    -0.8138052    0.2791341  
   0.366981700    -0.7520576    0.4132251  
   0.368981600    -0.6682334    0.5343938  
   0.370981500    -0.5655357    0.6389254  
   0.372981400    -0.4462180    0.7241488  
   0.374981300    -0.3140202    0.7879784  
   0.376981200    -0.4350120    0.7377850  
   0.378981100    -0.2979485    0.7999518  
   0.380981000    -0.1522778    0.8369035  
   0.382980900    -0.0161969    0.8480468  
   0.384980800     0.1144575    0.8382592  
   0.386980700     0.2425251    0.8083321  
   0.388980600     0.3641542    0.7584980  
   0.390980500     0.4769303    0.6906133  
   0.392980400     0.5773818    0.6056378  
   0.394980300     0.6634257    0.5064283  
   0.396980200     0.7328851    0.3944983  
   0.398980100     0.7841484    0.2729643  
   0.400980000     0.8156909    0.1442818  
   0.402979900     0.8264096    0.0123169  
   0.404979800     0.8161968   -0.1199528  
   0.406979700     0.7849184   -0.2489104  
   0.408979600     0.7333554   -0.3711345  
   0.410979500     0.6629848   -0.4841765  
   0.412979400     0.5746533   -0.5847798  
   0.414979300     0.4717860   -0.6698707  
   0.416979200     0.3563491   -0.7372185  
   0.418979100     0.2322439   -0.7848421  
   0.420979000     0.1027178   -0.8120687  
   0.422978900    -0.0297651   -0.8181117  
   0.424978800    -0.1607610   -0.8028780  
   0.426978700    -0.2875837   -0.7669516  
   0.428978600    -0.4061260   -0.7120639  
   0.430978500    -0.5137966   -0.6397201  
   0.432978400    -0.6075745   -0.5523939  
   0.434978300    -0.6864686   -0.4521846  
   0.436978200    -0.7484993   -0.3421428  
   0.438978100    -0.7929264   -0.2246381  
   0.440978000    -0.8188648   -0.1021528  
   0.442977900    -0.8259364    0.0217724  
   0.444977800    -0.8146381    0.1450422  
   0.446977700    -0.7851269    0.2644255  
   0.448977600    -0.7387286    0.3777539  
   0.450977500    -0.6761169    0.4822991  
   0.452977400    -0.5986704    0.5769156  
   0.454977300    -0.5083764    0.6595994  
   0.456977200    -0.4061450    0.7276936  
   0.458977100    -0.2951259    0.7802983  
   0.460977000    -0.1774979    0.8157759  
   0.462976900    -0.0561757    0.8334111  
   0.464976800     0.0666072    0.8331431  
   0.466976700     0.1881567    0.8144322  
   0.468976600     0.3059948    0.7780792  
   0.470976500     0.4173730    0.7243012  
   0.472976400     0.5200256    0.6543081  
   0.474976300     0.6112705    0.5694888  
   0.476976200     0.6889936    0.4716339  
   0.478976100     0.7511386    0.3629650  
   0.480976000     0.7962660    0.2466496  
   0.482975900     0.8231640    0.1243224  
   0.484975800     0.8316967   -0.0010649  
   0.486975700     0.8209881   -0.1267129  
   0.488975600     0.7907675   -0.2500226  
   0.490975500     0.7417936   -0.3675220  
   0.492975400     0.6752610   -0.4768677  
   0.494975300     0.5920340   -0.5747864  
   0.496975200     0.4940442   -0.6588663  
   0.498975100     0.3846908   -0.7261918  
   0.500975000     0.2656589   -0.7756537  
   0.502974900     0.1402857   -0.8064433  
   0.504974800     0.0114719   -0.8164025  
   0.506974700    -0.1175724   -0.8063709  
   0.508974600    -0.2443502   -0.7756219  
   0.510974500    -0.3642731   -0.7253974  
   0.512974400    -0.4748158   -0.6565822  
   0.514974300    -0.5717500   -0.5719730  
   0.516974200    -0.6540722   -0.4734595  
   0.518974100    -0.7192073   -0.3639849  
   0.520974000    -0.7665358   -0.2458741  
   0.522973900    -0.7941052   -0.1226555  
   0.524973800    -0.8022122    0.0025455  
   0.526973700    -0.7909610    0.1275660  
   0.528973600    -0.7608104    0.2484897  
   0.530973500    -0.7120770    0.3631226  
   0.532973400    -0.6465960    0.4683572  
   0.534973300    -0.5659367    0.5620089  
   0.536973200    -0.4722573    0.6420116  
   0.538973100    -0.3681000    0.7064416  
   0.540973000    -0.2558337    0.7537234  
   0.542972900    -0.1381544    0.7835996  
   0.544972800    -0.0172026    0.7949950  
   0.546972700     0.1038762    0.7881091  
   0.548972600     0.2230016    0.7629213  
   0.550972500     0.3366400    0.7199710  
   0.552972400     0.4430415    0.6600577  
   0.554972300     0.5391129    0.5843688  
   0.556972200     0.6224714    0.4945447  
   0.558972100     0.6911640    0.3931618  
   0.560972000     0.7438576    0.2825291  
   0.562971900     0.7787396    0.1651464  
   0.564971800     0.7953585    0.0439660  
   0.566971700     0.7932948   -0.0781592  
   0.568971600     0.7727605   -0.1982818  
   0.570971500     0.7341224   -0.3142333  
   0.572971400     0.6782259   -0.4227922  
   0.574971300     0.6058608   -0.5223269  
   0.576971200     0.5189401   -0.6100762  
   0.578971100     0.4191350   -0.6836553  
   0.580971000     0.3098570   -0.7408976  
   0.582970900     0.1928220   -0.7808245  
   0.584970800     0.0718244   -0.8018790  
   0.586970700    -0.0504147   -0.8046520  
   0.588970600    -0.1717627   -0.7887217  
   0.590970500    -0.2884771   -0.7547719  
   0.592970400    -0.3987701   -0.7037653  
   0.594970300    -0.5001677   -0.6368198  
   0.596970200    -0.5897210   -0.5556905  
   0.598970100    -0.6664276   -0.4622415  
   0.600970000    -0.7279819   -0.3586195  
   0.602969900    -0.7731031   -0.2471510  
   0.604969800    -0.8014430   -0.1301879  
   0.606969700    -0.8119742   -0.0103040  
   0.608969600    -0.8042008    0.1097520  
   0.610969500    -0.7786243    0.2268510  
   0.612969400    -0.7361161    0.3389883  
   0.614969300    -0.6772327    0.4430695  
   0.616969200    -0.6039749    0.5373973  
   0.618969100    -0.5178977    0.6187774  
   0.620969000    -0.4212712    0.6865017  
   0.622968900    -0.3151390    0.7393503  
   0.624968800    -0.2025026    0.7758512  
   0.626968700    -0.0850996    0.7951989  
   0.628968600     0.0345849    0.7965424  
   0.630968500     0.1530941    0.7799819  
   0.632968400     0.2682534    0.7456610  
   0.634968300     0.3771294    0.6933631  
   0.636968200     0.4767740    0.6252293  
   0.638968100     0.5652313    0.5423347  
   0.640968000     0.6400448    0.4462512  
   0.642967900     0.6989459    0.3398736  
   0.644967800     0.7409325    0.2248197  
   0.646967700     0.7641639    0.1046329  
   0.648967600     0.7684347   -0.0173941  
   0.650967500     0.7533731   -0.1385247  
   0.652967400     0.7194137   -0.2554642  
   0.654967300     0.6673017   -0.3655174  
   0.656967200     0.5987977   -0.4659476  
   0.658967100     0.5153131   -0.5544186  
   0.660967000     0.4186291   -0.6289216  
   0.662966900     0.3109667   -0.6870478  
   0.664966800     0.1956447   -0.7279355  
   0.666966700     0.0746551   -0.7498606  
   0.668966600    -0.0479664   -0.7518058  
   0.670966500    -0.1691905   -0.7344773  
   0.672966400    -0.2852072   -0.6985570  
   0.674966300    -0.3935038   -0.6445794  
   0.676966200    -0.4915530   -0.5746990  
   0.678966100    -0.5767763   -0.4908125  
   0.680966000    -0.6477587   -0.3957086  
   0.682965900    -0.7026927   -0.2907551  
   0.684965800    -0.7404674   -0.1793975  
   0.686965700    -0.7609987   -0.0637135  
   0.688965600    -0.7635812    0.0530448  
   0.690965500    -0.7481986    0.1683514  
   0.692965400    -0.7157919    0.2797265  
   0.694965300    -0.6673619    0.3844209  
   0.696965200    -0.6038564    0.4801480  
   0.698965100    -0.5267030    0.5654981  
   0.700965000    -0.4377782    0.6382663  
   0.702964900    -0.3392053    0.6970479  
   0.704964800    -0.2323179    0.7402257  
   0.706964700    -0.1204594    0.7672366  
   0.708964600    -0.0049758    0.7771977  
   0.710964500     0.1109700    0.7696247  
   0.712964400     0.2246853    0.7448340  
   0.714964300     0.3340243    0.7026604  
   0.716964200     0.4353952    0.6450331  
   0.718964100     0.5268078    0.5724764  
   0.720964000     0.6065463    0.4869443  
   0.722963900     0.6720519    0.3905685  
   0.724963800     0.7220208    0.2849376  
   0.726963700     0.7560273    0.1724075  
   0.728963600     0.7725064    0.0558521  
   0.730963500     0.7712013   -0.0624856  
   0.732963400     0.7516033   -0.1796749  
   0.734963300     0.7140266   -0.2928908  
   0.736963200     0.6503834   -0.4153880  
   0.738963100     0.5649622   -0.5248257  
   0.740963000     0.4611580   -0.6172333  
   0.742962900     0.3424658   -0.6888393  
   0.744962800     0.2127358   -0.7373756  
   0.746962700     0.0767972   -0.7618642  
   0.748962600    -0.0609975   -0.7606091  
   0.750962500     0.0373513   -0.7590035  
   0.752962400    -0.1008013   -0.7528270  
   0.754962300    -0.2346783   -0.7209631  
   0.756962200    -0.3597603   -0.6656726  
   0.758962100    -0.4719936   -0.5887290  
   0.760962000    -0.5677494   -0.4930786  
   0.762961900    -0.6414988   -0.3877763  
   0.764961800    -0.6923990   -0.2819977  
   0.766961700    -0.7259367   -0.1704924  
   0.768961600    -0.7415093   -0.0557112  
   0.770961500    -0.7393956    0.0595306  
   0.772961400    -0.7196324    0.1718826  
   0.774961300    -0.6835817    0.2791841  
   0.776961200    -0.6313995    0.3792026  
   0.778961100    -0.5649299    0.4696590  
   0.780961000    -0.4856958    0.5489557  
   0.782960900    -0.3954656    0.6153921  
   0.784960800    -0.2958611    0.6671633  
   0.786960700    -0.1897614    0.7034351  
   0.788960600    -0.0792033    0.7232181  
   0.790960500     0.0327719    0.7264512  
   0.792960400     0.1442803    0.7121252  
   0.794960300     0.2520517    0.6809422  
   0.796960200     0.3538830    0.6343109  
   0.798960100     0.4471451    0.5724325  
   0.800960000     0.5302125    0.4970286  
   0.802959900     0.6010860    0.4098679  
   0.804959800     0.6578048    0.3125558  
   0.806959700     0.6992769    0.2076107  
   0.808959600     0.7240090    0.0973169  
   0.810959500     0.7319753   -0.0157454  
   0.812959400     0.7221627   -0.1295796  
   0.814959300     0.6951274   -0.2406272  
   0.816959200     0.6506886   -0.3467613  
   0.818959100     0.5906478   -0.4448595  
   0.820959000     0.5153407   -0.5330087  
   0.822958900     0.4272320   -0.6084167  
   0.824958800     0.3279786   -0.6691733  
   0.826958700     0.2205651   -0.7140219  
   0.828958600     0.1072428   -0.7411417  
   0.830958500    -0.0091185   -0.7501640  
   0.832958400    -0.1249960   -0.7410459  
   0.834958300    -0.2380510   -0.7142429  
   0.836958200    -0.3447274   -0.6701614  
   0.838958100    -0.4433944   -0.6101664  
   0.840958000    -0.5313023   -0.5361171  
   0.842957900    -0.6065614   -0.4492351  
   0.844957800    -0.6672702   -0.3521848  
   0.846957700    -0.7122550   -0.2473384  
   0.848957600    -0.7408059   -0.1370842  
   0.850957500    -0.7519418   -0.0241406  
   0.852957400    -0.7456176    0.0892032  
   0.854957300    -0.7222534    0.1994668  
   0.856957200    -0.6825763    0.3048797  
   0.858957100    -0.6274358    0.4025036  
   0.860957000    -0.5587833    0.4901887  
   0.862956900    -0.4779855    0.5660745  
   0.864956800    -0.3876910    0.6279594  
   0.866956700    -0.2891768    0.6759021  
   0.868956600    -0.1851123    0.7084399  
   0.870956500    -0.0772062    0.7253885  
   0.872956400     0.0323200    0.7256705  
   0.874956300     0.1408268    0.7093930  
   0.876956200     0.2466364    0.6769983  
   0.878956100     0.3463632    0.6285445  
   0.880956000     0.4381875    0.5648758  
   0.882955900     0.5193899    0.4871467  
   0.884955800     0.5881745    0.3980527  
   0.886955700     0.6422281    0.2983307  
   0.888955600     0.6799718    0.1910199  
   0.890955500     0.7002136    0.0786590  
   0.892955400     0.7022709   -0.0355645  
   0.894955300     0.6860117   -0.1493666  
