! MS46122B
! 2250307/22442219
! 6/15/2025 8:16:04 AM
! C:\USERS\SPARKY\DOCUMENTS\VNA_DATA\JUNE15_2025\3.2K\PORT4_MOS2.S1P
! CHANNEL.1
! TR.MEASUREMENT
! RAW.DATA
# GHZ S RI R 50.0
! FREQ.GHZ         S11RE         S11IM         
!; PortSelection: Port_1
   0.001000000    -0.8997955    0.0508903  
   0.002999900    -0.8737841    0.2496989  
   0.004999800    -0.8377551    0.3922131  
   0.006999700    -0.7753999    0.5196406  
   0.008999600    -0.6899233    0.6313395  
   0.010999500    -0.5850664    0.7241032  
   0.012999400    -0.4651287    0.7968821  
   0.014999300    -0.3340263    0.8481038  
   0.016999200    -0.1967663    0.8779680  
   0.018999100    -0.0563058    0.8864827  
   0.020999000     0.0833268    0.8746203  
   0.022998900     0.2189757    0.8430657  
   0.024998800     0.3202624    0.7738586  
   0.026998700     0.4670427    0.7259037  
   0.028998600     0.5750448    0.6430622  
   0.030998500     0.6691912    0.5461217  
   0.032998400     0.7137884    0.4363131  
   0.034998300     0.8088630    0.3173586  
   0.036998200     0.8511063    0.1898351  
   0.038998100     0.8727258    0.0568231  
   0.040998000     0.8732563   -0.0777575  
   0.042997900     0.8524371   -0.2110164  
   0.044997800     0.7887702   -0.3141762  
   0.046997700     0.7489298   -0.4596613  
   0.048997600     0.6691747   -0.5686627  
   0.050997500     0.5736469   -0.6635573  
   0.052997400     0.4669167   -0.7416335  
   0.054997300     0.3465352   -0.8039055  
   0.056997200     0.2200504   -0.8464679  
   0.058997100     0.0895616   -0.8697014  
   0.060997000    -0.0425616   -0.8731898  
   0.062996900    -0.1732440   -0.8566681  
   0.064996800    -0.2996921   -0.8209458  
   0.066996700    -0.4191737   -0.7668360  
   0.068996600    -0.5288845   -0.6951317  
   0.070996500    -0.6260250   -0.6080139  
   0.072996400    -0.7090047   -0.5072599  
   0.074996300    -0.7754773   -0.3952055  
   0.076996200    -0.8240038   -0.2744194  
   0.078996100    -0.8537092   -0.1478583  
   0.080996000    -0.8640780   -0.0181626  
   0.082995900    -0.8548194    0.1116058  
   0.084995800    -0.8256292    0.2385563  
   0.086995700    -0.7778434    0.3597444  
   0.088995600    -0.7121802    0.4725983  
   0.090995500    -0.6298541    0.5742477  
   0.092995400    -0.5324953    0.6624570  
   0.094995300    -0.4229703    0.7346693  
   0.096995200    -0.3029860    0.7895073  
   0.098995100    -0.1755545    0.8250480  
   0.100995000    -0.0434788    0.8399724  
   0.102994900     0.0891684    0.8339996  
   0.104994800     0.2195023    0.8071938  
   0.106994700     0.3441710    0.7597741  
   0.108994600     0.4600120    0.6934890  
   0.110994500     0.5638852    0.6095159  
   0.112994400     0.6531273    0.5096487  
   0.114994300     0.7253010    0.3971953  
   0.116994200     0.7786152    0.2746767  
   0.118994100     0.8120080    0.1452472  
   0.120994000     0.8240741    0.0123762  
   0.122993900     0.8147654   -0.1203102  
   0.124993800     0.7849170   -0.2494922  
   0.126993700     0.7348328   -0.3719773  
   0.128993600     0.6663626   -0.4849842  
   0.130993500     0.5810823   -0.5849971  
   0.132993400     0.4819267   -0.6698415  
   0.134993300     0.3709747   -0.7381279  
   0.136993200     0.2514340   -0.7879250  
   0.138993100     0.1261964   -0.8183590  
   0.140993000    -0.0013228   -0.8291374  
   0.142992900    -0.1288692   -0.8202971  
   0.144992800    -0.2525871   -0.7923310  
   0.146992700    -0.3704795   -0.7459801  
   0.148992600    -0.4790241   -0.6826907  
   0.150992500    -0.5767210   -0.6041620  
   0.152992400    -0.6609228   -0.5117868  
   0.154992300    -0.7303674   -0.4089894  
   0.156992200    -0.7836702   -0.2965649  
   0.158992100    -0.8197516   -0.1781300  
   0.160992000    -0.8374195   -0.0554724  
   0.162991900    -0.8372511    0.0679785  
   0.164991800    -0.8185046    0.1904384  
   0.166991700    -0.7820801    0.3082688  
   0.168991600    -0.7286578    0.4195416  
   0.170991500    -0.6589606    0.5225055  
   0.172991400    -0.5749153    0.6133681  
   0.174991300    -0.4781075    0.6912357  
   0.176991200    -0.3703421    0.7539046  
   0.178991100    -0.2536232    0.8001822  
   0.180991000    -0.1313459    0.8284105  
   0.182990900    -0.0058157    0.8379559  
   0.184990800     0.1202624    0.8285779  
   0.186990700     0.2449760    0.8000627  
   0.188990600     0.3408103    0.7626028  
   0.190990500     0.4698531    0.6892257  
   0.192990400     0.5721324    0.6053233  
   0.194990300     0.6579925    0.5088645  
   0.196990200     0.7276154    0.4000617  
   0.198990100     0.7800441    0.2815495  
   0.200990000     0.8131152    0.1555106  
   0.202989900     0.8259367    0.0253492  
   0.204989800     0.8183538   -0.1053365  
   0.206989700     0.7901563   -0.2331688  
   0.208989600     0.7420387   -0.3544252  
   0.210989500     0.6753183   -0.4673399  
   0.212989400     0.5911763   -0.5682192  
   0.214989300     0.4920456   -0.6543778  
   0.216989200     0.3812381   -0.7231516  
   0.218989100     0.2612466   -0.7732944  
   0.220989000     0.1350136   -0.8039619  
   0.222988900     0.0051499   -0.8138727  
   0.224988800    -0.1241595   -0.8034590  
   0.226988700    -0.2492515   -0.7721947  
   0.228988600    -0.3675072   -0.7223254  
   0.230988500    -0.4759081   -0.6546981  
   0.232988400    -0.5719758   -0.5711143  
   0.234988300    -0.6535473   -0.4732870  
   0.236988200    -0.7187477   -0.3643939  
   0.238988100    -0.7657955   -0.2468793  
   0.240988000    -0.7938263   -0.1244694  
   0.242987900    -0.8022586    0.0002897  
   0.244987800    -0.7915468    0.1241222  
   0.246987700    -0.7614214    0.2450831  
   0.248987600    -0.7131171    0.3601311  
   0.250987500    -0.6478158    0.4662980  
   0.252987400    -0.5666808    0.5604383  
   0.254987300    -0.4727869    0.6406445  
   0.256987200    -0.3678467    0.7052745  
   0.258987100    -0.2543560    0.7533553  
   0.260987000    -0.1342711    0.7832195  
   0.262986900    -0.0106597    0.7942551  
   0.264986800     0.1133420    0.7863290  
   0.266986700     0.2349862    0.7589387  
   0.268986600     0.3508947    0.7134379  
   0.270986500     0.4577904    0.6505615  
   0.272986400     0.5542050    0.5721675  
   0.274986300     0.6372720    0.4795283  
   0.276986200     0.7051581    0.3744940  
   0.278986100     0.7565643    0.2600407  
   0.280986000     0.7895794    0.1383789  
   0.282985900     0.8032219    0.0127170  
   0.284985800     0.7970595   -0.1138836  
   0.286985700     0.7711557   -0.2377734  
   0.288985600     0.7262495   -0.3557370  
   0.290985500     0.6639675   -0.4647444  
   0.292985400     0.5856624   -0.5629451  
   0.294985300     0.4929745   -0.6478593  
   0.296985200     0.3878509   -0.7174556  
   0.298985100     0.2726809   -0.7702750  
   0.300985000     0.1503080   -0.8041378  
   0.302984900     0.0246043   -0.8191020  
   0.304984800    -0.1014352   -0.8137594  
   0.306984700    -0.2248506   -0.7891050  
   0.308984600    -0.3417351   -0.7461987  
   0.310984500    -0.4503556   -0.6863775  
   0.312984400    -0.5479533   -0.6109658  
   0.314984300    -0.6326151   -0.5217106  
   0.316984200    -0.7029682   -0.4213380  
   0.318984100    -0.7571131   -0.3103897  
   0.320984000    -0.7938730   -0.1922787  
   0.322983900    -0.8126159   -0.0698670  
   0.324983800    -0.8119011    0.0538309  
   0.326983700    -0.7926880    0.1755197  
   0.328983600    -0.7550334    0.2925889  
   0.330983500    -0.7001173    0.4022398  
   0.332983400    -0.6296979    0.5016439  
   0.334983300    -0.5454015    0.5888773  
   0.336983200    -0.4485102    0.6628317  
   0.338983100    -0.3417163    0.7209309  
   0.340983000    -0.2271167    0.7620662  
   0.342982900    -0.1075667    0.7855033  
   0.344982800     0.0151584    0.7901574  
   0.346982700     0.1377263    0.7762144  
   0.348982600     0.2575218    0.7426931  
   0.350982500     0.3706030    0.6911571  
   0.352982400     0.4747532    0.6219137  
   0.354982300     0.5706071    0.5335460  
   0.356982200     0.6575549    0.4184723  
   0.358982100     0.7224929    0.2902353  
   0.360982000     0.7632099    0.1524244  
   0.362981900     0.7783538    0.0095805  
   0.364981800     0.7671400   -0.1339972  
   0.366981700     0.7299727   -0.2735260  
   0.368981600     0.6679324   -0.4043537  
   0.370981500     0.5829769   -0.5214701  
   0.372981400     0.4776578   -0.6210680  
   0.374981300     0.3552022   -0.7000264  
   0.376981200     0.4481561   -0.6369792  
   0.378981100     0.3234847   -0.7105020  
   0.380981000     0.1875478   -0.7599232  
   0.382980900     0.0576912   -0.7823512  
   0.384980800    -0.0677465   -0.7832949  
   0.386980700    -0.1918804   -0.7646877  
   0.388980600    -0.3105220   -0.7264296  
   0.390980500    -0.4210205   -0.6705226  
   0.392980400    -0.5203086   -0.5990798  
   0.394980300    -0.6068809   -0.5136861  
   0.396980200    -0.6789540   -0.4171779  
   0.398980100    -0.7354044   -0.3112389  
   0.400980000    -0.7746624   -0.1984345  
   0.402979900    -0.7968801   -0.0812251  
   0.404979800    -0.8011738    0.0371285  
   0.406979700    -0.7882878    0.1541146  
   0.408979600    -0.7579724    0.2677166  
   0.410979500    -0.7110330    0.3758428  
   0.412979400    -0.6485882    0.4763347  
   0.414979300    -0.5716256    0.5665745  
   0.416979200    -0.4824796    0.6445599  
   0.418979100    -0.3825469    0.7080255  
   0.420979000    -0.2741942    0.7563186  
   0.422978900    -0.1592443    0.7880839  
   0.424978800    -0.0402132    0.8023572  
   0.426978700     0.0800297    0.7982965  
   0.428978600     0.1988983    0.7763653  
   0.430978500     0.3129396    0.7364645  
   0.432978400     0.4195341    0.6795729  
   0.434978300     0.5168295    0.6070296  
   0.436978200     0.6021552    0.5199559  
   0.438978100     0.6733747    0.4202887  
   0.440978000     0.7284563    0.3101446  
   0.442977900     0.7661707    0.1920938  
   0.444977800     0.7847357    0.0693518  
   0.446977700     0.7837695   -0.0555584  
   0.448977600     0.7626950   -0.1790398  
   0.450977500     0.7224689   -0.2977540  
   0.452977400     0.6631845   -0.4093103  
   0.454977300     0.5861199   -0.5108414  
   0.456977200     0.4927172   -0.5988731  
   0.458977100     0.3865065   -0.6704619  
   0.460977000     0.2694883   -0.7235281  
   0.462976900     0.1459392   -0.7568042  
   0.464976800     0.0187618   -0.7691222  
   0.466976700    -0.1084145   -0.7607745  
   0.468976600    -0.2322035   -0.7317841  
   0.470976500    -0.3488888   -0.6830942  
   0.472976400    -0.4562834   -0.6164878  
   0.474976300    -0.5505812   -0.5336578  
   0.476976200    -0.6296099   -0.4370780  
   0.478976100    -0.6921517   -0.3304648  
   0.480976000    -0.7361279   -0.2162838  
   0.482975900    -0.7614882   -0.0976303  
   0.484975800    -0.7681117    0.0226458  
   0.486975700    -0.7561059    0.1425366  
   0.488975600    -0.7257408    0.2582710  
   0.490975500    -0.6778926    0.3675593  
   0.492975400    -0.6144657    0.4682168  
   0.494975300    -0.5364956    0.5577658  
   0.496975200    -0.4454756    0.6342780  
   0.498975100    -0.3447703    0.6956119  
   0.500975000    -0.2359961    0.7411476  
   0.502974900    -0.1217916    0.7696208  
   0.504974800    -0.0046273    0.7805488  
   0.506974700     0.1135392    0.7732763  
   0.508974600     0.2302870    0.7483104  
   0.510974500     0.3418713    0.7057256  
   0.512974400     0.4458669    0.6461737  
   0.514974300     0.5393800    0.5716837  
   0.516974200     0.6213489    0.4837053  
   0.518974100     0.6882623    0.3842775  
   0.520974000     0.7394251    0.2753050  
   0.522973900     0.7734270    0.1592503  
   0.524973800     0.7892560    0.0392960  
   0.526973700     0.7864095   -0.0824376  
   0.528973600     0.7648327   -0.2026087  
   0.530973500     0.7243220   -0.3186873  
   0.532973400     0.6663134   -0.4271161  
   0.534973300     0.5917297   -0.5257544  
   0.536973200     0.5024976   -0.6117344  
   0.538973100     0.4012760   -0.6823388  
   0.540973000     0.2899536   -0.7363182  
   0.542972900     0.1719013   -0.7720344  
   0.544972800     0.0496767   -0.7889991  
   0.546972700    -0.0742498   -0.7869303  
   0.548972600    -0.1966688   -0.7650290  
   0.550972500    -0.3138312   -0.7242090  
   0.552972400    -0.4236181   -0.6656554  
   0.554972300    -0.5225644   -0.5900620  
   0.556972200    -0.6083697   -0.5001237  
   0.558972100    -0.6786318   -0.3978644  
   0.560972000    -0.7319403   -0.2860463  
   0.562971900    -0.7668064   -0.1677912  
   0.564971800    -0.7824743   -0.0460477  
   0.566971700    -0.7788255    0.0759959  
   0.568971600    -0.7564863    0.1957297  
   0.570971500    -0.7158289    0.3102959  
   0.572971400    -0.6576852    0.4170176  
   0.574971300    -0.5834659    0.5134647  
   0.576971200    -0.4948399    0.5972741  
   0.578971100    -0.3938697    0.6663558  
   0.580971000    -0.2835165    0.7184490  
   0.582970900    -0.1663755    0.7525628  
   0.584970800    -0.0455683    0.7678899  
   0.586970700     0.0760762    0.7639242  
   0.588970600     0.1953864    0.7407655  
   0.590970500     0.3094942    0.6990039  
   0.592970400     0.4159230    0.6397749  
   0.594970300     0.5117461    0.5641796  
   0.596970200     0.5946279    0.4743892  
   0.598970100     0.6621569    0.3719946  
   0.600970000     0.7126878    0.2599731  
   0.602969900     0.7445495    0.1412012  
   0.604969800     0.7573569    0.0180791  
   0.606969700     0.7501261   -0.1057053  
   0.608969600     0.7228673   -0.2271117  
   0.610969500     0.6762848   -0.3427249  
   0.612969400     0.6114903   -0.4496567  
   0.614969300     0.5307304   -0.5436759  
   0.616969200     0.4356700   -0.6240165  
   0.618969100     0.3298089   -0.6873285  
   0.620969000     0.2163412   -0.7326981  
   0.622968900     0.0965032   -0.7594897  
   0.624968800    -0.0258276   -0.7675604  
   0.626968700    -0.1477464   -0.7556845  
   0.628968600    -0.2662432   -0.7251754  
   0.630968500    -0.3784995   -0.6764100  
   0.632968400    -0.4813370   -0.6110018  
   0.634968300    -0.5724198   -0.5304084  
   0.636968200    -0.6496807   -0.4371710  
   0.638968100    -0.7113207   -0.3331471  
   0.640968000    -0.7557229   -0.2213122  
   0.642967900    -0.7833667   -0.1043708  
   0.644967800    -0.7922533    0.0150672  
   0.646967700    -0.7827522    0.1338712  
   0.648967600    -0.7553636    0.2494016  
   0.650967500    -0.7117693    0.3591553  
   0.652967400    -0.6520392    0.4607006  
   0.654967300    -0.5781655    0.5519341  
   0.656967200    -0.4917278    0.6310652  
   0.658967100    -0.3943748    0.6964409  
   0.660967000    -0.2881410    0.7467425  
   0.662966900    -0.1750802    0.7804784  
   0.664966800    -0.0573036    0.7971919  
   0.666966700     0.0625078    0.7961190  
   0.668966600     0.1803155    0.7767805  
   0.670966500     0.2949462    0.7394226  
   0.672966400     0.4026321    0.6843418  
   0.674966300     0.5007958    0.6140768  
   0.676966200     0.5874380    0.5290937  
   0.678966100     0.6598983    0.4317344  
   0.680966000     0.7165438    0.3241235  
   0.682965900     0.7560319    0.2085788  
   0.684965800     0.7773052    0.0882478  
   0.686965700     0.7791830   -0.0348811  
   0.688965600     0.7618865   -0.1568934  
   0.690965500     0.7252695   -0.2751192  
   0.692965400     0.6704276   -0.3863606  
   0.694965300     0.5987737   -0.4874205  
   0.696965200     0.5117724   -0.5759679  
   0.698965100     0.4114321   -0.6493859  
   0.700965000     0.3006123   -0.7061657  
   0.702964900     0.1819347   -0.7442973  
   0.704964800     0.0585707   -0.7631389  
   0.706964700    -0.0659238   -0.7615278  
   0.708964600    -0.1882251   -0.7403360  
   0.710964500    -0.3057911   -0.6996150  
   0.712964400    -0.4147879   -0.6405271  
   0.714964300    -0.5123539   -0.5648361  
   0.716964200    -0.5960296   -0.4756447  
   0.718964100    -0.6640198   -0.3749203  
   0.720964000    -0.7148927   -0.2654390  
   0.722963900    -0.7478466   -0.1504010  
   0.724963800    -0.7629675   -0.0320254  
   0.726963700    -0.7592250    0.0864613  
   0.728963600    -0.7377154    0.2025397  
   0.730963500    -0.6985226    0.3136638  
   0.732963400    -0.6432865    0.4170943  
   0.734963300    -0.5730096    0.5105125  
   0.736963200    -0.4748356    0.6028383  
   0.738963100    -0.3611083    0.6774306  
   0.740963000    -0.2357772    0.7311054  
   0.742962900    -0.1028427    0.7621796  
   0.744962800     0.0338250    0.7696405  
   0.746962700     0.1701617    0.7536048  
   0.748962600     0.3022442    0.7133662  
   0.750962500     0.1716669    0.7534426  
   0.752962400     0.3025741    0.7116965  
   0.754962300     0.4244936    0.6476438  
   0.756962200     0.5335577    0.5625787  
   0.758962100     0.6264182    0.4596182  
   0.760962000     0.7002328    0.3416061  
   0.762961900     0.7499826    0.2185066  
   0.764961800     0.7763875    0.1007776  
   0.766961700     0.7840842   -0.0198702  
   0.768961600     0.7729650   -0.1415353  
   0.770961500     0.7431314   -0.2596475  
   0.772961400     0.6952137   -0.3724143  
   0.774961300     0.6303508   -0.4761276  
   0.776961200     0.5492516   -0.5690727  
   0.778961100     0.4545712   -0.6485509  
   0.780961000     0.3480510   -0.7125180  
   0.782960900     0.2320336   -0.7587908  
   0.784960800     0.1098063   -0.7865826  
   0.786960700    -0.0154930   -0.7940914  
   0.788960600    -0.1403566   -0.7819094  
   0.790960500    -0.2616881   -0.7499372  
   0.792960400    -0.3759954   -0.6986593  
   0.794960300    -0.4798448   -0.6305338  
   0.796960200    -0.5716628   -0.5470930  
   0.798960100    -0.6485494   -0.4508870  
   0.800960000    -0.7089880   -0.3441631  
   0.802959900    -0.7518786   -0.2298641  
   0.804959800    -0.7762579   -0.1112141  
   0.806959700    -0.7820424    0.0090940  
   0.808959600    -0.7693081    0.1283078  
   0.810959500    -0.7383354    0.2435051  
   0.812959400    -0.6903182    0.3519578  
   0.814959300    -0.6266430    0.4514784  
   0.816959200    -0.5486317    0.5398343  
   0.818959100    -0.4584306    0.6151422  
   0.820959000    -0.3576858    0.6756887  
   0.822958900    -0.2494430    0.7203119  
   0.824958800    -0.1353307    0.7478888  
   0.826958700    -0.0184452    0.7577631  
   0.828958600     0.0986555    0.7493944  
   0.830958500     0.2132623    0.7235969  
   0.832958400     0.3226472    0.6804489  
   0.834958300     0.4244123    0.6210558  
   0.836958200     0.5155709    0.5465297  
   0.838958100     0.5948704    0.4586806  
   0.840958000     0.6598516    0.3589202  
   0.842957900     0.7086527    0.2501540  
   0.844957800     0.7404280    0.1340532  
   0.846957700     0.7536772    0.0141784  
   0.848957600     0.7475478   -0.1069395  
   0.850957500     0.7221908   -0.2256589  
   0.852957400     0.6781269   -0.3395817  
   0.854957300     0.6164700   -0.4453485  
   0.856957200     0.5385170   -0.5398638  
   0.858957100     0.4466043   -0.6208454  
   0.860957000     0.3433407   -0.6858422  
   0.862956900     0.2310141   -0.7338710  
   0.864956800     0.1135793   -0.7633637  
   0.866956700    -0.0071883   -0.7743790  
   0.868956600    -0.1275496   -0.7664884  
   0.870956500    -0.2448607   -0.7398059  
   0.872956400    -0.3566922   -0.6956021  
   0.874956300    -0.4597676   -0.6347264  
   0.876956200    -0.5522175   -0.5587893  
   0.878956100    -0.6319909   -0.4698184  
   0.880956000    -0.6966661   -0.3697458  
   0.882955900    -0.7452838   -0.2613089  
   0.884955800    -0.7766574   -0.1469818  
   0.886955700    -0.7903982   -0.0294613  
   0.888955600    -0.7862267    0.0880844  
   0.890955500    -0.7646018    0.2037271  
   0.892955400    -0.7257246    0.3139322  
   0.894955300    -0.6709960    0.4174039  
