! MS46122B
! 2250307/22442219
! 6/12/2025 7:37:06 AM
! C:\USERS\SPARKY\DOCUMENTS\VNA_DATA\JUNE12_2025\3.1 KELVIN\PORT3.S1P
! CHANNEL.1
! TR.MEASUREMENT
! RAW.DATA
# GHZ S RI R 50.0
! FREQ.GHZ         S11RE         S11IM         
!; PortSelection: Port_1
   0.001000000    -0.9434179    0.0517904  
   0.002999900    -0.9158967    0.2573441  
   0.004999800    -0.8785819    0.4070540  
   0.006999700    -0.8133577    0.5419305  
   0.008999600    -0.7234808    0.6596534  
   0.010999500    -0.6128705    0.7579494  
   0.012999400    -0.4863884    0.8348261  
   0.014999300    -0.3483655    0.8890966  
   0.016999200    -0.2035416    0.9205457  
   0.018999100    -0.0558503    0.9295270  
   0.020999000     0.0909605    0.9163002  
   0.022998900     0.2331331    0.8828565  
   0.024998800     0.3393629    0.8096811  
   0.026998700     0.4933811    0.7585324  
   0.028998600     0.6060842    0.6709755  
   0.030998500     0.7042896    0.5687379  
   0.032998400     0.7504600    0.4531895  
   0.034998300     0.8492262    0.3275955  
   0.036998200     0.8925531    0.1933232  
   0.038998100     0.9144315    0.0537214  
   0.040998000     0.9139130   -0.0879731  
   0.042997900     0.8908597   -0.2278302  
   0.044997800     0.8231022   -0.3357399  
   0.046997700     0.7796416   -0.4881070  
   0.048997600     0.6948010   -0.6017039  
   0.050997500     0.5934179   -0.7003599  
   0.052997400     0.4798690   -0.7813229  
   0.054997300     0.3535258   -0.8448880  
   0.056997200     0.2202843   -0.8882884  
   0.058997100     0.0829006   -0.9110017  
   0.060997000    -0.0556961   -0.9127078  
   0.062996900    -0.1926690   -0.8937555  
   0.064996800    -0.3248928   -0.8542644  
   0.066996700    -0.4493163   -0.7955589  
   0.068996600    -0.5633692   -0.7187690  
   0.070996500    -0.6640806   -0.6258026  
   0.072996400    -0.7494439   -0.5187435  
   0.074996300    -0.8173937   -0.4000086  
   0.076996200    -0.8663561   -0.2724234  
   0.078996100    -0.8952666   -0.1390849  
   0.080996000    -0.9039549   -0.0025788  
   0.082995900    -0.8918061    0.1334371  
   0.084995800    -0.8590456    0.2660399  
   0.086995700    -0.8063989    0.3926507  
   0.088995600    -0.7352023    0.5100088  
   0.090995500    -0.6465306    0.6151494  
   0.092995400    -0.5426683    0.7056634  
   0.094995300    -0.4258979    0.7794869  
   0.096995200    -0.2982421    0.8345286  
   0.098995100    -0.1634836    0.8689846  
   0.100995000    -0.0241989    0.8818843  
   0.102994900     0.1152704    0.8720074  
   0.104994800     0.2518674    0.8406146  
   0.106994700     0.3819861    0.7874079  
   0.108994600     0.5020083    0.7146115  
   0.110994500     0.6092010    0.6233339  
   0.112994400     0.7002791    0.5161402  
   0.114994300     0.7730920    0.3954750  
   0.116994200     0.8257265    0.2648675  
   0.118994100     0.8567185    0.1277036  
   0.120994000     0.8652231   -0.0122653  
   0.122993900     0.8513374   -0.1517584  
   0.124993800     0.8157122   -0.2865434  
   0.126993700     0.7591375   -0.4137990  
   0.128993600     0.6835693   -0.5301762  
   0.130993500     0.5905710   -0.6324286  
   0.132993400     0.4832229   -0.7182379  
   0.134993300     0.3644409   -0.7859126  
   0.136993200     0.2374446   -0.8337742  
   0.138993100     0.1047219   -0.8612891  
   0.140993000    -0.0294035   -0.8681595  
   0.142992900    -0.1626115   -0.8541112  
   0.144992800    -0.2913330   -0.8205140  
   0.146992700    -0.4130554   -0.7674800  
   0.148992600    -0.5245728   -0.6971478  
   0.150992500    -0.6239313   -0.6114016  
   0.152992400    -0.7088163   -0.5115564  
   0.154992300    -0.7777279   -0.4013856  
   0.156992200    -0.8292594   -0.2814777  
   0.158992100    -0.8625880   -0.1560941  
   0.160992000    -0.8768738   -0.0270555  
   0.162991900    -0.8716246    0.1023987  
   0.164991800    -0.8472801    0.2298009  
   0.166991700    -0.8045317    0.3520702  
   0.168991600    -0.7443349    0.4665668  
   0.170991500    -0.6672182    0.5714274  
   0.172991400    -0.5754827    0.6636901  
   0.174991300    -0.4707936    0.7412760  
   0.176991200    -0.3550274    0.8029749  
   0.178991100    -0.2305636    0.8464052  
   0.180991000    -0.1012229    0.8709437  
   0.182990900     0.0311180    0.8754871  
   0.184990800     0.1633153    0.8601762  
   0.186990700     0.2927887    0.8247419  
   0.188990600     0.3922424    0.7810142  
   0.190990500     0.5243182    0.6978515  
   0.192990400     0.6276206    0.6048322  
   0.194990300     0.7134372    0.4991420  
   0.196990200     0.7816006    0.3814507  
   0.198990100     0.8304749    0.2540795  
   0.200990000     0.8588542    0.1197992  
   0.202989900     0.8658239   -0.0180428  
   0.204989800     0.8507651   -0.1550415  
   0.206989700     0.8140134   -0.2878684  
   0.208989600     0.7569371   -0.4129680  
   0.210989500     0.6801419   -0.5277573  
   0.212989400     0.5860035   -0.6292760  
   0.214989300     0.4766471   -0.7137498  
   0.216989200     0.3561604   -0.7797837  
   0.218989100     0.2270130   -0.8253441  
   0.220989000     0.0925296   -0.8496847  
   0.222988900    -0.0443846   -0.8524153  
   0.224988800    -0.1796331   -0.8330923  
   0.226988700    -0.3091295   -0.7927184  
   0.228988600    -0.4299756   -0.7326911  
   0.230988500    -0.5393554   -0.6548575  
   0.232988400    -0.6346954   -0.5610057  
   0.234988300    -0.7142394   -0.4532807  
   0.236988200    -0.7753991   -0.3344925  
   0.238988100    -0.8170263   -0.2083991  
   0.240988000    -0.8383446   -0.0781564  
   0.242987900    -0.8392015    0.0530375  
   0.244987800    -0.8194836    0.1821880  
   0.246987700    -0.7800952    0.3071204  
   0.248987600    -0.7215347    0.4244376  
   0.250987500    -0.6456180    0.5312464  
   0.252987400    -0.5544290    0.6248177  
   0.254987300    -0.4502023    0.7022708  
   0.256987200    -0.3360932    0.7629426  
   0.258987100    -0.2136943    0.8053323  
   0.260987000    -0.0856423    0.8283627  
   0.262986900     0.0447290    0.8315071  
   0.264986800     0.1743020    0.8143024  
   0.266986700     0.3000696    0.7771604  
   0.268986600     0.4182912    0.7210333  
   0.270986500     0.5260517    0.6473918  
   0.272986400     0.6213921    0.5579037  
   0.274986300     0.7016833    0.4547527  
   0.276986200     0.7653818    0.3395367  
   0.278986100     0.8106808    0.2155716  
   0.280986000     0.8361276    0.0854447  
   0.282985900     0.8409911   -0.0474411  
   0.284985800     0.8246701   -0.1795495  
   0.286985700     0.7879009   -0.3074646  
   0.288985600     0.7316368   -0.4274994  
   0.290985500     0.6578323   -0.5370830  
   0.292985400     0.5681362   -0.6334929  
   0.294985300     0.4643278   -0.7148798  
   0.296985200     0.3485736   -0.7793995  
   0.298985100     0.2237977   -0.8250824  
   0.300985000     0.0930454   -0.8508616  
   0.302984900    -0.0395969   -0.8558242  
   0.304984800    -0.1711828   -0.8399568  
   0.306984700    -0.2978961   -0.8039926  
   0.308984600    -0.4166993   -0.7495359  
   0.310984500    -0.5248842   -0.6776525  
   0.312984400    -0.6203895   -0.5906564  
   0.314984300    -0.7013221   -0.4903883  
   0.316984200    -0.7660695   -0.3794005  
   0.318984100    -0.8131086   -0.2590252  
   0.320984000    -0.8419753   -0.1325123  
   0.322983900    -0.8503146   -0.0028341  
   0.324983800    -0.8390935    0.1259874  
   0.326983700    -0.8079114    0.2510270  
   0.328983600    -0.7581773    0.3703015  
   0.330983500    -0.6912637    0.4797727  
   0.332983400    -0.6087674    0.5772027  
   0.334983300    -0.5125423    0.6611267  
   0.336983200    -0.4048157    0.7291568  
   0.338983100    -0.2877883    0.7803077  
   0.340983000    -0.1640541    0.8126867  
   0.342982900    -0.0369873    0.8258618  
   0.344982800     0.0918654    0.8193650  
   0.346982700     0.2188045    0.7927005  
   0.348982600     0.3407741    0.7463073  
   0.350982500     0.4539503    0.6812711  
   0.352982400     0.5563376    0.5987712  
   0.354982300     0.6476327    0.4964911  
   0.356982200     0.7270023    0.3674878  
   0.358982100     0.7817547    0.2269462  
   0.360982000     0.8102556    0.0788826  
   0.362981900     0.8111750   -0.0723810  
   0.364981800     0.7847836   -0.2212669  
   0.366981700     0.7311848   -0.3630460  
   0.368981600     0.6521266   -0.4929132  
   0.370981500     0.5506377   -0.6061219  
   0.372981400     0.4302318   -0.6988177  
   0.374981300     0.2935871   -0.7674800  
   0.376981200     0.3975524   -0.7118316  
   0.378981100     0.2598305   -0.7748526  
   0.380981000     0.1126872   -0.8114310  
   0.382980900    -0.0246894   -0.8205782  
   0.384980800    -0.1556379   -0.8080050  
   0.386980700    -0.2822050   -0.7744344  
   0.388980600    -0.4014992   -0.7217038  
   0.390980500    -0.5100005   -0.6513779  
   0.392980400    -0.6051298   -0.5661851  
   0.394980300    -0.6856399   -0.4683675  
   0.396980200    -0.7497787   -0.3600357  
   0.398980100    -0.7964624   -0.2435849  
   0.400980000    -0.8249384   -0.1222057  
   0.402979900    -0.8348050    0.0015279  
   0.404979800    -0.8263781    0.1249291  
   0.406979700    -0.7996485    0.2451571  
   0.408979600    -0.7554310    0.3595452  
   0.410979500    -0.6948290    0.4665470  
   0.412979400    -0.6183686    0.5642012  
   0.414979300    -0.5286549    0.6491736  
   0.416979200    -0.4269594    0.7200859  
   0.418979100    -0.3155177    0.7750507  
   0.420979000    -0.1971235    0.8123621  
   0.422978900    -0.0736787    0.8322804  
   0.424978800     0.0520853    0.8330564  
   0.426978700     0.1768626    0.8150051  
   0.428978600     0.2980739    0.7776425  
   0.430978500     0.4122172    0.7220654  
   0.432978400     0.5167021    0.6497902  
   0.434978300     0.6091118    0.5617493  
   0.436978200     0.6872310    0.4599241  
   0.438978100     0.7487417    0.3467298  
   0.440978000     0.7922774    0.2245474  
   0.442977900     0.8157690    0.0963605  
   0.444977800     0.8187105   -0.0345677  
   0.446977700     0.8007931   -0.1645417  
   0.448977600     0.7618082   -0.2904246  
   0.450977500     0.7035769   -0.4085492  
   0.452977400     0.6259753   -0.5166728  
   0.454977300     0.5312306   -0.6112590  
   0.456977200     0.4216940   -0.6893541  
   0.458977100     0.3008609   -0.7482780  
   0.460977000     0.1716434   -0.7862251  
   0.462976900     0.0387320   -0.8025847  
   0.464976800    -0.0949425   -0.7966887  
   0.466976700    -0.2256274   -0.7692289  
   0.468976600    -0.3490161   -0.7207020  
   0.470976500    -0.4627087   -0.6529616  
   0.472976400    -0.5634391   -0.5679373  
   0.474976300    -0.6481225   -0.4686012  
   0.476976200    -0.7155958   -0.3573591  
   0.478976100    -0.7638075   -0.2379350  
   0.480976000    -0.7920229   -0.1137667  
   0.482975900    -0.8006121    0.0122487  
   0.484975800    -0.7894623    0.1371527  
   0.486975700    -0.7593803    0.2586531  
   0.488975600    -0.7109194    0.3732127  
   0.490975500    -0.6455007    0.4788725  
   0.492975400    -0.5653886    0.5730773  
   0.494975300    -0.4715929    0.6537759  
   0.496975200    -0.3669071    0.7190697  
   0.498975100    -0.2537049    0.7676955  
   0.500975000    -0.1351252    0.7985080  
   0.502974900    -0.0130618    0.8112827  
   0.504974800     0.1096176    0.8049621  
   0.506974700     0.2306727    0.7802134  
   0.508974600     0.3473896    0.7367382  
   0.510974500     0.4565011    0.6762475  
   0.512974400     0.5551321    0.5989910  
   0.514974300     0.6406398    0.5077670  
   0.516974200     0.7117431    0.4043291  
   0.518974100     0.7659965    0.2911370  
   0.520974000     0.8021920    0.1701434  
   0.522973900     0.8193066    0.0451413  
   0.524973800     0.8172286   -0.0816457  
   0.526973700     0.7950704   -0.2072043  
   0.528973600     0.7533410   -0.3280661  
   0.530973500     0.6931593   -0.4418537  
   0.532973400     0.6157361   -0.5444449  
   0.534973300     0.5226260   -0.6345214  
   0.536973200     0.4161809   -0.7086353  
   0.538973100     0.2999339   -0.7645886  
   0.540973000     0.1763871   -0.8018208  
   0.542972900     0.0483027   -0.8189855  
   0.544972800    -0.0802690   -0.8160680  
   0.546972700    -0.2077535   -0.7927083  
   0.548972600    -0.3299739   -0.7494311  
   0.550972500    -0.4432215   -0.6874001  
   0.552972400    -0.5461692   -0.6080256  
   0.554972300    -0.6345823   -0.5134580  
   0.556972200    -0.7068687   -0.4059642  
   0.558972100    -0.7614046   -0.2886905  
   0.560972000    -0.7964094   -0.1648074  
   0.562971900    -0.8112394   -0.0376847  
   0.564971800    -0.8057989    0.0898199  
   0.566971700    -0.7804503    0.2143737  
   0.568971600    -0.7361528    0.3331055  
   0.570971500    -0.6741249    0.4429491  
   0.572971400    -0.5954241    0.5418704  
   0.574971300    -0.5019287    0.6272482  
   0.576971200    -0.3958466    0.6972768  
   0.578971100    -0.2800194    0.7495123  
   0.580971000    -0.1575257    0.7827244  
   0.582970900    -0.0311158    0.7963026  
   0.584970800     0.0954419    0.7897217  
   0.586970700     0.2191605    0.7630690  
   0.588970600     0.3370258    0.7170748  
   0.590970500     0.4465759    0.6529165  
   0.592970400     0.5442560    0.5722385  
   0.594970300     0.6282825    0.4770223  
   0.596970200     0.6958075    0.3688881  
   0.598970100     0.7455539    0.2515569  
   0.600970000     0.7757956    0.1274044  
   0.602969900     0.7858869   -0.0002735  
   0.604969800     0.7754328   -0.1287041  
   0.606969700     0.7439485   -0.2533911  
   0.608969600     0.6928026   -0.3723185  
   0.610969500     0.6229666   -0.4812360  
   0.612969400     0.5365598   -0.5774673  
   0.614969300     0.4356037   -0.6582174  
   0.616969200     0.3239105   -0.7210720  
   0.618969100     0.2043228   -0.7653603  
   0.620969000     0.0797744   -0.7894188  
   0.622968900    -0.0469590   -0.7941896  
   0.624968800    -0.1724270   -0.7784032  
   0.626968700    -0.2940559   -0.7437535  
   0.628968600    -0.4083405   -0.6902928  
   0.630968500    -0.5128606   -0.6197845  
   0.632968400    -0.6045775   -0.5342685  
   0.634968300    -0.6819166   -0.4353681  
   0.636968200    -0.7427422   -0.3264653  
   0.638968100    -0.7859372   -0.2100838  
   0.640968000    -0.8104930   -0.0884547  
   0.642967900    -0.8166649    0.0352232  
   0.644967800    -0.8035411    0.1578426  
   0.646967700    -0.7723927    0.2765355  
   0.648967600    -0.7235094    0.3889378  
   0.650967500    -0.6590095    0.4919848  
   0.652967400    -0.5797318    0.5840412  
   0.654967300    -0.4883365    0.6631370  
   0.656967200    -0.3855733    0.7276616  
   0.658967100    -0.2748643    0.7761520  
   0.660967000    -0.1575554    0.8075340  
   0.662966900    -0.0364802    0.8212448  
   0.664966800     0.0863553    0.8167815  
   0.666966700     0.2079134    0.7927406  
   0.668966600     0.3247635    0.7509120  
   0.670966500     0.4344267    0.6911509  
   0.672966400     0.5334151    0.6148451  
   0.674966300     0.6201073    0.5243180  
   0.676966200     0.6916696    0.4210639  
   0.678966100     0.7465874    0.3080761  
   0.680966000     0.7834675    0.1873925  
   0.682965900     0.8008700    0.0621057  
   0.684965800     0.7984780   -0.0644937  
   0.686965700     0.7756509   -0.1899865  
   0.688965600     0.7332593   -0.3105170  
   0.690965500     0.6725005   -0.4230680  
   0.692965400     0.5943879   -0.5242573  
   0.694965300     0.5010531   -0.6119254  
   0.696965200     0.3946309   -0.6835377  
   0.698965100     0.2784664   -0.7369984  
   0.700965000     0.1548236   -0.7713954  
   0.702964900     0.0275939   -0.7852893  
   0.704964800    -0.1003369   -0.7783220  
   0.706964700    -0.2251755   -0.7510841  
   0.708964600    -0.3435470   -0.7043187  
   0.710964500    -0.4532578   -0.6390013  
   0.712964400    -0.5499699   -0.5572949  
   0.714964300    -0.6323260   -0.4615363  
   0.716964200    -0.6978706   -0.3547697  
   0.718964100    -0.7452300   -0.2400175  
   0.720964000    -0.7737443   -0.1200063  
   0.722963900    -0.7836514    0.0018006  
   0.724963800    -0.7746993    0.1234251  
   0.726963700    -0.7471255    0.2412594  
   0.728963600    -0.7020113    0.3532142  
   0.730963500    -0.6403026    0.4567206  
   0.732963400    -0.5642077    0.5493137  
   0.734963300    -0.4749341    0.6290491  
   0.736963200    -0.3574970    0.7026020  
   0.738963100    -0.2283132    0.7551870  
   0.740963000    -0.0913472    0.7844094  
   0.742962900     0.0488461    0.7895039  
   0.744962800     0.1882210    0.7698565  
   0.746962700     0.3227936    0.7260473  
   0.748962600     0.4480628    0.6593896  
   0.750962500     0.3231089    0.7234290  
   0.752962400     0.4473991    0.6550194  
   0.754962300     0.5576033    0.5658198  
   0.756962200     0.6508156    0.4580666  
   0.758962100     0.7239583    0.3351891  
   0.760962000     0.7742532    0.2005881  
   0.762961900     0.7991946    0.0663844  
   0.764961800     0.8011776   -0.0583609  
   0.766961700     0.7839285   -0.1822256  
   0.768961600     0.7471619   -0.3025542  
   0.770961500     0.6920757   -0.4158158  
   0.772961400     0.6196895   -0.5191994  
   0.774961300     0.5319455   -0.6099604  
   0.776961200     0.4306563   -0.6861650  
   0.778961100     0.3181705   -0.7458573  
   0.780961000     0.1971058   -0.7866892  
   0.782960900     0.0709777   -0.8085452  
   0.784960800    -0.0576956   -0.8095217  
   0.786960700    -0.1846114   -0.7898507  
   0.788960600    -0.3068139   -0.7501889  
   0.790960500    -0.4206136   -0.6916978  
   0.792960400    -0.5233908   -0.6160775  
   0.794960300    -0.6122797   -0.5253756  
   0.796960200    -0.6851490   -0.4226896  
   0.798960100    -0.7406287   -0.3100303  
   0.800960000    -0.7779785   -0.1912232  
   0.802959900    -0.7956399   -0.0683250  
   0.804959800    -0.7946079    0.0547185  
   0.806959700    -0.7743887    0.1755005  
   0.808959600    -0.7358385    0.2911560  
   0.810959500    -0.6807801    0.3987512  
   0.812959400    -0.6098015    0.4962941  
   0.814959300    -0.5250294    0.5816696  
   0.816959200    -0.4284588    0.6526939  
   0.818959100    -0.3226710    0.7084447  
   0.820959000    -0.2095632    0.7471151  
   0.822958900    -0.0918408    0.7684124  
   0.824958800     0.0278094    0.7709854  
   0.826958700     0.1464252    0.7556111  
   0.828958600     0.2617320    0.7224967  
   0.830958500     0.3706194    0.6717461  
   0.832958400     0.4708867    0.6048802  
   0.834958300     0.5595161    0.5231017  
   0.836958200     0.6346317    0.4285764  
   0.838958100     0.6943838    0.3230438  
   0.840958000     0.7374579    0.2093348  
   0.842957900     0.7622730    0.0890857  
   0.844957800     0.7681391   -0.0339497  
   0.846957700     0.7542833   -0.1567395  
   0.848957600     0.7209341   -0.2760934  
   0.850957500     0.6689311   -0.3893840  
   0.852957400     0.5992987   -0.4931411  
   0.854957300     0.5139489   -0.5843413  
   0.856957200     0.4149041   -0.6611128  
   0.858957100     0.3052269   -0.7210397  
   0.860957000     0.1875714   -0.7625215  
   0.862956900     0.0653231   -0.7850955  
   0.864956800    -0.0582090   -0.7878195  
   0.866956700    -0.1801319   -0.7716450  
   0.868956600    -0.2976461   -0.7365200  
   0.870956500    -0.4082111   -0.6841314  
   0.872956400    -0.5087878   -0.6153909  
   0.874956300    -0.5976342   -0.5323275  
   0.876956200    -0.6723307   -0.4367755  
   0.878956100    -0.7312019   -0.3312174  
   0.880956000    -0.7734707   -0.2179203  
   0.882955900    -0.7976779   -0.0999791  
   0.884955800    -0.8037128    0.0200319  
   0.886955700    -0.7917246    0.1389323  
   0.888955600    -0.7621759    0.2549550  
   0.890955500    -0.7155782    0.3643767  
   0.892955400    -0.6534121    0.4660276  
   0.894955300    -0.5766822    0.5568568  
