! MS46122B
! 2250307/22442219
! 6/16/2025 7:52:46 AM
! C:\USERS\SPARKY\DOCUMENTS\VNA_DATA\JUNE16_2025\3.1K\PORT5_MOS2.S1P
! CHANNEL.1
! TR.MEASUREMENT
! RAW.DATA
# GHZ S RI R 50.0
! FREQ.GHZ         S11RE         S11IM         
!; PortSelection: Port_1
   0.001000000    -0.8959284    0.0510352  
   0.002999900    -0.8699568    0.2490417  
   0.004999800    -0.8341325    0.3909944  
   0.006999700    -0.7719677    0.5180165  
   0.008999600    -0.6868508    0.6287574  
   0.010999500    -0.5825766    0.7210512  
   0.012999400    -0.4632155    0.7933817  
   0.014999300    -0.3328312    0.8442820  
   0.016999200    -0.1960745    0.8741251  
   0.018999100    -0.0564268    0.8825808  
   0.020999000     0.0825603    0.8708041  
   0.022998900     0.2175673    0.8394229  
   0.024998800     0.3183472    0.7705894  
   0.026998700     0.4646279    0.7229937  
   0.028998600     0.5721979    0.6405892  
   0.030998500     0.6659148    0.5442584  
   0.032998400     0.7102431    0.4349719  
   0.034998300     0.8051769    0.3166300  
   0.036998200     0.8470646    0.1897173  
   0.038998100     0.8690022    0.0576104  
   0.040998000     0.8697544   -0.0765082  
   0.042997900     0.8490841   -0.2090808  
   0.044997800     0.7857237   -0.3118979  
   0.046997700     0.7462295   -0.4568642  
   0.048997600     0.6671464   -0.5654082  
   0.050997500     0.5721279   -0.6600112  
   0.052997400     0.4661834   -0.7375686  
   0.054997300     0.3463205   -0.8000701  
   0.056997200     0.2204708   -0.8426793  
   0.058997100     0.0906141   -0.8659520  
   0.060997000    -0.0409593   -0.8696530  
   0.062996900    -0.1710039   -0.8534611  
   0.064996800    -0.2970028   -0.8182114  
   0.066996700    -0.4160994   -0.7645538  
   0.068996600    -0.5253981   -0.6934133  
   0.070996500    -0.6222588   -0.6068640  
   0.072996400    -0.7050316   -0.5066958  
   0.074996300    -0.7715040   -0.3953315  
   0.076996200    -0.8199976   -0.2752064  
   0.078996100    -0.8499081   -0.1492413  
   0.080996000    -0.8604097   -0.0202108  
   0.082995900    -0.8515633    0.1091384  
   0.084995800    -0.8228147    0.2354710  
   0.086995700    -0.7755626    0.3562305  
   0.088995600    -0.7104649    0.4686487  
   0.090995500    -0.6287684    0.5700583  
   0.092995400    -0.5321601    0.6580552  
   0.094995300    -0.4232153    0.7302376  
   0.096995200    -0.3038616    0.7852824  
   0.098995100    -0.1770781    0.8209789  
   0.100995000    -0.0458513    0.8360851  
   0.102994900     0.0861252    0.8305081  
   0.104994800     0.2158783    0.8042853  
   0.106994700     0.3401164    0.7575707  
   0.108994600     0.4556086    0.6918122  
   0.110994500     0.5593315    0.6084783  
   0.112994400     0.6483945    0.5094965  
   0.114994300     0.7205520    0.3978376  
   0.116994200     0.7740043    0.2760205  
   0.118994100     0.8077210    0.1474123  
   0.120994000     0.8201491    0.0152851  
   0.122993900     0.8113511   -0.1168073  
   0.124993800     0.7820480   -0.2454977  
   0.126993700     0.7328168   -0.3675689  
   0.128993600     0.6650462   -0.4802257  
   0.130993500     0.5805144   -0.5800558  
   0.132993400     0.4821846   -0.6649067  
   0.134993300     0.3720565   -0.7333474  
   0.136993200     0.2532976   -0.7833002  
   0.138993100     0.1286981   -0.8140410  
   0.140993000     0.0018965   -0.8253135  
   0.142992900    -0.1250975   -0.8170613  
   0.144992800    -0.2483058   -0.7897332  
   0.146992700    -0.3657954   -0.7440884  
   0.148992600    -0.4740964   -0.6815867  
   0.150992500    -0.5716950   -0.6038518  
   0.152992400    -0.6558769   -0.5121891  
   0.154992300    -0.7254663   -0.4101789  
   0.156992200    -0.7789944   -0.2985295  
   0.158992100    -0.8154418   -0.1809543  
   0.160992000    -0.8334700   -0.0588076  
   0.162991900    -0.8339013    0.0640090  
   0.164991800    -0.8158577    0.1859723  
   0.166991700    -0.7800856    0.3034301  
   0.168991600    -0.7274324    0.4144194  
   0.170991500    -0.6586235    0.5170553  
   0.172991400    -0.5753213    0.6079489  
   0.174991300    -0.4792950    0.6858516  
   0.176991200    -0.3723825    0.7487469  
   0.178991100    -0.2565184    0.7954227  
   0.180991000    -0.1350432    0.8240942  
   0.182990900    -0.0102163    0.8341662  
   0.184990800     0.1154580    0.8255665  
   0.186990700     0.2395045    0.7978204  
   0.188990600     0.3350012    0.7610779  
   0.190990500     0.4637620    0.6887070  
   0.192990400     0.5660586    0.6058272  
   0.194990300     0.6519615    0.5104712  
   0.196990200     0.7218519    0.4025194  
   0.198990100     0.7745557    0.2849576  
   0.200990000     0.8083540    0.1598384  
   0.202989900     0.8219159    0.0303480  
   0.204989800     0.8151265   -0.0996865  
   0.206989700     0.7877760   -0.2268706  
   0.208989600     0.7408167   -0.3477677  
   0.210989500     0.6750470   -0.4605019  
   0.212989400     0.5920563   -0.5614075  
   0.214989300     0.4940928   -0.6478208  
   0.216989200     0.3843392   -0.7168003  
   0.218989100     0.2653053   -0.7676801  
   0.220989000     0.1399305   -0.7989849  
   0.222988900     0.0109303   -0.8097664  
   0.224988800    -0.1178574   -0.8002136  
   0.226988700    -0.2425466   -0.7701079  
   0.228988600    -0.3605499   -0.7212690  
   0.230988500    -0.4688552   -0.6548175  
   0.232988400    -0.5649719   -0.5722257  
   0.234988300    -0.6467788   -0.4754971  
   0.236988200    -0.7124350   -0.3676538  
   0.238988100    -0.7600786   -0.2512263  
   0.240988000    -0.7888618   -0.1295101  
   0.242987900    -0.7980742   -0.0054618  
   0.244987800    -0.7882864    0.1177968  
   0.246987700    -0.7592430    0.2383189  
   0.248987600    -0.7119982    0.3531525  
   0.250987500    -0.6476611    0.4591017  
   0.252987400    -0.5677875    0.5533862  
   0.254987300    -0.4749888    0.6338515  
   0.256987200    -0.3710343    0.6988416  
   0.258987100    -0.2585269    0.7474833  
   0.260987000    -0.1393072    0.7780451  
   0.262986900    -0.0165019    0.7899272  
   0.264986800     0.1068532    0.7829032  
   0.266986700     0.2280423    0.7566297  
   0.268986600     0.3435791    0.7122201  
   0.270986500     0.4504031    0.6506266  
   0.272986400     0.5468434    0.5732111  
   0.274986300     0.6300674    0.4817784  
   0.276986200     0.6983709    0.3778939  
   0.278986100     0.7503909    0.2644728  
   0.280986000     0.7841232    0.1437665  
   0.282985900     0.7987232    0.0188500  
   0.284985800     0.7934648   -0.1069209  
   0.286985700     0.7687562   -0.2303557  
   0.288985600     0.7251111   -0.3479708  
   0.290985500     0.6640729   -0.4568781  
   0.292985400     0.5869983   -0.5551139  
   0.294985300     0.4955513   -0.6402252  
   0.296985200     0.3915555   -0.7103848  
   0.298985100     0.2775467   -0.7637718  
   0.300985000     0.1560923   -0.7985781  
   0.302984900     0.0314213   -0.8143375  
   0.304984800    -0.0940725   -0.8103026  
   0.306984700    -0.2170750   -0.7868235  
   0.308984600    -0.3335828   -0.7450340  
   0.310984500    -0.4420129   -0.6865779  
   0.312984400    -0.5398651   -0.6124076  
   0.314984300    -0.6248102   -0.5244259  
   0.316984200    -0.6955944   -0.4252020  
   0.318984100    -0.7504776   -0.3154013  
   0.320984000    -0.7880087   -0.1982423  
   0.322983900    -0.8077180   -0.0766383  
   0.324983800    -0.8081384    0.0463578  
   0.326983700    -0.7900521    0.1674389  
   0.328983600    -0.7536079    0.2843902  
   0.330983500    -0.7001268    0.3937149  
   0.332983400    -0.6309877    0.4932363  
   0.334983300    -0.5479715    0.5806702  
   0.336983200    -0.4521725    0.6549734  
   0.338983100    -0.3464732    0.7139096  
   0.340983000    -0.2331506    0.7557334  
   0.342982900    -0.1145663    0.7800766  
   0.344982800     0.0071840    0.7858474  
   0.346982700     0.1292962    0.7731065  
   0.348982600     0.2485190    0.7410926  
   0.350982500     0.3615111    0.6908966  
   0.352982400     0.4657176    0.6230367  
   0.354982300     0.5616849    0.5362131  
   0.356982200     0.6494030    0.4227494  
   0.358982100     0.7151429    0.2959059  
   0.360982000     0.7568296    0.1593105  
   0.362981900     0.7734906    0.0176198  
   0.364981800     0.7637432   -0.1252045  
   0.366981700     0.7282020   -0.2641902  
   0.368981600     0.6679047   -0.3947062  
   0.370981500     0.5847183   -0.5120559  
   0.372981400     0.4810963   -0.6121799  
   0.374981300     0.3601826   -0.6918648  
   0.376981200     0.4518117   -0.6282653  
   0.378981100     0.3287258   -0.7025800  
   0.380981000     0.1940881   -0.7531481  
   0.382980900     0.0652948   -0.7766992  
   0.384980800    -0.0594405   -0.7790779  
   0.386980700    -0.1829552   -0.7617208  
   0.388980600    -0.3013533   -0.7249445  
   0.390980500    -0.4116797   -0.6704235  
   0.392980400    -0.5113276   -0.6003954  
   0.394980300    -0.5980027   -0.5166270  
   0.396980200    -0.6706777   -0.4211484  
   0.398980100    -0.7279891   -0.3163364  
   0.400980000    -0.7680305   -0.2047528  
   0.402979900    -0.7912402   -0.0884989  
   0.404979800    -0.7967357    0.0290905  
   0.406979700    -0.7849565    0.1455274  
   0.408979600    -0.7560045    0.2587351  
   0.410979500    -0.7104041    0.3665434  
   0.412979400    -0.6494026    0.4671468  
   0.414979300    -0.5738135    0.5576127  
   0.416979200    -0.4860248    0.6360290  
   0.418979100    -0.3873243    0.7001736  
   0.420979000    -0.2801419    0.7491958  
   0.422978900    -0.1662145    0.7816826  
   0.424978800    -0.0483584    0.7969953  
   0.426978700     0.0713169    0.7943264  
   0.428978600     0.1896074    0.7737381  
   0.430978500     0.3032627    0.7353280  
   0.432978400     0.4096776    0.6797894  
   0.434978300     0.5070923    0.6087880  
   0.436978200     0.5927449    0.5233365  
   0.438978100     0.6644100    0.4251097  
   0.440978000     0.7203574    0.3163249  
   0.442977900     0.7590593    0.1995410  
   0.444977800     0.7788312    0.0779297  
   0.446977700     0.7791322   -0.0460167  
   0.448977600     0.7596301   -0.1688925  
   0.450977500     0.7211250   -0.2871689  
   0.452977400     0.6636010   -0.3985122  
   0.454977300     0.5882810   -0.5001764  
   0.456977200     0.4965914   -0.5886638  
   0.458977100     0.3920775   -0.6609750  
   0.460977000     0.2764763   -0.7151170  
   0.462976900     0.1541510   -0.7495807  
   0.464976800     0.0281911   -0.7633773  
   0.466976700    -0.0981698   -0.7566156  
   0.468976600    -0.2215298   -0.7293493  
   0.470976500    -0.3380801   -0.6823889  
   0.472976400    -0.4453463   -0.6176113  
   0.474976300    -0.5400555   -0.5364382  
   0.476976200    -0.6196397   -0.4415697  
   0.478976100    -0.6830807   -0.3364278  
   0.480976000    -0.7281451   -0.2235797  
   0.482975900    -0.7548193   -0.1059934  
   0.484975800    -0.7628189    0.0133855  
   0.486975700    -0.7523369    0.1324351  
   0.488975600    -0.7235757    0.2478910  
   0.490975500    -0.6773455    0.3570528  
   0.492975400    -0.6154372    0.4577118  
   0.494975300    -0.5391256    0.5475892  
   0.496975200    -0.4497291    0.6245188  
   0.498975100    -0.3502606    0.6867394  
   0.500975000    -0.2427388    0.7332191  
   0.502974900    -0.1296968    0.7628539  
   0.504974800    -0.0134666    0.7749913  
   0.506974700     0.1040035    0.7691196  
   0.508974600     0.2201286    0.7456579  
   0.510974500     0.3313873    0.7046758  
   0.512974400     0.4351731    0.6466976  
   0.514974300     0.5291248    0.5738424  
   0.516974200     0.6113394    0.4875548  
   0.518974100     0.6788602    0.3895546  
   0.520974000     0.7309951    0.2819799  
   0.522973900     0.7660461    0.1670520  
   0.524973800     0.7832223    0.0484397  
   0.526973700     0.7816586   -0.0725669  
   0.528973600     0.7616948   -0.1922654  
   0.530973500     0.7227989   -0.3078951  
   0.532973400     0.6665023   -0.4163388  
   0.534973300     0.5936317   -0.5149602  
   0.536973200     0.5060232   -0.6014301  
   0.538973100     0.4064708   -0.6726790  
   0.540973000     0.2966328   -0.7274177  
   0.542972900     0.1797966   -0.7643694  
   0.544972800     0.0586725   -0.7826319  
   0.546972700    -0.0643572   -0.7821317  
   0.548972600    -0.1861777   -0.7617849  
   0.550972500    -0.3031249   -0.7228034  
   0.552972400    -0.4125431   -0.6658462  
   0.554972300    -0.5115512   -0.5919075  
   0.556972200    -0.5980581   -0.5037502  
   0.558972100    -0.6689006   -0.4030091  
   0.560972000    -0.7232582   -0.2926608  
   0.562971900    -0.7590614   -0.1757365  
   0.564971800    -0.7762691   -0.0549760  
   0.566971700    -0.7739865    0.0661095  
   0.568971600    -0.7533403    0.1852745  
   0.570971500    -0.7143367    0.2994225  
   0.572971400    -0.6578283    0.4060633  
   0.574971300    -0.5853415    0.5025334  
   0.576971200    -0.4983723    0.5869339  
   0.578971100    -0.3990397    0.6566604  
   0.580971000    -0.2901061    0.7096609  
   0.582970900    -0.1743496    0.7447056  
   0.584970800    -0.0545811    0.7614841  
   0.586970700     0.0662110    0.7590011  
   0.588970600     0.1849497    0.7374504  
   0.590970500     0.2985451    0.6974184  
   0.592970400     0.4049158    0.6398477  
   0.594970300     0.5008734    0.5660235  
   0.596970200     0.5841234    0.4779710  
   0.598970100     0.6523777    0.3771763  
   0.600970000     0.7038979    0.2666679  
   0.602969900     0.7369806    0.1491729  
   0.604969800     0.7510903    0.0271500  
   0.606969700     0.7453919   -0.0958358  
   0.608969600     0.7198039   -0.2166576  
   0.610969500     0.6749206   -0.3319746  
   0.612969400     0.6120063   -0.4386574  
   0.614969300     0.5329207   -0.5331690  
   0.616969200     0.4394774   -0.6140279  
   0.618969100     0.3353576   -0.6778759  
   0.620969000     0.2230313   -0.7243361  
   0.622968900     0.1043849   -0.7524897  
   0.624968800    -0.0167627   -0.7617700  
   0.626968700    -0.1381945   -0.7514697  
   0.628968600    -0.2561373   -0.7225364  
   0.630968500    -0.3680932   -0.6752812  
   0.632968400    -0.4711256   -0.6115844  
   0.634968300    -0.5623842   -0.5327257  
   0.636968200    -0.6402401   -0.4408954  
   0.638968100    -0.7026227   -0.3382299  
   0.640968000    -0.7479485   -0.2276733  
   0.642967900    -0.7765476   -0.1118696  
   0.644967800    -0.7867902    0.0066993  
   0.646967700    -0.7786372    0.1248797  
   0.648967600    -0.7525750    0.2400642  
   0.650967500    -0.7105689    0.3494038  
   0.652967400    -0.6522715    0.4509402  
   0.654967300    -0.5798178    0.5423430  
   0.656967200    -0.4948109    0.6217635  
   0.658967100    -0.3987825    0.6878042  
   0.660967000    -0.2939039    0.7387671  
   0.662966900    -0.1819282    0.7734705  
   0.664966800    -0.0650322    0.7913678  
   0.666966700     0.0539808    0.7915296  
   0.668966600     0.1712893    0.7735443  
   0.670966500     0.2854094    0.7375927  
   0.672966400     0.3928846    0.6839857  
   0.674966300     0.4911674    0.6152315  
   0.676966200     0.5781063    0.5317340  
   0.678966100     0.6509541    0.4358602  
   0.680966000     0.7085059    0.3294430  
   0.682965900     0.7488406    0.2151703  
   0.684965800     0.7711653    0.0958945  
   0.686965700     0.7743126   -0.0264789  
   0.688965600     0.7583851   -0.1479468  
   0.690965500     0.7232996   -0.2658368  
   0.692965400     0.6698592   -0.3766636  
   0.694965300     0.5997607   -0.4777693  
   0.696965200     0.5142298   -0.5666143  
   0.698965100     0.4153554   -0.6406628  
   0.700965000     0.3058252   -0.6981109  
   0.702964900     0.1884913   -0.7372722  
   0.704964800     0.0660196   -0.7572411  
   0.706964700    -0.0575241   -0.7569472  
   0.708964600    -0.1794152   -0.7370970  
   0.710964500    -0.2966119   -0.6978337  
   0.712964400    -0.4054648   -0.6402736  
   0.714964300    -0.5032323   -0.5660464  
   0.716964200    -0.5873026   -0.4782129  
   0.718964100    -0.6558774   -0.3787227  
   0.720964000    -0.7075108   -0.2703967  
   0.722963900    -0.7413704   -0.1563563  
   0.724963800    -0.7573990   -0.0388837  
   0.726963700    -0.7548525    0.0787618  
   0.728963600    -0.7345819    0.1944770  
   0.730963500    -0.6967368    0.3051916  
   0.732963400    -0.6427422    0.4083506  
   0.734963300    -0.5737402    0.5021101  
   0.736963200    -0.4768982    0.5948911  
   0.738963100    -0.3646529    0.6698196  
   0.740963000    -0.2406806    0.7241933  
   0.742962900    -0.1087490    0.7563365  
   0.744962800     0.0270676    0.7649332  
   0.746962700     0.1627304    0.7501960  
   0.748962600     0.2941880    0.7113312  
   0.750962500     0.1640513    0.7501552  
   0.752962400     0.2945701    0.7098417  
   0.754962300     0.4164118    0.6472084  
   0.756962200     0.5254384    0.5635970  
   0.758962100     0.6186246    0.4620493  
   0.760962000     0.6929221    0.3454772  
   0.762961900     0.7436193    0.2234058  
   0.764961800     0.7707564    0.1066661  
   0.766961700     0.7793998   -0.0132111  
   0.768961600     0.7694473   -0.1341497  
   0.770961500     0.7407898   -0.2517547  
   0.772961400     0.6941072   -0.3641212  
   0.774961300     0.6307050   -0.4679837  
   0.776961200     0.5509449   -0.5609890  
   0.778961100     0.4573502   -0.6409821  
   0.780961000     0.3520086   -0.7054402  
   0.782960900     0.2371645   -0.7523062  
   0.784960800     0.1158560   -0.7811127  
   0.786960700    -0.0088134   -0.7896648  
   0.788960600    -0.1331325   -0.7786029  
   0.790960500    -0.2539495   -0.7478442  
   0.792960400    -0.3678827   -0.6978811  
   0.794960300    -0.4719647   -0.6310177  
   0.796960200    -0.5639740   -0.5486397  
   0.798960100    -0.6413129   -0.4535992  
   0.800960000    -0.7022401   -0.3480591  
   0.802959900    -0.7458245   -0.2347417  
   0.804959800    -0.7711534   -0.1169843  
   0.806959700    -0.7777061    0.0028410  
   0.808959600    -0.7660514    0.1214308  
   0.810959500    -0.7362643    0.2363814  
   0.812959400    -0.6893353    0.3447340  
   0.814959300    -0.6267750    0.4442739  
   0.816959200    -0.5499818    0.5326402  
   0.818959100    -0.4607617    0.6083918  
   0.820959000    -0.3609738    0.6694229  
   0.822958900    -0.2535167    0.7146637  
   0.824958800    -0.1401331    0.7430678  
   0.826958700    -0.0238646    0.7537447  
   0.828958600     0.0927169    0.7461494  
   0.830958500     0.2069962    0.7212333  
   0.832958400     0.3162887    0.6791654  
   0.834958300     0.4179194    0.6206276  
   0.836958200     0.5092243    0.5471213  
   0.838958100     0.5886301    0.4602629  
   0.840958000     0.6539624    0.3613858  
   0.842957900     0.7032248    0.2535343  
   0.844957800     0.7357114    0.1381343  
   0.846957700     0.7495196    0.0191100  
   0.848957600     0.7441005   -0.1015383  
   0.850957500     0.7196954   -0.2200211  
   0.852957400     0.6766496   -0.3334163  
   0.854957300     0.6160515   -0.4389775  
   0.856957200     0.5392336   -0.5335178  
   0.858957100     0.4481646   -0.6149275  
   0.860957000     0.3456116   -0.6803489  
   0.862956900     0.2342385   -0.7287004  
   0.864956800     0.1174680   -0.7588472  
   0.866956700    -0.0025960   -0.7705426  
   0.868956600    -0.1223530   -0.7634650  
   0.870956500    -0.2394129   -0.7375662  
   0.872956400    -0.3509688   -0.6942578  
   0.874956300    -0.4540168   -0.6343558  
   0.876956200    -0.5464966   -0.5591762  
   0.878956100    -0.6265256   -0.4711215  
   0.880956000    -0.6915278   -0.3719108  
   0.882955900    -0.7405793   -0.2643445  
   0.884955800    -0.7725303   -0.1505082  
   0.886955700    -0.7869123   -0.0335391  
   0.888955600    -0.7834229    0.0835334  
   0.890955500    -0.7626199    0.1988405  
   0.892955400    -0.7245283    0.3089426  
   0.894955300    -0.6705940    0.4122982  
