! MS46122B
! 2250307/22442219
! 6/18/2025 7:51:59 AM
! C:\USERS\SPARKY\DOCUMENTS\VNA_DATA\JUNE18_2025\3.0K\PORT3_MOS5.S1P
! CHANNEL.1
! TR.MEASUREMENT
! RAW.DATA
# GHZ S RI R 50.0
! FREQ.GHZ         S11RE         S11IM         
!; PortSelection: Port_1
   0.001000000    -0.8817968    0.0515150  
   0.002999900    -0.8558590    0.2496833  
   0.004999800    -0.8189620    0.3909570  
   0.006999700    -0.7560080    0.5171547  
   0.008999600    -0.6698642    0.6268233  
   0.010999500    -0.5648420    0.7176427  
   0.012999400    -0.4444969    0.7880567  
   0.014999300    -0.3135878    0.8367239  
   0.016999200    -0.1766155    0.8639653  
   0.018999100    -0.0370072    0.8697927  
   0.020999000     0.1013169    0.8550277  
   0.022998900     0.2353200    0.8204250  
   0.024998800     0.3343954    0.7492825  
   0.026998700     0.4789490    0.6978253  
   0.028998600     0.5838091    0.6121833  
   0.030998500     0.6742377    0.5130704  
   0.032998400     0.7150955    0.4026354  
   0.034998300     0.8051538    0.2810918  
   0.036998200     0.8419178    0.1527289  
   0.038998100     0.8582107    0.0199395  
   0.040998000     0.8533263   -0.1138955  
   0.042997900     0.8264379   -0.2453478  
   0.044997800     0.7586062   -0.3448789  
   0.046997700     0.7120023   -0.4871335  
   0.048997600     0.6272072   -0.5913314  
   0.050997500     0.5274885   -0.6804962  
   0.052997400     0.4175309   -0.7519046  
   0.054997300     0.2944429   -0.8074493  
   0.056997200     0.1665257   -0.8423288  
   0.058997100     0.0355955   -0.8575454  
   0.060997000    -0.0957106   -0.8527718  
   0.062996900    -0.2243918   -0.8282455  
   0.064996800    -0.3474748   -0.7845472  
   0.066996700    -0.4621602   -0.7225178  
   0.068996600    -0.5660622   -0.6438932  
   0.070996500    -0.6562339   -0.5502099  
   0.072996400    -0.7308850   -0.4441254  
   0.074996300    -0.7881400   -0.3278494  
   0.076996200    -0.8269873   -0.2041420  
   0.078996100    -0.8460032   -0.0759604  
   0.080996000    -0.8453701    0.0533957  
   0.082995900    -0.8249516    0.1813147  
   0.084995800    -0.7850141    0.3048612  
   0.086995700    -0.7264410    0.4207130  
   0.088995600    -0.6505678    0.5266854  
   0.090995500    -0.5592926    0.6197255  
   0.092995400    -0.4540253    0.6973038  
   0.094995300    -0.3374852    0.7579413  
   0.096995200    -0.2129937    0.7997643  
   0.098995100    -0.0829717    0.8211467  
   0.100995000     0.0495269    0.8217331  
   0.102994900     0.1799719    0.8006181  
   0.104994800     0.3061677    0.7591639  
   0.106994700     0.4239892    0.6976966  
   0.108994600     0.5305365    0.6181504  
   0.110994500     0.6228418    0.5222716  
   0.112994400     0.6985977    0.4128209  
   0.114994300     0.7555407    0.2925372  
   0.116994200     0.7923698    0.1646990  
   0.118994100     0.8079276    0.0330082  
   0.120994000     0.8023127   -0.0992680  
   0.122993900     0.7752274   -0.2287111  
   0.124993800     0.7280765   -0.3516292  
   0.126993700     0.6619439   -0.4650764  
   0.128993600     0.5790225   -0.5664974  
   0.130993500     0.4813147   -0.6525160  
   0.132993400     0.3716638   -0.7219527  
   0.134993300     0.2530085   -0.7728742  
   0.136993200     0.1283729   -0.8041989  
   0.138993100     0.0011238   -0.8155952  
   0.140993000    -0.1258229   -0.8073359  
   0.142992900    -0.2494437   -0.7796464  
   0.144992800    -0.3664852   -0.7332935  
   0.146992700    -0.4749144   -0.6699822  
   0.148992600    -0.5723087   -0.5911300  
   0.150992500    -0.6555534   -0.4985653  
   0.152992400    -0.7240440   -0.3948909  
   0.154992300    -0.7758786   -0.2822778  
   0.156992200    -0.8105597   -0.1633897  
   0.158992100    -0.8262874   -0.0405752  
   0.160992000    -0.8238167    0.0828291  
   0.162991900    -0.8028447    0.2044550  
   0.164991800    -0.7636715    0.3220515  
   0.166991700    -0.7072911    0.4320484  
   0.168991600    -0.6350069    0.5327424  
   0.170991500    -0.5478541    0.6218578  
   0.172991400    -0.4483404    0.6965241  
   0.174991300    -0.3383309    0.7553997  
   0.176991200    -0.2199831    0.7973077  
   0.178991100    -0.0959396    0.8208988  
   0.180991000     0.0303555    0.8249705  
   0.182990900     0.1560018    0.8096837  
   0.184990800     0.2793639    0.7748800  
   0.186990700     0.3959705    0.7213138  
   0.188990600     0.4834324    0.6639096  
   0.190990500     0.5946112    0.5644108  
   0.192990400     0.6772416    0.4599913  
   0.194990300     0.7403503    0.3461965  
   0.196990200     0.7846862    0.2236103  
   0.198990100     0.8088616    0.0954578  
   0.200990000     0.8123302   -0.0355531  
   0.202989900     0.7944322   -0.1661093  
   0.204989800     0.7559860   -0.2916968  
   0.206989700     0.6978132   -0.4093920  
   0.208989600     0.6214596   -0.5159549  
   0.210989500     0.5286787   -0.6091307  
   0.212989400     0.4217643   -0.6860552  
   0.214989300     0.3044299   -0.7443798  
   0.216989200     0.1796849   -0.7827666  
   0.218989100     0.0507447   -0.8002999  
   0.220989000    -0.0788239   -0.7970075  
   0.222988900    -0.2064740   -0.7730913  
   0.224988800    -0.3281739   -0.7284861  
   0.226988700    -0.4402997   -0.6654832  
   0.228988600    -0.5405168   -0.5859618  
   0.230988500    -0.6263564   -0.4917374  
   0.232988400    -0.6958488   -0.3853153  
   0.234988300    -0.7473717   -0.2691486  
   0.236988200    -0.7800841   -0.1466892  
   0.238988100    -0.7926039   -0.0209391  
   0.240988000    -0.7849005    0.1042346  
   0.242987900    -0.7579263    0.2264827  
   0.244987800    -0.7127314    0.3422050  
   0.246987700    -0.6493033    0.4497616  
   0.248987600    -0.5697036    0.5463657  
   0.250987500    -0.4759312    0.6292560  
   0.252987400    -0.3705216    0.6961442  
   0.254987300    -0.2563866    0.7455319  
   0.256987200    -0.1362642    0.7762194  
   0.258987100    -0.0128506    0.7882380  
   0.260987000     0.1116950    0.7806709  
   0.262986900     0.2340193    0.7535173  
   0.264986800     0.3507486    0.7076421  
   0.266986700     0.4593790    0.6437648  
   0.268986600     0.5562194    0.5633995  
   0.270986500     0.6393325    0.4691417  
   0.272986400     0.7066066    0.3626629  
   0.274986300     0.7568135    0.2470203  
   0.276986200     0.7878281    0.1244049  
   0.278986100     0.7994903   -0.0020190  
   0.280986000     0.7907960   -0.1294111  
   0.282985900     0.7623367   -0.2541406  
   0.284985800     0.7138324   -0.3729823  
   0.286985700     0.6472520   -0.4823257  
   0.288985600     0.5648511   -0.5796787  
   0.290985500     0.4681662   -0.6621889  
   0.292985400     0.3599720   -0.7284088  
   0.294985300     0.2426308   -0.7766752  
   0.296985200     0.1188855   -0.8066134  
   0.298985100    -0.0087233   -0.8162637  
   0.300985000    -0.1362275   -0.8055433  
   0.302984900    -0.2602560   -0.7749099  
   0.304984800    -0.3772854   -0.7253318  
   0.306984700    -0.4848957   -0.6580665  
   0.308984600    -0.5796713   -0.5757624  
   0.310984500    -0.6602037   -0.4802215  
   0.312984400    -0.7249081   -0.3741246  
   0.314984300    -0.7719786   -0.2591830  
   0.316984200    -0.8008866   -0.1388115  
   0.318984100    -0.8115389   -0.0146316  
   0.320984000    -0.8020319    0.1099107  
   0.322983900    -0.7734320    0.2322741  
   0.324983800    -0.7264556    0.3479159  
   0.326983700    -0.6619295    0.4549881  
   0.328983600    -0.5815870    0.5504165  
   0.330983500    -0.4876681    0.6320571  
   0.332983400    -0.3828087    0.6980832  
   0.334983300    -0.2689790    0.7468343  
   0.336983200    -0.1484848    0.7774194  
   0.338983100    -0.0248968    0.7887836  
   0.340983000     0.0991139    0.7808005  
   0.342982900     0.2208889    0.7536341  
   0.344982800     0.3374200    0.7069650  
   0.346982700     0.4462234    0.6423010  
   0.348982600     0.5437853    0.5606283  
   0.350982500     0.6268643    0.4640734  
   0.352982400     0.6935745    0.3547036  
   0.354982300     0.7438072    0.2309719  
   0.356982200     0.7741523    0.0865966  
   0.358982100     0.7771813   -0.0605712  
   0.360982000     0.7528366   -0.2054158  
   0.362981900     0.7024671   -0.3431776  
   0.364981800     0.6270835   -0.4698200  
   0.366981700     0.5293456   -0.5802134  
   0.368981600     0.4125876   -0.6706282  
   0.370981500     0.2815271   -0.7374836  
   0.372981400     0.1398764   -0.7790431  
   0.374981300    -0.0072918   -0.7930915  
   0.376981200     0.1072193   -0.7818092  
   0.378981100    -0.0396703   -0.7907406  
   0.380981000    -0.1854465   -0.7725297  
   0.382980900    -0.3125742   -0.7325739  
   0.384980800    -0.4263934   -0.6753519  
   0.386980700    -0.5290600   -0.6007259  
   0.388980600    -0.6180092   -0.5114878  
   0.390980500    -0.6915309   -0.4097763  
   0.392980400    -0.7481717   -0.2994289  
   0.394980300    -0.7861609   -0.1823472  
   0.396980200    -0.8060546   -0.0616252  
   0.398980100    -0.8072662    0.0604062  
   0.400980000    -0.7902515    0.1807377  
   0.402979900    -0.7549927    0.2971599  
   0.404979800    -0.7027429    0.4060030  
   0.406979700    -0.6350783    0.5062259  
   0.408979600    -0.5530372    0.5947616  
   0.410979500    -0.4584569    0.6705732  
   0.412979400    -0.3525778    0.7314780  
   0.414979300    -0.2380530    0.7759175  
   0.416979200    -0.1180910    0.8019676  
   0.418979100     0.0047647    0.8098840  
   0.420979000     0.1281441    0.7987539  
   0.422978900     0.2492035    0.7686368  
   0.424978800     0.3645777    0.7197202  
   0.426978700     0.4715734    0.6527640  
   0.428978600     0.5672984    0.5693797  
   0.430978500     0.6486912    0.4716111  
   0.432978400     0.7136843    0.3618465  
   0.434978300     0.7605171    0.2427454  
   0.436978200     0.7877946    0.1170509  
   0.438978100     0.7944408   -0.0119471  
   0.440978000     0.7799804   -0.1409156  
   0.442977900     0.7444255   -0.2663405  
   0.444977800     0.6887196   -0.3845895  
   0.446977700     0.6145409   -0.4919701  
   0.448977600     0.5230344   -0.5859044  
   0.450977500     0.4176815   -0.6641161  
   0.452977400     0.3003451   -0.7233496  
   0.454977300     0.1741071   -0.7624557  
   0.456977200     0.0425697   -0.7801703  
   0.458977100    -0.0900667   -0.7755504  
   0.460977000    -0.2189764   -0.7488986  
   0.462976900    -0.3415783   -0.7015070  
   0.464976800    -0.4538736   -0.6347900  
   0.466976700    -0.5533091   -0.5508177  
   0.468976600    -0.6371197   -0.4524010  
   0.470976500    -0.7036101   -0.3419398  
   0.472976400    -0.7508186   -0.2230322  
   0.474976300    -0.7780557   -0.0987312  
   0.476976200    -0.7849503    0.0277024  
   0.478976100    -0.7720078    0.1528000  
   0.480976000    -0.7394346    0.2724983  
   0.482975900    -0.6889274    0.3851261  
   0.484975800    -0.6221575    0.4879980  
   0.486975700    -0.5405489    0.5794743  
   0.488975600    -0.4459850    0.6568508  
   0.490975500    -0.3405327    0.7189914  
   0.492975400    -0.2269881    0.7641947  
   0.494975300    -0.1080795    0.7915862  
   0.496975200     0.0141462    0.8005175  
   0.498975100     0.1360261    0.7905226  
   0.500975000     0.2550615    0.7621823  
   0.502974900     0.3685591    0.7156636  
   0.504974800     0.4738306    0.6522614  
   0.506974700     0.5691175    0.5730024  
   0.508974600     0.6517677    0.4787422  
   0.510974500     0.7188951    0.3721793  
   0.512974400     0.7690982    0.2558424  
   0.514974300     0.8002434    0.1330842  
   0.516974200     0.8118007    0.0066548  
   0.518974100     0.8036131   -0.1203085  
   0.520974000     0.7752208   -0.2449293  
   0.522973900     0.7271361   -0.3637953  
   0.524973800     0.6609730   -0.4739672  
   0.526973700     0.5774583   -0.5726252  
   0.528973600     0.4793209   -0.6571180  
   0.530973500     0.3681664   -0.7252477  
   0.532973400     0.2475016   -0.7740710  
   0.534973300     0.1203175   -0.8034660  
   0.536973200    -0.0103990   -0.8118337  
   0.538973100    -0.1399129   -0.7993522  
   0.540973000    -0.2654945   -0.7659770  
   0.542972900    -0.3840774   -0.7132344  
   0.544972800    -0.4919461   -0.6423749  
   0.546972700    -0.5881039   -0.5547569  
   0.548972600    -0.6684418   -0.4529985  
   0.550972500    -0.7316322   -0.3397596  
   0.552972400    -0.7756619   -0.2178387  
   0.554972300    -0.7996906   -0.0906154  
   0.556972200    -0.8028375    0.0386611  
   0.558972100    -0.7851656    0.1664244  
   0.560972000    -0.7474889    0.2891926  
   0.562971900    -0.6908787    0.4040733  
   0.564971800    -0.6169519    0.5080458  
   0.566971700    -0.5277941    0.5985376  
   0.568971600    -0.4256860    0.6734807  
   0.570971500    -0.3130975    0.7315343  
   0.572971400    -0.1925677    0.7708685  
   0.574971300    -0.0671342    0.7905284  
   0.576971200     0.0602868    0.7898021  
   0.578971100     0.1868014    0.7690404  
   0.580971000     0.3081435    0.7278800  
   0.582970900     0.4212539    0.6676367  
   0.584970800     0.5228345    0.5904179  
   0.586970700     0.6112195    0.4978130  
   0.588970600     0.6832614    0.3921803  
   0.590970500     0.7374346    0.2760859  
   0.592970400     0.7724579    0.1529019  
   0.594970300     0.7871736    0.0251157  
   0.596970200     0.7814330   -0.1028844  
   0.598970100     0.7546967   -0.2289852  
   0.600970000     0.7081409   -0.3491751  
   0.602969900     0.6427583   -0.4604700  
   0.604969800     0.5600931   -0.5600677  
   0.606969700     0.4625231   -0.6452971  
   0.608969600     0.3520449   -0.7133317  
   0.610969500     0.2321479   -0.7630650  
   0.612969400     0.1060704   -0.7925867  
   0.614969300    -0.0225903   -0.8014855  
   0.616969200    -0.1503875   -0.7900667  
   0.618969100    -0.2734695   -0.7582703  
   0.620969000    -0.3897811   -0.7081668  
   0.622968900    -0.4966897   -0.6407961  
   0.624968800    -0.5913717   -0.5579250  
   0.626968700    -0.6722525   -0.4614761  
   0.628968600    -0.7369536   -0.3537179  
   0.630968500    -0.7842414   -0.2372989  
   0.632968400    -0.8135381   -0.1158347  
   0.634968300    -0.8232493    0.0085858  
   0.636968200    -0.8141468    0.1331679  
   0.638968100    -0.7861827    0.2542605  
   0.640968000    -0.7402342    0.3699128  
   0.642967900    -0.6772231    0.4764029  
   0.644967800    -0.5990388    0.5725213  
   0.646967700    -0.5069575    0.6555215  
   0.648967600    -0.4038493    0.7238514  
   0.650967500    -0.2919969    0.7752131  
   0.652967400    -0.1737741    0.8093303  
   0.654967300    -0.0514568    0.8252128  
   0.656967200     0.0714331    0.8226932  
   0.658967100     0.1928218    0.8014933  
   0.660967000     0.3104256    0.7618817  
   0.662966900     0.4211072    0.7041361  
   0.664966800     0.5227017    0.6294509  
   0.666966700     0.6124089    0.5393514  
   0.668966600     0.6871170    0.4356628  
   0.670966500     0.7450375    0.3209139  
   0.672966400     0.7839680    0.1987660  
   0.674966300     0.8034652    0.0711913  
   0.676966200     0.8020479   -0.0579318  
   0.678966100     0.7801338   -0.1850935  
   0.680966000     0.7379396   -0.3079752  
   0.682965900     0.6767792   -0.4219586  
   0.684965800     0.5980877   -0.5249992  
   0.686965700     0.5034302   -0.6141936  
   0.688965600     0.3954818   -0.6871445  
   0.690965500     0.2772069   -0.7413962  
   0.692965400     0.1520249   -0.7757298  
   0.694965300     0.0234896   -0.7896439  
   0.696965200    -0.1055349   -0.7821389  
   0.698965100    -0.2312811   -0.7543254  
   0.700965000    -0.3507539   -0.7067320  
   0.702964900    -0.4607302   -0.6406020  
   0.704964800    -0.5581012   -0.5583733  
   0.706964700    -0.6411276   -0.4613956  
   0.708964600    -0.7070304   -0.3531245  
   0.710964500    -0.7550937   -0.2358252  
   0.712964400    -0.7833692   -0.1131215  
   0.714964300    -0.7921582    0.0121300  
   0.716964200    -0.7812707    0.1361132  
   0.718964100    -0.7515603    0.2564387  
   0.720964000    -0.7037488    0.3697525  
   0.722963900    -0.6397709    0.4739347  
   0.724963800    -0.5611177    0.5665264  
   0.726963700    -0.4693783    0.6459880  
   0.728963600    -0.3663069    0.7107660  
   0.730963500    -0.2553144    0.7586252  
   0.732963400    -0.1382949    0.7898538  
   0.734963300    -0.0178478    0.8025429  
   0.736963200     0.1233985    0.7946169  
   0.738963100     0.2620665    0.7611135  
   0.740963000     0.3940233    0.7043445  
   0.742962900     0.5139526    0.6245466  
   0.744962800     0.6189433    0.5247332  
   0.746962700     0.7047307    0.4071418  
   0.748962600     0.7685778    0.2758378  
   0.750962500     0.7000064    0.3973286  
   0.752962400     0.7620888    0.2643989  
   0.754962300     0.7993011    0.1223410  
   0.756962200     0.8102974   -0.0245790  
   0.758962100     0.7944904   -0.1713798  
   0.760962000     0.7520674   -0.3132327  
   0.762961900     0.6881511   -0.4391406  
   0.764961800     0.6109434   -0.5426666  
   0.766961700     0.5180303   -0.6325318  
   0.768961600     0.4115284   -0.7068794  
   0.770961500     0.2945523   -0.7634129  
   0.772961400     0.1704696   -0.7999370  
   0.774961300     0.0424040   -0.8170682  
   0.776961200    -0.0873251   -0.8131736  
   0.778961100    -0.2142370   -0.7882383  
   0.780961000    -0.3356369   -0.7436290  
   0.782960900    -0.4482435   -0.6801810  
   0.784960800    -0.5491305   -0.5996212  
   0.786960700    -0.6355531   -0.5040863  
   0.788960600    -0.7052127   -0.3964782  
   0.790960500    -0.7567920   -0.2797063  
   0.792960400    -0.7890400   -0.1567735  
   0.794960300    -0.8011786   -0.0311860  
   0.796960200    -0.7938649    0.0939125  
   0.798960100    -0.7671016    0.2155559  
   0.800960000    -0.7219653    0.3308559  
   0.802959900    -0.6599352    0.4369775  
   0.804959800    -0.5829501    0.5319222  
   0.806959700    -0.4924705    0.6133543  
   0.808959600    -0.3908141    0.6799535  
   0.810959500    -0.2808747    0.7301019  
   0.812959400    -0.1646176    0.7625810  
   0.814959300    -0.0446766    0.7771308  
   0.816959200     0.0756069    0.7730923  
   0.818959100     0.1941572    0.7501137  
   0.820959000     0.3084748    0.7098685  
   0.822958900     0.4150334    0.6524272  
   0.824958800     0.5122318    0.5788280  
   0.826958700     0.5968366    0.4910564  
   0.828958600     0.6673988    0.3905447  
   0.830958500     0.7215921    0.2797990  
   0.832958400     0.7579726    0.1618695  
   0.834958300     0.7751893    0.0391965  
   0.836958200     0.7733858   -0.0849585  
   0.838958100     0.7517158   -0.2076727  
   0.840958000     0.7105241   -0.3258497  
   0.842957900     0.6511605   -0.4365116  
   0.844957800     0.5745304   -0.5367664  
   0.846957700     0.4828968   -0.6234639  
   0.848957600     0.3783049   -0.6948959  
   0.850957500     0.2633827   -0.7487062  
   0.852957400     0.1412148   -0.7832621  
   0.854957300     0.0155898   -0.7980823  
   0.856957200    -0.1109621   -0.7924491  
   0.858957100    -0.2343507   -0.7671576  
   0.860957000    -0.3516865   -0.7226233  
   0.862956900    -0.4600396   -0.6610584  
   0.864956800    -0.5567102   -0.5838384  
   0.866956700    -0.6398447   -0.4935439  
   0.868956600    -0.7078516   -0.3918748  
   0.870956500    -0.7591310   -0.2816064  
   0.872956400    -0.7930635   -0.1653248  
   0.874956300    -0.8088447   -0.0454381  
   0.876956200    -0.8063326    0.0755618  
   0.878956100    -0.7854919    0.1942706  
   0.880956000    -0.7470818    0.3088678  
   0.882955900    -0.6918185    0.4156428  
   0.884955800    -0.6213968    0.5131339  
   0.886955700    -0.5369470    0.5992106  
   0.888955600    -0.4402144    0.6714119  
   0.890955500    -0.3338130    0.7281879  
   0.892955400    -0.2195426    0.7682930  
   0.894955300    -0.1007698    0.7906706  
