! MS46122B
! 2250307/22442219
! 6/12/2025 7:36:00 AM
! C:\USERS\SPARKY\DOCUMENTS\VNA_DATA\JUNE12_2025\3.1 KELVIN\PORT1.S1P
! CHANNEL.1
! TR.MEASUREMENT
! RAW.DATA
# GHZ S RI R 50.0
! FREQ.GHZ         S11RE         S11IM         
!; PortSelection: Port_1
   0.001000000    -0.9410158    0.0514095  
   0.002999900    -0.9140308    0.2559618  
   0.004999800    -0.8772163    0.4039105  
   0.006999700    -0.8127392    0.5377931  
   0.008999600    -0.7242072    0.6550173  
   0.010999500    -0.6151739    0.7527537  
   0.012999400    -0.4900584    0.8298752  
   0.014999300    -0.3535804    0.8844509  
   0.016999200    -0.2102245    0.9166920  
   0.018999100    -0.0638469    0.9267016  
   0.020999000     0.0817284    0.9149857  
   0.022998900     0.2230918    0.8830831  
   0.024998800     0.3290406    0.8115077  
   0.026998700     0.4823233    0.7625576  
   0.028998600     0.5953922    0.6771234  
   0.030998500     0.6941530    0.5771134  
   0.032998400     0.7414461    0.4630385  
   0.034998300     0.8414171    0.3400074  
   0.036998200     0.8865396    0.2077480  
   0.038998100     0.9106632    0.0696171  
   0.040998000     0.9126529   -0.0708818  
   0.042997900     0.8923762   -0.2099583  
   0.044997800     0.8273224   -0.3179852  
   0.046997700     0.7875098   -0.4702444  
   0.048997600     0.7058557   -0.5846648  
   0.050997500     0.6075476   -0.6847062  
   0.052997400     0.4970642   -0.7674766  
   0.054997300     0.3731352   -0.8336843  
   0.056997200     0.2420572   -0.8799621  
   0.058997100     0.1064733   -0.9058932  
   0.060997000    -0.0308089   -0.9113615  
   0.062996900    -0.1670923   -0.8962947  
   0.064996800    -0.2992608   -0.8609133  
   0.066996700    -0.4244479   -0.8064778  
   0.068996600    -0.5396445   -0.7338423  
   0.070996500    -0.6423061   -0.6447537  
   0.072996400    -0.7304575   -0.5414356  
   0.074996300    -0.8016249   -0.4261284  
   0.076996200    -0.8544890   -0.3015240  
   0.078996100    -0.8878742   -0.1702844  
   0.080996000    -0.9012740   -0.0354930  
   0.082995900    -0.8942968    0.0995273  
   0.084995800    -0.8669453    0.2321477  
   0.086995700    -0.8197080    0.3594557  
   0.088995600    -0.7538424    0.4781477  
   0.090995500    -0.6706060    0.5860185  
   0.092995400    -0.5716130    0.6800359  
   0.094995300    -0.4593113    0.7582448  
   0.096995200    -0.3353865    0.8182319  
   0.098995100    -0.2038010    0.8585145  
   0.100995000    -0.0669057    0.8778915  
   0.102994900     0.0716613    0.8748779  
   0.104994800     0.2079276    0.8505270  
   0.106994700     0.3393821    0.8048218  
   0.108994600     0.4621688    0.7387464  
   0.110994500     0.5728725    0.6541644  
   0.112994400     0.6689101    0.5529451  
   0.114994300     0.7475143    0.4377166  
   0.116994200     0.8069653    0.3113809  
   0.118994100     0.8453139    0.1773526  
   0.120994000     0.8619960    0.0393266  
   0.122993900     0.8563312   -0.0993505  
   0.124993800     0.8291487   -0.2352477  
   0.126993700     0.7807518   -0.3645265  
   0.128993600     0.7129102   -0.4845746  
   0.130993500     0.6276419   -0.5914903  
   0.132993400     0.5266191   -0.6831883  
   0.134993300     0.4129753   -0.7578529  
   0.136993200     0.2901158   -0.8135440  
   0.138993100     0.1605313   -0.8493481  
   0.140993000     0.0279634   -0.8646784  
   0.142992900    -0.1050236   -0.8598046  
   0.144992800    -0.2347282   -0.8348771  
   0.146992700    -0.3587597   -0.7906120  
   0.148992600    -0.4739990   -0.7284482  
   0.150992500    -0.5782632   -0.6502105  
   0.152992400    -0.6690478   -0.5574180  
   0.154992300    -0.7450327   -0.4527191  
   0.156992200    -0.8042802   -0.3379222  
   0.158992100    -0.8461420   -0.2163929  
   0.160992000    -0.8692653   -0.0897565  
   0.162991900    -0.8735878    0.0382672  
   0.164991800    -0.8589702    0.1660146  
   0.166991700    -0.8258266    0.2897719  
   0.168991600    -0.7747761    0.4073518  
   0.170991500    -0.7066854    0.5168616  
   0.172991400    -0.6235696    0.6147023  
   0.174991300    -0.5264578    0.6993993  
   0.176991200    -0.4172938    0.7691377  
   0.178991100    -0.2984679    0.8222505  
   0.180991000    -0.1729010    0.8569406  
   0.182990900    -0.0432823    0.8725825  
   0.184990800     0.0879706    0.8685142  
   0.186990700     0.2183816    0.8448749  
   0.188990600     0.3196301    0.8109426  
   0.190990500     0.4571256    0.7409067  
   0.192990400     0.5672946    0.6590557  
   0.194990300     0.6612694    0.5630195  
   0.196990200     0.7391969    0.4538942  
   0.198990100     0.7996544    0.3334682  
   0.200990000     0.8406608    0.2043118  
   0.202989900     0.8612558    0.0698094  
   0.204989800     0.8601770   -0.0664054  
   0.206989700     0.8379545   -0.2005214  
   0.208989600     0.7947320   -0.3294566  
   0.210989500     0.7316039   -0.4505697  
   0.212989400     0.6497663   -0.5604072  
   0.214989300     0.5515176   -0.6554077  
   0.216989200     0.4401526   -0.7335380  
   0.218989100     0.3182303   -0.7928287  
   0.220989000     0.1884567   -0.8319312  
   0.222988900     0.0539556   -0.8500662  
   0.224988800    -0.0812915   -0.8465706  
   0.226988700    -0.2135990   -0.8217686  
   0.228988600    -0.3394229   -0.7768927  
   0.230988500    -0.4564705   -0.7131876  
   0.232988400    -0.5614763   -0.6320094  
   0.234988300    -0.6524731   -0.5351833  
   0.236988200    -0.7272981   -0.4259648  
   0.238988100    -0.7835779   -0.3067358  
   0.240988000    -0.8203200   -0.1809472  
   0.242987900    -0.8372229   -0.0519297  
   0.244987800    -0.8338231    0.0775457  
   0.246987700    -0.8105537    0.2049727  
   0.248987600    -0.7675970    0.3278729  
   0.250987500    -0.7064497    0.4422026  
   0.252987400    -0.6288058    0.5454735  
   0.254987300    -0.5366026    0.6350577  
   0.256987200    -0.4320690    0.7091323  
   0.258987100    -0.3175291    0.7667079  
   0.260987000    -0.1954476    0.8058797  
   0.262986900    -0.0679057    0.8260012  
   0.264986800     0.0614058    0.8263089  
   0.266986700     0.1892356    0.8066218  
   0.268986600     0.3124923    0.7678673  
   0.270986500     0.4279427    0.7104583  
   0.272986400     0.5331879    0.6360449  
   0.274986300     0.6261379    0.5462399  
   0.276986200     0.7043288    0.4426364  
   0.278986100     0.7660535    0.3278236  
   0.280986000     0.8092149    0.2043915  
   0.282985900     0.8328548    0.0751772  
   0.284985800     0.8362393   -0.0562836  
   0.286985700     0.8187631   -0.1866434  
   0.288985600     0.7816272   -0.3121167  
   0.290985500     0.7253557   -0.4298377  
   0.292985400     0.6519438   -0.5375564  
   0.294985300     0.5626884   -0.6326841  
   0.296985200     0.4592668   -0.7130503  
   0.298985100     0.3441977   -0.7767847  
   0.300985000     0.2202799   -0.8217601  
   0.302984900     0.0914026   -0.8469306  
   0.304984800    -0.0396461   -0.8517448  
   0.306984700    -0.1693399   -0.8362383  
   0.308984600    -0.2938528   -0.8012182  
   0.310984500    -0.4110186   -0.7482605  
   0.312984400    -0.5182601   -0.6780151  
   0.314984300    -0.6132357   -0.5928786  
   0.316984200    -0.6942334   -0.4945610  
   0.318984100    -0.7594473   -0.3846779  
   0.320984000    -0.8072166   -0.2655535  
   0.322983900    -0.8370056   -0.1405854  
   0.324983800    -0.8469104   -0.0125811  
   0.326983700    -0.8372683    0.1145381  
   0.328983600    -0.8082573    0.2388881  
   0.330983500    -0.7612017    0.3567312  
   0.332983400    -0.6973233    0.4653054  
   0.334983300    -0.6179091    0.5630357  
   0.336983200    -0.5246868    0.6477359  
   0.338983100    -0.4197579    0.7172252  
   0.340983000    -0.3056660    0.7702500  
   0.342982900    -0.1843647    0.8053304  
   0.344982800    -0.0587854    0.8215520  
   0.346982700     0.0694024    0.8185539  
   0.348982600     0.1955872    0.7955705  
   0.350982500     0.3173960    0.7531667  
   0.352982400     0.4310385    0.6921767  
   0.354982300     0.5384585    0.6102596  
   0.356982200     0.6398071    0.5005744  
   0.358982100     0.7193018    0.3745744  
   0.360982000     0.7747536    0.2368915  
   0.362981900     0.8049988    0.0911684  
   0.364981800     0.8082350   -0.0581657  
   0.366981700     0.7845114   -0.2054638  
   0.368981600     0.7342222   -0.3465824  
   0.370981500     0.6587004   -0.4764495  
   0.372981400     0.5607045   -0.5905564  
   0.374981300     0.4431817   -0.6848462  
   0.376981200     0.5317119   -0.6090955  
   0.378981100     0.4108267   -0.6983615  
   0.380981000     0.2758846   -0.7635927  
   0.382980900     0.1446048   -0.8005582  
   0.384980800     0.0150726   -0.8146763  
   0.386980700    -0.1148249   -0.8086445  
   0.388980600    -0.2412610   -0.7817091  
   0.390980500    -0.3609028   -0.7358838  
   0.392980400    -0.4709915   -0.6725432  
   0.394980300    -0.5691872   -0.5938823  
   0.396980200    -0.6535916   -0.5017645  
   0.398980100    -0.7227169   -0.3989536  
   0.400980000    -0.7753615   -0.2870509  
   0.402979900    -0.8106595   -0.1686960  
   0.404979800    -0.8275986   -0.0479327  
   0.406979700    -0.8263947    0.0738312  
   0.408979600    -0.8078707    0.1934419  
   0.410979500    -0.7712390    0.3096096  
   0.412979400    -0.7180683    0.4194514  
   0.414979300    -0.6492657    0.5201625  
   0.416979200    -0.5663842    0.6096330  
   0.418979100    -0.4712006    0.6859209  
   0.420979000    -0.3657507    0.7472692  
   0.422978900    -0.2517444    0.7924131  
   0.424978800    -0.1318995    0.8204908  
   0.426978700    -0.0088094    0.8302988  
   0.428978600     0.1149077    0.8217251  
   0.430978500     0.2358147    0.7943041  
   0.432978400     0.3513655    0.7492385  
   0.434978300     0.4592096    0.6870278  
   0.436978200     0.5566760    0.6087298  
   0.438978100     0.6415516    0.5160978  
   0.440978000     0.7116940    0.4107682  
   0.442977900     0.7650070    0.2954503  
   0.444977800     0.7996151    0.1725723  
   0.446977700     0.8148255    0.0453121  
   0.448977600     0.8098856   -0.0832892  
   0.450977500     0.7845170   -0.2097394  
   0.452977400     0.7390568   -0.3315757  
   0.454977300     0.6741322   -0.4457620  
   0.456977200     0.5911509   -0.5480622  
   0.458977100     0.4921283   -0.6362655  
   0.460977000     0.3802091   -0.7067544  
   0.462976900     0.2584421   -0.7577888  
   0.464976800     0.1300562   -0.7884794  
   0.466976700    -0.0015044   -0.7976648  
   0.468976600    -0.1321707   -0.7856036  
   0.470976500    -0.2592763   -0.7521976  
   0.472976400    -0.3782940   -0.6989127  
   0.474976300    -0.4866223   -0.6275164  
   0.476976200    -0.5816073   -0.5401386  
   0.478976100    -0.6608814   -0.4393013  
   0.480976000    -0.7221004   -0.3287384  
   0.482975900    -0.7649175   -0.2107307  
   0.484975800    -0.7887493   -0.0881524  
   0.486975700    -0.7933458    0.0358801  
   0.488975600    -0.7785236    0.1587231  
   0.490975500    -0.7453787    0.2774873  
   0.492975400    -0.6942020    0.3892912  
   0.494975300    -0.6273221    0.4915887  
   0.496975200    -0.5455375    0.5823974  
   0.498975100    -0.4511381    0.6593176  
   0.500975000    -0.3469750    0.7208331  
   0.502974900    -0.2347324    0.7661219  
   0.504974800    -0.1168911    0.7939079  
   0.506974700     0.0042466    0.8037506  
   0.508974600     0.1260962    0.7948109  
   0.510974500     0.2456097    0.7672861  
   0.512974400     0.3595250    0.7220583  
   0.514974300     0.4652812    0.6604598  
   0.516974200     0.5605137    0.5829972  
   0.518974100     0.6432183    0.4919813  
   0.520974000     0.7109284    0.3897498  
   0.522973900     0.7624141    0.2775027  
   0.524973800     0.7963094    0.1586395  
   0.526973700     0.8117772    0.0351500  
   0.528973600     0.8081647   -0.0895453  
   0.530973500     0.7851205   -0.2129896  
   0.532973400     0.7430797   -0.3314917  
   0.534973300     0.6830211   -0.4424322  
   0.536973200     0.6059837   -0.5431705  
   0.538973100     0.5149885   -0.6303383  
   0.540973000     0.4113839   -0.7022312  
   0.542972900     0.2973284   -0.7573654  
   0.544972800     0.1768464   -0.7937874  
   0.546972700     0.0509567   -0.8111951  
   0.548972600    -0.0760227   -0.8092083  
   0.550972500    -0.2011681   -0.7868052  
   0.552972400    -0.3217679   -0.7453489  
   0.554972300    -0.4340087   -0.6854339  
   0.556972200    -0.5354517   -0.6082740  
   0.558972100    -0.6234896   -0.5165239  
   0.560972000    -0.6959453   -0.4122521  
   0.562971900    -0.7505408   -0.2985586  
   0.564971800    -0.7868468   -0.1781744  
   0.566971700    -0.8037868   -0.0541908  
   0.568971600    -0.8011884    0.0704445  
   0.570971500    -0.7794086    0.1928217  
   0.572971400    -0.7390363    0.3105198  
   0.574971300    -0.6805925    0.4205462  
   0.576971200    -0.6056735    0.5202748  
   0.578971100    -0.5157927    0.6070327  
   0.580971000    -0.4136267    0.6788702  
   0.582970900    -0.3017473    0.7335564  
   0.584970800    -0.1828475    0.7698836  
   0.586970700    -0.0601563    0.7874217  
   0.588970600     0.0641855    0.7854663  
   0.590970500     0.1864655    0.7638565  
   0.592970400     0.3037757    0.7232173  
   0.594970300     0.4135391    0.6648627  
   0.596970200     0.5129576    0.5892742  
   0.598970100     0.5993429    0.4993663  
   0.600970000     0.6703291    0.3959897  
   0.602969900     0.7243576    0.2825504  
   0.604969800     0.7595702    0.1613955  
   0.606969700     0.7750533    0.0360800  
   0.608969600     0.7701881   -0.0909361  
   0.610969500     0.7447720   -0.2154560  
   0.612969400     0.6997123   -0.3345405  
   0.614969300     0.6358780   -0.4447162  
   0.616969200     0.5556149   -0.5423651  
   0.618969100     0.4610503   -0.6258979  
   0.620969000     0.3551632   -0.6927509  
   0.622968900     0.2400189   -0.7418407  
   0.624968800     0.1184830   -0.7721912  
   0.626968700    -0.0062615   -0.7828230  
   0.628968600    -0.1310384   -0.7738094  
   0.630968500    -0.2528504   -0.7453219  
   0.632968400    -0.3681774   -0.6984378  
   0.634968300    -0.4744628   -0.6342367  
   0.636968200    -0.5691819   -0.5540623  
   0.638968100    -0.6499289   -0.4607852  
   0.640968000    -0.7150654   -0.3564068  
   0.642967900    -0.7629755   -0.2440245  
   0.644967800    -0.7936136   -0.1254416  
   0.646967700    -0.8054433   -0.0044915  
   0.648967600    -0.7987000    0.1164874  
   0.650967500    -0.7738754    0.2339256  
   0.652967400    -0.7323567    0.3463469  
   0.654967300    -0.6746203    0.4506797  
   0.656967200    -0.6019647    0.5453039  
   0.658967100    -0.5166771    0.6278121  
   0.660967000    -0.4193135    0.6968148  
   0.662966900    -0.3124391    0.7508386  
   0.664966800    -0.1982115    0.7882331  
   0.666966700    -0.0789435    0.8085052  
   0.668966600     0.0423596    0.8105472  
   0.670966500     0.1626902    0.7939895  
   0.672966400     0.2796205    0.7588558  
   0.674966300     0.3901705    0.7066522  
   0.676966200     0.4915798    0.6384312  
   0.678966100     0.5812989    0.5554959  
   0.680966000     0.6575039    0.4592168  
   0.682965900     0.7183789    0.3520447  
   0.684965800     0.7622096    0.2365945  
   0.686965700     0.7874576    0.1151867  
   0.688965600     0.7934347   -0.0094739  
   0.690965500     0.7801291   -0.1333140  
   0.692965400     0.7472038   -0.2544685  
   0.694965300     0.6958964   -0.3685486  
   0.696965200     0.6267073   -0.4734267  
   0.698965100     0.5417744   -0.5663375  
   0.700965000     0.4427601   -0.6446574  
   0.702964900     0.3325523   -0.7061232  
   0.704964800     0.2137349   -0.7492375  
   0.706964700     0.0893433   -0.7730064  
   0.708964600    -0.0369350   -0.7759838  
   0.710964500    -0.1623649   -0.7589856  
   0.712964400    -0.2824759   -0.7219318  
   0.714964300    -0.3951250   -0.6661178  
   0.716964200    -0.4965675   -0.5935556  
   0.718964100    -0.5845092   -0.5064166  
   0.720964000    -0.6571077   -0.4072399  
   0.722963900    -0.7128197   -0.2989637  
   0.724963800    -0.7511337   -0.1841244  
   0.726963700    -0.7707224   -0.0649139  
   0.728963600    -0.7715794    0.0550468  
   0.730963500    -0.7543963    0.1734982  
   0.732963400    -0.7194532    0.2870679  
   0.734963300    -0.6675911    0.3937919  
   0.736963200    -0.5879735    0.5047268  
   0.738963100    -0.4897858    0.6001597  
   0.740963000    -0.3758029    0.6773677  
   0.742962900    -0.2503297    0.7340552  
   0.744962800    -0.1165080    0.7674394  
   0.746962700     0.0214074    0.7774425  
   0.748962600     0.1594800    0.7633597  
   0.750962500     0.0237556    0.7794986  
   0.752962400     0.1608611    0.7631536  
   0.754962300     0.2933882    0.7232476  
   0.756962200     0.4172167    0.6610034  
   0.758962100     0.5282938    0.5774388  
   0.760962000     0.6238301    0.4754555  
   0.762961900     0.6967931    0.3641993  
   0.764961800     0.7458696    0.2535741  
   0.766961700     0.7775900    0.1369102  
   0.768961600     0.7907631    0.0156507  
   0.770961500     0.7851244   -0.1066088  
   0.772961400     0.7607460   -0.2263776  
   0.774961300     0.7181741   -0.3416745  
   0.776961200     0.6577707   -0.4493703  
   0.778961100     0.5809393   -0.5465223  
   0.780961000     0.4896554   -0.6313657  
   0.782960900     0.3854592   -0.7010840  
   0.784960800     0.2706266   -0.7534676  
   0.786960700     0.1490516   -0.7876049  
   0.788960600     0.0230694   -0.8013991  
   0.790960500    -0.1030453   -0.7955751  
   0.792960400    -0.2264386   -0.7691627  
   0.794960300    -0.3439016   -0.7237470  
   0.796960200    -0.4519643   -0.6604373  
   0.798960100    -0.5485154   -0.5813479  
   0.800960000    -0.6309097   -0.4886605  
   0.802959900    -0.6972919   -0.3843861  
   0.804959800    -0.7464263   -0.2719443  
   0.806959700    -0.7773388   -0.1538457  
   0.808959600    -0.7895747   -0.0331854  
   0.810959500    -0.7832393    0.0873649  
   0.812959400    -0.7581552    0.2049626  
   0.814959300    -0.7159355    0.3166574  
   0.816959200    -0.6574706    0.4204606  
   0.818959100    -0.5838360    0.5138148  
   0.820959000    -0.4971184    0.5942755  
   0.822958900    -0.3993268    0.6608799  
   0.824958800    -0.2928125    0.7118024  
   0.826958700    -0.1796634    0.7459992  
   0.828958600    -0.0628568    0.7625919  
   0.830958500     0.0552506    0.7606544  
   0.832958400     0.1718330    0.7411765  
   0.834958300     0.2839581    0.7043799  
   0.836958200     0.3891935    0.6507546  
   0.838958100     0.4851371    0.5813981  
   0.840958000     0.5699154    0.4976662  
   0.842957900     0.6409633    0.4016283  
   0.844957800     0.6966062    0.2948396  
   0.846957700     0.7351376    0.1803470  
   0.848957600     0.7556645    0.0609022  
   0.850957500     0.7566954   -0.0610624  
   0.852957400     0.7381671   -0.1819620  
   0.854957300     0.7008560   -0.2986836  
   0.856957200     0.6454567   -0.4079554  
   0.858957100     0.5729734   -0.5073805  
   0.860957000     0.4859766   -0.5940499  
   0.862956900     0.3865536   -0.6652912  
   0.864956800     0.2771916   -0.7201435  
   0.866956700     0.1615142   -0.7569418  
   0.868956600     0.0414743   -0.7753870  
   0.870956500    -0.0796661   -0.7750128  
   0.872956400    -0.1993426   -0.7553743  
   0.874956300    -0.3141278   -0.7179547  
   0.876956200    -0.4214904   -0.6630497  
   0.878956100    -0.5188881   -0.5923983  
   0.880956000    -0.6042521   -0.5079934  
   0.882955900    -0.6754668   -0.4113280  
   0.884955800    -0.7306619   -0.3057874  
   0.886955700    -0.7691198   -0.1929702  
   0.888955600    -0.7899346   -0.0760880  
   0.890955500    -0.7928348    0.0420384  
   0.892955400    -0.7781443    0.1590238  
   0.894955300    -0.7460030    0.2717360  
