! MS46122B
! 2250307/22442219
! 6/12/2025 7:39:13 AM
! C:\USERS\SPARKY\DOCUMENTS\VNA_DATA\JUNE12_2025\3.1 KELVIN\PORT6.S1P
! CHANNEL.1
! TR.MEASUREMENT
! RAW.DATA
# GHZ S RI R 50.0
! FREQ.GHZ         S11RE         S11IM         
!; PortSelection: Port_1
   0.001000000     1.0242460   -0.0591981  
   0.002999900     0.9338356   -0.2187868  
   0.004999800     0.8666368   -0.3635192  
   0.006999700     0.7863644   -0.4970785  
   0.008999600     0.6904194   -0.6113160  
   0.010999500     0.5826190   -0.7118842  
   0.012999400     0.4644940   -0.7979985  
   0.014999300     0.3365968   -0.8671812  
   0.016999200     0.2009110   -0.9170441  
   0.018999100     0.0592857   -0.9458975  
   0.020999000    -0.0854176   -0.9516202  
   0.022998900    -0.2294927   -0.9338221  
   0.024998800    -0.3433376   -0.8693174  
   0.026998700    -0.5007797   -0.8262159  
   0.028998600    -0.6205393   -0.7390712  
   0.030998500    -0.7246834   -0.6323997  
   0.032998400    -0.7774768   -0.5078905  
   0.034998300    -0.8759392   -0.3752050  
   0.036998200    -0.9190589   -0.2319037  
   0.038998100    -0.9390333   -0.0842475  
   0.040998000    -0.9366585    0.0643046  
   0.042997900    -0.9111902    0.2101595  
   0.044997800    -0.8440222    0.3232834  
   0.046997700    -0.7966262    0.4808068  
   0.048997600    -0.7100370    0.5997410  
   0.050997500    -0.6056415    0.7039477  
   0.052997400    -0.4874502    0.7895538  
   0.054997300    -0.3543602    0.8570055  
   0.056997200    -0.2127711    0.9015901  
   0.058997100    -0.0659417    0.9227054  
   0.060997000     0.0822805    0.9197143  
   0.062996900     0.2283249    0.8930629  
   0.064996800     0.3682626    0.8431814  
   0.066996700     0.4985228    0.7719191  
   0.068996600     0.6156120    0.6807175  
   0.070996500     0.7165089    0.5719544  
   0.072996400     0.7994047    0.4491023  
   0.074996300     0.8613913    0.3147608  
   0.076996200     0.9011393    0.1723098  
   0.078996100     0.9178895    0.0255733  
   0.080996000     0.9110891   -0.1215047  
   0.082995900     0.8809088   -0.2653432  
   0.084995800     0.8287861   -0.4022440  
   0.086995700     0.7555829   -0.5284178  
   0.088995600     0.6639835   -0.6412445  
   0.090995500     0.5561802   -0.7376636  
   0.092995400     0.4351691   -0.8158584  
   0.094995300     0.3040399   -0.8741634  
   0.096995200     0.1658122   -0.9115216  
   0.098995100     0.0246637   -0.9268156  
   0.100995000    -0.1172034   -0.9205288  
   0.102994900    -0.2558287   -0.8927659  
   0.104994800    -0.3877857   -0.8446113  
   0.106994700    -0.5108106   -0.7774788  
   0.108994600    -0.6224728   -0.6922848  
   0.110994500    -0.7193621   -0.5920031  
   0.112994400    -0.8000402   -0.4779061  
   0.114994300    -0.8627407   -0.3531215  
   0.116994200    -0.9055720   -0.2206474  
   0.118994100    -0.9279522   -0.0831798  
   0.120994000    -0.9298247    0.0561641  
   0.122993900    -0.9100477    0.1944949  
   0.124993800    -0.8700087    0.3285183  
   0.126993700    -0.8100437    0.4549238  
   0.128993600    -0.7311275    0.5713395  
   0.130993500    -0.6354258    0.6747258  
   0.132993400    -0.5244721    0.7626107  
   0.134993300    -0.4008663    0.8328204  
   0.136993200    -0.2672964    0.8828925  
   0.138993100    -0.1268859    0.9118334  
   0.140993000     0.0168449    0.9185081  
   0.142992900     0.1607153    0.9028925  
   0.144992800     0.3008887    0.8644234  
   0.146992700     0.4333985    0.8037711  
   0.148992600     0.5552203    0.7224262  
   0.150992500     0.6625969    0.6227959  
   0.152992400     0.7527978    0.5062729  
   0.154992300     0.8234404    0.3768841  
   0.156992200     0.8718268    0.2373869  
   0.158992100     0.8972092    0.0918612  
   0.160992000     0.8985217   -0.0558877  
   0.162991900     0.8758819   -0.2015275  
   0.164991800     0.8297164   -0.3416759  
   0.166991700     0.7618054   -0.4720889  
   0.168991600     0.6740288   -0.5890037  
   0.170991500     0.5684605   -0.6901298  
   0.172991400     0.4483449   -0.7725965  
   0.174991300     0.3176666   -0.8341359  
   0.176991200     0.1789939   -0.8738826  
   0.178991100     0.0367534   -0.8906851  
   0.180991000    -0.1054536   -0.8848196  
   0.182990900    -0.2439992   -0.8568792  
   0.184990800    -0.3761656   -0.8075296  
   0.186990700    -0.4977836   -0.7383618  
   0.188990600    -0.5879065   -0.6688980  
   0.190990500    -0.6974862   -0.5530379  
   0.192990400    -0.7758697   -0.4355618  
   0.194990300    -0.8333346   -0.3112583  
   0.196990200    -0.8708740   -0.1809436  
   0.198990100    -0.8879855   -0.0469664  
   0.200990000    -0.8847702    0.0880398  
   0.202989900    -0.8613054    0.2208758  
   0.204989800    -0.8179897    0.3480174  
   0.206989700    -0.7566237    0.4665556  
   0.208989600    -0.6783428    0.5745213  
   0.210989500    -0.5844342    0.6698291  
   0.212989400    -0.4770851    0.7504469  
   0.214989300    -0.3588511    0.8139635  
   0.216989200    -0.2326999    0.8588091  
   0.218989100    -0.1014500    0.8845143  
   0.220989000     0.0328690    0.8901660  
   0.222988900     0.1673609    0.8753127  
   0.224988800     0.2985793    0.8405409  
   0.226988700     0.4230090    0.7858638  
   0.228988600     0.5376352    0.7131366  
   0.230988500     0.6404154    0.6236658  
   0.232988400     0.7287710    0.5191317  
   0.234988300     0.8003106    0.4013533  
   0.236988200     0.8533967    0.2736085  
   0.238988100     0.8861799    0.1388512  
   0.240988000     0.8973928    0.0008753  
   0.242987900     0.8875544   -0.1370480  
   0.244987800     0.8561128   -0.2722926  
   0.246987700     0.8040627   -0.4014746  
   0.248987600     0.7323664   -0.5216923  
   0.250987500     0.6424724   -0.6290063  
   0.252987400     0.5370248   -0.7210258  
   0.254987300     0.4193408   -0.7950596  
   0.256987200     0.2917834   -0.8495016  
   0.258987100     0.1573758   -0.8837091  
   0.260987000     0.0193417   -0.8966127  
   0.262986900    -0.1193594   -0.8878393  
   0.264986800    -0.2547672   -0.8572981  
   0.266986700    -0.3835662   -0.8063395  
   0.268986600    -0.5019671   -0.7361085  
   0.270986500    -0.6074596   -0.6493474  
   0.272986400    -0.6979208   -0.5475813  
   0.274986300    -0.7716329   -0.4335913  
   0.276986200    -0.8268107   -0.3098926  
   0.278986100    -0.8619806   -0.1789552  
   0.280986000    -0.8767568   -0.0439435  
   0.282985900    -0.8704652    0.0914677  
   0.284985800    -0.8435440    0.2242605  
   0.286985700    -0.7964647    0.3506853  
   0.288985600    -0.7311480    0.4673249  
   0.290985500    -0.6489232    0.5722414  
   0.292985400    -0.5521193    0.6632656  
   0.294985300    -0.4422776    0.7384259  
   0.296985200    -0.3219435    0.7964910  
   0.298985100    -0.1931738    0.8353856  
   0.300985000    -0.0595288    0.8536497  
   0.302984900     0.0750546    0.8509797  
   0.304984800     0.2082212    0.8272688  
   0.306984700     0.3354345    0.7834219  
   0.308984600     0.4541796    0.7205296  
   0.310984500     0.5613424    0.6401823  
   0.312984400     0.6549770    0.5437997  
   0.314984300     0.7325217    0.4340234  
   0.316984200     0.7923365    0.3133888  
   0.318984100     0.8326215    0.1839157  
   0.320984000     0.8526772    0.0488570  
   0.322983900     0.8508717   -0.0882109  
   0.324983800     0.8272053   -0.2231824  
   0.326983700     0.7825956   -0.3528297  
   0.328983600     0.7180892   -0.4736477  
   0.330983500     0.6356276   -0.5823063  
   0.332983400     0.5375142   -0.6760818  
   0.334983300     0.4266008   -0.7534113  
   0.336983200     0.3048776   -0.8122452  
   0.338983100     0.1760516   -0.8514923  
   0.340983000     0.0429630   -0.8699611  
   0.342982900    -0.0910691   -0.8679767  
   0.344982800    -0.2233391   -0.8450701  
   0.346982700    -0.3506400   -0.8020015  
   0.348982600    -0.4699604   -0.7396780  
   0.350982500    -0.5777836   -0.6602088  
   0.352982400    -0.6720559   -0.5647807  
   0.354982300    -0.7535151   -0.4512406  
   0.356982200    -0.8202910   -0.3117518  
   0.358982100    -0.8612357   -0.1638082  
   0.360982000    -0.8751098   -0.0126122  
   0.362981900    -0.8625289    0.1377871  
   0.364981800    -0.8238730    0.2833515  
   0.366981700    -0.7613546    0.4192193  
   0.368981600    -0.6763934    0.5418869  
   0.370981500    -0.5723711    0.6477793  
   0.372981400    -0.4515273    0.7341429  
   0.374981300    -0.3174330    0.7988605  
   0.376981200    -0.4401462    0.7481222  
   0.378981100    -0.3013063    0.8112116  
   0.380981000    -0.1534853    0.8486316  
   0.382980900    -0.0153406    0.8599978  
   0.384980800     0.1172108    0.8500182  
   0.386980700     0.2472122    0.8196030  
   0.388980600     0.3705923    0.7690326  
   0.390980500     0.4851409    0.7001045  
   0.392980400     0.5870550    0.6138266  
   0.394980300     0.6744568    0.5130517  
   0.396980200     0.7451170    0.3995593  
   0.398980100     0.7969949    0.2758759  
   0.400980000     0.8290250    0.1452158  
   0.402979900     0.8398757    0.0110159  
   0.404979800     0.8294562   -0.1234846  
   0.406979700     0.7975805   -0.2544190  
   0.408979600     0.7453111   -0.3785531  
   0.410979500     0.6734955   -0.4935844  
   0.412979400     0.5835957   -0.5957732  
   0.414979300     0.4789215   -0.6823003  
   0.416979200     0.3614044   -0.7506354  
   0.418979100     0.2352064   -0.7994053  
   0.420979000     0.1033052   -0.8264434  
   0.422978900    -0.0315343   -0.8324778  
   0.424978800    -0.1646737   -0.8167780  
   0.426978700    -0.2936707   -0.7801920  
   0.428978600    -0.4142315   -0.7241471  
   0.430978500    -0.5235633   -0.6503869  
   0.432978400    -0.6188195   -0.5615851  
   0.434978300    -0.6988808   -0.4596273  
   0.436978200    -0.7617228   -0.3476827  
   0.438978100    -0.8069252   -0.2279069  
   0.440978000    -0.8331372   -0.1032868  
   0.442977900    -0.8401187    0.0227651  
   0.444977800    -0.8285591    0.1481207  
   0.446977700    -0.7985178    0.2697013  
   0.448977600    -0.7511543    0.3848588  
   0.450977500    -0.6873057    0.4910537  
   0.452977400    -0.6084679    0.5873102  
   0.454977300    -0.5164847    0.6712046  
   0.456977200    -0.4122942    0.7407030  
   0.458977100    -0.2992187    0.7940649  
   0.460977000    -0.1795847    0.8301714  
   0.462976900    -0.0559818    0.8481728  
   0.464976800     0.0689878    0.8476542  
   0.466976700     0.1928208    0.8287748  
   0.468976600     0.3127984    0.7914509  
   0.470976500     0.4262167    0.7367045  
   0.472976400     0.5307634    0.6652754  
   0.474976300     0.6238350    0.5788560  
   0.476976200     0.7029309    0.4789799  
   0.478976100     0.7661121    0.3682600  
   0.480976000     0.8120716    0.2496859  
   0.482975900     0.8396152    0.1249554  
   0.484975800     0.8481458   -0.0028975  
   0.486975700     0.8373647   -0.1313157  
   0.488975600     0.8063645   -0.2569683  
   0.490975500     0.7562667   -0.3769841  
   0.492975400     0.6882387   -0.4885271  
   0.494975300     0.6032216   -0.5884005  
   0.496975200     0.5029769   -0.6741802  
   0.498975100     0.3911096   -0.7428873  
   0.500975000     0.2691940   -0.7936054  
   0.502974900     0.1411639   -0.8245166  
   0.504974800     0.0094787   -0.8345993  
   0.506974700    -0.1224172   -0.8240535  
   0.508974600    -0.2522328   -0.7924603  
   0.510974500    -0.3747376   -0.7410111  
   0.512974400    -0.4874195   -0.6704861  
   0.514974300    -0.5864368   -0.5834866  
   0.516974200    -0.6703423   -0.4824324  
   0.518974100    -0.7367774   -0.3703226  
   0.520974000    -0.7849469   -0.2492947  
   0.522973900    -0.8128329   -0.1232992  
   0.524973800    -0.8207817    0.0048623  
   0.526973700    -0.8088517    0.1328501  
   0.528973600    -0.7778625    0.2562940  
   0.530973500    -0.7276888    0.3734960  
   0.532973400    -0.6605681    0.4811076  
   0.534973300    -0.5779630    0.5768320  
   0.536973200    -0.4817325    0.6583680  
   0.538973100    -0.3749003    0.7240530  
   0.540973000    -0.2600073    0.7721994  
   0.542972900    -0.1395442    0.8025476  
   0.544972800    -0.0158552    0.8140513  
   0.546972700     0.1082290    0.8069962  
   0.548972600     0.2300859    0.7809491  
   0.550972500     0.3464435    0.7369775  
   0.552972400     0.4553041    0.6753291  
   0.554972300     0.5535922    0.5976257  
   0.556972200     0.6390185    0.5054240  
   0.558972100     0.7092083    0.4014941  
   0.560972000     0.7630135    0.2881337  
   0.562971900     0.7987159    0.1679686  
   0.564971800     0.8155538    0.0438581  
   0.566971700     0.8133072   -0.0815500  
   0.568971600     0.7920856   -0.2046284  
   0.570971500     0.7524338   -0.3233980  
   0.572971400     0.6948776   -0.4348651  
   0.574971300     0.6204739   -0.5367891  
   0.576971200     0.5311920   -0.6266856  
   0.578971100     0.4290070   -0.7017534  
   0.580971000     0.3162602   -0.7605726  
   0.582970900     0.1962701   -0.8011567  
   0.584970800     0.0720900   -0.8226129  
   0.586970700    -0.0534562   -0.8251867  
   0.588970600    -0.1778433   -0.8085939  
   0.590970500    -0.2975214   -0.7734506  
   0.592970400    -0.4106801   -0.7209508  
   0.594970300    -0.5144757   -0.6519302  
   0.596970200    -0.6062343   -0.5684302  
   0.598970100    -0.6847623   -0.4723715  
   0.600970000    -0.7477125   -0.3658041  
   0.602969900    -0.7939523   -0.2511763  
   0.604969800    -0.8225443   -0.1310956  
   0.606969700    -0.8330174   -0.0080340  
   0.608969600    -0.8248896    0.1153732  
   0.610969500    -0.7984490    0.2357973  
   0.612969400    -0.7542343    0.3506672  
   0.614969300    -0.6937051    0.4577307  
   0.616969200    -0.6182116    0.5542357  
   0.618969100    -0.5295390    0.6376889  
   0.620969000    -0.4299600    0.7071217  
   0.622968900    -0.3207416    0.7614936  
   0.624968800    -0.2046759    0.7987654  
   0.626968700    -0.0839185    0.8182287  
   0.628968600     0.0392597    0.8195699  
   0.630968500     0.1613558    0.8021525  
   0.632968400     0.2798732    0.7665066  
   0.634968300     0.3918464    0.7124586  
   0.636968200     0.4943011    0.6419321  
   0.638968100     0.5853821    0.5562751  
   0.640968000     0.6622880    0.4570096  
   0.642967900     0.7230560    0.3472148  
   0.644967800     0.7658513    0.2282668  
   0.646967700     0.7894946    0.1042463  
   0.648967600     0.7936046   -0.0218099  
   0.650967500     0.7776116   -0.1467394  
   0.652967400     0.7423635   -0.2674012  
   0.654967300     0.6881260   -0.3812549  
   0.656967200     0.6169837   -0.4847022  
   0.658967100     0.5306315   -0.5757026  
   0.660967000     0.4303299   -0.6524291  
   0.662966900     0.3190254   -0.7128272  
   0.664966800     0.1992102   -0.7543032  
   0.666966700     0.0739887   -0.7764273  
   0.668966600    -0.0527297   -0.7780630  
   0.670966500    -0.1779674   -0.7594569  
   0.672966400    -0.2980801   -0.7217189  
   0.674966300    -0.4099177   -0.6656943  
   0.676966200    -0.5108840   -0.5929949  
   0.678966100    -0.5990134   -0.5062276  
   0.680966000    -0.6718115   -0.4070768  
   0.682965900    -0.7282601   -0.2983518  
   0.684965800    -0.7670752   -0.1831101  
   0.686965700    -0.7877054   -0.0631643  
   0.688965600    -0.7898438    0.0575354  
   0.690965500    -0.7736948    0.1767284  
   0.692965400    -0.7396548    0.2917897  
   0.694965300    -0.6892230    0.3999426  
   0.696965200    -0.6231341    0.4988240  
   0.698965100    -0.5430297    0.5869228  
   0.700965000    -0.4508630    0.6617140  
   0.702964900    -0.3486022    0.7224326  
   0.704964800    -0.2380060    0.7668018  
   0.706964700    -0.1220674    0.7944685  
   0.708964600    -0.0026622    0.8045723  
   0.710964500     0.1176654    0.7963792  
   0.712964400     0.2354482    0.7706401  
   0.714964300     0.3485098    0.7265376  
   0.716964200     0.4535251    0.6664876  
   0.718964100     0.5480345    0.5912499  
   0.720964000     0.6303837    0.5023618  
   0.722963900     0.6980470    0.4024088  
   0.724963800     0.7496344    0.2926984  
   0.726963700     0.7849758    0.1761261  
   0.728963600     0.8017993    0.0549958  
   0.730963500     0.8002470   -0.0678784  
   0.732963400     0.7797100   -0.1895331  
   0.734963300     0.7403401   -0.3072562  
   0.736963200     0.6736931   -0.4343009  
   0.738963100     0.5847368   -0.5479985  
   0.740963000     0.4761569   -0.6435729  
   0.742962900     0.3525272   -0.7176033  
   0.744962800     0.2174454   -0.7678741  
   0.746962700     0.0757033   -0.7925426  
   0.748962600    -0.0676642   -0.7906453  
   0.750962500     0.0349308   -0.7902361  
   0.752962400    -0.1087796   -0.7830141  
   0.754962300    -0.2482177   -0.7493278  
   0.756962200    -0.3781585   -0.6911425  
   0.758962100    -0.4947235   -0.6104848  
   0.760962000    -0.5940207   -0.5104408  
   0.762961900    -0.6703685   -0.4002912  
   0.764961800    -0.7229372   -0.2897573  
   0.766961700    -0.7572765   -0.1734571  
   0.768961600    -0.7732806   -0.0539581  
   0.770961500    -0.7704729    0.0661303  
   0.772961400    -0.7491468    0.1830628  
   0.774961300    -0.7109442    0.2947770  
   0.776961200    -0.6562680    0.3986452  
   0.778961100    -0.5865271    0.4926369  
   0.780961000    -0.5036427    0.5750616  
   0.782960900    -0.4092746    0.6437386  
   0.784960800    -0.3052523    0.6971748  
   0.786960700    -0.1944404    0.7345665  
   0.788960600    -0.0791783    0.7549920  
   0.790960500     0.0375576    0.7576112  
   0.792960400     0.1537814    0.7423835  
   0.794960300     0.2658361    0.7098025  
   0.796960200     0.3720598    0.6604655  
   0.798960100     0.4691348    0.5954880  
   0.800960000     0.5554569    0.5168202  
   0.802959900     0.6293409    0.4256314  
   0.804959800     0.6881737    0.3239037  
   0.806959700     0.7312484    0.2143692  
   0.808959600     0.7569284    0.0992198  
   0.810959500     0.7647163   -0.0191658  
   0.812959400     0.7542201   -0.1381381  
   0.814959300     0.7259457   -0.2542325  
   0.816959200     0.6793181   -0.3651839  
   0.818959100     0.6157222   -0.4674101  
   0.820959000     0.5367066   -0.5594053  
   0.822958900     0.4443899   -0.6379056  
   0.824958800     0.3401202   -0.7012520  
   0.826958700     0.2274063   -0.7477626  
   0.828958600     0.1087772   -0.7755972  
   0.830958500    -0.0131493   -0.7846743  
   0.832958400    -0.1343647   -0.7746552  
   0.834958300    -0.2525381   -0.7458831  
   0.836958200    -0.3643563   -0.6992938  
   0.838958100    -0.4671025   -0.6358964  
   0.840958000    -0.5587255   -0.5578108  
   0.842957900    -0.6370825   -0.4665993  
   0.844957800    -0.7002660   -0.3644457  
   0.846957700    -0.7468896   -0.2543969  
   0.848957600    -0.7758562   -0.1388072  
   0.850957500    -0.7869047   -0.0205863  
   0.852957400    -0.7799897    0.0979129  
   0.854957300    -0.7546961    0.2134871  
   0.856957200    -0.7125697    0.3235578  
   0.858957100    -0.6544186    0.4256434  
   0.860957000    -0.5819740    0.5170457  
   0.862956900    -0.4968390    0.5959184  
   0.864956800    -0.4019813    0.6605930  
   0.866956700    -0.2988383    0.7103514  
   0.868956600    -0.1895151    0.7441407  
   0.870956500    -0.0765115    0.7611518  
   0.872956400     0.0383266    0.7612400  
   0.874956300     0.1519058    0.7439847  
   0.876956200     0.2630385    0.7093835  
   0.878956100     0.3675187    0.6583806  
   0.880956000     0.4637678    0.5911818  
   0.882955900     0.5492671    0.5098355  
   0.884955800     0.6212963    0.4156649  
   0.886955700     0.6776923    0.3107589  
   0.888955600     0.7169974    0.1976329  
   0.890955500     0.7381331    0.0794816  
   0.892955400     0.7401568   -0.0410266  
   0.894955300     0.7225851   -0.1606903  
