! MS46122B
! 2250307/22442219
! 6/12/2025 7:37:34 AM
! C:\USERS\SPARKY\DOCUMENTS\VNA_DATA\JUNE12_2025\3.1 KELVIN\PORT4.S1P
! CHANNEL.1
! TR.MEASUREMENT
! RAW.DATA
# GHZ S RI R 50.0
! FREQ.GHZ         S11RE         S11IM         
!; PortSelection: Port_1
   0.001000000    -0.9441021    0.0522180  
   0.002999900    -0.9165884    0.2587712  
   0.004999800    -0.8787125    0.4084964  
   0.006999700    -0.8128331    0.5437765  
   0.008999600    -0.7223209    0.6619589  
   0.010999500    -0.6109087    0.7605445  
   0.012999400    -0.4832872    0.8374783  
   0.014999300    -0.3444384    0.8913153  
   0.016999200    -0.1987566    0.9222025  
   0.018999100    -0.0501772    0.9303480  
   0.020999000     0.0970867    0.9162866  
   0.022998900     0.2398176    0.8816204  
   0.024998800     0.3459815    0.8074817  
   0.026998700     0.5001302    0.7548487  
   0.028998600     0.6126283    0.6659566  
   0.030998500     0.7103096    0.5623594  
   0.032998400     0.7556288    0.4458807  
   0.034998300     0.8534449    0.3186777  
   0.036998200     0.8954226    0.1833470  
   0.038998100     0.9157231    0.0427826  
   0.040998000     0.9134803   -0.0994791  
   0.042997900     0.8887249   -0.2395920  
   0.044997800     0.8190938   -0.3472263  
   0.046997700     0.7732630   -0.4995292  
   0.048997600     0.6863332   -0.6123976  
   0.050997500     0.5830606   -0.7099615  
   0.052997400     0.4677812   -0.7893392  
   0.054997300     0.3396447   -0.8511389  
   0.056997200     0.2052690   -0.8925779  
   0.058997100     0.0668667   -0.9129169  
   0.060997000    -0.0723650   -0.9120702  
   0.062996900    -0.2095227   -0.8905486  
   0.064996800    -0.3416010   -0.8483652  
   0.066996700    -0.4653729   -0.7869058  
   0.068996600    -0.5783679   -0.7073859  
   0.070996500    -0.6775553   -0.6118904  
   0.072996400    -0.7608311   -0.5024689  
   0.074996300    -0.8264735   -0.3817312  
   0.076996200    -0.8726704   -0.2523805  
   0.078996100    -0.8985876   -0.1177813  
   0.080996000    -0.9039750    0.0194598  
   0.082995900    -0.8882785    0.1559054  
   0.084995800    -0.8519757    0.2883896  
   0.086995700    -0.7957185    0.4140437  
   0.088995600    -0.7209323    0.5300001  
   0.090995500    -0.6288390    0.6332963  
   0.092995400    -0.5219902    0.7213510  
   0.094995300    -0.4022920    0.7920772  
   0.096995200    -0.2723904    0.8433251  
   0.098995100    -0.1357857    0.8737277  
   0.100995000     0.0043087    0.8822843  
   0.102994900     0.1441200    0.8677455  
   0.104994800     0.2802875    0.8316077  
   0.106994700     0.4091528    0.7737323  
   0.108994600     0.5273399    0.6963447  
   0.110994500     0.6315784    0.6008862  
   0.112994400     0.7192210    0.4896508  
   0.114994300     0.7877192    0.3660881  
   0.116994200     0.8355339    0.2328662  
   0.118994100     0.8614099    0.0940779  
   0.120994000     0.8644058   -0.0469656  
   0.122993900     0.8450487   -0.1860647  
   0.124993800     0.8038102   -0.3199593  
   0.126993700     0.7419521   -0.4452338  
   0.128993600     0.6613769   -0.5588986  
   0.130993500     0.5639478   -0.6573954  
   0.132993400     0.4527332   -0.7389170  
   0.134993300     0.3307858   -0.8017133  
   0.136993200     0.2012472   -0.8442436  
   0.138993100     0.0671380   -0.8661453  
   0.140993000    -0.0678571   -0.8670031  
   0.142992900    -0.2007148   -0.8473119  
   0.144992800    -0.3280673   -0.8076929  
   0.146992700    -0.4476696   -0.7491264  
   0.148992600    -0.5565718   -0.6737085  
   0.150992500    -0.6522696   -0.5830211  
   0.152992400    -0.7324979   -0.4790530  
   0.154992300    -0.7967849   -0.3650607  
   0.156992200    -0.8427131   -0.2426407  
   0.158992100    -0.8699475   -0.1149746  
   0.160992000    -0.8782530    0.0150022  
   0.162991900    -0.8666550    0.1447194  
   0.164991800    -0.8360350    0.2715008  
   0.166991700    -0.7869080    0.3919922  
   0.168991600    -0.7205498    0.5042833  
   0.170991500    -0.6376187    0.6056309  
   0.172991400    -0.5406808    0.6932942  
   0.174991300    -0.4313413    0.7658373  
   0.176991200    -0.3114194    0.8216227  
   0.178991100    -0.1839440    0.8585365  
   0.180991000    -0.0525038    0.8759519  
   0.182990900     0.0805457    0.8730516  
   0.184990800     0.2128939    0.8498221  
   0.186990700     0.3410984    0.8064373  
   0.188990600     0.4387591    0.7563669  
   0.190990500     0.5663332    0.6647833  
   0.192990400     0.6646819    0.5647582  
   0.194990300     0.7440609    0.4530561  
   0.196990200     0.8050050    0.3301170  
   0.198990100     0.8457061    0.1986950  
   0.200990000     0.8652148    0.0620554  
   0.202989900     0.8629355   -0.0768650  
   0.204989800     0.8381732   -0.2134294  
   0.206989700     0.7921999   -0.3443786  
   0.208989600     0.7258473   -0.4659181  
   0.210989500     0.6405501   -0.5757335  
   0.212989400     0.5385491   -0.6704304  
   0.214989300     0.4227913   -0.7473630  
   0.216989200     0.2969751   -0.8043751  
   0.218989100     0.1640866   -0.8402475  
   0.220989000     0.0273281   -0.8544320  
   0.222988900    -0.1100218   -0.8465471  
   0.224988800    -0.2437399   -0.8165518  
   0.226988700    -0.3704191   -0.7661322  
   0.228988600    -0.4867505   -0.6966431  
   0.230988500    -0.5898858   -0.6101449  
   0.232988400    -0.6777713   -0.5084592  
   0.234988300    -0.7487087   -0.3943814  
   0.236988200    -0.8004606   -0.2706363  
   0.238988100    -0.8316588   -0.1408411  
   0.240988000    -0.8424262   -0.0086816  
   0.242987900    -0.8322265    0.1227374  
   0.244987800    -0.8019636    0.2503915  
   0.246987700    -0.7519396    0.3721911  
   0.248987600    -0.6835154    0.4847215  
   0.250987500    -0.5985710    0.5854394  
   0.252987400    -0.4989995    0.6711786  
   0.254987300    -0.3880570    0.7398337  
   0.256987200    -0.2680605    0.7909346  
   0.258987100    -0.1416091    0.8227648  
   0.260987000    -0.0112692    0.8343672  
   0.262986900     0.1197241    0.8258678  
   0.264986800     0.2480910    0.7970193  
   0.266986700     0.3708290    0.7485576  
   0.268986600     0.4843887    0.6813182  
   0.270986500     0.5859202    0.5974803  
   0.272986400     0.6731156    0.4989170  
   0.274986300     0.7442153    0.3875610  
   0.276986200     0.7971374    0.2662411  
   0.278986100     0.8306922    0.1373702  
   0.280986000     0.8436076    0.0046042  
   0.282985900     0.8356612   -0.1290865  
   0.284985800     0.8063738   -0.2601520  
   0.286985700     0.7567770   -0.3846778  
   0.288985600     0.6886013   -0.4993882  
   0.290985500     0.6037777   -0.6018264  
   0.292985400     0.5041224   -0.6894209  
   0.294985300     0.3917380   -0.7604180  
   0.296985200     0.2693956   -0.8132565  
   0.298985100     0.1396897   -0.8464089  
   0.300985000     0.0061698   -0.8585801  
   0.302984900    -0.1269489   -0.8497486  
   0.304984800    -0.2569132   -0.8202007  
   0.306984700    -0.3798702   -0.7707433  
   0.308984600    -0.4927301   -0.7039570  
   0.310984500    -0.5934470   -0.6206937  
   0.312984400    -0.6798907   -0.5233887  
   0.314984300    -0.7501329   -0.4144633  
   0.316984200    -0.8026226   -0.2963726  
   0.318984100    -0.8370620   -0.1709522  
   0.320984000    -0.8517683   -0.0415684  
   0.322983900    -0.8459690    0.0889129  
   0.324983800    -0.8201370    0.2168434  
   0.326983700    -0.7754983    0.3386940  
   0.328983600    -0.7123289    0.4521258  
   0.330983500    -0.6325859    0.5544117  
   0.332983400    -0.5390720    0.6425295  
   0.334983300    -0.4331876    0.7153845  
   0.336983200    -0.3171019    0.7712546  
   0.338983100    -0.1937805    0.8085375  
   0.340983000    -0.0661183    0.8263828  
   0.342982900     0.0630074    0.8244728  
   0.344982800     0.1912057    0.8022873  
   0.346982700     0.3151735    0.7597810  
   0.348982600     0.4316166    0.6983988  
   0.350982500     0.5372369    0.6190569  
   0.352982400     0.6291149    0.5235522  
   0.354982300     0.7072636    0.4093848  
   0.356982200     0.7704005    0.2703127  
   0.358982100     0.8071045    0.1220973  
   0.360982000     0.8160804   -0.0297326  
   0.362981900     0.7972147   -0.1809070  
   0.364981800     0.7505471   -0.3262283  
   0.366981700     0.6779017   -0.4608787  
   0.368981600     0.5815053   -0.5797575  
   0.370981500     0.4648150   -0.6791051  
   0.372981400     0.3317239   -0.7548360  
   0.374981300     0.1859746   -0.8045476  
   0.376981200     0.2977555   -0.7637272  
   0.378981100     0.1519208   -0.8076863  
   0.380981000     0.0000816   -0.8242205  
   0.382980900    -0.1381023   -0.8142807  
   0.384980800    -0.2665158   -0.7834788  
   0.386980700    -0.3881034   -0.7326998  
   0.388980600    -0.4995353   -0.6636637  
   0.390980500    -0.5976155   -0.5789965  
   0.392980400    -0.6807449   -0.4808956  
   0.394980300    -0.7472540   -0.3725392  
   0.396980200    -0.7961811   -0.2557864  
   0.398980100    -0.8266442   -0.1332509  
   0.400980000    -0.8381622   -0.0085155  
   0.402979900    -0.8307770    0.1165430  
   0.404979800    -0.8051817    0.2384939  
   0.406979700    -0.7616214    0.3544748  
   0.408979600    -0.7015312    0.4626683  
   0.410979500    -0.6257669    0.5609965  
   0.412979400    -0.5355591    0.6478036  
   0.414979300    -0.4331318    0.7201326  
   0.416979200    -0.3209046    0.7762247  
   0.418979100    -0.2016627    0.8144574  
   0.420979000    -0.0772130    0.8349670  
   0.422978900     0.0492893    0.8362407  
   0.424978800     0.1755206    0.8183289  
   0.426978700     0.2981932    0.7807615  
   0.428978600     0.4139079    0.7245978  
   0.430978500     0.5198753    0.6510969  
   0.432978400     0.6131110    0.5616161  
   0.434978300     0.6918046    0.4584373  
   0.436978200     0.7533424    0.3435065  
   0.438978100     0.7965451    0.2197044  
   0.440978000     0.8193477    0.0898694  
   0.442977900     0.8212288   -0.0425515  
   0.444977800     0.8017576   -0.1738845  
   0.446977700     0.7609030   -0.3008877  
   0.448977600     0.7004942   -0.4197084  
   0.450977500     0.6207799   -0.5274686  
   0.452977400     0.5242885   -0.6214336  
   0.454977300     0.4130612   -0.6982494  
   0.456977200     0.2898724   -0.7560872  
   0.458977100     0.1587203   -0.7925743  
   0.460977000     0.0238246   -0.8066027  
   0.462976900    -0.1109917   -0.7982370  
   0.464976800    -0.2421789   -0.7681045  
   0.466976700    -0.3660447   -0.7164943  
   0.468976600    -0.4792555   -0.6458341  
   0.470976500    -0.5790968   -0.5578810  
   0.472976400    -0.6623355   -0.4556992  
   0.474976300    -0.7279974   -0.3417260  
   0.476976200    -0.7740214   -0.2197811  
   0.478976100    -0.7994764   -0.0930266  
   0.480976000    -0.8046944    0.0347065  
   0.482975900    -0.7902178    0.1606022  
   0.484975800    -0.7562558    0.2819578  
   0.486975700    -0.7040626    0.3960323  
   0.488975600    -0.6353847    0.5007250  
   0.490975500    -0.5515997    0.5933393  
   0.492975400    -0.4547484    0.6717720  
   0.494975300    -0.3474590    0.7344289  
   0.496975200    -0.2314807    0.7801703  
   0.498975100    -0.1106718    0.8076723  
   0.500975000     0.0130541    0.8166152  
   0.502974900     0.1365109    0.8063703  
   0.504974800     0.2572994    0.7777199  
   0.506974700     0.3730897    0.7303642  
   0.508974600     0.4811518    0.6655006  
   0.510974500     0.5784097    0.5844633  
   0.512974400     0.6624810    0.4890068  
   0.514974300     0.7305241    0.3817368  
   0.516974200     0.7813134    0.2648565  
   0.518974100     0.8134561    0.1414044  
   0.520974000     0.8259741    0.0141344  
   0.522973900     0.8188462   -0.1143559  
   0.524973800     0.7914543   -0.2401534  
   0.526973700     0.7441797   -0.3609128  
   0.528973600     0.6786954   -0.4730517  
   0.530973500     0.5955821   -0.5741915  
   0.532973400     0.4979031   -0.6605697  
   0.534973300     0.3869897   -0.7309493  
   0.536973200     0.2658460   -0.7826669  
   0.538973100     0.1388182   -0.8142695  
   0.540973000     0.0085214   -0.8255798  
   0.542972900    -0.1217815   -0.8157620  
   0.544972800    -0.2489175   -0.7855198  
   0.546972700    -0.3700645   -0.7355239  
   0.548972600    -0.4813907   -0.6669625  
   0.550972500    -0.5803910   -0.5812389  
   0.552972400    -0.6648860   -0.4809525  
   0.554972300    -0.7320225   -0.3686472  
   0.556972200    -0.7801458   -0.2471062  
   0.558972100    -0.8085052   -0.1197405  
   0.560972000    -0.8160335    0.0099888  
   0.562971900    -0.8028006    0.1386090  
   0.564971800    -0.7696013    0.2628862  
   0.566971700    -0.7174708    0.3802038  
   0.568971600    -0.6477388    0.4873371  
   0.570971500    -0.5622813    0.5818580  
   0.572971400    -0.4627863    0.6617490  
   0.574971300    -0.3516589    0.7253317  
   0.576971200    -0.2316274    0.7705624  
   0.578971100    -0.1055045    0.7958817  
   0.580971000     0.0228456    0.8012187  
   0.582970900     0.1505895    0.7858797  
   0.584970800     0.2738998    0.7503607  
   0.586970700     0.3897677    0.6957328  
   0.588970600     0.4953447    0.6235095  
   0.590970500     0.5886761    0.5349901  
   0.592970400     0.6663356    0.4326347  
   0.594970300     0.7264954    0.3192123  
   0.596970200     0.7682796    0.1971312  
   0.598970100     0.7895592    0.0698362  
   0.600970000     0.7905789   -0.0593167  
   0.602969900     0.7702806   -0.1874651  
   0.604969800     0.7296664   -0.3109051  
   0.606969700     0.6698058   -0.4263867  
   0.608969600     0.5913996   -0.5311183  
   0.610969500     0.4975343   -0.6217552  
   0.612969400     0.3898337   -0.6957402  
   0.614969300     0.2721797   -0.7513362  
   0.616969200     0.1478820   -0.7869217  
   0.618969100     0.0204184   -0.8022043  
   0.620969000    -0.1068628   -0.7971058  
   0.622968900    -0.2318684   -0.7720960  
   0.624968800    -0.3512428   -0.7280052  
   0.626968700    -0.4621932   -0.6659287  
   0.628968600    -0.5616774   -0.5875150  
   0.630968500    -0.6478036   -0.4947267  
   0.632968400    -0.7184190   -0.3903212  
   0.634968300    -0.7716582   -0.2761415  
   0.636968200    -0.8068891   -0.1556192  
   0.638968100    -0.8226609   -0.0317787  
   0.640968000    -0.8199366    0.0930711  
   0.642967900    -0.7979704    0.2153769  
   0.644967800    -0.7579175    0.3331198  
   0.646967700    -0.7005466    0.4424741  
   0.648967600    -0.6275188    0.5421847  
   0.650967500    -0.5408071    0.6292052  
   0.652967400    -0.4421751    0.7023829  
   0.654967300    -0.3340903    0.7593489  
   0.656967200    -0.2184666    0.8000654  
   0.658967100    -0.0983453    0.8227057  
   0.660967000     0.0246576    0.8272424  
   0.662966900     0.1473436    0.8131782  
   0.664966800     0.2676845    0.7801874  
   0.666966700     0.3824916    0.7285433  
   0.668966600     0.4882170    0.6599717  
   0.670966500     0.5826942    0.5755705  
   0.672966400     0.6627240    0.4766510  
   0.674966300     0.7269380    0.3663760  
   0.676966200     0.7730860    0.2474254  
   0.678966100     0.8001308    0.1225946  
   0.680966000     0.8071854   -0.0054626  
   0.682965900     0.7936900   -0.1330707  
   0.684965800     0.7600009   -0.2571723  
   0.686965700     0.7066370   -0.3748823  
   0.688965600     0.6353180   -0.4831900  
   0.690965500     0.5477403   -0.5783136  
   0.692965400     0.4457884   -0.6580065  
   0.694965300     0.3323513   -0.7203376  
   0.696965200     0.2103721   -0.7636147  
   0.698965100     0.0834492   -0.7866454  
   0.700965000    -0.0458150   -0.7888085  
   0.702964900    -0.1733248   -0.7703549  
   0.704964800    -0.2960465   -0.7315700  
   0.706964700    -0.4103443   -0.6735064  
   0.708964600    -0.5138893   -0.5985067  
   0.710964500    -0.6036709   -0.5075427  
   0.712964400    -0.6774350   -0.4043628  
   0.714964300    -0.7335287   -0.2908272  
   0.716964200    -0.7706371   -0.1708662  
   0.718964100    -0.7883837   -0.0477639  
   0.720964000    -0.7866436    0.0759980  
   0.722963900    -0.7661156    0.1968421  
   0.724963800    -0.7277208    0.3127344  
   0.726963700    -0.6719190    0.4208373  
   0.728963600    -0.6008160    0.5189419  
   0.730963500    -0.5154923    0.6048803  
   0.732963400    -0.4186156    0.6765758  
   0.734963300    -0.3118954    0.7329807  
   0.736963200    -0.1787207    0.7766556  
   0.738963100    -0.0393149    0.7970188  
   0.740963000     0.1024538    0.7926936  
   0.742962900     0.2416378    0.7633235  
   0.744962800     0.3742016    0.7100160  
   0.746962700     0.4958916    0.6341982  
   0.748962600     0.6028472    0.5377693  
   0.750962500     0.4946298    0.6286446  
   0.752962400     0.6000072    0.5307861  
   0.754962300     0.6869028    0.4152595  
   0.756962200     0.7519745    0.2858977  
   0.758962100     0.7932498    0.1465650  
   0.760962000     0.8087779    0.0012986  
   0.762961900     0.7990130   -0.1371871  
   0.764961800     0.7688408   -0.2608067  
   0.766961700     0.7198471   -0.3782918  
   0.768961600     0.6524646   -0.4869975  
   0.770961500     0.5687247   -0.5837498  
   0.772961400     0.4703799   -0.6663210  
   0.774961300     0.3605871   -0.7322819  
   0.776961200     0.2415108   -0.7800388  
   0.778961100     0.1156498   -0.8087630  
   0.780961000    -0.0130065   -0.8167627  
   0.782960900    -0.1419402   -0.8039520  
   0.784960800    -0.2670623   -0.7707434  
   0.786960700    -0.3850017   -0.7179267  
   0.788960600    -0.4930411   -0.6470321  
   0.790960500    -0.5877213   -0.5605747  
   0.792960400    -0.6670933   -0.4598565  
   0.794960300    -0.7291253   -0.3487885  
   0.796960200    -0.7724227   -0.2300057  
   0.798960100    -0.7965203   -0.1068438  
   0.800960000    -0.8013157    0.0177766  
   0.802959900    -0.7861437    0.1410733  
   0.804959800    -0.7525780    0.2594783  
   0.806959700    -0.7015010    0.3709431  
   0.808959600    -0.6342655    0.4728930  
   0.810959500    -0.5526770    0.5621706  
   0.812959400    -0.4583797    0.6382583  
   0.814959300    -0.3540773    0.6987621  
   0.816959200    -0.2419625    0.7426746  
   0.818959100    -0.1245907    0.7688929  
   0.820959000    -0.0046050    0.7768661  
   0.822958900     0.1157437    0.7662153  
   0.824958800     0.2326875    0.7374634  
   0.826958700     0.3446243    0.6912815  
   0.828958600     0.4481499    0.6283131  
   0.830958500     0.5410258    0.5496609  
   0.832958400     0.6210149    0.4573011  
   0.834958300     0.6854885    0.3537365  
   0.836958200     0.7332631    0.2408311  
   0.838958100     0.7634349    0.1214584  
   0.840958000     0.7742937   -0.0015120  
   0.842957900     0.7658374   -0.1257195  
   0.844957800     0.7371558   -0.2474570  
   0.846957700     0.6897124   -0.3634811  
   0.848957600     0.6242989   -0.4706594  
   0.850957500     0.5421751   -0.5663574  
   0.852957400     0.4458818   -0.6481040  
   0.854957300     0.3375826   -0.7129923  
   0.856957200     0.2200122   -0.7600854  
   0.858957100     0.0971128   -0.7876732  
   0.860957000    -0.0286608   -0.7954913  
   0.862956900    -0.1530277   -0.7834721  
   0.864956800    -0.2734464   -0.7519874  
   0.866956700    -0.3868733   -0.7028528  
   0.868956600    -0.4906752   -0.6370396  
   0.870956500    -0.5828751   -0.5565176  
   0.872956400    -0.6612886   -0.4627617  
   0.874956300    -0.7244853   -0.3585619  
   0.876956200    -0.7708001   -0.2462856  
   0.878956100    -0.7992743   -0.1284079  
   0.880956000    -0.8095502   -0.0075262  
   0.882955900    -0.8014404    0.1129962  
   0.884955800    -0.7754830    0.2307850  
   0.886955700    -0.7317481    0.3430279  
   0.888955600    -0.6720486    0.4471234  
   0.890955500    -0.5977553    0.5414199  
   0.892955400    -0.5094837    0.6232147  
   0.894955300    -0.4104430    0.6911821  
