! MS46122B
! 2250307/22442219
! 6/18/2025 7:49:50 AM
! C:\USERS\SPARKY\DOCUMENTS\VNA_DATA\JUNE18_2025\3.0K\PORT1_MOS3.S1P
! CHANNEL.1
! TR.MEASUREMENT
! RAW.DATA
# GHZ S RI R 50.0
! FREQ.GHZ         S11RE         S11IM         
!; PortSelection: Port_1
   0.001000000    -0.8597311    0.0501607  
   0.002999900    -0.8348757    0.2435503  
   0.004999800    -0.7996820    0.3802893  
   0.006999700    -0.7394306    0.5021410  
   0.008999600    -0.6569349    0.6079207  
   0.010999500    -0.5562668    0.6958575  
   0.012999400    -0.4413103    0.7645838  
   0.014999300    -0.3155080    0.8127702  
   0.016999200    -0.1837302    0.8404751  
   0.018999100    -0.0491504    0.8477976  
   0.020999000     0.0846546    0.8355597  
   0.022998900     0.2146139    0.8043715  
   0.024998800     0.3112645    0.7369646  
   0.026998700     0.4523274    0.6900851  
   0.028998600     0.5552290    0.6099153  
   0.030998500     0.6447761    0.5161908  
   0.032998400     0.6862736    0.4105078  
   0.034998300     0.7769426    0.2954318  
   0.036998200     0.8159594    0.1726850  
   0.038998100     0.8356159    0.0449949  
   0.040998000     0.8348570   -0.0839852  
   0.042997900     0.8135636   -0.2117440  
   0.044997800     0.7510109   -0.3097078  
   0.046997700     0.7111224   -0.4489186  
   0.048997600     0.6337376   -0.5527024  
   0.050997500     0.5408580   -0.6424889  
   0.052997400     0.4377453   -0.7156104  
   0.054997300     0.3211375   -0.7743914  
   0.056997200     0.1992113   -0.8137740  
   0.058997100     0.0736361   -0.8340902  
   0.060997000    -0.0532432   -0.8354278  
   0.062996900    -0.1784116   -0.8180323  
   0.064996800    -0.2993441   -0.7819737  
   0.066996700    -0.4131698   -0.7280448  
   0.068996600    -0.5173116   -0.6575332  
   0.070996500    -0.6093217   -0.5725477  
   0.072996400    -0.6871986   -0.4743113  
   0.074996300    -0.7489482   -0.3656233  
   0.076996200    -0.7933530   -0.2488467  
   0.078996100    -0.8197051   -0.1268915  
   0.080996000    -0.8269887   -0.0022299  
   0.082995900    -0.8156543    0.1222788  
   0.084995800    -0.7853242    0.2434191  
   0.086995700    -0.7369162    0.3588395  
   0.088995600    -0.6713157    0.4656886  
   0.090995500    -0.5901753    0.5613769  
   0.092995400    -0.4950990    0.6440226  
   0.094995300    -0.3879608    0.7106792  
   0.096995200    -0.2715483    0.7601644  
   0.098995100    -0.1486944    0.7911112  
   0.100995000    -0.0219491    0.8025842  
   0.102994900     0.1049016    0.7933754  
   0.104994800     0.2290162    0.7642621  
   0.106994700     0.3475113    0.7158888  
   0.108994600     0.4565042    0.6490147  
   0.110994500     0.5536913    0.5659072  
   0.112994400     0.6364493    0.4679897  
   0.114994300     0.7027314    0.3584812  
   0.116994200     0.7502042    0.2395921  
   0.118994100     0.7782699    0.1148213  
   0.120994000     0.7861642   -0.0125937  
   0.122993900     0.7735183   -0.1393256  
   0.124993800     0.7411046   -0.2620424  
   0.126993700     0.6893511   -0.3779223  
   0.128993600     0.6211073   -0.4838531  
   0.130993500     0.5364155   -0.5772091  
   0.132993400     0.4386360   -0.6555521  
   0.134993300     0.3306046   -0.7174037  
   0.136993200     0.2145020   -0.7614889  
   0.138993100     0.0936241   -0.7868682  
   0.140993000    -0.0292214   -0.7930903  
   0.142992900    -0.1506901   -0.7809190  
   0.144992800    -0.2686955   -0.7500534  
   0.146992700    -0.3800633   -0.7018347  
   0.148992600    -0.4821917   -0.6374606  
   0.150992500    -0.5735510   -0.5592756  
   0.152992400    -0.6512334   -0.4678872  
   0.154992300    -0.7145458   -0.3662789  
   0.156992200    -0.7616330   -0.2567091  
   0.158992100    -0.7924336   -0.1416304  
   0.160992000    -0.8052428   -0.0232832  
   0.162991900    -0.8006139    0.0955162  
   0.164991800    -0.7782337    0.2124401  
   0.166991700    -0.7387500    0.3246669  
   0.168991600    -0.6830028    0.4295989  
   0.170991500    -0.6120316    0.5258063  
   0.172991400    -0.5275410    0.6101657  
   0.174991300    -0.4313314    0.6810881  
   0.176991200    -0.3247360    0.7370788  
   0.178991100    -0.2108949    0.7766795  
   0.180991000    -0.0921294    0.7988455  
   0.182990900     0.0291025    0.8024664  
   0.184990800     0.1502308    0.7875776  
   0.186990700     0.2684611    0.7549463  
   0.188990600     0.3594718    0.7144749  
   0.190990500     0.4799557    0.6378220  
   0.192990400     0.5739849    0.5525818  
   0.194990300     0.6520593    0.4558738  
   0.196990200     0.7137387    0.3480079  
   0.198990100     0.7577540    0.2316783  
   0.200990000     0.7834935    0.1092505  
   0.202989900     0.7895897   -0.0162382  
   0.204989800     0.7753208   -0.1413674  
   0.206989700     0.7417819   -0.2620209  
   0.208989600     0.6896886   -0.3759150  
   0.210989500     0.6195893   -0.4805272  
   0.212989400     0.5337011   -0.5727733  
   0.214989300     0.4342313   -0.6497544  
   0.216989200     0.3246019   -0.7098479  
   0.218989100     0.2069985   -0.7511212  
   0.220989000     0.0843893   -0.7734732  
   0.222988900    -0.0400275   -0.7759902  
   0.224988800    -0.1632327   -0.7590236  
   0.226988700    -0.2813150   -0.7220185  
   0.228988600    -0.3914867   -0.6676621  
   0.230988500    -0.4913570   -0.5968909  
   0.232988400    -0.5785576   -0.5113137  
   0.234988300    -0.6511421   -0.4131318  
   0.236988200    -0.7069879   -0.3049105  
   0.238988100    -0.7454662   -0.1897337  
   0.240988000    -0.7648914   -0.0709233  
   0.242987900    -0.7654166    0.0488800  
   0.244987800    -0.7477738    0.1669642  
   0.246987700    -0.7117119    0.2811070  
   0.248987600    -0.6583247    0.3883519  
   0.250987500    -0.5888245    0.4860703  
   0.252987400    -0.5054401    0.5713747  
   0.254987300    -0.4102866    0.6424223  
   0.256987200    -0.3054794    0.6976194  
   0.258987100    -0.1934219    0.7362401  
   0.260987000    -0.0764815    0.7573836  
   0.262986900     0.0429561    0.7598252  
   0.264986800     0.1615693    0.7439506  
   0.266986700     0.2764580    0.7095626  
   0.268986600     0.3845335    0.6582275  
   0.270986500     0.4832394    0.5906412  
   0.272986400     0.5702972    0.5084455  
   0.274986300     0.6437132    0.4138682  
   0.276986200     0.7017115    0.3084464  
   0.278986100     0.7430356    0.1947321  
   0.280986000     0.7661534    0.0756056  
   0.282985900     0.7702698   -0.0459206  
   0.284985800     0.7552845   -0.1669699  
   0.286985700     0.7215940   -0.2842000  
   0.288985600     0.6698096   -0.3942076  
   0.290985500     0.6022552   -0.4944694  
   0.292985400     0.5197022   -0.5829808  
   0.294985300     0.4245494   -0.6575661  
   0.296985200     0.3184983   -0.7168733  
   0.298985100     0.2038260   -0.7589942  
   0.300985000     0.0837527   -0.7824270  
   0.302984900    -0.0378586   -0.7871140  
   0.304984800    -0.1586040   -0.7726439  
   0.306984700    -0.2751678   -0.7397698  
   0.308984600    -0.3844321   -0.6892810  
   0.310984500    -0.4837555   -0.6233766  
   0.312984400    -0.5721116   -0.5437781  
   0.314984300    -0.6464152   -0.4515247  
   0.316984200    -0.7060243   -0.3491527  
   0.318984100    -0.7496080   -0.2386898  
   0.320984000    -0.7758190   -0.1222608  
   0.322983900    -0.7837276   -0.0027292  
   0.324983800    -0.7731025    0.1158838  
   0.326983700    -0.7449827    0.2315155  
   0.328983600    -0.6990609    0.3411514  
   0.330983500    -0.6371140    0.4418491  
   0.332983400    -0.5611322    0.5316195  
   0.334983300    -0.4725027    0.6088968  
   0.336983200    -0.3732892    0.6716344  
   0.338983100    -0.2652372    0.7182555  
   0.340983000    -0.1514353    0.7481694  
   0.342982900    -0.0342742    0.7601396  
   0.344982800     0.0840498    0.7538800  
   0.346982700     0.2013238    0.7291651  
   0.348982600     0.3132283    0.6864972  
   0.350982500     0.4175731    0.6264247  
   0.352982400     0.5114440    0.5502864  
   0.354982300     0.5954211    0.4560693  
   0.356982200     0.6685156    0.3374658  
   0.358982100     0.7187639    0.2079362  
   0.360982000     0.7447158    0.0715052  
   0.362981900     0.7453388   -0.0675239  
   0.364981800     0.7207505   -0.2047556  
   0.366981700     0.6712961   -0.3348690  
   0.368981600     0.5986346   -0.4544531  
   0.370981500     0.5053190   -0.5585799  
   0.372981400     0.3941135   -0.6439061  
   0.374981300     0.2688561   -0.7071133  
   0.376981200     0.3644495   -0.6567264  
   0.378981100     0.2374429   -0.7151660  
   0.380981000     0.1020056   -0.7488202  
   0.382980900    -0.0250524   -0.7572476  
   0.384980800    -0.1460089   -0.7457579  
   0.386980700    -0.2628986   -0.7153727  
   0.388980600    -0.3734712   -0.6666368  
   0.390980500    -0.4741074   -0.6015949  
   0.392980400    -0.5622742   -0.5229497  
   0.394980300    -0.6369492   -0.4322376  
   0.396980200    -0.6966375   -0.3318512  
   0.398980100    -0.7399164   -0.2241023  
   0.400980000    -0.7667961   -0.1115026  
   0.402979900    -0.7759022    0.0035115  
   0.404979800    -0.7680126    0.1179715  
   0.406979700    -0.7434906    0.2298434  
   0.408979600    -0.7024507    0.3360223  
   0.410979500    -0.6460214    0.4356140  
   0.412979400    -0.5750257    0.5261888  
   0.414979300    -0.4914214    0.6055772  
   0.416979200    -0.3965640    0.6713044  
   0.418979100    -0.2930210    0.7222828  
   0.420979000    -0.1829401    0.7567296  
   0.422978900    -0.0681373    0.7752308  
   0.424978800     0.0488134    0.7756040  
   0.426978700     0.1648538    0.7582148  
   0.428978600     0.2773316    0.7231783  
   0.430978500     0.3834371    0.6714612  
   0.432978400     0.4802430    0.6038909  
   0.434978300     0.5658600    0.5220560  
   0.436978200     0.6380732    0.4274059  
   0.438978100     0.6950164    0.3220226  
   0.440978000     0.7347136    0.2085657  
   0.442977900     0.7564452    0.0897037  
   0.444977800     0.7590106   -0.0315985  
   0.446977700     0.7418151   -0.1522635  
   0.448977600     0.7057695   -0.2686773  
   0.450977500     0.6514572   -0.3779719  
   0.452977400     0.5794811   -0.4778776  
   0.454977300     0.4917026   -0.5656170  
   0.456977200     0.3903697   -0.6376258  
   0.458977100     0.2780394   -0.6925365  
   0.460977000     0.1584832   -0.7278896  
   0.462976900     0.0353317   -0.7429631  
   0.464976800    -0.0884186   -0.7377128  
   0.466976700    -0.2095252   -0.7121254  
   0.468976600    -0.3242953   -0.6676891  
   0.470976500    -0.4298173   -0.6050075  
   0.472976400    -0.5235927   -0.5263532  
   0.474976300    -0.6027178   -0.4340217  
   0.476976200    -0.6655144   -0.3308358  
   0.478976100    -0.7107953   -0.2199701  
   0.480976000    -0.7377145   -0.1041908  
   0.482975900    -0.7458814    0.0131314  
   0.484975800    -0.7358911    0.1299794  
   0.486975700    -0.7077382    0.2432738  
   0.488975600    -0.6629565    0.3503801  
   0.490975500    -0.6019526    0.4492826  
   0.492975400    -0.5270936    0.5375880  
   0.494975300    -0.4395117    0.6132443  
   0.496975200    -0.3415314    0.6744306  
   0.498975100    -0.2356252    0.7199795  
   0.500975000    -0.1243076    0.7488241  
   0.502974900    -0.0098972    0.7606755  
   0.504974800     0.1051314    0.7548090  
   0.506974700     0.2186838    0.7314520  
   0.508974600     0.3281338    0.6907509  
   0.510974500     0.4302093    0.6337387  
   0.512974400     0.5229319    0.5611108  
   0.514974300     0.6030620    0.4751205  
   0.516974200     0.6697061    0.3780737  
   0.518974100     0.7205262    0.2717727  
   0.520974000     0.7542776    0.1582258  
   0.522973900     0.7700590    0.0406288  
   0.524973800     0.7678732   -0.0785591  
   0.526973700     0.7469760   -0.1963443  
   0.528973600     0.7075078   -0.3098361  
   0.530973500     0.6506420   -0.4165843  
   0.532973400     0.5777320   -0.5132087  
   0.534973300     0.4903651   -0.5973666  
   0.536973200     0.3901812   -0.6670513  
   0.538973100     0.2809322   -0.7195244  
   0.540973000     0.1646790   -0.7545918  
   0.542972900     0.0442266   -0.7706245  
   0.544972800    -0.0766442   -0.7678363  
   0.546972700    -0.1967495   -0.7457616  
   0.548972600    -0.3115419   -0.7050865  
   0.550972500    -0.4183992   -0.6466430  
   0.552972400    -0.5149997   -0.5718988  
   0.554972300    -0.5986446   -0.4832303  
   0.556972200    -0.6666157   -0.3819088  
   0.558972100    -0.7180033   -0.2714527  
   0.560972000    -0.7509499   -0.1546947  
   0.562971900    -0.7652839   -0.0346440  
   0.564971800    -0.7600087    0.0854675  
   0.566971700    -0.7362192    0.2029920  
   0.568971600    -0.6946570    0.3151019  
   0.570971500    -0.6358680    0.4189721  
   0.572971400    -0.5615960    0.5121453  
   0.574971300    -0.4733470    0.5928779  
   0.576971200    -0.3732575    0.6590906  
   0.578971100    -0.2636274    0.7082926  
   0.580971000    -0.1478428    0.7395726  
   0.582970900    -0.0283990    0.7522336  
   0.584970800     0.0913726    0.7459637  
   0.586970700     0.2083996    0.7207497  
   0.588970600     0.3197014    0.6770314  
   0.590970500     0.4231157    0.6164336  
   0.592970400     0.5157984    0.5398651  
   0.594970300     0.5951415    0.4495371  
   0.596970200     0.6591021    0.3471371  
   0.598970100     0.7061432    0.2360092  
   0.600970000     0.7346115    0.1181421  
   0.602969900     0.7439942   -0.0027368  
   0.604969800     0.7337363   -0.1246571  
   0.606969700     0.7041301   -0.2427672  
   0.608969600     0.6555004   -0.3555446  
   0.610969500     0.5889922   -0.4591538  
   0.612969400     0.5067667   -0.5500029  
   0.614969300     0.4110513   -0.6270159  
   0.616969200     0.3044228   -0.6870665  
   0.618969100     0.1905898   -0.7288996  
   0.620969000     0.0721012   -0.7518033  
   0.622968900    -0.0486248   -0.7563587  
   0.624968800    -0.1682471   -0.7412945  
   0.626968700    -0.2841426   -0.7078344  
   0.628968600    -0.3933924   -0.6568027  
   0.630968500    -0.4931200   -0.5895000  
   0.632968400    -0.5807603   -0.5076193  
   0.634968300    -0.6546329   -0.4133031  
   0.636968200    -0.7127680   -0.3088939  
   0.638968100    -0.7535656   -0.1970459  
   0.640968000    -0.7772967   -0.0807660  
   0.642967900    -0.7830605    0.0376574  
   0.644967800    -0.7702923    0.1552007  
   0.646967700    -0.7396493    0.2689714  
   0.648967600    -0.6930032    0.3766127  
   0.650967500    -0.6309662    0.4755649  
   0.652967400    -0.5545061    0.5637695  
   0.654967300    -0.4665978    0.6394708  
   0.656967200    -0.3676837    0.7011799  
   0.658967100    -0.2612485    0.7475424  
   0.660967000    -0.1484353    0.7773282  
   0.662966900    -0.0319027    0.7899809  
   0.664966800     0.0861421    0.7851354  
   0.666966700     0.2030176    0.7619770  
   0.668966600     0.3151890    0.7214236  
   0.670966500     0.4204555    0.6635185  
   0.672966400     0.5155144    0.5898827  
   0.674966300     0.5985653    0.5024173  
   0.676966200     0.6670572    0.4027465  
   0.678966100     0.7195718    0.2938173  
   0.680966000     0.7545404    0.1776034  
   0.682965900     0.7710705    0.0568394  
   0.684965800     0.7683578   -0.0651126  
   0.686965700     0.7459474   -0.1857273  
   0.688965600     0.7047206   -0.3019221  
   0.690965500     0.6458319   -0.4100773  
   0.692965400     0.5701965   -0.5072550  
   0.694965300     0.4801551   -0.5914979  
   0.696965200     0.3773003   -0.6603176  
   0.698965100     0.2651188   -0.7113502  
   0.700965000     0.1457565   -0.7439970  
   0.702964900     0.0228091   -0.7572410  
   0.704964800    -0.1004704   -0.7502379  
   0.706964700    -0.2208857   -0.7235863  
   0.708964600    -0.3352187   -0.6779905  
   0.710964500    -0.4408536   -0.6147990  
   0.712964400    -0.5341207   -0.5354886  
   0.714964300    -0.6135333   -0.4426593  
   0.716964200    -0.6764600   -0.3394301  
   0.718964100    -0.7220306   -0.2281151  
   0.720964000    -0.7492777   -0.1117916  
   0.722963900    -0.7584170    0.0062145  
   0.724963800    -0.7491930    0.1240660  
   0.726963700    -0.7221915    0.2382832  
   0.728963600    -0.6778389    0.3466747  
   0.730963500    -0.6178263    0.4465995  
   0.732963400    -0.5437132    0.5361749  
   0.734963300    -0.4567059    0.6131502  
   0.736963200    -0.3423188    0.6840623  
   0.738963100    -0.2165892    0.7345249  
   0.740963000    -0.0833863    0.7622350  
   0.742962900     0.0528203    0.7662094  
   0.744962800     0.1882369    0.7466572  
   0.746962700     0.3187849    0.7034321  
   0.748962600     0.4404170    0.6378292  
   0.750962500     0.3193938    0.7011015  
   0.752962400     0.4397746    0.6338503  
   0.754962300     0.5465275    0.5464460  
   0.756962200     0.6365790    0.4406292  
   0.758962100     0.7071462    0.3207186  
   0.760962000     0.7553979    0.1893484  
   0.762961900     0.7787222    0.0583087  
   0.764961800     0.7798220   -0.0631924  
   0.766961700     0.7619275   -0.1838579  
   0.768961600     0.7254191   -0.3008240  
   0.770961500     0.6709520   -0.4107631  
   0.772961400     0.5997303   -0.5110109  
   0.774961300     0.5135123   -0.5987602  
   0.776961200     0.4142515   -0.6725035  
   0.778961100     0.3040779   -0.7298234  
   0.780961000     0.1858212   -0.7688367  
   0.782960900     0.0626354   -0.7889515  
   0.784960800    -0.0628303   -0.7891573  
   0.786960700    -0.1864510   -0.7690943  
   0.788960600    -0.3053948   -0.7295308  
   0.790960500    -0.4161142   -0.6716561  
   0.792960400    -0.5158916   -0.5971598  
   0.794960300    -0.6018707   -0.5078827  
   0.796960200    -0.6723205   -0.4071481  
   0.798960100    -0.7256929   -0.2967248  
   0.800960000    -0.7612908   -0.1804437  
   0.802959900    -0.7777055   -0.0602257  
   0.804959800    -0.7758665    0.0599586  
   0.806959700    -0.7553245    0.1779649  
   0.808959600    -0.7167393    0.2909295  
   0.810959500    -0.6619623    0.3956489  
   0.812959400    -0.5916003    0.4907259  
   0.814959300    -0.5082074    0.5736191  
   0.816959200    -0.4132773    0.6423821  
   0.818959100    -0.3089648    0.6962827  
   0.820959000    -0.1978956    0.7332550  
   0.822958900    -0.0822422    0.7531381  
   0.824958800     0.0353835    0.7547747  
   0.826958700     0.1514887    0.7384263  
   0.828958600     0.2644228    0.7047780  
   0.830958500     0.3706325    0.6541246  
   0.832958400     0.4683441    0.5874184  
   0.834958300     0.5545191    0.5063131  
   0.836958200     0.6272627    0.4126756  
   0.838958100     0.6849122    0.3084528  
   0.840958000     0.7257943    0.1962832  
   0.842957900     0.7489386    0.0780512  
   0.844957800     0.7534010   -0.0426562  
   0.846957700     0.7382846   -0.1634159  
   0.848957600     0.7044327   -0.2802634  
   0.850957500     0.6520407   -0.3910601  
   0.852957400     0.5822493   -0.4921598  
   0.854957300     0.4976027   -0.5806409  
   0.856957200     0.3993866   -0.6551229  
   0.858957100     0.2908441   -0.7126899  
   0.860957000     0.1745534   -0.7520856  
   0.862956900     0.0541393   -0.7727297  
   0.864956800    -0.0673566   -0.7740475  
   0.866956700    -0.1872131   -0.7566960  
   0.868956600    -0.3021484   -0.7208529  
   0.870956500    -0.4101322   -0.6681424  
   0.872956400    -0.5084733   -0.5992628  
   0.874956300    -0.5948852   -0.5165437  
   0.876956200    -0.6673145   -0.4215296  
   0.878956100    -0.7241811   -0.3169807  
   0.880956000    -0.7645465   -0.2048797  
   0.882955900    -0.7868893   -0.0884820  
   0.884955800    -0.7916744    0.0297270  
   0.886955700    -0.7785076    0.1469667  
   0.888955600    -0.7478500    0.2609149  
   0.890955500    -0.7006298    0.3683763  
   0.892955400    -0.6379168    0.4678007  
   0.894955300    -0.5610620    0.5565919  
