! MS46122B
! 2250307/22442219
! 6/16/2025 7:47:36 AM
! C:\USERS\SPARKY\DOCUMENTS\VNA_DATA\JUNE16_2025\3.1K\PORT1_MOS4.S1P
! CHANNEL.1
! TR.MEASUREMENT
! RAW.DATA
# GHZ S RI R 50.0
! FREQ.GHZ         S11RE         S11IM         
!; PortSelection: Port_1
   0.001000000    -0.8903868    0.0514415  
   0.002999900    -0.8643563    0.2498002  
   0.004999800    -0.8278703    0.3917229  
   0.006999700    -0.7652285    0.5184399  
   0.008999600    -0.6793083    0.6289587  
   0.010999500    -0.5744336    0.7207149  
   0.012999400    -0.4544277    0.7923077  
   0.014999300    -0.3233523    0.8421137  
   0.016999200    -0.1861372    0.8705960  
   0.018999100    -0.0463146    0.8777660  
   0.020999000     0.0927220    0.8643805  
   0.022998900     0.2273683    0.8311598  
   0.024998800     0.3276131    0.7608535  
   0.026998700     0.4731946    0.7113069  
   0.028998600     0.5795390    0.6270536  
   0.030998500     0.6716763    0.5290095  
   0.032998400     0.7143136    0.4190038  
   0.034998300     0.8068596    0.2988133  
   0.036998200     0.8462630    0.1708305  
   0.038998100     0.8651100    0.0379982  
   0.040998000     0.8630380   -0.0962105  
   0.042997900     0.8390842   -0.2284502  
   0.044997800     0.7732366   -0.3297607  
   0.046997700     0.7298940   -0.4736607  
   0.048997600     0.6478360   -0.5801006  
   0.050997500     0.5501229   -0.6721400  
   0.052997400     0.4417175   -0.7464558  
   0.054997300     0.3201296   -0.8057700  
   0.056997200     0.1928776   -0.8444079  
   0.058997100     0.0621285   -0.8634979  
   0.060997000    -0.0695489   -0.8627539  
   0.062996900    -0.1991543   -0.8423486  
   0.064996800    -0.3239218   -0.8025547  
   0.066996700    -0.4409404   -0.7444526  
   0.068996600    -0.5477684   -0.6692379  
   0.070996500    -0.6414187   -0.5788503  
   0.072996400    -0.7201222   -0.4753833  
   0.074996300    -0.7819827   -0.3611985  
   0.076996200    -0.8257586   -0.2388715  
   0.078996100    -0.8500264   -0.1117106  
   0.080996000    -0.8548111    0.0180703  
   0.082995900    -0.8398582    0.1469886  
   0.084995800    -0.8053954    0.2720139  
   0.086995700    -0.7520438    0.3907458  
   0.088995600    -0.6811463    0.5000662  
   0.090995500    -0.5943482    0.5975570  
   0.092995400    -0.4931064    0.6804251  
   0.094995300    -0.3798598    0.7466865  
   0.096995200    -0.2575115    0.7949599  
   0.098995100    -0.1284841    0.8237076  
   0.100995000     0.0034394    0.8312138  
   0.102994900     0.1351299    0.8176127  
   0.104994800     0.2632666    0.7834882  
   0.106994700     0.3848932    0.7290547  
   0.108994600     0.4962396    0.6558650  
   0.110994500     0.5941393    0.5659491  
   0.112994400     0.6766412    0.4612120  
   0.114994300     0.7412730    0.3448173  
   0.116994200     0.7864363    0.2193876  
   0.118994100     0.8107586    0.0886399  
   0.120994000     0.8139802   -0.0441166  
   0.122993900     0.7957868   -0.1752702  
   0.124993800     0.7571083   -0.3014701  
   0.126993700     0.6987230   -0.4195614  
   0.128993600     0.6230866   -0.5268200  
   0.130993500     0.5314810   -0.6199134  
   0.132993400     0.4267069   -0.6972060  
   0.134993300     0.3118625   -0.7568091  
   0.136993200     0.1895593   -0.7971706  
   0.138993100     0.0630637   -0.8181799  
   0.140993000    -0.0643883   -0.8191728  
   0.142992900    -0.1900019   -0.8011352  
   0.144992800    -0.3106815   -0.7636932  
   0.146992700    -0.4237947   -0.7087299  
   0.148992600    -0.5269391   -0.6374211  
   0.150992500    -0.6175683   -0.5521069  
   0.152992400    -0.6939644   -0.4538396  
   0.154992300    -0.7546672   -0.3456373  
   0.156992200    -0.7986929   -0.2300350  
   0.158992100    -0.8246244   -0.1091192  
   0.160992000    -0.8325086    0.0140840  
   0.162991900    -0.8217309    0.1368625  
   0.164991800    -0.7930312    0.2570998  
   0.166991700    -0.7464353    0.3713685  
   0.168991600    -0.6833570    0.4777148  
   0.170991500    -0.6049731    0.5735652  
   0.172991400    -0.5128378    0.6566346  
   0.174991300    -0.4093818    0.7253374  
   0.176991200    -0.2958422    0.7778264  
   0.178991100    -0.1752375    0.8131076  
   0.180991000    -0.0508840    0.8295335  
   0.182990900     0.0751548    0.8267936  
   0.184990800     0.2004817    0.8044419  
   0.186990700     0.3215823    0.7636575  
   0.188990600     0.4137027    0.7160917  
   0.190990500     0.5343947    0.6294591  
   0.192990400     0.6271858    0.5350555  
   0.194990300     0.7022480    0.4293794  
   0.196990200     0.7596160    0.3134806  
   0.198990100     0.7981122    0.1895216  
   0.200990000     0.8168615    0.0604160  
   0.202989900     0.8146296   -0.0705723  
   0.204989800     0.7913597   -0.1995192  
   0.206989700     0.7480116   -0.3228501  
   0.208989600     0.6856855   -0.4377460  
   0.210989500     0.6055503   -0.5410529  
   0.212989400     0.5095114   -0.6307583  
   0.214989300     0.4006458   -0.7035912  
   0.216989200     0.2821156   -0.7578167  
   0.218989100     0.1570375   -0.7921187  
   0.220989000     0.0281459   -0.8056446  
   0.222988900    -0.1013845   -0.7988547  
   0.224988800    -0.2278127   -0.7710983  
   0.226988700    -0.3473647   -0.7238156  
   0.228988600    -0.4573543   -0.6585111  
   0.230988500    -0.5550826   -0.5774837  
   0.232988400    -0.6385785   -0.4816232  
   0.234988300    -0.7058045   -0.3740094  
   0.236988200    -0.7551173   -0.2571997  
   0.238988100    -0.7853273   -0.1348521  
   0.240988000    -0.7956449   -0.0099882  
   0.242987900    -0.7863770    0.1142830  
   0.244987800    -0.7579930    0.2352292  
   0.246987700    -0.7112774    0.3503576  
   0.248987600    -0.6468466    0.4570498  
   0.250987500    -0.5664384    0.5523323  
   0.252987400    -0.4727112    0.6337962  
   0.254987300    -0.3678313    0.6991581  
   0.256987200    -0.2544355    0.7475695  
   0.258987100    -0.1347430    0.7777686  
   0.260987000    -0.0115292    0.7892513  
   0.262986900     0.1125801    0.7814019  
   0.264986800     0.2341125    0.7542621  
   0.266986700     0.3502930    0.7085207  
   0.268986600     0.4579599    0.6450544  
   0.270986500     0.5540659    0.5660278  
   0.272986400     0.6369078    0.4724431  
   0.274986300     0.7041462    0.3674753  
   0.276986200     0.7547044    0.2526818  
   0.278986100     0.7865037    0.1308676  
   0.280986000     0.7992003    0.0050595  
   0.282985900     0.7917494   -0.1215590  
   0.284985800     0.7645552   -0.2456470  
   0.286985700     0.7177355   -0.3639713  
   0.288985600     0.6535636   -0.4727468  
   0.290985500     0.5735357   -0.5700746  
   0.292985400     0.4790741   -0.6534194  
   0.294985300     0.3728424   -0.7210060  
   0.296985200     0.2572035   -0.7715843  
   0.298985100     0.1343215   -0.8033545  
   0.300985000     0.0076603   -0.8155613  
   0.302984900    -0.1187020   -0.8074806  
   0.304984800    -0.2421512   -0.7800133  
   0.306984700    -0.3590112   -0.7336408  
   0.308984600    -0.4665666   -0.6703636  
   0.310984500    -0.5624813   -0.5918916  
   0.312984400    -0.6449165   -0.4997655  
   0.314984300    -0.7121102   -0.3966643  
   0.316984200    -0.7625759   -0.2845200  
   0.318984100    -0.7954327   -0.1656103  
   0.320984000    -0.8101540   -0.0425149  
   0.322983900    -0.8050247    0.0817516  
   0.324983800    -0.7812343    0.2032291  
   0.326983700    -0.7390705    0.3195259  
   0.328983600    -0.6795309    0.4275007  
   0.330983500    -0.6040694    0.5250597  
   0.332983400    -0.5154060    0.6091397  
   0.334983300    -0.4148197    0.6789457  
   0.336983200    -0.3048443    0.7322635  
   0.338983100    -0.1876730    0.7679055  
   0.340983000    -0.0664998    0.7854716  
   0.342982900     0.0564313    0.7839272  
   0.344982800     0.1784556    0.7634248  
   0.346982700     0.2964979    0.7233542  
   0.348982600     0.4074557    0.6655308  
   0.350982500     0.5078827    0.5902586  
   0.352982400     0.5957814    0.4998315  
   0.354982300     0.6701822    0.3914997  
   0.356982200     0.7310573    0.2596332  
   0.358982100     0.7664518    0.1190467  
   0.360982000     0.7754017   -0.0255494  
   0.362981900     0.7578390   -0.1692839  
   0.364981800     0.7141697   -0.3076141  
   0.366981700     0.6456376   -0.4359068  
   0.368981600     0.5545948   -0.5493148  
   0.370981500     0.4440660   -0.6442144  
   0.372981400     0.3175977   -0.7168117  
   0.374981300     0.1794753   -0.7650343  
   0.376981200     0.2856757   -0.7262803  
   0.378981100     0.1470148   -0.7689758  
   0.380981000     0.0024090   -0.7851807  
   0.382980900    -0.1290514   -0.7763301  
   0.384980800    -0.2520712   -0.7480634  
   0.386980700    -0.3681397   -0.7004586  
   0.388980600    -0.4748625   -0.6349960  
   0.390980500    -0.5694205   -0.5545592  
   0.392980400    -0.6490814   -0.4614831  
   0.394980300    -0.7133437   -0.3583239  
   0.396980200    -0.7606420   -0.2467141  
   0.398980100    -0.7904863   -0.1298811  
   0.400980000    -0.8023012   -0.0107204  
   0.402979900    -0.7958409    0.1090285  
   0.404979800    -0.7720399    0.2257831  
   0.406979700    -0.7307347    0.3370729  
   0.408979600    -0.6738395    0.4408894  
   0.410979500    -0.6015714    0.5355259  
   0.412979400    -0.5157340    0.6188549  
   0.414979300    -0.4180903    0.6885381  
   0.416979200    -0.3108924    0.7428197  
   0.418979100    -0.1968722    0.7798284  
   0.420979000    -0.0777730    0.7999825  
   0.422978900     0.0434295    0.8018708  
   0.424978800     0.1642527    0.7849414  
   0.426978700     0.2817028    0.7495466  
   0.428978600     0.3928175    0.6962739  
   0.430978500     0.4943019    0.6261141  
   0.432978400     0.5841327    0.5410746  
   0.434978300     0.6595070    0.4424585  
   0.436978200     0.7191573    0.3331349  
   0.438978100     0.7606423    0.2147793  
   0.440978000     0.7833319    0.0907654  
   0.442977900     0.7855144   -0.0356842  
   0.444977800     0.7678108   -0.1613965  
   0.446977700     0.7293809   -0.2830479  
   0.448977600     0.6720080   -0.3967660  
   0.450977500     0.5965038   -0.5001246  
   0.452977400     0.5048428   -0.5903122  
   0.454977300     0.3990179   -0.6649960  
   0.456977200     0.2817783   -0.7207503  
   0.458977100     0.1566900   -0.7565780  
   0.460977000     0.0277126   -0.7711883  
   0.462976900    -0.1013521   -0.7641030  
   0.464976800    -0.2271270   -0.7357510  
   0.466976700    -0.3462826   -0.6878277  
   0.468976600    -0.4551961   -0.6211133  
   0.470976500    -0.5514307   -0.5375869  
   0.472976400    -0.6322447   -0.4401308  
   0.474976300    -0.6961697   -0.3315775  
   0.476976200    -0.7411067   -0.2148340  
   0.478976100    -0.7666610   -0.0934892  
   0.480976000    -0.7728488    0.0292878  
   0.482975900    -0.7596971    0.1505794  
   0.484975800    -0.7280723    0.2674695  
   0.486975700    -0.6787402    0.3774071  
   0.488975600    -0.6134912    0.4785407  
   0.490975500    -0.5335870    0.5685399  
   0.492975400    -0.4408236    0.6447684  
   0.494975300    -0.3379917    0.7058228  
   0.496975200    -0.2265621    0.7507897  
   0.498975100    -0.1103188    0.7780542  
   0.500975000     0.0088873    0.7871776  
   0.502974900     0.1280160    0.7783484  
   0.504974800     0.2446644    0.7512974  
   0.506974700     0.3566868    0.7064593  
   0.508974600     0.4611276    0.6443021  
   0.510974500     0.5555350    0.5666797  
   0.512974400     0.6370925    0.4750992  
   0.514974300     0.7034088    0.3720919  
   0.516974200     0.7530494    0.2595836  
   0.518974100     0.7848774    0.1406658  
   0.520974000     0.7977082    0.0179549  
   0.522973900     0.7914202   -0.1061355  
   0.524973800     0.7658314   -0.2278304  
   0.526973700     0.7208917   -0.3445477  
   0.528973600     0.6583024   -0.4532656  
   0.530973500     0.5786265   -0.5514476  
   0.532973400     0.4847605   -0.6356990  
   0.534973300     0.3783028   -0.7041367  
   0.536973200     0.2616606   -0.7546688  
   0.538973100     0.1390084   -0.7863479  
   0.540973000     0.0132447   -0.7979702  
   0.542972900    -0.1128042   -0.7896731  
   0.544972800    -0.2359335   -0.7612005  
   0.546972700    -0.3534392   -0.7138352  
   0.548972600    -0.4616605   -0.6482915  
   0.550972500    -0.5580277   -0.5662080  
   0.552972400    -0.6403800   -0.4698299  
   0.554972300    -0.7061156   -0.3616055  
   0.556972200    -0.7539334   -0.2443115  
   0.558972100    -0.7823660   -0.1211561  
   0.560972000    -0.7905250    0.0043765  
   0.562971900    -0.7788170    0.1290922  
   0.564971800    -0.7474980    0.2498372  
   0.566971700    -0.6978241    0.3639136  
   0.568971600    -0.6310390    0.4682778  
   0.570971500    -0.5485756    0.5606720  
   0.572971400    -0.4528979    0.6387187  
   0.574971300    -0.3455746    0.7012107  
   0.576971200    -0.2294242    0.7458061  
   0.578971100    -0.1072860    0.7713830  
   0.580971000     0.0172525    0.7773905  
   0.582970900     0.1413515    0.7633240  
   0.584970800     0.2613182    0.7296977  
   0.586970700     0.3741251    0.6774802  
   0.588970600     0.4772856    0.6078367  
   0.590970500     0.5681328    0.5226223  
   0.592970400     0.6445915    0.4237927  
   0.594970300     0.7038043    0.3137543  
   0.596970200     0.7449642    0.1956284  
   0.598970100     0.7667581    0.0718775  
   0.600970000     0.7685101   -0.0535811  
   0.602969900     0.7496160   -0.1783769  
   0.604969800     0.7109546   -0.2986992  
   0.606969700     0.6534141   -0.4114720  
   0.608969600     0.5779821   -0.5138738  
   0.610969500     0.4870274   -0.6027789  
   0.612969400     0.3827809   -0.6756027  
   0.614969300     0.2683491   -0.7306700  
   0.616969200     0.1476679   -0.7660985  
   0.618969100     0.0232142   -0.7819627  
   0.620969000    -0.1009970   -0.7779009  
   0.622968900    -0.2230997   -0.7542536  
   0.624968800    -0.3400299   -0.7119609  
   0.626968700    -0.4488124   -0.6520358  
   0.628968600    -0.5465227   -0.5761999  
   0.630968500    -0.6312541   -0.4859931  
   0.632968400    -0.7008578   -0.3843426  
   0.634968300    -0.7536961   -0.2730633  
   0.636968200    -0.7888981   -0.1553166  
   0.638968100    -0.8051022   -0.0342577  
   0.640968000    -0.8030956    0.0879722  
   0.642967900    -0.7821947    0.2080223  
   0.644967800    -0.7434087    0.3234723  
   0.646967700    -0.6879134    0.4309671  
   0.648967600    -0.6171505    0.5287633  
   0.650967500    -0.5325649    0.6146899  
   0.652967400    -0.4364278    0.6868132  
   0.654967300    -0.3306024    0.7432313  
   0.656967200    -0.2175197    0.7835805  
   0.658967100    -0.0997387    0.8064864  
   0.660967000     0.0204972    0.8115621  
   0.662966900     0.1413882    0.7979466  
   0.664966800     0.2592505    0.7665148  
   0.666966700     0.3721898    0.7164209  
   0.668966600     0.4761152    0.6496674  
   0.670966500     0.5690076    0.5671222  
   0.672966400     0.6482660    0.4705554  
   0.674966300     0.7117369    0.3627804  
   0.676966200     0.7575445    0.2462620  
   0.678966100     0.7847109    0.1238246  
   0.680966000     0.7921506   -0.0018833  
   0.682965900     0.7796943   -0.1272308  
   0.684965800     0.7471541   -0.2492262  
   0.686965700     0.6951636   -0.3650407  
   0.688965600     0.6258271   -0.4716783  
   0.690965500     0.5401126   -0.5655034  
   0.692965400     0.4404074   -0.6443534  
   0.694965300     0.3292342   -0.7060993  
   0.696965200     0.2096108   -0.7492753  
   0.698965100     0.0850100   -0.7725310  
   0.700965000    -0.0420567   -0.7752638  
   0.702964900    -0.1674982   -0.7577408  
   0.704964800    -0.2883678   -0.7201959  
   0.706964700    -0.4010743   -0.6634356  
   0.708964600    -0.5031566   -0.5902597  
   0.710964500    -0.5920433   -0.5011211  
   0.712964400    -0.6650942   -0.3999582  
   0.714964300    -0.7206998   -0.2884814  
   0.716964200    -0.7578130   -0.1706119  
   0.718964100    -0.7758111   -0.0492886  
   0.720964000    -0.7746912    0.0726233  
   0.722963900    -0.7548932    0.1920026  
   0.724963800    -0.7176120    0.3062168  
   0.726963700    -0.6629930    0.4128513  
   0.728963600    -0.5930377    0.5097551  
   0.730963500    -0.5094274    0.5948603  
   0.732963400    -0.4140923    0.6660197  
   0.734963300    -0.3090906    0.7217091  
   0.736963200    -0.1777904    0.7654864  
   0.738963100    -0.0404355    0.7857798  
   0.740963000     0.0995608    0.7819435  
   0.742962900     0.2369821    0.7535307  
   0.744962800     0.3680321    0.7012647  
   0.746962700     0.4883510    0.6266747  
   0.748962600     0.5941340    0.5316954  
   0.750962500     0.4870131    0.6214215  
   0.752962400     0.5914935    0.5248429  
   0.754962300     0.6776105    0.4108499  
   0.756962200     0.7422210    0.2833077  
   0.758962100     0.7832549    0.1457064  
   0.760962000     0.7989020    0.0021973  
   0.762961900     0.7895133   -0.1346608  
   0.764961800     0.7599440   -0.2568043  
   0.766961700     0.7116765   -0.3730156  
   0.768961600     0.6452997   -0.4804253  
   0.770961500     0.5626823   -0.5762975  
   0.772961400     0.4656900   -0.6581452  
   0.774961300     0.3572084   -0.7235035  
   0.776961200     0.2394371   -0.7708921  
   0.778961100     0.1151298   -0.7993532  
   0.780961000    -0.0122424   -0.8076667  
   0.782960900    -0.1396192   -0.7950798  
   0.784960800    -0.2634359   -0.7624416  
   0.786960700    -0.3800711   -0.7103545  
   0.788960600    -0.4869997   -0.6402936  
   0.790960500    -0.5808694   -0.5549760  
   0.792960400    -0.6595166   -0.4554056  
   0.794960300    -0.7209869   -0.3454852  
   0.796960200    -0.7640828   -0.2282450  
   0.798960100    -0.7881082   -0.1061895  
   0.800960000    -0.7928376    0.0172698  
   0.802959900    -0.7780097    0.1393371  
   0.804959800    -0.7448308    0.2568167  
   0.806959700    -0.6943756    0.3670966  
   0.808959600    -0.6278210    0.4681042  
   0.810959500    -0.5467998    0.5567973  
   0.812959400    -0.4534876    0.6322067  
   0.814959300    -0.3501163    0.6922163  
   0.816959200    -0.2388477    0.7357245  
   0.818959100    -0.1224781    0.7615293  
   0.820959000    -0.0033770    0.7695336  
   0.822958900     0.1158590    0.7588711  
   0.824958800     0.2318693    0.7302449  
   0.826958700     0.3428806    0.6842573  
   0.828958600     0.4455830    0.6216013  
   0.830958500     0.5375763    0.5434201  
   0.832958400     0.6167536    0.4515828  
   0.834958300     0.6805015    0.3486547  
   0.836958200     0.7276669    0.2365272  
   0.838958100     0.7573597    0.1179367  
   0.840958000     0.7678888   -0.0041698  
   0.842957900     0.7590796   -0.1272939  
   0.844957800     0.7302128   -0.2479604  
   0.846957700     0.6830022   -0.3627531  
   0.848957600     0.6177120   -0.4689517  
   0.850957500     0.5358843   -0.5639271  
   0.852957400     0.4400426   -0.6447109  
   0.854957300     0.3322807   -0.7087882  
   0.856957200     0.2155573   -0.7550454  
   0.858957100     0.0936052   -0.7819993  
   0.860957000    -0.0311360   -0.7893142  
   0.862956900    -0.1545852   -0.7771275  
   0.864956800    -0.2740480   -0.7455817  
   0.866956700    -0.3865422   -0.6964618  
   0.868956600    -0.4894196   -0.6308175  
   0.870956500    -0.5806656   -0.5505438  
   0.872956400    -0.6583675   -0.4571897  
   0.874956300    -0.7207587   -0.3535082  
   0.876956200    -0.7664254   -0.2416591  
   0.878956100    -0.7943060   -0.1244491  
   0.880956000    -0.8040857   -0.0045756  
   0.882955900    -0.7956274    0.1151984  
   0.884955800    -0.7693573    0.2322320  
   0.886955700    -0.7255630    0.3434575  
   0.888955600    -0.6659333    0.4467413  
   0.890955500    -0.5915679    0.5402588  
   0.892955400    -0.5035858    0.6212573  
   0.894955300    -0.4048437    0.6883384  
