! MS46122B
! 2250307/22442219
! 6/13/2025 3:26:31 PM
! C:\USERS\SPARKY\DOCUMENTS\VNA_DATA\JUNE13_2025\3.2K\PORT1_MOS6.S1P
! CHANNEL.1
! TR.MEASUREMENT
! RAW.DATA
# GHZ S RI R 50.0
! FREQ.GHZ         S11RE         S11IM         
!; PortSelection: Port_1
   0.001000000     1.0237910   -0.0593267  
   0.002999900     0.9335075   -0.2190427  
   0.004999800     0.8663424   -0.3639384  
   0.006999700     0.7858608   -0.4970005  
   0.008999600     0.6898539   -0.6111239  
   0.010999500     0.5820924   -0.7115890  
   0.012999400     0.4640597   -0.7975809  
   0.014999300     0.3362873   -0.8667535  
   0.016999200     0.2008144   -0.9166970  
   0.018999100     0.0590073   -0.9453612  
   0.020999000    -0.0857759   -0.9511157  
   0.022998900    -0.2296526   -0.9331888  
   0.024998800    -0.3434431   -0.8685781  
   0.026998700    -0.5006756   -0.8254924  
   0.028998600    -0.6205284   -0.7382764  
   0.030998500    -0.7243991   -0.6317253  
   0.032998400    -0.7771349   -0.5072489  
   0.034998300    -0.8754524   -0.3746610  
   0.036998200    -0.9185747   -0.2314115  
   0.038998100    -0.9384150   -0.0837330  
   0.040998000    -0.9358038    0.0647035  
   0.042997900    -0.9104731    0.2103849  
   0.044997800    -0.8432855    0.3234132  
   0.046997700    -0.7958362    0.4808611  
   0.048997600    -0.7092898    0.5996477  
   0.050997500    -0.6048872    0.7036521  
   0.052997400    -0.4861875    0.7897682  
   0.054997300    -0.3539323    0.8563228  
   0.056997200    -0.2122852    0.9010087  
   0.058997100    -0.0655126    0.9220406  
   0.060997000     0.0825862    0.9189400  
   0.062996900     0.2285134    0.8923130  
   0.064996800     0.3683216    0.8423784  
   0.066996700     0.4983799    0.7711778  
   0.068996600     0.6153443    0.6799684  
   0.070996500     0.7161412    0.5711883  
   0.072996400     0.7989632    0.4484281  
   0.074996300     0.8608140    0.3141706  
   0.076996200     0.9004840    0.1718468  
   0.078996100     0.9170907    0.0251777  
   0.080996000     0.9103000   -0.1217813  
   0.082995900     0.8800340   -0.2654255  
   0.084995800     0.8279578   -0.4022247  
   0.086995700     0.7547329   -0.5282972  
   0.088995600     0.6631821   -0.6410176  
   0.090995500     0.5553406   -0.7373423  
   0.092995400     0.4343450   -0.8154074  
   0.094995300     0.3033637   -0.8736083  
   0.096995200     0.1651791   -0.9108654  
   0.098995100     0.0239534   -0.9260485  
   0.100995000    -0.1173855   -0.9196709  
   0.102994900    -0.2561137   -0.8918594  
   0.104994800    -0.3879604   -0.8436571  
   0.106994700    -0.5111392   -0.7763218  
   0.108994600    -0.6223634   -0.6912796  
   0.110994500    -0.7191719   -0.5909032  
   0.112994400    -0.7997079   -0.4769394  
   0.114994300    -0.8621798   -0.3521757  
   0.116994200    -0.9049532   -0.2197444  
   0.118994100    -0.9271746   -0.0824035  
   0.120994000    -0.9289078    0.0568323  
   0.122993900    -0.9090887    0.1950566  
   0.124993800    -0.8689503    0.3288569  
   0.126993700    -0.8088984    0.4551398  
   0.128993600    -0.7300530    0.5713818  
   0.130993500    -0.6343416    0.6746002  
   0.132993400    -0.5233862    0.7622843  
   0.134993300    -0.3998564    0.8322715  
   0.136993200    -0.2663920    0.8822373  
   0.138993100    -0.1261001    0.9109933  
   0.140993000     0.0174643    0.9176064  
   0.142992900     0.1612695    0.9019383  
   0.144992800     0.3012704    0.8633189  
   0.146992700     0.4335461    0.8026661  
   0.148992600     0.5551453    0.7213239  
   0.150992500     0.6623610    0.6216701  
   0.152992400     0.7525017    0.5051320  
   0.154992300     0.8225082    0.3759271  
   0.156992200     0.8710965    0.2365119  
   0.158992100     0.8962931    0.0910969  
   0.160992000     0.8975061   -0.0564690  
   0.162991900     0.8747453   -0.2018422  
   0.164991800     0.8285726   -0.3419847  
   0.166991700     0.7605084   -0.4721417  
   0.168991600     0.6725551   -0.5888875  
   0.170991500     0.5671633   -0.6897908  
   0.172991400     0.4472803   -0.7719645  
   0.174991300     0.3164443   -0.8333910  
   0.176991200     0.1780647   -0.8729702  
   0.178991100     0.0357961   -0.8896205  
   0.180991000    -0.1062044   -0.8835515  
   0.182990900    -0.2445703   -0.8555632  
   0.184990800    -0.3764978   -0.8060774  
   0.186990700    -0.4978771   -0.7368632  
   0.188990600    -0.5876598   -0.6673798  
   0.190990500    -0.6970668   -0.5515226  
   0.192990400    -0.7751912   -0.4340896  
   0.194990300    -0.8324651   -0.3099973  
   0.196990200    -0.8698661   -0.1798100  
   0.198990100    -0.8866670   -0.0460961  
   0.200990000    -0.8833257    0.0887053  
   0.202989900    -0.8597789    0.2212064  
   0.204989800    -0.8164552    0.3481967  
   0.206989700    -0.7550935    0.4664731  
   0.208989600    -0.6768323    0.5741986  
   0.210989500    -0.5830207    0.6692499  
   0.212989400    -0.4757505    0.7496217  
   0.214989300    -0.3576600    0.8129491  
   0.216989200    -0.2316563    0.8575854  
   0.218989100    -0.1006689    0.8832122  
   0.220989000     0.0334792    0.8886945  
   0.222988900     0.1677280    0.8737741  
   0.224988800     0.2987200    0.8387651  
   0.226988700     0.4228282    0.7843174  
   0.228988600     0.5372376    0.7114697  
   0.230988500     0.6397924    0.6221281  
   0.232988400     0.7280493    0.5176958  
   0.234988300     0.7991675    0.4001478  
   0.236988200     0.8522538    0.2723796  
   0.238988100     0.8846183    0.1380119  
   0.240988000     0.8956853    0.0001386  
   0.242987900     0.8857461   -0.1375720  
   0.244987800     0.8542569   -0.2724337  
   0.246987700     0.8021281   -0.4013540  
   0.248987600     0.7303534   -0.5212382  
   0.250987500     0.6406246   -0.6282926  
   0.252987400     0.5352911   -0.7199239  
   0.254987300     0.4178171   -0.7937620  
   0.256987200     0.2904085   -0.8478932  
   0.258987100     0.1563821   -0.8819141  
   0.260987000     0.0185730   -0.8945766  
   0.262986900    -0.1199252   -0.8855341  
   0.264986800    -0.2549025   -0.8551344  
   0.266986700    -0.3831359   -0.8039751  
   0.268986600    -0.5013956   -0.7339104  
   0.270986500    -0.6064936   -0.6472179  
   0.272986400    -0.6966588   -0.5456318  
   0.274986300    -0.7699383   -0.4320260  
   0.276986200    -0.8248613   -0.3083296  
   0.278986100    -0.8598059   -0.1778129  
   0.280986000    -0.8744226   -0.0431121  
   0.282985900    -0.8678973    0.0919771  
   0.284985800    -0.8411674    0.2242042  
   0.286985700    -0.7939409    0.3504464  
   0.288985600    -0.7287406    0.4666022  
   0.290985500    -0.6465700    0.5710772  
   0.292985400    -0.5499371    0.6617901  
   0.294985300    -0.4403639    0.7365605  
   0.296985200    -0.3203747    0.7942640  
   0.298985100    -0.1918040    0.8329866  
   0.300985000    -0.0585440    0.8510386  
   0.302984900     0.0758938    0.8481932  
   0.304984800     0.2082453    0.8244454  
   0.306984700     0.3352444    0.7804891  
   0.308984600     0.4533246    0.7176770  
   0.310984500     0.5602196    0.6373868  
   0.312984400     0.6535265    0.5410125  
   0.314984300     0.7305171    0.4316745  
   0.316984200     0.7900343    0.3112710  
   0.318984100     0.8299024    0.1821543  
   0.320984000     0.8496944    0.0475458  
   0.322983900     0.8476194   -0.0889991  
   0.324983800     0.8239040   -0.2234553  
   0.326983700     0.7792922   -0.3525434  
   0.328983600     0.7148436   -0.4728171  
   0.330983500     0.6324824   -0.5809321  
   0.332983400     0.5346447   -0.6743353  
   0.334983300     0.4240470   -0.7511221  
   0.336983200     0.3026942   -0.8096485  
   0.338983100     0.1742696   -0.8484444  
   0.340983000     0.0417343   -0.8666457  
   0.342982900    -0.0917867   -0.8645530  
   0.344982800    -0.2234576   -0.8415641  
   0.346982700    -0.3502875   -0.7983708  
   0.348982600    -0.4689337   -0.7362654  
   0.350982500    -0.5765109   -0.6568792  
   0.352982400    -0.6700253   -0.5618555  
   0.354982300    -0.7508420   -0.4487067  
   0.356982200    -0.8173046   -0.3096190  
   0.358982100    -0.8577835   -0.1622927  
   0.360982000    -0.8715200   -0.0119274  
   0.362981900    -0.8588140    0.1381108  
   0.364981800    -0.8202131    0.2829011  
   0.366981700    -0.7577680    0.4182882  
   0.368981600    -0.6730722    0.5402446  
   0.370981500    -0.5692964    0.6455069  
   0.372981400    -0.4488892    0.7313949  
   0.374981300    -0.3152993    0.7956147  
   0.376981200    -0.4375690    0.7451254  
   0.378981100    -0.2990107    0.8078257  
   0.380981000    -0.1518031    0.8449230  
   0.382980900    -0.0144078    0.8560160  
   0.384980800     0.1175844    0.8458495  
   0.386980700     0.2468683    0.8154413  
   0.388980600     0.3696238    0.7648705  
   0.390980500     0.4834523    0.6961311  
   0.392980400     0.5847338    0.6100714  
   0.394980300     0.6715157    0.5097157  
   0.396980200     0.7416810    0.3966378  
   0.398980100     0.7931132    0.2735745  
   0.400980000     0.8247684    0.1434404  
   0.402979900     0.8353296    0.0099915  
   0.404979800     0.8247898   -0.1237891  
   0.406979700     0.7928180   -0.2539310  
   0.408979600     0.7406614   -0.3773521  
   0.410979500     0.6690849   -0.4916541  
   0.412979400     0.5794819   -0.5931777  
   0.414979300     0.4753112   -0.6789835  
   0.416979200     0.3583579   -0.7467723  
   0.418979100     0.2328316   -0.7950223  
   0.420979000     0.1015955   -0.8218655  
   0.422978900    -0.0324122   -0.8275832  
   0.424978800    -0.1647882   -0.8118145  
   0.426978700    -0.2929886   -0.7752708  
   0.428978600    -0.4127091   -0.7194322  
   0.430978500    -0.5212981   -0.6458936  
   0.432978400    -0.6160912   -0.5574335  
   0.434978300    -0.6953573   -0.4560910  
   0.436978200    -0.7578778   -0.3445395  
   0.438978100    -0.8026274   -0.2253040  
   0.440978000    -0.8285818   -0.1015236  
   0.442977900    -0.8353259    0.0236759  
   0.444977800    -0.8236433    0.1484220  
   0.446977700    -0.7934406    0.2693688  
   0.448977600    -0.7463312    0.3836472  
   0.450977500    -0.6826897    0.4892722  
   0.452977400    -0.6042080    0.5848831  
   0.454977300    -0.5125230    0.6683323  
   0.456977200    -0.4088831    0.7370538  
   0.458977100    -0.2963311    0.7900165  
   0.460977000    -0.1773250    0.8257015  
   0.462976900    -0.0543805    0.8433359  
   0.464976800     0.0698766    0.8426673  
   0.466976700     0.1928804    0.8236326  
   0.468976600     0.3120399    0.7863793  
   0.470976500     0.4248625    0.7317403  
   0.472976400     0.5285606    0.6605750  
   0.474976300     0.6208468    0.5744793  
   0.476976200     0.6992973    0.4751580  
   0.478976100     0.7619114    0.3650263  
   0.480976000     0.8074381    0.2470228  
   0.482975900     0.8345345    0.1231638  
   0.484975800     0.8428680   -0.0039089  
   0.486975700     0.8318853   -0.1311685  
   0.488975600     0.8007563   -0.2561455  
   0.490975500     0.7509826   -0.3753004  
   0.492975400     0.6832771   -0.4858826  
   0.494975300     0.5986409   -0.5850014  
   0.496975200     0.4990229   -0.6700860  
   0.498975100     0.3878506   -0.7381670  
   0.500975000     0.2667189   -0.7882375  
   0.502974900     0.1396522   -0.8188965  
   0.504974800     0.0088608   -0.8287595  
   0.506974700    -0.1220762   -0.8181904  
   0.508974600    -0.2507573   -0.7865462  
   0.510974500    -0.3723862   -0.7353015  
   0.512974400    -0.4843237   -0.6651803  
   0.514974300    -0.5825770   -0.5788296  
   0.516974200    -0.6658096   -0.4784991  
   0.518974100    -0.7315921   -0.3670670  
   0.520974000    -0.7793392   -0.2469193  
   0.522973900    -0.8069183   -0.1217062  
   0.524973800    -0.8146607    0.0055040  
   0.526973700    -0.8026982    0.1326180  
   0.528973600    -0.7717202    0.2552290  
   0.530973500    -0.7218819    0.3714724  
   0.532973400    -0.6551015    0.4782678  
   0.534973300    -0.5728334    0.5731055  
   0.536973200    -0.4772881    0.6540167  
   0.538973100    -0.3712597    0.7190959  
   0.540973000    -0.2570764    0.7666768  
   0.542972900    -0.1374716    0.7967100  
   0.544972800    -0.0145769    0.8079805  
   0.546972700     0.1085219    0.8007199  
   0.548972600     0.2294541    0.7747094  
   0.550972500     0.3448383    0.7307413  
   0.552972400     0.4529046    0.6695497  
   0.554972300     0.5502737    0.5922625  
   0.556972200     0.6349235    0.5006369  
   0.558972100     0.7043727    0.3975222  
   0.560972000     0.7577005    0.2846317  
   0.562971900     0.7928056    0.1654459  
   0.564971800     0.8093768    0.0421841  
   0.566971700     0.8068773   -0.0821801  
   0.568971600     0.7856137   -0.2042608  
   0.570971500     0.7460647   -0.3219813  
   0.572971400     0.6888255   -0.4324254  
   0.574971300     0.6148993   -0.5334280  
   0.576971200     0.5263414   -0.6223258  
   0.578971100     0.4246013   -0.6968059  
   0.580971000     0.3128150   -0.7550896  
   0.582970900     0.1937173   -0.7951931  
   0.584970800     0.0705466   -0.8162413  
   0.586970700    -0.0541100   -0.8186623  
   0.588970600    -0.1773707   -0.8020660  
   0.590970500    -0.2960037   -0.7669743  
   0.592970400    -0.4081458   -0.7147942  
   0.594970300    -0.5110729   -0.6462792  
   0.596970200    -0.6020541   -0.5633612  
   0.598970100    -0.6798088   -0.4679637  
   0.600970000    -0.7421027   -0.3621233  
   0.602969900    -0.7878689   -0.2483907  
   0.604969800    -0.8160796   -0.1292265  
   0.606969700    -0.8263824   -0.0071688  
   0.608969600    -0.8180605    0.1151636  
   0.610969500    -0.7915614    0.2344986  
   0.612969400    -0.7478396    0.3484826  
   0.614969300    -0.6875970    0.4545546  
   0.616969200    -0.6125989    0.5501984  
   0.618969100    -0.5246300    0.6328726  
   0.620969000    -0.4258131    0.7016867  
   0.622968900    -0.3174679    0.7552254  
   0.624968800    -0.2023585    0.7920660  
   0.626968700    -0.0826082    0.8112176  
   0.628968600     0.0394425    0.8124301  
   0.630968500     0.1603649    0.7949231  
   0.632968400     0.2776670    0.7595419  
   0.634968300     0.3886938    0.7057351  
   0.636968200     0.4902816    0.6357708  
   0.638968100     0.5802388    0.5510864  
   0.640968000     0.6562943    0.4524842  
   0.642967900     0.7163789    0.3437424  
   0.644967800     0.7585816    0.2258133  
   0.646967700     0.7819241    0.1029338  
   0.648967600     0.7858478   -0.0219028  
   0.650967500     0.7698701   -0.1455470  
   0.652967400     0.7347628   -0.2650088  
   0.654967300     0.6810135   -0.3774716  
   0.656967200     0.6104426   -0.4800783  
   0.658967100     0.5247942   -0.5699907  
   0.660967000     0.4256079   -0.6457592  
   0.662966900     0.3151822   -0.7053649  
   0.664966800     0.1968608   -0.7462518  
   0.666966700     0.0728239   -0.7683755  
   0.668966600    -0.0526431   -0.7698105  
   0.670966500    -0.1766458   -0.7512881  
   0.672966400    -0.2952530   -0.7140766  
   0.674966300    -0.4060276   -0.6583475  
   0.676966200    -0.5059704   -0.5863950  
   0.678966100    -0.5929347   -0.5001338  
   0.680966000    -0.6650827   -0.4023461  
   0.682965900    -0.7209896   -0.2948422  
   0.684965800    -0.7592463   -0.1806410  
   0.686965700    -0.7796974   -0.0620340  
   0.688965600    -0.7816008    0.0574501  
   0.690965500    -0.7654503    0.1754573  
   0.692965400    -0.7318473    0.2893381  
   0.694965300    -0.6817635    0.3963239  
   0.696965200    -0.6164085    0.4941530  
   0.698965100    -0.5371122    0.5812625  
   0.700965000    -0.4458418    0.6553153  
   0.702964900    -0.3445921    0.7152742  
   0.704964800    -0.2350996    0.7590258  
   0.706964700    -0.1203442    0.7864136  
   0.708964600    -0.0022170    0.7962604  
   0.710964500     0.1168354    0.7879856  
   0.712964400     0.2334541    0.7623660  
   0.714964300     0.3451473    0.7187274  
   0.716964200     0.4487177    0.6593070  
   0.718964100     0.5423700    0.5846826  
   0.720964000     0.6235762    0.4967587  
   0.722963900     0.6905229    0.3978593  
   0.724963800     0.7412917    0.2895320  
   0.726963700     0.7759757    0.1741053  
   0.728963600     0.7926177    0.0545687  
   0.730963500     0.7911053   -0.0669012  
   0.732963400     0.7705650   -0.1870904  
   0.734963300     0.7319418   -0.3033446  
   0.736963200     0.6661580   -0.4288934  
   0.738963100     0.5780516   -0.5410715  
   0.740963000     0.4709587   -0.6356793  
   0.742962900     0.3488648   -0.7088258  
   0.744962800     0.2153479   -0.7585593  
   0.746962700     0.0754446   -0.7829733  
   0.748962600    -0.0661580   -0.7811827  
   0.750962500     0.0351880   -0.7805226  
   0.752962400    -0.1069466   -0.7735907  
   0.754962300    -0.2444864   -0.7402705  
   0.756962200    -0.3729431   -0.6829498  
   0.758962100    -0.4881154   -0.6034291  
   0.760962000    -0.5863923   -0.5046121  
   0.762961900    -0.6618028   -0.3959503  
   0.764961800    -0.7138156   -0.2868505  
   0.766961700    -0.7478083   -0.1720008  
   0.768961600    -0.7635076   -0.0539426  
   0.770961500    -0.7610146    0.0647206  
   0.772961400    -0.7400376    0.1802783  
   0.774961300    -0.7024108    0.2906308  
   0.776961200    -0.6483973    0.3933298  
   0.778961100    -0.5795801    0.4862233  
   0.780961000    -0.4977938    0.5675969  
   0.782960900    -0.4045523    0.6354895  
   0.784960800    -0.3018295    0.6883414  
   0.786960700    -0.1923733    0.7252925  
   0.788960600    -0.0785711    0.7452397  
   0.790960500     0.0367759    0.7480268  
   0.792960400     0.1514433    0.7329043  
   0.794960300     0.2622318    0.7007839  
   0.796960200     0.3669886    0.6521494  
   0.798960100     0.4628845    0.5882272  
   0.800960000     0.5480542    0.5102925  
   0.802959900     0.6209337    0.4204503  
   0.804959800     0.6788837    0.3201058  
   0.806959700     0.7214555    0.2119104  
   0.808959600     0.7468427    0.0983223  
   0.810959500     0.7546629   -0.0183234  
   0.812959400     0.7442714   -0.1356038  
   0.814959300     0.7164794   -0.2500574  
   0.816959200     0.6703523   -0.3594880  
   0.818959100     0.6081249   -0.4606420  
   0.820959000     0.5303115   -0.5512609  
   0.822958900     0.4393633   -0.6288242  
   0.824958800     0.3368550   -0.6914252  
   0.826958700     0.2256649   -0.7374784  
   0.828958600     0.1087749   -0.7652072  
   0.830958500    -0.0116074   -0.7743774  
   0.832958400    -0.1310558   -0.7647496  
   0.834958300    -0.2475905   -0.7365854  
   0.836958200    -0.3579476   -0.6910096  
   0.838958100    -0.4594431   -0.6287335  
   0.840958000    -0.5500457   -0.5520354  
   0.842957900    -0.6276430   -0.4620073  
   0.844957800    -0.6900638   -0.3617337  
   0.846957700    -0.7365159   -0.2531357  
   0.848957600    -0.7654389   -0.1391711  
   0.850957500    -0.7766669   -0.0225800  
   0.852957400    -0.7701190    0.0943131  
   0.854957300    -0.7455350    0.2082333  
   0.856957200    -0.7041643    0.3171482  
   0.858957100    -0.6468903    0.4179773  
   0.860957000    -0.5757490    0.5083402  
   0.862956900    -0.4921807    0.5861620  
   0.864956800    -0.3987921    0.6502723  
   0.866956700    -0.2971184    0.6995230  
   0.868956600    -0.1894813    0.7332469  
   0.870956500    -0.0779975    0.7503163  
   0.872956400     0.0352072    0.7507477  
   0.874956300     0.1472050    0.7339772  
   0.876956200     0.2567725    0.7002931  
   0.878956100     0.3599733    0.6501377  
   0.880956000     0.4549485    0.5842301  
   0.882955900     0.5393486    0.5042884  
   0.884955800     0.6106389    0.4116545  
   0.886955700     0.6665647    0.3084592  
   0.888955600     0.7055172    0.1971825  
   0.890955500     0.7266420    0.0808994  
   0.892955400     0.7291011   -0.0377535  
   0.894955300     0.7122130   -0.1555812  
