! MS46122B
! 2250307/22442219
! 6/16/2025 7:51:24 AM
! C:\USERS\SPARKY\DOCUMENTS\VNA_DATA\JUNE16_2025\3.1K\PORT4_MOS1.S1P
! CHANNEL.1
! TR.MEASUREMENT
! RAW.DATA
# GHZ S RI R 50.0
! FREQ.GHZ         S11RE         S11IM         
!; PortSelection: Port_1
   0.001000000    -0.9012970    0.0507354  
   0.002999900    -0.8754309    0.2496244  
   0.004999800    -0.8395413    0.3918540  
   0.006999700    -0.7773669    0.5195985  
   0.008999600    -0.6920887    0.6309491  
   0.010999500    -0.5876628    0.7238040  
   0.012999400    -0.4680063    0.7968288  
   0.014999300    -0.3372498    0.8483033  
   0.016999200    -0.2000883    0.8787023  
   0.018999100    -0.0599558    0.8876383  
   0.020999000     0.0796028    0.8763734  
   0.022998900     0.2152016    0.8453420  
   0.024998800     0.3165333    0.7768569  
   0.026998700     0.4635925    0.7296333  
   0.028998600     0.5719261    0.6474946  
   0.030998500     0.6665167    0.5513039  
   0.032998400     0.7116522    0.4419471  
   0.034998300     0.8075292    0.3238552  
   0.036998200     0.8505629    0.1965771  
   0.038998100     0.8733982    0.0641914  
   0.040998000     0.8750598   -0.0703500  
   0.042997900     0.8554320   -0.2036987  
   0.044997800     0.7926512   -0.3070643  
   0.046997700     0.7543201   -0.4529839  
   0.048997600     0.6758226   -0.5626134  
   0.050997500     0.5813690   -0.6584150  
   0.052997400     0.4756961   -0.7372214  
   0.054997300     0.3560587   -0.8009876  
   0.056997200     0.2302868   -0.8450921  
   0.058997100     0.1002320   -0.8696908  
   0.060997000    -0.0317021   -0.8749791  
   0.062996900    -0.1624197   -0.8599926  
   0.064996800    -0.2892394   -0.8260554  
   0.066996700    -0.4093151   -0.7735939  
   0.068996600    -0.5198464   -0.7036340  
   0.070996500    -0.6181032   -0.6179811  
   0.072996400    -0.7024553   -0.5185565  
   0.074996300    -0.7706001   -0.4077464  
   0.076996200    -0.8208691   -0.2879371  
   0.078996100    -0.8526720   -0.1619995  
   0.080996000    -0.8649659   -0.0327098  
   0.082995900    -0.8581313    0.0969593  
   0.084995800    -0.8312148    0.2242618  
   0.086995700    -0.7857089    0.3461278  
   0.088995600    -0.7221837    0.4598701  
   0.090995500    -0.6419695    0.5629995  
   0.092995400    -0.5466068    0.6529089  
   0.094995300    -0.4386082    0.7272104  
   0.096995200    -0.3199515    0.7844359  
   0.098995100    -0.1935682    0.8226370  
   0.100995000    -0.0621827    0.8404871  
   0.102994900     0.0702562    0.8370827  
   0.104994800     0.2010614    0.8135021  
   0.106994700     0.3266631    0.7690806  
   0.108994600     0.4437887    0.7055698  
   0.110994500     0.5495896    0.6241609  
   0.112994400     0.6409950    0.5270809  
   0.114994300     0.7159349    0.4163505  
   0.116994200     0.7722076    0.2953748  
   0.118994100     0.8089791    0.1670616  
   0.120994000     0.8245941    0.0348373  
   0.122993900     0.8187240   -0.0979612  
   0.124993800     0.7923730   -0.2277610  
   0.126993700     0.7457630   -0.3513780  
   0.128993600     0.6805823   -0.4661683  
   0.130993500     0.5983312   -0.5683576  
   0.132993400     0.5015702   -0.6560233  
   0.134993300     0.3928128   -0.7274768  
   0.136993200     0.2749273   -0.7805346  
   0.138993100     0.1506300   -0.8146232  
   0.140993000     0.0235368   -0.8291719  
   0.142992900    -0.1039769   -0.8242472  
   0.144992800    -0.2283206   -0.8000764  
   0.146992700    -0.3470552   -0.7572334  
   0.148992600    -0.4578139   -0.6975034  
   0.150992500    -0.5576928   -0.6221595  
   0.152992400    -0.6445917   -0.5327581  
   0.154992300    -0.7171106   -0.4320795  
   0.156992200    -0.7740830   -0.3217567  
   0.158992100    -0.8138677   -0.2048254  
   0.160992000    -0.8356562   -0.0830325  
   0.162991900    -0.8393868    0.0402382  
   0.164991800    -0.8248919    0.1627726  
   0.166991700    -0.7925174    0.2815571  
   0.168991600    -0.7430153    0.3943755  
   0.170991500    -0.6772538    0.4993038  
   0.172991400    -0.5966837    0.5929184  
   0.174991300    -0.5031466    0.6737093  
   0.176991200    -0.3979762    0.7401946  
   0.178991100    -0.2834952    0.7907254  
   0.180991000    -0.1630234    0.8233613  
   0.182990900    -0.0382613    0.8377969  
   0.184990800     0.0878160    0.8333763  
   0.186990700     0.2126669    0.8099678  
   0.188990600     0.3096579    0.7766292  
   0.190990500     0.4412178    0.7087633  
   0.192990400     0.5464676    0.6296741  
   0.194990300     0.6360212    0.5372313  
   0.196990200     0.7100898    0.4320860  
   0.198990100     0.7672850    0.3164393  
   0.200990000     0.8059731    0.1926206  
   0.202989900     0.8248964    0.0637260  
   0.204989800     0.8234291   -0.0669636  
   0.206989700     0.8010910   -0.1951347  
   0.208989600     0.7592385   -0.3183964  
   0.210989500     0.6981710   -0.4340658  
   0.212989400     0.6193928   -0.5387498  
   0.214989300     0.5250759   -0.6292574  
   0.216989200     0.4180390   -0.7033961  
   0.218989100     0.3010518   -0.7595930  
   0.220989000     0.1767631   -0.7965841  
   0.222988900     0.0480718   -0.8132122  
   0.224988800    -0.0813169   -0.8095199  
   0.226988700    -0.2078114   -0.7851818  
   0.228988600    -0.3282786   -0.7416596  
   0.230988500    -0.4396704   -0.6800721  
   0.232988400    -0.5400235   -0.6021017  
   0.234988300    -0.6267673   -0.5090336  
   0.236988200    -0.6978081   -0.4040652  
   0.238988100    -0.7511361   -0.2895505  
   0.240988000    -0.7858987   -0.1690611  
   0.242987900    -0.8012944   -0.0454236  
   0.244987800    -0.7974981    0.0787679  
   0.246987700    -0.7745308    0.2006504  
   0.248987600    -0.7328539    0.3182129  
   0.250987500    -0.6736345    0.4274253  
   0.252987400    -0.5985998    0.5259677  
   0.254987300    -0.5098346    0.6112462  
   0.256987200    -0.4092265    0.6816823  
   0.258987100    -0.2990400    0.7361823  
   0.260987000    -0.1815213    0.7728271  
   0.262986900    -0.0593849    0.7913103  
   0.264986800     0.0645181    0.7907382  
   0.266986700     0.1868827    0.7712333  
   0.268986600     0.3047493    0.7330602  
   0.270986500     0.4150926    0.6772259  
   0.272986400     0.5154517    0.6051206  
   0.274986300     0.6039459    0.5184764  
   0.276986200     0.6780800    0.4185242  
   0.278986100     0.7364209    0.3082141  
   0.280986000     0.7769719    0.1894736  
   0.282985900     0.7987623    0.0656883  
   0.284985800     0.8008406   -0.0603854  
   0.286985700     0.7834159   -0.1852028  
   0.288985600     0.7468907   -0.3050757  
   0.290985500     0.6921959   -0.4177375  
   0.292985400     0.6210546   -0.5204695  
   0.294985300     0.5348321   -0.6110644  
   0.296985200     0.4352684   -0.6875349  
   0.298985100     0.3243271   -0.7478679  
   0.300985000     0.2052619   -0.7899895  
   0.302984900     0.0813809   -0.8135116  
   0.304984800    -0.0440802   -0.8173187  
   0.306984700    -0.1684445   -0.8015033  
   0.308984600    -0.2876817   -0.7672142  
   0.310984500    -0.3997206   -0.7153038  
   0.312984400    -0.5022645   -0.6476271  
   0.314984300    -0.5929497   -0.5652005  
   0.316984200    -0.6700391   -0.4703045  
   0.318984100    -0.7319364   -0.3642377  
   0.320984000    -0.7770955   -0.2497689  
   0.322983900    -0.8047260   -0.1293398  
   0.324983800    -0.8132370   -0.0067132  
   0.326983700    -0.8033043    0.1156151  
   0.328983600    -0.7746702    0.2345014  
   0.330983500    -0.7285307    0.3476382  
   0.332983400    -0.6664832    0.4513939  
   0.334983300    -0.5892664    0.5447008  
   0.336983200    -0.4992476    0.6250874  
   0.338983100    -0.3981585    0.6910560  
   0.340983000    -0.2877962    0.7410773  
   0.342982900    -0.1712447    0.7739121  
   0.344982800    -0.0503487    0.7884215  
   0.346982700     0.0724323    0.7843583  
   0.348982600     0.1933412    0.7615157  
   0.350982500     0.3097844    0.7197030  
   0.352982400     0.4184242    0.6601364  
   0.354982300     0.5207753    0.5806621  
   0.356982200     0.6170338    0.4746097  
   0.358982100     0.6922336    0.3528700  
   0.360982000     0.7442759    0.2204431  
   0.362981900     0.7720582    0.0804416  
   0.364981800     0.7737373   -0.0627522  
   0.366981700     0.7494751   -0.2041454  
   0.368981600     0.6999456   -0.3386716  
   0.370981500     0.6267465   -0.4626320  
   0.372981400     0.5318441   -0.5709812  
   0.374981300     0.4179130   -0.6604626  
   0.376981200     0.5037590   -0.5888019  
   0.378981100     0.3871431   -0.6734537  
   0.380981000     0.2572586   -0.7350709  
   0.382980900     0.1310679   -0.7694142  
   0.384980800     0.0065084   -0.7820830  
   0.386980700    -0.1180139   -0.7748880  
   0.388980600    -0.2393925   -0.7482821  
   0.390980500    -0.3540358   -0.7032084  
   0.392980400    -0.4594312   -0.6417354  
   0.394980300    -0.5529372   -0.5652248  
   0.396980200    -0.6331950   -0.4762333  
   0.398980100    -0.6991147   -0.3765293  
   0.400980000    -0.7488627   -0.2684157  
   0.402979900    -0.7816212   -0.1546036  
   0.404979800    -0.7970152   -0.0379481  
   0.406979700    -0.7951351    0.0790589  
   0.408979600    -0.7761775    0.1943023  
   0.410979500    -0.7397985    0.3057002  
   0.412979400    -0.6875771    0.4108752  
   0.414979300    -0.6204483    0.5072942  
   0.416979200    -0.5398803    0.5927500  
   0.418979100    -0.4476337    0.6651173  
   0.420979000    -0.3452949    0.7233841  
   0.422978900    -0.2352626    0.7655213  
   0.424978800    -0.1195268    0.7913927  
   0.426978700    -0.0008067    0.7996274  
   0.428978600     0.1181890    0.7899134  
   0.430978500     0.2343145    0.7624270  
   0.432978400     0.3450133    0.7176917  
   0.434978300     0.4479958    0.6563074  
   0.436978200     0.5411509    0.5801644  
   0.438978100     0.6215634    0.4899238  
   0.440978000     0.6877266    0.3879763  
   0.442977900     0.7376164    0.2764957  
   0.444977800     0.7697207    0.1579763  
   0.446977700     0.7827135    0.0355766  
   0.448977600     0.7763971   -0.0879725  
   0.450977500     0.7504628   -0.2090516  
   0.452977400     0.7054318   -0.3254255  
   0.454977300     0.6419526   -0.4342988  
   0.456977200     0.5611134   -0.5315000  
   0.458977100     0.4651783   -0.6147040  
   0.460977000     0.3568279   -0.6814604  
   0.462976900     0.2395556   -0.7290162  
   0.464976800     0.1159951   -0.7571296  
   0.466976700    -0.0103179   -0.7646338  
   0.468976600    -0.1353150   -0.7514401  
   0.470976500    -0.2569244   -0.7182065  
   0.472976400    -0.3708089   -0.6658848  
   0.474976300    -0.4739868   -0.5963358  
   0.476976200    -0.5642670   -0.5115047  
   0.478976100    -0.6391194   -0.4138176  
   0.480976000    -0.6971651   -0.3069977  
   0.482975900    -0.7372361   -0.1931743  
   0.484975800    -0.7587783   -0.0752626  
   0.486975700    -0.7615795    0.0441375  
   0.488975600    -0.7465807    0.1620970  
   0.490975500    -0.7133108    0.2758649  
   0.492975400    -0.6631208    0.3827623  
   0.494975300    -0.5977755    0.4807689  
   0.496975200    -0.5180121    0.5673025  
   0.498975100    -0.4263751    0.6404729  
   0.500975000    -0.3251850    0.6986240  
   0.502974900    -0.2167380    0.7409983  
   0.504974800    -0.1028839    0.7664310  
   0.506974700     0.0138917    0.7742498  
   0.508974600     0.1312155    0.7642762  
   0.510974500     0.2461576    0.7366704  
   0.512974400     0.3555379    0.6916288  
   0.514974300     0.4566539    0.6307088  
   0.516974200     0.5475311    0.5550831  
   0.518974100     0.6259772    0.4666412  
   0.520974000     0.6902949    0.3667644  
   0.522973900     0.7384737    0.2580506  
   0.524973800     0.7697389    0.1430507  
   0.526973700     0.7831231    0.0236094  
   0.528973600     0.7780734   -0.0962680  
   0.530973500     0.7542394   -0.2150126  
   0.532973400     0.7123083   -0.3287006  
   0.534973300     0.6530161   -0.4348790  
   0.536973200     0.5774181   -0.5309891  
   0.538973100     0.4885471   -0.6139718  
   0.540973000     0.3875493   -0.6819602  
   0.542972900     0.2773433   -0.7333745  
   0.544972800     0.1605994   -0.7672638  
   0.546972700     0.0391191   -0.7826895  
   0.548972600    -0.0834918   -0.7792087  
   0.550972500    -0.2036528   -0.7560362  
   0.552972400    -0.3193889   -0.7144565  
   0.554972300    -0.4271774   -0.6552994  
   0.556972200    -0.5238011   -0.5799035  
   0.558972100    -0.6075404   -0.4904118  
   0.560972000    -0.6760212   -0.3888861  
   0.562971900    -0.7274663   -0.2786766  
   0.564971800    -0.7609832   -0.1621112  
   0.566971700    -0.7757616   -0.0422888  
   0.568971600    -0.7717323    0.0778104  
   0.570971500    -0.7492954    0.1956244  
   0.572971400    -0.7088727    0.3086453  
   0.574971300    -0.6510807    0.4140248  
   0.576971200    -0.5773956    0.5094635  
   0.578971100    -0.4897680    0.5918890  
   0.580971000    -0.3901850    0.6598101  
   0.582970900    -0.2814465    0.7110991  
   0.584970800    -0.1661874    0.7446563  
   0.586970700    -0.0475409    0.7600274  
   0.588970600     0.0723902    0.7562217  
   0.590970500     0.1900422    0.7338333  
   0.592970400     0.3025911    0.6930053  
   0.594970300     0.4077975    0.6350219  
   0.596970200     0.5025524    0.5608510  
   0.598970100     0.5848951    0.4726700  
   0.600970000     0.6517658    0.3722014  
   0.602969900     0.7023789    0.2617706  
   0.604969800     0.7345752    0.1444680  
   0.606969700     0.7477577    0.0234242  
   0.608969600     0.7413100   -0.0991798  
   0.610969500     0.7149814   -0.2192089  
   0.612969400     0.6699076   -0.3333911  
   0.614969300     0.6068774   -0.4388104  
   0.616969200     0.5277095   -0.5319699  
   0.618969100     0.4354158   -0.6115223  
   0.620969000     0.3321075   -0.6746516  
   0.622968900     0.2202923   -0.7204655  
   0.624968800     0.1024512   -0.7483446  
   0.626968700    -0.0182261   -0.7567858  
   0.628968600    -0.1388184   -0.7467014  
   0.630968500    -0.2562288   -0.7174632  
   0.632968400    -0.3673299   -0.6706215  
   0.634968300    -0.4692675   -0.6066070  
   0.636968200    -0.5600384   -0.5283589  
   0.638968100    -0.6370485   -0.4370358  
   0.640968000    -0.6988074   -0.3350464  
   0.642967900    -0.7436966   -0.2251043  
   0.644967800    -0.7720626   -0.1101667  
   0.646967700    -0.7819465    0.0073207  
   0.648967600    -0.7738553    0.1243393  
   0.650967500    -0.7482584    0.2382409  
   0.652967400    -0.7065945    0.3465790  
   0.654967300    -0.6490732    0.4472890  
   0.656967200    -0.5774929    0.5380821  
   0.658967100    -0.4933230    0.6170132  
   0.660967000    -0.3982684    0.6828467  
   0.662966900    -0.2938010    0.7339510  
   0.664966800    -0.1821437    0.7688049  
   0.666966700    -0.0660493    0.7869259  
   0.668966600     0.0517506    0.7872875  
   0.670966500     0.1685594    0.7694805  
   0.672966400     0.2816195    0.7338811  
   0.674966300     0.3882294    0.6817377  
   0.676966200     0.4859053    0.6140744  
   0.678966100     0.5720611    0.5322303  
   0.680966000     0.6450362    0.4374446  
   0.682965900     0.7025824    0.3325132  
   0.684965800     0.7432734    0.2197365  
   0.686965700     0.7664937    0.1013282  
   0.688965600     0.7706072   -0.0198289  
   0.690965500     0.7558289   -0.1403015  
   0.692965400     0.7221553   -0.2572932  
   0.694965300     0.6708462   -0.3675160  
   0.696965200     0.6021150   -0.4684774  
   0.698965100     0.5183095   -0.5575013  
   0.700965000     0.4209583   -0.6324194  
   0.702964900     0.3130649   -0.6904896  
   0.704964800     0.1969015   -0.7308401  
   0.706964700     0.0756666   -0.7521005  
   0.708964600    -0.0468542   -0.7534598  
   0.710964500    -0.1685610   -0.7352691  
   0.712964400    -0.2849095   -0.6975877  
   0.714964300    -0.3936045   -0.6419070  
   0.716964200    -0.4912677   -0.5700743  
   0.718964100    -0.5756669   -0.4842997  
   0.720964000    -0.6449509   -0.3868690  
   0.722963900    -0.6978363   -0.2808858  
   0.724963800    -0.7333789   -0.1683760  
   0.726963700    -0.7510642   -0.0524241  
   0.728963600    -0.7506462    0.0645357  
   0.730963500    -0.7325165    0.1793530  
   0.732963400    -0.6970179    0.2899221  
   0.734963300    -0.6449928    0.3932308  
   0.736963200    -0.5660931    0.5001919  
   0.738963100    -0.4689702    0.5919746  
   0.740963000    -0.3570245    0.6659146  
   0.742962900    -0.2337364    0.7194066  
   0.744962800    -0.1028304    0.7503734  
   0.746962700     0.0319772    0.7581031  
   0.748962600     0.1665170    0.7425008  
   0.750962500     0.0339539    0.7605706  
   0.752962400     0.1674412    0.7427357  
   0.754962300     0.2964902    0.7021008  
   0.756962200     0.4166881    0.6395506  
   0.758962100     0.5239779    0.5564927  
   0.760962000     0.6160445    0.4555357  
   0.762961900     0.6857340    0.3458906  
   0.764961800     0.7322286    0.2374699  
   0.766961700     0.7615463    0.1227610  
   0.768961600     0.7727987    0.0040984  
   0.770961500     0.7656298   -0.1152705  
   0.772961400     0.7401435   -0.2319362  
   0.774961300     0.6969723   -0.3438328  
   0.776961200     0.6365029   -0.4482931  
   0.778961100     0.5600848   -0.5422295  
   0.780961000     0.4697653   -0.6237524  
   0.782960900     0.3669803   -0.6903147  
   0.784960800     0.2542303   -0.7400393  
   0.786960700     0.1350292   -0.7716162  
   0.788960600     0.0119020   -0.7834792  
   0.790960500    -0.1111297   -0.7762144  
   0.792960400    -0.2313455   -0.7488138  
   0.794960300    -0.3456286   -0.7028260  
   0.796960200    -0.4501698   -0.6398212  
   0.798960100    -0.5436457   -0.5613061  
   0.800960000    -0.6229858   -0.4699123  
   0.802959900    -0.6865663   -0.3670521  
   0.804959800    -0.7333030   -0.2565015  
   0.806959700    -0.7621030   -0.1407991  
   0.808959600    -0.7725457   -0.0226774  
   0.810959500    -0.7651940    0.0951092  
   0.812959400    -0.7391181    0.2098565  
   0.814959300    -0.6964656    0.3188291  
   0.816959200    -0.6378689    0.4197069  
   0.818959100    -0.5647137    0.5099467  
   0.820959000    -0.4788017    0.5878242  
   0.822958900    -0.3823397    0.6517498  
   0.824958800    -0.2773460    0.7003666  
   0.826958700    -0.1660801    0.7324101  
   0.828958600    -0.0514089    0.7471429  
   0.830958500     0.0643256    0.7437155  
   0.832958400     0.1782135    0.7231419  
   0.834958300     0.2876062    0.6855717  
   0.836958200     0.3901262    0.6315298  
   0.838958100     0.4831556    0.5622235  
   0.840958000     0.5651399    0.4791716  
   0.842957900     0.6333979    0.3838704  
   0.844957800     0.6864983    0.2787774  
   0.846957700     0.7227821    0.1659117  
   0.848957600     0.7411098    0.0487257  
   0.850957500     0.7402276   -0.0708001  
   0.852957400     0.7207131   -0.1889583  
   0.854957300     0.6825234   -0.3027561  
   0.856957200     0.6267799   -0.4092095  
   0.858957100     0.5544673   -0.5056657  
   0.860957000     0.4679900   -0.5894467  
   0.862956900     0.3696698   -0.6578681  
   0.864956800     0.2619955   -0.7100924  
   0.866956700     0.1480756   -0.7448028  
   0.868956600     0.0300851   -0.7614275  
   0.870956500    -0.0885383   -0.7594951  
   0.872956400    -0.2054841   -0.7389870  
   0.874956300    -0.3176219   -0.7009839  
   0.876956200    -0.4223047   -0.6459072  
   0.878956100    -0.5169957   -0.5754764  
   0.880956000    -0.5998318   -0.4917246  
   0.882955900    -0.6686626   -0.3960676  
   0.884955800    -0.7215547   -0.2919245  
   0.886955700    -0.7581324   -0.1807145  
   0.888955600    -0.7774331   -0.0658476  
   0.890955500    -0.7789390    0.0500193  
   0.892955400    -0.7633361    0.1649514  
   0.894955300    -0.7305358    0.2753357  
