! MS46122B
! 2250307/22442219
! 6/15/2025 8:17:07 AM
! C:\USERS\SPARKY\DOCUMENTS\VNA_DATA\JUNE15_2025\3.2K\PORT5_MOS3.S1P
! CHANNEL.1
! TR.MEASUREMENT
! RAW.DATA
# GHZ S RI R 50.0
! FREQ.GHZ         S11RE         S11IM         
!; PortSelection: Port_1
   0.001000000    -0.8961532    0.0509987  
   0.002999900    -0.8701864    0.2496335  
   0.004999800    -0.8339387    0.3920366  
   0.006999700    -0.7714558    0.5193197  
   0.008999600    -0.6858749    0.6304260  
   0.010999500    -0.5809816    0.7228291  
   0.012999400    -0.4609621    0.7951083  
   0.014999300    -0.3299231    0.8458190  
   0.016999200    -0.1925143    0.8752782  
   0.018999100    -0.0523410    0.8831524  
   0.020999000     0.0870220    0.8707612  
   0.022998900     0.2223297    0.8385578  
   0.024998800     0.3232192    0.7689101  
   0.026998700     0.4695874    0.7203209  
   0.028998600     0.5769362    0.6369647  
   0.030998500     0.6703457    0.5395734  
   0.032998400     0.7141827    0.4293696  
   0.034998300     0.8082698    0.3101450  
   0.036998200     0.8495136    0.1823498  
   0.038998100     0.8700123    0.0493810  
   0.040998000     0.8696647   -0.0849586  
   0.042997900     0.8474258   -0.2180150  
   0.044997800     0.7829237   -0.3204896  
   0.046997700     0.7415184   -0.4654028  
   0.048997600     0.6608593   -0.5734522  
   0.050997500     0.5644760   -0.6672447  
   0.052997400     0.4568303   -0.7440317  
   0.054997300     0.3361327   -0.8049716  
   0.056997200     0.2092026   -0.8459579  
   0.058997100     0.0786310   -0.8676313  
   0.060997000    -0.0534079   -0.8693453  
   0.062996900    -0.1837234   -0.8512967  
   0.064996800    -0.3095718   -0.8139389  
   0.066996700    -0.4282388   -0.7582661  
   0.068996600    -0.5367779   -0.6850789  
   0.070996500    -0.6325346   -0.5965880  
   0.072996400    -0.7139063   -0.4946913  
   0.074996300    -0.7786105   -0.3817464  
   0.076996200    -0.8251224   -0.2602237  
   0.078996100    -0.8527384   -0.1333566  
   0.080996000    -0.8609803   -0.0035445  
   0.082995900    -0.8493839    0.1260769  
   0.084995800    -0.8179978    0.2522694  
   0.086995700    -0.7680008    0.3724875  
   0.088995600    -0.7001576    0.4840846  
   0.090995500    -0.6160086    0.5840440  
   0.092995400    -0.5170443    0.6701912  
   0.094995300    -0.4059231    0.7402254  
   0.096995200    -0.2850166    0.7924290  
   0.098995100    -0.1566394    0.8252997  
   0.100995000    -0.0245647    0.8371533  
   0.102994900     0.1078149    0.8282498  
   0.104994800     0.2373830    0.7984425  
   0.106994700     0.3611114    0.7481527  
   0.108994600     0.4749798    0.6791009  
   0.110994500     0.5767784    0.5925978  
   0.112994400     0.6633129    0.4906048  
   0.114994300     0.7325668    0.3764660  
   0.116994200     0.7826773    0.2525934  
   0.118994100     0.8125142    0.1225538  
   0.120994000     0.8209561   -0.0104145  
   0.122993900     0.8080580   -0.1426207  
   0.124993800     0.7746441   -0.2708068  
   0.126993700     0.7212616   -0.3916475  
   0.128993600     0.6496970   -0.5024689  
   0.130993500     0.5616731   -0.5998790  
   0.132993400     0.4602453   -0.6818615  
   0.134993300     0.3475595   -0.7465636  
   0.136993200     0.2267668   -0.7927265  
   0.138993100     0.1007975   -0.8194004  
   0.140993000    -0.0269571   -0.8262956  
   0.142992900    -0.1537805   -0.8135188  
   0.144992800    -0.2763830   -0.7817279  
   0.146992700    -0.3926584   -0.7319462  
   0.148992600    -0.4991149   -0.6653191  
   0.150992500    -0.5941404   -0.5838535  
   0.152992400    -0.6752770   -0.4889246  
   0.154992300    -0.7413487   -0.3837107  
   0.156992200    -0.7908619   -0.2699471  
   0.158992100    -0.8229463   -0.1501987  
   0.160992000    -0.8365186   -0.0272576  
   0.162991900    -0.8323338    0.0961840  
   0.164991800    -0.8093532    0.2177462  
   0.166991700    -0.7687974    0.3345195  
   0.168991600    -0.7114108    0.4437019  
   0.170991500    -0.6381252    0.5441204  
   0.172991400    -0.5506974    0.6320179  
   0.174991300    -0.4509445    0.7063460  
   0.176991200    -0.3404357    0.7650854  
   0.178991100    -0.2221443    0.8069641  
   0.180991000    -0.0988470    0.8303715  
   0.182990900     0.0271367    0.8350350  
   0.184990800     0.1533409    0.8206020  
   0.186990700     0.2767116    0.7867516  
   0.188990600     0.3712718    0.7452657  
   0.190990500     0.4974217    0.6663010  
   0.192990400     0.5958130    0.5779784  
   0.194990300     0.6775317    0.4775020  
   0.196990200     0.7423248    0.3656146  
   0.198990100     0.7892460    0.2445832  
   0.200990000     0.8166080    0.1170019  
   0.202989900     0.8233780   -0.0138735  
   0.204989800     0.8093017   -0.1442463  
   0.206989700     0.7750828   -0.2705200  
   0.208989600     0.7210054   -0.3895032  
   0.210989500     0.6485233   -0.4988897  
   0.212989400     0.5592487   -0.5955567  
   0.214989300     0.4560417   -0.6764222  
   0.216989200     0.3416944   -0.7394952  
   0.218989100     0.2192775   -0.7832756  
   0.220989000     0.0913890   -0.8071516  
   0.222988900    -0.0385394   -0.8101146  
   0.224988800    -0.1671405   -0.7926214  
   0.226988700    -0.2905483   -0.7546960  
   0.228988600    -0.4055876   -0.6984132  
   0.230988500    -0.5100344   -0.6249617  
   0.232988400    -0.6012192   -0.5360442  
   0.234988300    -0.6773193   -0.4339757  
   0.236988200    -0.7361103   -0.3214323  
   0.238988100    -0.7764752   -0.2014847  
   0.240988000    -0.7971801   -0.0779067  
   0.242987900    -0.7984710    0.0470684  
   0.244987800    -0.7805080    0.1701417  
   0.246987700    -0.7435141    0.2892874  
   0.248987600    -0.6884194    0.4012946  
   0.250987500    -0.6167293    0.5034983  
   0.252987400    -0.5300531    0.5928248  
   0.254987300    -0.4313339    0.6671173  
   0.256987200    -0.3227046    0.7252439  
   0.258987100    -0.2062393    0.7663245  
   0.260987000    -0.0843841    0.7887166  
   0.262986900     0.0399150    0.7920803  
   0.264986800     0.1636113    0.7762985  
   0.266986700     0.2834126    0.7414233  
   0.268986600     0.3964049    0.6883394  
   0.270986500     0.4993179    0.6184940  
   0.272986400     0.5907248    0.5334522  
   0.274986300     0.6675588    0.4353245  
   0.276986200     0.7287044    0.3259231  
   0.278986100     0.7723337    0.2078627  
   0.280986000     0.7971677    0.0838700  
   0.282985900     0.8020833   -0.0426165  
   0.284985800     0.7871568   -0.1688781  
   0.286985700     0.7526966   -0.2910392  
   0.288985600     0.6996210   -0.4057069  
   0.290985500     0.6296108   -0.5106718  
   0.292985400     0.5444759   -0.6028495  
   0.294985300     0.4456697   -0.6810253  
   0.296985200     0.3356296   -0.7433552  
   0.298985100     0.2165148   -0.7876133  
   0.300985000     0.0918483   -0.8127481  
   0.302984900    -0.0347472   -0.8182729  
   0.304984800    -0.1603511   -0.8036109  
   0.306984700    -0.2816452   -0.7700142  
   0.308984600    -0.3953805   -0.7184463  
   0.310984500    -0.4992213   -0.6505569  
   0.312984400    -0.5911866   -0.5678179  
   0.314984300    -0.6688387   -0.4723946  
   0.316984200    -0.7314121   -0.3664475  
   0.318984100    -0.7772325   -0.2517295  
   0.320984000    -0.8048446   -0.1309745  
   0.322983900    -0.8137760   -0.0068159  
   0.324983800    -0.8036005    0.1163441  
   0.326983700    -0.7747923    0.2364109  
   0.328983600    -0.7277747    0.3507475  
   0.330983500    -0.6639033    0.4557455  
   0.332983400    -0.5857405    0.5493763  
   0.334983300    -0.4940521    0.6299830  
   0.336983200    -0.3912536    0.6957983  
   0.338983100    -0.2795803    0.7450399  
   0.340983000    -0.1613276    0.7769165  
   0.342982900    -0.0398639    0.7898806  
   0.344982800     0.0835614    0.7841254  
   0.346982700     0.2051937    0.7594621  
   0.348982600     0.3220716    0.7154670  
   0.350982500     0.4306038    0.6538533  
   0.352982400     0.5288188    0.5753507  
   0.354982300     0.6166736    0.4779924  
   0.356982200     0.6932926    0.3549858  
   0.358982100     0.7462468    0.2207682  
   0.360982000     0.7742788    0.0791983  
   0.362981900     0.7758561   -0.0653034  
   0.364981800     0.7508942   -0.2079947  
   0.366981700     0.7004101   -0.3436206  
   0.368981600     0.6258557   -0.4683238  
   0.370981500     0.5293807   -0.5772269  
   0.372981400     0.4144092   -0.6664552  
   0.374981300     0.2843249   -0.7330191  
   0.376981200     0.3835109   -0.6796736  
   0.378981100     0.2520025   -0.7409312  
   0.380981000     0.1115567   -0.7767584  
   0.382980900    -0.0203405   -0.7862985  
   0.384980800    -0.1457655   -0.7751325  
   0.386980700    -0.2675395   -0.7438474  
   0.388980600    -0.3822142   -0.6941532  
   0.390980500    -0.4870858   -0.6272129  
   0.392980400    -0.5789421   -0.5460941  
   0.394980300    -0.6565981   -0.4523785  
   0.396980200    -0.7190461   -0.3489493  
   0.398980100    -0.7645718   -0.2374040  
   0.400980000    -0.7927390   -0.1208396  
   0.402979900    -0.8030436   -0.0019602  
   0.404979800    -0.7954773    0.1166379  
   0.406979700    -0.7707275    0.2325635  
   0.408979600    -0.7287672    0.3428050  
   0.410979500    -0.6710082    0.4462695  
   0.412979400    -0.5981026    0.5405104  
   0.414979300    -0.5121424    0.6228507  
   0.416979200    -0.4145368    0.6915792  
   0.418979100    -0.3075105    0.7449982  
   0.420979000    -0.1939595    0.7814979  
   0.422978900    -0.0752617    0.8011647  
   0.424978800     0.0457663    0.8025717  
   0.426978700     0.1658945    0.7856320  
   0.428978600     0.2826151    0.7502599  
   0.430978500     0.3927985    0.6973492  
   0.432978400     0.4934794    0.6280668  
   0.434978300     0.5827686    0.5440343  
   0.436978200     0.6583452    0.4465043  
   0.438978100     0.7179812    0.3380543  
   0.440978000     0.7601438    0.2206628  
   0.442977900     0.7835875    0.0977273  
   0.444977800     0.7869831   -0.0278767  
   0.446977700     0.7705104   -0.1528788  
   0.448977600     0.7337881   -0.2740978  
   0.450977500     0.6783291   -0.3877649  
   0.452977400     0.6043234   -0.4918737  
   0.454977300     0.5140507   -0.5835361  
   0.456977200     0.4093573   -0.6592779  
   0.458977100     0.2935791   -0.7165946  
   0.460977000     0.1698983   -0.7539954  
   0.462976900     0.0421788   -0.7705671  
   0.464976800    -0.0863006   -0.7659839  
   0.466976700    -0.2119840   -0.7399978  
   0.468976600    -0.3311320   -0.6947235  
   0.470976500    -0.4409748   -0.6305366  
   0.472976400    -0.5384875   -0.5494323  
   0.474976300    -0.6208171   -0.4543739  
   0.476976200    -0.6867068   -0.3478689  
   0.478976100    -0.7340583   -0.2331090  
   0.480976000    -0.7623453   -0.1136482  
   0.482975900    -0.7715734    0.0077363  
   0.484975800    -0.7617000    0.1283478  
   0.486975700    -0.7335709    0.2456885  
   0.488975600    -0.6875804    0.3566987  
   0.490975500    -0.6251501    0.4591894  
   0.492975400    -0.5484055    0.5508128  
   0.494975300    -0.4584647    0.6294595  
   0.496975200    -0.3575732    0.6931790  
   0.498975100    -0.2485211    0.7408741  
   0.500975000    -0.1340481    0.7714448  
   0.502974900    -0.0160856    0.7842512  
   0.504974800     0.1026506    0.7789389  
   0.506974700     0.2198724    0.7555533  
   0.508974600     0.3330262    0.7144067  
   0.510974500     0.4387624    0.6562658  
   0.512974400     0.5346035    0.5819953  
   0.514974300     0.6179948    0.4942449  
   0.516974200     0.6873252    0.3945519  
   0.518974100     0.7403522    0.2853067  
   0.520974000     0.7759914    0.1683540  
   0.522973900     0.7931512    0.0474943  
   0.524973800     0.7917988   -0.0752610  
   0.526973700     0.7710028   -0.1969355  
   0.528973600     0.7312245   -0.3140916  
   0.530973500     0.6734856   -0.4246041  
   0.532973400     0.5989181   -0.5244653  
   0.534973300     0.5095218   -0.6118808  
   0.536973200     0.4068317   -0.6843864  
   0.538973100     0.2946879   -0.7392035  
   0.540973000     0.1751997   -0.7760768  
   0.542972900     0.0511599   -0.7933885  
   0.544972800    -0.0733129   -0.7914636  
   0.546972700    -0.1970766   -0.7694611  
   0.548972600    -0.3158546   -0.7283699  
   0.550972500    -0.4259427   -0.6689085  
   0.552972400    -0.5260313   -0.5926448  
   0.554972300    -0.6126968   -0.5016695  
   0.556972200    -0.6834567   -0.3979025  
   0.558972100    -0.7370676   -0.2844900  
   0.560972000    -0.7719058   -0.1645512  
   0.562971900    -0.7871112   -0.0411996  
   0.564971800    -0.7824657    0.0825945  
   0.566971700    -0.7588778    0.2037348  
   0.568971600    -0.7167190    0.3192794  
   0.570971500    -0.6570773    0.4263832  
   0.572971400    -0.5811525    0.5229415  
   0.574971300    -0.4909700    0.6065072  
   0.576971200    -0.3883414    0.6752250  
   0.578971100    -0.2760469    0.7266432  
   0.580971000    -0.1571078    0.7595795  
   0.582970900    -0.0343797    0.7734838  
   0.584970800     0.0886321    0.7678717  
   0.586970700     0.2090892    0.7425880  
   0.588970600     0.3238869    0.6985204  
   0.590970500     0.4308386    0.6367495  
   0.592970400     0.5262459    0.5587635  
   0.594970300     0.6084811    0.4665914  
   0.596970200     0.6748236    0.3618110  
   0.598970100     0.7238513    0.2478917  
   0.600970000     0.7539326    0.1270811  
   0.602969900     0.7642854    0.0029538  
   0.604969800     0.7548744   -0.1221352  
   0.606969700     0.7249976   -0.2436532  
   0.608969600     0.6757622   -0.3598498  
   0.610969500     0.6081821   -0.4665453  
   0.612969400     0.5245628   -0.5603465  
   0.614969300     0.4267535   -0.6397501  
   0.616969200     0.3179581   -0.7017670  
   0.618969100     0.2015222   -0.7455460  
   0.620969000     0.0801312   -0.7696507  
   0.622968900    -0.0435829   -0.7750590  
   0.624968800    -0.1661289   -0.7602827  
   0.626968700    -0.2850806   -0.7268986  
   0.628968600    -0.3971587   -0.6752734  
   0.630968500    -0.4995574   -0.6069330  
   0.632968400    -0.5896261   -0.5237082  
   0.634968300    -0.6658010   -0.4274649  
   0.636968200    -0.7258304   -0.3211354  
   0.638968100    -0.7684210   -0.2074435  
   0.640968000    -0.7932965   -0.0882868  
   0.642967900    -0.7997969    0.0325679  
   0.644967800    -0.7874131    0.1527544  
   0.646967700    -0.7568972    0.2689958  
   0.648967600    -0.7099649    0.3793353  
   0.650967500    -0.6470492    0.4807170  
   0.652967400    -0.5696313    0.5712522  
   0.654967300    -0.4803976    0.6490465  
   0.656967200    -0.3798587    0.7126755  
   0.658967100    -0.2714978    0.7606449  
   0.660967000    -0.1565040    0.7917427  
   0.662966900    -0.0377653    0.8053557  
   0.664966800     0.0831064    0.8013890  
   0.666966700     0.2020859    0.7783400  
   0.668966600     0.3167386    0.7376976  
   0.670966500     0.4245219    0.6793955  
   0.672966400     0.5218826    0.6048887  
   0.674966300     0.6071686    0.5162326  
   0.676966200     0.6777808    0.4151123  
   0.678966100     0.7319836    0.3043421  
   0.680966000     0.7685723    0.1860104  
   0.682965900     0.7859464    0.0631245  
   0.684965800     0.7839360   -0.0612748  
   0.686965700     0.7619479   -0.1844307  
   0.688965600     0.7207872   -0.3028828  
   0.690965500     0.6611822   -0.4138197  
   0.692965400     0.5848713   -0.5132544  
   0.694965300     0.4935777   -0.5995352  
   0.696965200     0.3892649   -0.6703139  
   0.698965100     0.2752656   -0.7231205  
   0.700965000     0.1538988   -0.7571034  
   0.702964900     0.0286848   -0.7712646  
   0.704964800    -0.0968942   -0.7649672  
   0.706964700    -0.2197272   -0.7385968  
   0.708964600    -0.3363572   -0.6929101  
   0.710964500    -0.4444560   -0.6290994  
   0.712964400    -0.5398861   -0.5489549  
   0.714964300    -0.6211504   -0.4550215  
   0.716964200    -0.6859951   -0.3501423  
   0.718964100    -0.7329570   -0.2372679  
   0.720964000    -0.7613714   -0.1191643  
   0.722963900    -0.7714565    0.0007114  
   0.724963800    -0.7626939    0.1206727  
   0.726963700    -0.7360092    0.2367956  
   0.728963600    -0.6918347    0.3472414  
   0.730963500    -0.6312913    0.4492700  
   0.732963400    -0.5564062    0.5408618  
   0.734963300    -0.4684144    0.6196305  
   0.736963200    -0.3527696    0.6923761  
   0.738963100    -0.2255018    0.7444010  
   0.740963000    -0.0903743    0.7733586  
   0.742962900     0.0479661    0.7786199  
   0.744962800     0.1855349    0.7593679  
   0.746962700     0.3184063    0.7162784  
   0.748962600     0.4420615    0.6505557  
   0.750962500     0.3188093    0.7137396  
   0.752962400     0.4414625    0.6463328  
   0.754962300     0.5503557    0.5583157  
   0.756962200     0.6423127    0.4517296  
   0.758962100     0.7147039    0.3306394  
   0.760962000     0.7644659    0.1977764  
   0.762961900     0.7891151    0.0652322  
   0.764961800     0.7911036   -0.0579406  
   0.766961700     0.7740458   -0.1803399  
   0.768961600     0.7377743   -0.2992140  
   0.770961500     0.6833923   -0.4110521  
   0.772961400     0.6118720   -0.5132608  
   0.774961300     0.5251653   -0.6029390  
   0.776961200     0.4251547   -0.6783080  
   0.778961100     0.3139027   -0.7371955  
   0.780961000     0.1941723   -0.7777143  
   0.782960900     0.0695004   -0.7991410  
   0.784960800    -0.0577179   -0.8000654  
   0.786960700    -0.1831310   -0.7807192  
   0.788960600    -0.3039966   -0.7414466  
   0.790960500    -0.4165645   -0.6835591  
   0.792960400    -0.5182674   -0.6087811  
   0.794960300    -0.6060590   -0.5189622  
   0.796960200    -0.6781669   -0.4172679  
   0.798960100    -0.7329737   -0.3058388  
   0.800960000    -0.7698375   -0.1881404  
   0.802959900    -0.7872494   -0.0665236  
   0.804959800    -0.7861472    0.0552408  
   0.806959700    -0.7659875    0.1749254  
   0.808959600    -0.7277250    0.2893519  
   0.810959500    -0.6729795    0.3957707  
   0.812959400    -0.6025956    0.4923626  
   0.814959300    -0.5184876    0.5768465  
   0.816959200    -0.4228246    0.6470565  
   0.818959100    -0.3178230    0.7020726  
   0.820959000    -0.2056793    0.7401851  
   0.822958900    -0.0890084    0.7610403  
   0.824958800     0.0297516    0.7634330  
   0.826958700     0.1471238    0.7478551  
   0.828958600     0.2615261    0.7147000  
   0.830958500     0.3692140    0.6642734  
   0.832958400     0.4684179    0.5975983  
   0.834958300     0.5561481    0.5163757  
   0.836958200     0.6303098    0.4224401  
   0.838958100     0.6893485    0.3175719  
   0.840958000     0.7317221    0.2046249  
   0.842957900     0.7558981    0.0853919  
   0.844957800     0.7614781   -0.0366784  
   0.846957700     0.7472089   -0.1585116  
   0.848957600     0.7138034   -0.2768897  
   0.850957500     0.6618068   -0.3891268  
   0.852957400     0.5922528   -0.4917884  
   0.854957300     0.5074078   -0.5818043  
   0.856957200     0.4088706   -0.6577204  
   0.858957100     0.2996354   -0.7168695  
   0.860957000     0.1827186   -0.7575425  
   0.862956900     0.0614334   -0.7794560  
   0.864956800    -0.0612446   -0.7816905  
   0.866956700    -0.1821962   -0.7652413  
   0.868956600    -0.2985793   -0.7300319  
   0.870956500    -0.4080513   -0.6776556  
   0.872956400    -0.5077694   -0.6090008  
   0.874956300    -0.5956705   -0.5261876  
   0.876956200    -0.6695016   -0.4310825  
   0.878956100    -0.7276509   -0.3258854  
   0.880956000    -0.7692095   -0.2132178  
   0.882955900    -0.7928090   -0.0959246  
   0.884955800    -0.7984365    0.0232954  
   0.886955700    -0.7861239    0.1416004  
   0.888955600    -0.7561475    0.2566416  
   0.890955500    -0.7093693    0.3653135  
   0.892955400    -0.6470987    0.4661168  
   0.894955300    -0.5703151    0.5560716  
