! MS46122B
! 2250307/22442219
! 6/15/2025 8:14:12 AM
! C:\USERS\SPARKY\DOCUMENTS\VNA_DATA\JUNE15_2025\3.2K\PORT2_MOS6.S1P
! CHANNEL.1
! TR.MEASUREMENT
! RAW.DATA
# GHZ S RI R 50.0
! FREQ.GHZ         S11RE         S11IM         
!; PortSelection: Port_1
   0.001000000     1.0237950   -0.0592034  
   0.002999900     0.9332763   -0.2187072  
   0.004999800     0.8660223   -0.3632450  
   0.006999700     0.7857628   -0.4969553  
   0.008999600     0.6898828   -0.6111510  
   0.010999500     0.5820876   -0.7117384  
   0.012999400     0.4639233   -0.7977483  
   0.014999300     0.3362029   -0.8669946  
   0.016999200     0.2002691   -0.9166728  
   0.018999100     0.0587223   -0.9454529  
   0.020999000    -0.0860619   -0.9512163  
   0.022998900    -0.2300706   -0.9332556  
   0.024998800    -0.3438775   -0.8686022  
   0.026998700    -0.5012720   -0.8254586  
   0.028998600    -0.6208112   -0.7381579  
   0.030998500    -0.7249088   -0.6313842  
   0.032998400    -0.7775269   -0.5068625  
   0.034998300    -0.8757913   -0.3741952  
   0.036998200    -0.9187725   -0.2308559  
   0.038998100    -0.9385739   -0.0831666  
   0.040998000    -0.9358711    0.0654702  
   0.042997900    -0.9103005    0.2111040  
   0.044997800    -0.8430913    0.3240780  
   0.046997700    -0.7954109    0.4814173  
   0.048997600    -0.7087381    0.6002324  
   0.050997500    -0.6041946    0.7041857  
   0.052997400    -0.4864436    0.7895387  
   0.054997300    -0.3527331    0.8566760  
   0.056997200    -0.2112784    0.9010716  
   0.058997100    -0.0645137    0.9218890  
   0.060997000     0.0835859    0.9186597  
   0.062996900     0.2295541    0.8917952  
   0.064996800     0.3692313    0.8415885  
   0.066996700     0.4992539    0.7701997  
   0.068996600     0.6160333    0.6788274  
   0.070996500     0.7166932    0.5699329  
   0.072996400     0.7992618    0.4470145  
   0.074996300     0.8608833    0.3126526  
   0.076996200     0.9002962    0.1701947  
   0.078996100     0.9166251    0.0236442  
   0.080996000     0.9095421   -0.1233077  
   0.082995900     0.8790712   -0.2668368  
   0.084995800     0.8266847   -0.4034747  
   0.086995700     0.7532699   -0.5293071  
   0.088995600     0.6615673   -0.6417608  
   0.090995500     0.5535477   -0.7377741  
   0.092995400     0.4325407   -0.8157554  
   0.094995300     0.3013946   -0.8734839  
   0.096995200     0.1633296   -0.9104418  
   0.098995100     0.0222777   -0.9253148  
   0.100995000    -0.1190867   -0.9186557  
   0.102994900    -0.2576425   -0.8905028  
   0.104994800    -0.3892544   -0.8420754  
   0.106994700    -0.5121015   -0.7745457  
   0.108994600    -0.6230540   -0.6893714  
   0.110994500    -0.7195724   -0.5888833  
   0.112994400    -0.7997313   -0.4747751  
   0.114994300    -0.8619235   -0.3500184  
   0.116994200    -0.9042484   -0.2176246  
   0.118994100    -0.9261706   -0.0803249  
   0.120994000    -0.9274904    0.0587318  
   0.122993900    -0.9073523    0.1967519  
   0.124993800    -0.8669150    0.3303179  
   0.126993700    -0.8065832    0.4562745  
   0.128993600    -0.7274334    0.5721161  
   0.130993500    -0.6315665    0.6749318  
   0.132993400    -0.5205359    0.7622156  
   0.134993300    -0.3969162    0.8317553  
   0.136993200    -0.2634932    0.8811789  
   0.138993100    -0.1232974    0.9093651  
   0.140993000     0.0201202    0.9155087  
   0.142992900     0.1634999    0.8993375  
   0.144992800     0.3031791    0.8603198  
   0.146992700     0.4350398    0.7993324  
   0.148992600     0.5561057    0.7177037  
   0.150992500     0.6627161    0.6178493  
   0.152992400     0.7521517    0.5012625  
   0.154992300     0.8217995    0.3719883  
   0.156992200     0.8694828    0.2327947  
   0.158992100     0.8940217    0.0876307  
   0.160992000     0.8946019   -0.0595131  
   0.162991900     0.8713405   -0.2045901  
   0.164991800     0.8246771   -0.3441395  
   0.166991700     0.7564493   -0.4731435  
   0.168991600     0.6683203   -0.5894476  
   0.170991500     0.5628721   -0.6896294  
   0.172991400     0.4428800   -0.7711772  
   0.174991300     0.3124561   -0.8317716  
   0.176991200     0.1742389   -0.8707274  
   0.178991100     0.0325861   -0.8867403  
   0.180991000    -0.1088344   -0.8802174  
   0.182990900    -0.2467178   -0.8517258  
   0.184990800    -0.3779615   -0.8019388  
   0.186990700    -0.4985957   -0.7325362  
   0.188990600    -0.5878268   -0.6629502  
   0.190990500    -0.6964304   -0.5470905  
   0.192990400    -0.7738419   -0.4299463  
   0.194990300    -0.8304002   -0.3059473  
   0.196990200    -0.8671505   -0.1760962  
   0.198990100    -0.8834599   -0.0427503  
   0.200990000    -0.8796194    0.0915152  
   0.202989900    -0.8555507    0.2235097  
   0.204989800    -0.8119026    0.3497839  
   0.206989700    -0.7502747    0.4673972  
   0.208989600    -0.6719335    0.5743857  
   0.210989500    -0.5779821    0.6687259  
   0.212989400    -0.4708321    0.7483135  
   0.214989300    -0.3529120    0.8108304  
   0.216989200    -0.2272487    0.8547508  
   0.218989100    -0.0966563    0.8796134  
   0.220989000     0.0369765    0.8845630  
   0.222988900     0.1705753    0.8690706  
   0.224988800     0.3007594    0.8335775  
   0.226988700     0.4239957    0.7786103  
   0.228988600     0.5376009    0.7058989  
   0.230988500     0.6392741    0.6163914  
   0.232988400     0.7264044    0.5119632  
   0.234988300     0.7968190    0.3947876  
   0.236988200     0.8488119    0.2675009  
   0.238988100     0.8805782    0.1336293  
   0.240988000     0.8909562   -0.0035369  
   0.242987900     0.8803905   -0.1405438  
   0.244987800     0.8484495   -0.2745121  
   0.246987700     0.7959889   -0.4024169  
   0.248987600     0.7240584   -0.5212434  
   0.250987500     0.6344107   -0.6273778  
   0.252987400     0.5293555   -0.7179869  
   0.254987300     0.4122132   -0.7908452  
   0.256987200     0.2853607   -0.8439871  
   0.258987100     0.1519223   -0.8771444  
   0.260987000     0.0149635   -0.8892206  
   0.262986900    -0.1225156   -0.8797399  
   0.264986800    -0.2564997   -0.8485809  
   0.266986700    -0.3839208   -0.7974239  
   0.268986600    -0.5009893   -0.7272034  
   0.270986500    -0.6050550   -0.6406229  
   0.272986400    -0.6941701   -0.5392663  
   0.274986300    -0.7665682   -0.4259002  
   0.276986200    -0.8205302   -0.3030159  
   0.278986100    -0.8545941   -0.1730843  
   0.280986000    -0.8685474   -0.0392300  
   0.282985900    -0.8613521    0.0949610  
   0.284985800    -0.8339027    0.2262004  
   0.286985700    -0.7866589    0.3512286  
   0.288985600    -0.7212892    0.4663836  
   0.290985500    -0.6392665    0.5696613  
   0.292985400    -0.5428445    0.6592052  
   0.294985300    -0.4336869    0.7329201  
   0.296985200    -0.3141778    0.7896926  
   0.298985100    -0.1865481    0.8273121  
   0.300985000    -0.0542218    0.8445165  
   0.302984900     0.0790098    0.8410150  
   0.304984800     0.2104974    0.8167644  
   0.306984700     0.3360324    0.7725890  
   0.308984600     0.4530653    0.7095822  
   0.310984500     0.5584971    0.6294379  
   0.312984400     0.6505484    0.5333899  
   0.314984300     0.7263509    0.4245679  
   0.316984200     0.7847075    0.3049369  
   0.318984100     0.8237948    0.1766321  
   0.320984000     0.8424794    0.0431417  
   0.322983900     0.8397940   -0.0922388  
   0.324983800     0.8156455   -0.2252699  
   0.326983700     0.7707512   -0.3529996  
   0.328983600     0.7062736   -0.4718907  
   0.330983500     0.6241705   -0.5785928  
   0.332983400     0.5267727   -0.6705962  
   0.334983300     0.4167916   -0.7462678  
   0.336983200     0.2962979   -0.8035960  
   0.338983100     0.1686924   -0.8413767  
   0.340983000     0.0374788   -0.8588909  
   0.342982900    -0.0946284   -0.8561369  
   0.344982800    -0.2251528   -0.8327289  
   0.346982700    -0.3504953   -0.7894950  
   0.348982600    -0.4678861   -0.7272009  
   0.350982500    -0.5736457   -0.6480165  
   0.352982400    -0.6661172   -0.5534559  
   0.354982300    -0.7455919   -0.4411344  
   0.356982200    -0.8107872   -0.3029023  
   0.358982100    -0.8501657   -0.1570263  
   0.360982000    -0.8630590   -0.0076065  
   0.362981900    -0.8497981    0.1405667  
   0.364981800    -0.8108703    0.2835670  
   0.366981700    -0.7482633    0.4172722  
   0.368981600    -0.6637821    0.5376683  
   0.370981500    -0.5606557    0.6414292  
   0.372981400    -0.4408302    0.7258129  
   0.374981300    -0.3084259    0.7886353  
   0.376981200    -0.4294788    0.7392618  
   0.378981100    -0.2923782    0.8003579  
   0.380981000    -0.1465598    0.8362659  
   0.382980900    -0.0104170    0.8465434  
   0.384980800     0.1199484    0.8358819  
   0.386980700     0.2476096    0.8050172  
   0.388980600     0.3686969    0.7544279  
   0.390980500     0.4808846    0.6858808  
   0.392980400     0.5804474    0.6002924  
   0.394980300     0.6656873    0.5005571  
   0.396980200     0.7342317    0.3883751  
   0.398980100     0.7845544    0.2666225  
   0.400980000     0.8149164    0.1381325  
   0.402979900     0.8247331    0.0060661  
   0.404979800     0.8135554   -0.1258919  
   0.406979700     0.7813805   -0.2542784  
   0.408979600     0.7290345   -0.3759104  
   0.410979500     0.6579528   -0.4881451  
   0.412979400     0.5690071   -0.5879604  
   0.414979300     0.4657284   -0.6720443  
   0.416979200     0.3500320   -0.7384056  
   0.418979100     0.2258247   -0.7852178  
   0.420979000     0.0961895   -0.8113124  
   0.422978900    -0.0357635   -0.8162756  
   0.424978800    -0.1666225   -0.8000418  
   0.426978700    -0.2926160   -0.7634532  
   0.428978600    -0.4106157   -0.7078391  
   0.430978500    -0.5173054   -0.6348686  
   0.432978400    -0.6102884   -0.5469961  
   0.434978300    -0.6883199   -0.4466617  
   0.436978200    -0.7493222   -0.3366083  
   0.438978100    -0.7930329   -0.2185483  
   0.440978000    -0.8179643   -0.0965718  
   0.442977900    -0.8242151    0.0273557  
   0.444977800    -0.8120680    0.1502453  
   0.446977700    -0.7817767    0.2693249  
   0.448977600    -0.7348560    0.3819123  
   0.450977500    -0.6716715    0.4859835  
   0.452977400    -0.5937420    0.5796413  
   0.454977300    -0.5030091    0.6616309  
   0.456977200    -0.4004970    0.7289962  
   0.458977100    -0.2892421    0.7806458  
   0.460977000    -0.1717046    0.8152346  
   0.462976900    -0.0505162    0.8320671  
   0.464976800     0.0721611    0.8309213  
   0.466976700     0.1933283    0.8113645  
   0.468976600     0.3108072    0.7742813  
   0.470976500     0.4215223    0.7198289  
   0.472976400     0.5234615    0.6493028  
   0.474976300     0.6139168    0.5639291  
   0.476976200     0.6907521    0.4658120  
   0.478976100     0.7520399    0.3569830  
   0.480976000     0.7961689    0.2404671  
   0.482975900     0.8221558    0.1181604  
   0.484975800     0.8297901   -0.0068502  
   0.486975700     0.8182055   -0.1323676  
   0.488975600     0.7871687   -0.2550254  
   0.490975500     0.7374740   -0.3718610  
   0.492975400     0.6703583   -0.4805230  
   0.494975300     0.5866909   -0.5775929  
   0.496975200     0.4884517   -0.6606289  
   0.498975100     0.3784435   -0.7272595  
   0.500975000     0.2595034   -0.7757484  
   0.502974900     0.1340465   -0.8054831  
   0.504974800     0.0056454   -0.8145111  
   0.506974700    -0.1229917   -0.8035344  
   0.508974600    -0.2492565   -0.7719445  
   0.510974500    -0.3684868   -0.7210426  
   0.512974400    -0.4781747   -0.6516122  
   0.514974300    -0.5743157   -0.5664215  
   0.516974200    -0.6556837   -0.4676100  
   0.518974100    -0.7198810   -0.3578735  
   0.520974000    -0.7662114   -0.2397500  
   0.522973900    -0.7928514   -0.1167647  
   0.524973800    -0.8000019    0.0083802  
   0.526973700    -0.7877695    0.1326655  
   0.528973600    -0.7569147    0.2532552  
   0.530973500    -0.7075753    0.3671707  
   0.532973400    -0.6414605    0.4716431  
   0.534973300    -0.5604050    0.5645604  
   0.536973200    -0.4664772    0.6435801  
   0.538973100    -0.3620980    0.7069562  
   0.540973000    -0.2500403    0.7533958  
   0.542972900    -0.1323907    0.7824277  
   0.544972800    -0.0118105    0.7930296  
   0.546972700     0.1090067    0.7853314  
   0.548972600     0.2275360    0.7596031  
   0.550972500     0.3407217    0.7158132  
   0.552972400     0.4464379    0.6554216  
   0.554972300     0.5416807    0.5793051  
   0.556972200     0.6243730    0.4890668  
   0.558972100     0.6920255    0.3876918  
   0.560972000     0.7439833    0.2768037  
   0.562971900     0.7779555    0.1596038  
   0.564971800     0.7937014    0.0386887  
   0.566971700     0.7908773   -0.0829253  
   0.568971600     0.7696168   -0.2027289  
   0.570971500     0.7304235   -0.3179307  
   0.572971400     0.6738520   -0.4262637  
   0.574971300     0.6012146   -0.5246619  
   0.576971200     0.5138448   -0.6118256  
   0.578971100     0.4139932   -0.6843893  
   0.580971000     0.3045672   -0.7408866  
   0.582970900     0.1877563   -0.7799183  
   0.584970800     0.0668331   -0.8001758  
   0.586970700    -0.0552694   -0.8021931  
   0.588970600    -0.1760104   -0.7855868  
   0.590970500    -0.2922358   -0.7510266  
   0.592970400    -0.4018837   -0.6994912  
   0.594970300    -0.5025381   -0.6319982  
   0.596970200    -0.5913590   -0.5506993  
   0.598970100    -0.6672335   -0.4570369  
   0.600970000    -0.7279641   -0.3533012  
   0.602969900    -0.7725107   -0.2418408  
   0.604969800    -0.7998784   -0.1250781  
   0.606969700    -0.8095987   -0.0056108  
   0.608969600    -0.8011916    0.1141649  
   0.610969500    -0.7750372    0.2307353  
   0.612969400    -0.7319095    0.3423600  
   0.614969300    -0.6725373    0.4457060  
   0.616969200    -0.5990137    0.5394288  
   0.618969100    -0.5127668    0.6200288  
   0.620969000    -0.4158304    0.6871350  
   0.622968900    -0.3099696    0.7390191  
   0.624968800    -0.1973094    0.7747414  
   0.626968700    -0.0801318    0.7933537  
   0.628968600     0.0391213    0.7939276  
   0.630968500     0.1572004    0.7767300  
   0.632968400     0.2717836    0.7418524  
   0.634968300     0.3801388    0.6890225  
   0.636968200     0.4790209    0.6204877  
   0.638968100     0.5667039    0.5373231  
   0.640968000     0.6406560    0.4411900  
   0.642967900     0.6987470    0.3347159  
   0.644967800     0.7399251    0.2198439  
   0.646967700     0.7623913    0.0997639  
   0.648967600     0.7658578   -0.0217915  
   0.650967500     0.7501460   -0.1423623  
   0.652967400     0.7156516   -0.2584656  
   0.654967300     0.6629569   -0.3682581  
   0.656967200     0.5940678   -0.4679506  
   0.658967100     0.5104312   -0.5553668  
   0.660967000     0.4136704   -0.6290672  
   0.662966900     0.3060859   -0.6864166  
   0.664966800     0.1907443   -0.7267157  
   0.666966700     0.0702242   -0.7476679  
   0.668966600    -0.0519814   -0.7488413  
   0.670966500    -0.1726075   -0.7309193  
   0.672966400    -0.2881226   -0.6944568  
   0.674966300    -0.3955776   -0.6402000  
   0.676966200    -0.4929449   -0.5700128  
   0.678966100    -0.5773179   -0.4862633  
   0.680966000    -0.6476216   -0.3907832  
   0.682965900    -0.7019377   -0.2861679  
   0.684965800    -0.7389498   -0.1750258  
   0.686965700    -0.7587963   -0.0596356  
   0.688965600    -0.7606463    0.0567094  
   0.690965500    -0.7449480    0.1715856  
   0.692965400    -0.7121781    0.2822488  
   0.694965300    -0.6634007    0.3863642  
   0.696965200    -0.5997567    0.4813761  
   0.698965100    -0.5224739    0.5661632  
   0.700965000    -0.4335853    0.6382350  
   0.702964900    -0.3350732    0.6964309  
   0.704964800    -0.2285325    0.7389039  
   0.706964700    -0.1166031    0.7654201  
   0.708964600    -0.0016712    0.7748409  
   0.710964500     0.1138746    0.7668341  
   0.712964400     0.2271924    0.7416262  
   0.714964300     0.3358366    0.6991270  
   0.716964200     0.4367103    0.6412126  
   0.718964100     0.5274761    0.5683672  
   0.720964000     0.6063388    0.4830001  
   0.722963900     0.6713185    0.3867554  
   0.724963800     0.7206790    0.2814383  
   0.726963700     0.7539864    0.1691738  
   0.728963600     0.7699394    0.0529577  
   0.730963500     0.7681073   -0.0649894  
   0.732963400     0.7482470   -0.1814658  
   0.734963300     0.7103732   -0.2941129  
   0.736963200     0.6465560   -0.4158070  
   0.738963100     0.5611823   -0.5244976  
   0.740963000     0.4574606   -0.6163505  
   0.742962900     0.3390271   -0.6872314  
   0.744962800     0.2096465   -0.7352019  
   0.746962700     0.0741757   -0.7591268  
   0.748962600    -0.0630336   -0.7574993  
   0.750962500     0.0349508   -0.7561856  
   0.752962400    -0.1027814   -0.7496738  
   0.754962300    -0.2358920   -0.7175277  
   0.756962200    -0.3602827   -0.6621014  
   0.758962100    -0.4719167   -0.5851842  
   0.760962000    -0.5670545   -0.4896219  
   0.762961900    -0.6401857   -0.3846003  
   0.764961800    -0.6906300   -0.2791961  
   0.766961700    -0.7238007   -0.1680317  
   0.768961600    -0.7390367   -0.0534985  
   0.770961500    -0.7367042    0.0610788  
   0.772961400    -0.7168039    0.1728506  
   0.774961300    -0.6806643    0.2797517  
   0.776961200    -0.6286776    0.3792339  
   0.778961100    -0.5621039    0.4692365  
   0.780961000    -0.4829572    0.5480579  
   0.782960900    -0.3930755    0.6140716  
   0.784960800    -0.2938359    0.6654339  
   0.786960700    -0.1879349    0.7013756  
   0.788960600    -0.0777325    0.7208232  
   0.790960500     0.0337599    0.7239404  
   0.792960400     0.1449171    0.7095335  
   0.794960300     0.2520369    0.6782371  
   0.796960200     0.3534499    0.6316575  
   0.798960100     0.4463087    0.5699968  
   0.800960000     0.5288443    0.4946583  
   0.802959900     0.5993370    0.4077623  
   0.804959800     0.6557090    0.3108131  
   0.806959700     0.6968797    0.2062933  
   0.808959600     0.7214094    0.0964364  
   0.810959500     0.7292333   -0.0161547  
   0.812959400     0.7192901   -0.1294702  
   0.814959300     0.6923824   -0.2400214  
   0.816959200     0.6481342   -0.3457345  
   0.818959100     0.5882946   -0.4434936  
   0.820959000     0.5132211   -0.5312033  
   0.822958900     0.4256262   -0.6062049  
   0.824958800     0.3267171   -0.6666826  
   0.826958700     0.2195539   -0.7112815  
   0.828958600     0.1067727   -0.7384725  
   0.830958500    -0.0090798   -0.7473983  
   0.832958400    -0.1245065   -0.7384753  
   0.834958300    -0.2369890   -0.7117467  
   0.836958200    -0.3432273   -0.6679567  
   0.838958100    -0.4415885   -0.6082485  
   0.840958000    -0.5291792   -0.5345953  
   0.842957900    -0.6042018   -0.4481411  
   0.844957800    -0.6647545   -0.3515506  
   0.846957700    -0.7096898   -0.2472803  
   0.848957600    -0.7382867   -0.1374543  
   0.850957500    -0.7495698   -0.0249952  
   0.852957400    -0.7434250    0.0880224  
   0.854957300    -0.7202408    0.1978083  
   0.856957200    -0.6809145    0.3029440  
   0.858957100    -0.6260241    0.4002876  
   0.860957000    -0.5579561    0.4875901  
   0.862956900    -0.4776861    0.5632885  
   0.864956800    -0.3877047    0.6250709  
   0.866956700    -0.2899806    0.6729555  
   0.868956600    -0.1865408    0.7054746  
   0.870956500    -0.0790640    0.7227901  
   0.872956400     0.0299222    0.7233490  
   0.874956300     0.1380111    0.7075084  
   0.876956200     0.2434353    0.6755868  
   0.878956100     0.3428088    0.6275691  
   0.880956000     0.4344788    0.5645666  
   0.882955900     0.5157130    0.4875069  
   0.884955800     0.5843231    0.3989924  
   0.886955700     0.6386087    0.2999527  
   0.888955600     0.6766163    0.1933496  
   0.890955500     0.6972351    0.0815745  
   0.892955400     0.6998234   -0.0320452  
   0.894955300     0.6841555   -0.1454792  
