! MS46122B
! 2250307/22442219
! 6/15/2025 8:12:13 AM
! C:\USERS\SPARKY\DOCUMENTS\VNA_DATA\JUNE15_2025\3.2K\PORT1_MOS5.S1P
! CHANNEL.1
! TR.MEASUREMENT
! RAW.DATA
# GHZ S RI R 50.0
! FREQ.GHZ         S11RE         S11IM         
!; PortSelection: Port_1
   0.001000000    -0.8767297    0.0514220  
   0.002999900    -0.8507906    0.2486791  
   0.004999800    -0.8139324    0.3893377  
   0.006999700    -0.7515554    0.5148596  
   0.008999600    -0.6658723    0.6238531  
   0.010999500    -0.5612360    0.7139233  
   0.012999400    -0.4417792    0.7838804  
   0.014999300    -0.3115694    0.8323754  
   0.016999200    -0.1755487    0.8592483  
   0.018999100    -0.0365015    0.8648498  
   0.020999000     0.1010034    0.8501906  
   0.022998900     0.2342768    0.8159189  
   0.024998800     0.3328780    0.7449613  
   0.026998700     0.4765170    0.6936256  
   0.028998600     0.5808561    0.6087143  
   0.030998500     0.6707076    0.5100995  
   0.032998400     0.7113046    0.4001372  
   0.034998300     0.8007696    0.2793042  
   0.036998200     0.8373432    0.1517176  
   0.038998100     0.8535745    0.0195980  
   0.040998000     0.8485211   -0.1134715  
   0.042997900     0.8218928   -0.2442568  
   0.044997800     0.7546644   -0.3431843  
   0.046997700     0.7078856   -0.4844352  
   0.048997600     0.6237388   -0.5880590  
   0.050997500     0.5246132   -0.6768752  
   0.052997400     0.4147258   -0.7479187  
   0.054997300     0.2927270   -0.8029822  
   0.056997200     0.1656221   -0.8376874  
   0.058997100     0.0353909   -0.8529255  
   0.060997000    -0.0951346   -0.8480558  
   0.062996900    -0.2231542   -0.8235858  
   0.064996800    -0.3455870   -0.7802377  
   0.066996700    -0.4596489   -0.7186063  
   0.068996600    -0.5628412   -0.6402756  
   0.070996500    -0.6524720   -0.5470778  
   0.072996400    -0.7268537   -0.4417821  
   0.074996300    -0.7837855   -0.3260336  
   0.076996200    -0.8222492   -0.2030331  
   0.078996100    -0.8412271   -0.0756814  
   0.080996000    -0.8407442    0.0530574  
   0.082995900    -0.8203732    0.1802256  
   0.084995800    -0.7804523    0.3030872  
   0.086995700    -0.7223476    0.4182146  
   0.088995600    -0.6470610    0.5235767  
   0.090995500    -0.5560969    0.6158649  
   0.092995400    -0.4516169    0.6930019  
   0.094995300    -0.3359909    0.7534261  
   0.096995200    -0.2119893    0.7949853  
   0.098995100    -0.0826411    0.8162000  
   0.100995000     0.0486151    0.8167046  
   0.102994900     0.1785202    0.7960986  
   0.104994800     0.3038852    0.7547420  
   0.106994700     0.4209396    0.6936384  
   0.108994600     0.5269438    0.6148101  
   0.110994500     0.6188080    0.5194850  
   0.112994400     0.6939304    0.4107492  
   0.114994300     0.7506451    0.2912308  
   0.116994200     0.7875668    0.1643000  
   0.118994100     0.8030577    0.0334792  
   0.120994000     0.7973371   -0.0980312  
   0.122993900     0.7706411   -0.2267467  
   0.124993800     0.7240762   -0.3489749  
   0.126993700     0.6581726   -0.4618267  
   0.128993600     0.5758089   -0.5626222  
   0.130993500     0.4788281   -0.6483399  
   0.132993400     0.3699234   -0.7175085  
   0.134993300     0.2518865   -0.7680207  
   0.136993200     0.1280909   -0.7993160  
   0.138993100     0.0015436   -0.8109188  
   0.140993000    -0.1246848   -0.8027015  
   0.142992900    -0.2475661   -0.7751241  
   0.144992800    -0.3640248   -0.7292920  
   0.146992700    -0.4720274   -0.6663737  
   0.148992600    -0.5687281   -0.5878863  
   0.150992500    -0.6516586   -0.4960056  
   0.152992400    -0.7198277   -0.3930102  
   0.154992300    -0.7715003   -0.2810276  
   0.156992200    -0.8057637   -0.1627654  
   0.158992100    -0.8216209   -0.0408608  
   0.160992000    -0.8194249    0.0819773  
   0.162991900    -0.7985545    0.2029095  
   0.164991800    -0.7595010    0.3198296  
   0.166991700    -0.7036321    0.4292063  
   0.168991600    -0.6319666    0.5294337  
   0.170991500    -0.5452237    0.6179910  
   0.172991400    -0.4462996    0.6921995  
   0.174991300    -0.3369696    0.7509137  
   0.176991200    -0.2194729    0.7927767  
   0.178991100    -0.0961874    0.8161417  
   0.180991000     0.0293281    0.8202693  
   0.182990900     0.1542758    0.8054028  
   0.184990800     0.2769408    0.7707847  
   0.186990700     0.3928289    0.7174426  
   0.188990600     0.4796967    0.6606048  
   0.190990500     0.5905467    0.5619646  
   0.192990400     0.6726288    0.4582033  
   0.194990300     0.7354831    0.3451003  
   0.196990200     0.7797403    0.2233536  
   0.198990100     0.8040060    0.0960133  
   0.200990000     0.8073671   -0.0342337  
   0.202989900     0.7898010   -0.1640671  
   0.204989800     0.7518964   -0.2889764  
   0.206989700     0.6941471   -0.4059792  
   0.208989600     0.6182396   -0.5118914  
   0.210989500     0.5261368   -0.6046288  
   0.212989400     0.4200451   -0.6812960  
   0.214989300     0.3035096   -0.7393895  
   0.216989200     0.1794921   -0.7774789  
   0.218989100     0.0515253   -0.7952948  
   0.220989000    -0.0772797   -0.7923375  
   0.222988900    -0.2041136   -0.7685895  
   0.224988800    -0.3251660   -0.7244008  
   0.226988700    -0.4367400   -0.6621656  
   0.228988600    -0.5364515   -0.5832261  
   0.230988500    -0.6217852   -0.4896569  
   0.232988400    -0.6910231   -0.3841157  
   0.234988300    -0.7426748   -0.2687634  
   0.236988200    -0.7751936   -0.1470266  
   0.238988100    -0.7878339   -0.0221446  
   0.240988000    -0.7805829    0.1024658  
   0.242987900    -0.7541003    0.2236445  
   0.244987800    -0.7091634    0.3389003  
   0.246987700    -0.6463510    0.4459149  
   0.248987600    -0.5675780    0.5421833  
   0.250987500    -0.4743954    0.6247913  
   0.252987400    -0.3696724    0.6913685  
   0.254987300    -0.2563796    0.7407262  
   0.256987200    -0.1370645    0.7716767  
   0.258987100    -0.0143234    0.7836987  
   0.260987000     0.1094006    0.7764534  
   0.262986900     0.2311148    0.7498074  
   0.264986800     0.3473752    0.7042744  
   0.266986700     0.4554485    0.6409008  
   0.268986600     0.5520054    0.5610760  
   0.270986500     0.6348896    0.4677253  
   0.272986400     0.7019435    0.3618583  
   0.274986300     0.7518858    0.2470823  
   0.276986200     0.7830204    0.1250925  
   0.278986100     0.7950369   -0.0006093  
   0.280986000     0.7865140   -0.1273966  
   0.282985900     0.7582969   -0.2514643  
   0.284985800     0.7103668   -0.3697475  
   0.286985700     0.6444099   -0.4786750  
   0.288985600     0.5624752   -0.5754152  
   0.290985500     0.4664955   -0.6577237  
   0.292985400     0.3591399   -0.7238383  
   0.294985300     0.2425436   -0.7720971  
   0.296985200     0.1194875   -0.8018975  
   0.298985100    -0.0073951   -0.8116776  
   0.300985000    -0.1342647   -0.8014453  
   0.302984900    -0.2576121   -0.7711576  
   0.304984800    -0.3740331   -0.7219561  
   0.306984700    -0.4810759   -0.6554112  
   0.308984600    -0.5757285   -0.5738385  
   0.310984500    -0.6557682   -0.4791741  
   0.312984400    -0.7203124   -0.3733930  
   0.314984300    -0.7676336   -0.2594423  
   0.316984200    -0.7966149   -0.1396932  
   0.318984100    -0.8073338   -0.0160841  
   0.320984000    -0.7981536    0.1079213  
   0.322983900    -0.7702085    0.2294103  
   0.324983800    -0.7235302    0.3447247  
   0.326983700    -0.6596732    0.4510388  
   0.328983600    -0.5797722    0.5464591  
   0.330983500    -0.4866870    0.6279423  
   0.332983400    -0.3824121    0.6936874  
   0.334983300    -0.2693386    0.7423521  
   0.336983200    -0.1496108    0.7730837  
   0.338983100    -0.0268270    0.7847429  
   0.340983000     0.0967232    0.7769899  
   0.342982900     0.2179967    0.7501962  
   0.344982800     0.3339910    0.7041646  
   0.346982700     0.4424083    0.6399186  
   0.348982600     0.5395263    0.5587338  
   0.350982500     0.6226473    0.4628775  
   0.352982400     0.6891518    0.3544319  
   0.354982300     0.7392842    0.2313305  
   0.356982200     0.7697824    0.0877873  
   0.358982100     0.7731798   -0.0585212  
   0.360982000     0.7494124   -0.2028303  
   0.362981900     0.6994431   -0.3398786  
   0.364981800     0.6247660   -0.4660241  
   0.366981700     0.5278956   -0.5761321  
   0.368981600     0.4120659   -0.6661812  
   0.370981500     0.2817539   -0.7331061  
   0.372981400     0.1408292   -0.7747151  
   0.374981300    -0.0055583   -0.7891967  
   0.376981200     0.1084230   -0.7778217  
   0.378981100    -0.0377093   -0.7869071  
   0.380981000    -0.1828886   -0.7690957  
   0.382980900    -0.3095449   -0.7298406  
   0.384980800    -0.4228518   -0.6729864  
   0.386980700    -0.5253905   -0.5989496  
   0.388980600    -0.6141047   -0.5104915  
   0.390980500    -0.6873661   -0.4096353  
   0.392980400    -0.7440789   -0.2996713  
   0.394980300    -0.7821108   -0.1834707  
   0.396980200    -0.8024656   -0.0631097  
   0.398980100    -0.8037829    0.0583196  
   0.400980000    -0.7871161    0.1781581  
   0.402979900    -0.7524319    0.2940711  
   0.404979800    -0.7006685    0.4025581  
   0.406979700    -0.6334475    0.5024440  
   0.408979600    -0.5520827    0.5906961  
   0.410979500    -0.4579815    0.6666327  
   0.412979400    -0.3526374    0.7274926  
   0.414979300    -0.2387091    0.7719307  
   0.416979200    -0.1193506    0.7980968  
   0.418979100     0.0029392    0.8063984  
   0.420979000     0.1258358    0.7954515  
   0.422978900     0.2463292    0.7657531  
   0.424978800     0.3614520    0.7172486  
   0.426978700     0.4680283    0.6508001  
   0.428978600     0.5634900    0.5679785  
   0.430978500     0.6447713    0.4708742  
   0.432978400     0.7097710    0.3618048  
   0.434978300     0.7565737    0.2433390  
   0.436978200     0.7839472    0.1182942  
   0.438978100     0.7908681   -0.0101994  
   0.440978000     0.7768720   -0.1385225  
   0.442977900     0.7416570   -0.2634453  
   0.444977800     0.6865770   -0.3812407  
   0.446977700     0.6129664   -0.4884005  
   0.448977600     0.5221924   -0.5823356  
   0.450977500     0.4173757   -0.6602259  
   0.452977400     0.3006667   -0.7194398  
   0.454977300     0.1750199   -0.7587649  
   0.456977200     0.0442362   -0.7766694  
   0.458977100    -0.0877951   -0.7723321  
   0.460977000    -0.2164085   -0.7461128  
   0.462976900    -0.3385665   -0.6993165  
   0.464976800    -0.4504905   -0.6330661  
   0.466976700    -0.5497875   -0.5496366  
   0.468976600    -0.6335526   -0.4517867  
   0.470976500    -0.7001383   -0.3417714  
   0.472976400    -0.7472472   -0.2234847  
   0.474976300    -0.7746412   -0.0997508  
   0.476976200    -0.7818424    0.0262014  
   0.478976100    -0.7691699    0.1506051  
   0.480976000    -0.7368808    0.2701960  
   0.482975900    -0.6867635    0.3823562  
   0.484975800    -0.6204457    0.4851623  
   0.486975700    -0.5393955    0.5764365  
   0.488975600    -0.4451810    0.6536895  
   0.490975500    -0.3403148    0.7156854  
   0.492975400    -0.2270557    0.7611281  
   0.494975300    -0.1086804    0.7885025  
   0.496975200     0.0129699    0.7973736  
   0.498975100     0.1346918    0.7878299  
   0.500975000     0.2533662    0.7597632  
   0.502974900     0.3665578    0.7134984  
   0.504974800     0.4715561    0.6504115  
   0.506974700     0.5667642    0.5715731  
   0.508974600     0.6491081    0.4775742  
   0.510974500     0.7162407    0.3715365  
   0.512974400     0.7664292    0.2555061  
   0.514974300     0.7975736    0.1332017  
   0.516974200     0.8092014    0.0070843  
   0.518974100     0.8011489   -0.1194719  
   0.520974000     0.7730317   -0.2435065  
   0.522973900     0.7250871   -0.3622912  
   0.524973800     0.6591269   -0.4721470  
   0.526973700     0.5759289   -0.5705753  
   0.528973600     0.4781142   -0.6548828  
   0.530973500     0.3672647   -0.7229239  
   0.532973400     0.2470595   -0.7715498  
   0.534973300     0.1201380   -0.8010110  
   0.536973200    -0.0102712   -0.8093556  
   0.538973100    -0.1394016   -0.7968971  
   0.540973000    -0.2645788   -0.7635712  
   0.542972900    -0.3828974   -0.7110940  
   0.544972800    -0.4904766   -0.6404247  
   0.546972700    -0.5862843   -0.5528784  
   0.548972600    -0.6664301   -0.4514846  
   0.550972500    -0.7294503   -0.3385738  
   0.552972400    -0.7733176   -0.2169303  
   0.554972300    -0.7972718   -0.0900128  
   0.556972200    -0.8003963    0.0389426  
   0.558972100    -0.7826737    0.1664147  
   0.560972000    -0.7449867    0.2888757  
   0.562971900    -0.6884941    0.4034163  
   0.564971800    -0.6146652    0.5071245  
   0.566971700    -0.5255239    0.5973852  
   0.568971600    -0.4237224    0.6720185  
   0.570971500    -0.3113247    0.7298511  
   0.572971400    -0.1910538    0.7690284  
   0.574971300    -0.0656946    0.7884971  
   0.576971200     0.0613949    0.7876397  
   0.578971100     0.1876476    0.7667270  
   0.580971000     0.3086245    0.7255017  
   0.582970900     0.4214418    0.6652095  
   0.584970800     0.5228763    0.5877835  
   0.586970700     0.6106959    0.4954098  
   0.588970600     0.6825544    0.3897050  
   0.590970500     0.7362199    0.2740068  
   0.592970400     0.7710298    0.1506786  
   0.594970300     0.7854024    0.0234370  
   0.596970200     0.7794588   -0.1047734  
   0.598970100     0.7523967   -0.2302640  
   0.600970000     0.7056819   -0.3501439  
   0.602969900     0.6403088   -0.4609987  
   0.604969800     0.5573477   -0.5603828  
   0.606969700     0.4596529   -0.6452049  
   0.608969600     0.3492727   -0.7128128  
   0.610969500     0.2292104   -0.7622051  
   0.612969400     0.1032986   -0.7912083  
   0.614969300    -0.0250240   -0.7996370  
   0.616969200    -0.1527221   -0.7877699  
   0.618969100    -0.2754092   -0.7557855  
   0.620969000    -0.3911704   -0.7054644  
   0.622968900    -0.4977280   -0.6377232  
   0.624968800    -0.5922883   -0.5545257  
   0.626968700    -0.6725163   -0.4580554  
   0.628968600    -0.7367830   -0.3502304  
   0.630968500    -0.7835911   -0.2338348  
   0.632968400    -0.8123919   -0.1122660  
   0.634968300    -0.8215886    0.0119590  
   0.636968200    -0.8121254    0.1362448  
   0.638968100    -0.7836085    0.2573291  
   0.640968000    -0.7372635    0.3725004  
   0.642967900    -0.6739541    0.4785905  
   0.644967800    -0.5952120    0.5743614  
   0.646967700    -0.5030179    0.6567996  
   0.648967600    -0.3994667    0.7247121  
   0.650967500    -0.2876325    0.7753769  
   0.652967400    -0.1692392    0.8089204  
   0.654967300    -0.0473257    0.8241130  
   0.656967200     0.0757357    0.8210195  
   0.658967100     0.1970128    0.7990700  
   0.660967000     0.3142690    0.7587624  
   0.662966900     0.4246255    0.7004409  
   0.664966800     0.5256007    0.6252378  
   0.666966700     0.6147629    0.5344994  
   0.668966600     0.6887514    0.4302298  
   0.670966500     0.7459504    0.3153702  
   0.672966400     0.7839010    0.1930827  
   0.674966300     0.8024781    0.0652183  
   0.676966200     0.8002532   -0.0637817  
   0.678966100     0.7773813   -0.1908361  
   0.680966000     0.7340126   -0.3127940  
   0.682965900     0.6721339   -0.4263002  
   0.684965800     0.5926765   -0.5285836  
   0.686965700     0.4973161   -0.6169066  
   0.688965600     0.3889828   -0.6888402  
   0.690965500     0.2704464   -0.7420428  
   0.692965400     0.1451485   -0.7753780  
   0.694965300     0.0165684   -0.7881239  
   0.696965200    -0.1121665   -0.7796035  
   0.698965100    -0.2375335   -0.7507485  
   0.700965000    -0.3564114   -0.7021734  
   0.702964900    -0.4657767   -0.6351262  
   0.704964800    -0.5622079   -0.5520758  
   0.706964700    -0.6441294   -0.4545947  
   0.708964600    -0.7091393   -0.3457848  
   0.710964500    -0.7561104   -0.2280206  
   0.712964400    -0.7831686   -0.1052062  
   0.714964300    -0.7908140    0.0200245  
   0.716964200    -0.7786057    0.1439068  
   0.718964100    -0.7479269    0.2636084  
   0.720964000    -0.6991808    0.3765209  
   0.722963900    -0.6340340    0.4798320  
   0.724963800    -0.5546690    0.5714987  
   0.726963700    -0.4619594    0.6500841  
   0.728963600    -0.3586184    0.7136210  
   0.730963500    -0.2470911    0.7603853  
   0.732963400    -0.1298595    0.7903321  
   0.734963300    -0.0090978    0.8017827  
   0.736963200     0.1317159    0.7921158  
   0.738963100     0.2700600    0.7572735  
   0.740963000     0.4012821    0.6991088  
   0.742962900     0.5203534    0.6180397  
   0.744962800     0.6241492    0.5170024  
   0.746962700     0.7085268    0.3985032  
   0.748962600     0.7708077    0.2665120  
   0.750962500     0.7037846    0.3883068  
   0.752962400     0.7641215    0.2545790  
   0.754962300     0.7995647    0.1122495  
   0.756962200     0.8087713   -0.0347058  
   0.758962100     0.7911440   -0.1811864  
   0.760962000     0.7468729   -0.3224026  
   0.762961900     0.6813318   -0.4475321  
   0.764961800     0.6027278   -0.5500389  
   0.766961700     0.5085896   -0.6385822  
   0.768961600     0.4011318   -0.7115906  
   0.770961500     0.2832982   -0.7663611  
   0.772961400     0.1586190   -0.8010559  
   0.774961300     0.0303356   -0.8162076  
   0.776961200    -0.0993672   -0.8103149  
   0.778961100    -0.2257416   -0.7835839  
   0.780961000    -0.3465271   -0.7372584  
   0.782960900    -0.4579272   -0.6720842  
   0.784960800    -0.5575463   -0.5900116  
   0.786960700    -0.6424989   -0.4931690  
   0.788960600    -0.7104773   -0.3844275  
   0.790960500    -0.7601302   -0.2668267  
   0.792960400    -0.7904053   -0.1435435  
   0.794960300    -0.8003792   -0.0177201  
   0.796960200    -0.7910011    0.1072260  
   0.798960100    -0.7622228    0.2283296  
   0.800960000    -0.7151484    0.3427564  
   0.802959900    -0.6513059    0.4478473  
   0.804959800    -0.5726914    0.5413314  
   0.806959700    -0.4806615    0.6214401  
   0.808959600    -0.3779569    0.6858994  
   0.810959500    -0.2670833    0.7340412  
   0.812959400    -0.1501845    0.7643583  
   0.814959300    -0.0301088    0.7766234  
   0.816959200     0.0901540    0.7701928  
   0.818959100     0.2081941    0.7451078  
   0.820959000     0.3218063    0.7027551  
   0.822958900     0.4271691    0.6431541  
   0.824958800     0.5228468    0.5677252  
   0.826958700     0.6059218    0.4780123  
   0.828958600     0.6741970    0.3761999  
   0.830958500     0.7261580    0.2644280  
   0.832958400     0.7600485    0.1459957  
   0.834958300     0.7748594    0.0227231  
   0.836958200     0.7704116   -0.1013323  
   0.838958100     0.7461667   -0.2236047  
   0.840958000     0.7025834   -0.3410089  
   0.842957900     0.6406490   -0.4505073  
   0.844957800     0.5619380   -0.5489441  
   0.846957700     0.4682845   -0.6337075  
   0.848957600     0.3619183   -0.7028522  
   0.850957500     0.2457864   -0.7541022  
   0.852957400     0.1229149   -0.7858046  
   0.854957300    -0.0034618   -0.7977560  
   0.856957200    -0.1296665   -0.7890395  
   0.858957100    -0.2524400   -0.7607714  
   0.860957000    -0.3687132   -0.7134666  
   0.862956900    -0.4755520   -0.6491920  
   0.864956800    -0.5703686   -0.5697179  
   0.866956700    -0.6511890   -0.4774390  
   0.868956600    -0.7165720   -0.3741701  
   0.870956500    -0.7651013   -0.2628044  
   0.872956400    -0.7960684   -0.1456025  
   0.874956300    -0.8087353   -0.0253494  
   0.876956200    -0.8030659    0.0955222  
   0.878956100    -0.7793155    0.2136975  
   0.880956000    -0.7380286    0.3270772  
   0.882955900    -0.6799175    0.4322517  
   0.884955800    -0.6069436    0.5281513  
   0.886955700    -0.5200713    0.6117488  
   0.888955600    -0.4214902    0.6813470  
   0.890955500    -0.3134046    0.7353063  
   0.892955400    -0.1983129    0.7722012  
   0.894955300    -0.0789011    0.7912549  
