! MS46122B
! 2250307/22442219
! 6/16/2025 7:49:28 AM
! C:\USERS\SPARKY\DOCUMENTS\VNA_DATA\JUNE16_2025\3.1K\PORT2_MOS5.S1P
! CHANNEL.1
! TR.MEASUREMENT
! RAW.DATA
# GHZ S RI R 50.0
! FREQ.GHZ         S11RE         S11IM         
!; PortSelection: Port_1
   0.001000000    -0.8986166    0.0520105  
   0.002999900    -0.8718913    0.2525011  
   0.004999800    -0.8347793    0.3967198  
   0.006999700    -0.7707702    0.5254043  
   0.008999600    -0.6830314    0.6374688  
   0.010999500    -0.5758304    0.7301810  
   0.012999400    -0.4534865    0.8024026  
   0.014999300    -0.3198631    0.8522239  
   0.016999200    -0.1802357    0.8800607  
   0.018999100    -0.0379344    0.8862779  
   0.020999000     0.1029872    0.8712462  
   0.022998900     0.2393644    0.8360806  
   0.024998800     0.3404243    0.7637857  
   0.026998700     0.4874316    0.7113103  
   0.028998600     0.5943337    0.6244178  
   0.030998500     0.6863311    0.5233966  
   0.032998400     0.7280786    0.4110188  
   0.034998300     0.8197253    0.2872281  
   0.036998200     0.8574626    0.1567231  
   0.038998100     0.8739893    0.0213962  
   0.040998000     0.8691050   -0.1148322  
   0.042997900     0.8419258   -0.2488203  
   0.044997800     0.7729513   -0.3502680  
   0.046997700     0.7254271   -0.4952023  
   0.048997600     0.6394634   -0.6012220  
   0.050997500     0.5379436   -0.6922338  
   0.052997400     0.4256682   -0.7651543  
   0.054997300     0.3006909   -0.8215308  
   0.056997200     0.1705902   -0.8572305  
   0.058997100     0.0373242   -0.8729947  
   0.060997000    -0.0962456   -0.8680868  
   0.062996900    -0.2272607   -0.8432807  
   0.064996800    -0.3526847   -0.7989236  
   0.066996700    -0.4694989   -0.7359716  
   0.068996600    -0.5752223   -0.6558837  
   0.070996500    -0.6672873   -0.5608091  
   0.072996400    -0.7433157   -0.4528516  
   0.074996300    -0.8018181   -0.3346579  
   0.076996200    -0.8413292   -0.2086980  
   0.078996100    -0.8610994   -0.0784841  
   0.080996000    -0.8606099    0.0534068  
   0.082995900    -0.8399335    0.1836652  
   0.084995800    -0.7994710    0.3095901  
   0.086995700    -0.7400981    0.4275184  
   0.088995600    -0.6630695    0.5355428  
   0.090995500    -0.5702045    0.6301687  
   0.092995400    -0.4634117    0.7095315  
   0.094995300    -0.3450808    0.7716714  
   0.096995200    -0.2178813    0.8145085  
   0.098995100    -0.0857539    0.8363678  
   0.100995000     0.0490643    0.8373941  
   0.102994900     0.1820825    0.8160225  
   0.104994800     0.3104985    0.7741469  
   0.106994700     0.4307592    0.7117153  
   0.108994600     0.5394328    0.6308942  
   0.110994500     0.6336733    0.5335149  
   0.112994400     0.7109371    0.4220495  
   0.114994300     0.7692498    0.2996886  
   0.116994200     0.8070827    0.1696413  
   0.118994100     0.8232239    0.0355187  
   0.120994000     0.8175008   -0.0992172  
   0.122993900     0.7903005   -0.2311092  
   0.124993800     0.7424736   -0.3563228  
   0.126993700     0.6753759   -0.4719961  
   0.128993600     0.5911494   -0.5753140  
   0.130993500     0.4918119   -0.6629591  
   0.132993400     0.3801595   -0.7339455  
   0.134993300     0.2594483   -0.7858199  
   0.136993200     0.1328530   -0.8179961  
   0.138993100     0.0033273   -0.8298665  
   0.140993000    -0.1258391   -0.8216409  
   0.142992900    -0.2516264   -0.7935951  
   0.144992800    -0.3707645   -0.7468542  
   0.146992700    -0.4812575   -0.6825021  
   0.148992600    -0.5802482   -0.6024740  
   0.150992500    -0.6652533   -0.5087908  
   0.152992400    -0.7350751   -0.4033493  
   0.154992300    -0.7881206   -0.2891175  
   0.156992200    -0.8232455   -0.1681679  
   0.158992100    -0.8397334   -0.0434853  
   0.160992000    -0.8375089    0.0819726  
   0.162991900    -0.8164689    0.2056755  
   0.164991800    -0.7769319    0.3252266  
   0.166991700    -0.7201303    0.4371003  
   0.168991600    -0.6469377    0.5396593  
   0.170991500    -0.5585219    0.6304037  
   0.172991400    -0.4577872    0.7067727  
   0.174991300    -0.3463990    0.7670125  
   0.176991200    -0.2260404    0.8098844  
   0.178991100    -0.0999793    0.8341612  
   0.180991000     0.0283024    0.8388759  
   0.182990900     0.1562217    0.8240373  
   0.184990800     0.2814208    0.7887818  
   0.186990700     0.4003358    0.7349065  
   0.188990600     0.4896140    0.6769313  
   0.190990500     0.6029649    0.5761529  
   0.192990400     0.6873339    0.4703135  
   0.194990300     0.7521024    0.3547495  
   0.196990200     0.7977129    0.2302330  
   0.198990100     0.8227705    0.0999787  
   0.200990000     0.8266008   -0.0333328  
   0.202989900     0.8095191   -0.1660960  
   0.204989800     0.7704158   -0.2942411  
   0.206989700     0.7117770   -0.4141015  
   0.208989600     0.6344262   -0.5228834  
   0.210989500     0.5402222   -0.6180956  
   0.212989400     0.4317584   -0.6966593  
   0.214989300     0.3124901   -0.7565910  
   0.216989200     0.1856388   -0.7959826  
   0.218989100     0.0545709   -0.8144540  
   0.220989000    -0.0774077   -0.8113376  
   0.222988900    -0.2073284   -0.7872797  
   0.224988800    -0.3312919   -0.7423692  
   0.226988700    -0.4455448   -0.6786672  
   0.228988600    -0.5477716   -0.5980548  
   0.230988500    -0.6353089   -0.5024187  
   0.232988400    -0.7063873   -0.3945357  
   0.234988300    -0.7592569   -0.2765933  
   0.236988200    -0.7926657   -0.1520306  
   0.238988100    -0.8059068   -0.0242371  
   0.240988000    -0.7987651    0.1030946  
   0.242987900    -0.7717772    0.2270936  
   0.244987800    -0.7258373    0.3451155  
   0.246987700    -0.6619827    0.4547943  
   0.248987600    -0.5813469    0.5531229  
   0.250987500    -0.4862292    0.6377327  
   0.252987400    -0.3793131    0.7059694  
   0.254987300    -0.2636154    0.7567722  
   0.256987200    -0.1417646    0.7884886  
   0.258987100    -0.0162385    0.8009395  
   0.260987000     0.1103120    0.7936975  
   0.262986900     0.2345507    0.7668591  
   0.264986800     0.3536299    0.7204437  
   0.266986700     0.4639344    0.6557813  
   0.268986600     0.5628114    0.5745173  
   0.270986500     0.6475759    0.4792595  
   0.272986400     0.7162061    0.3711653  
   0.274986300     0.7674953    0.2540003  
   0.276986200     0.7995968    0.1295844  
   0.278986100     0.8119645    0.0011041  
   0.280986000     0.8036544   -0.1282823  
   0.282985900     0.7749702   -0.2550168  
   0.284985800     0.7263232   -0.3758796  
   0.286985700     0.6589338   -0.4872269  
   0.288985600     0.5754152   -0.5861529  
   0.290985500     0.4776648   -0.6703948  
   0.292985400     0.3679724   -0.7379525  
   0.294985300     0.2490690   -0.7874441  
   0.296985200     0.1235406   -0.8181277  
   0.298985100    -0.0059210   -0.8282499  
   0.300985000    -0.1354048   -0.8177394  
   0.302984900    -0.2611852   -0.7870187  
   0.304984800    -0.3802257   -0.7369419  
   0.306984700    -0.4895970   -0.6692963  
   0.308984600    -0.5861272   -0.5859333  
   0.310984500    -0.6679456   -0.4894042  
   0.312984400    -0.7338741   -0.3816370  
   0.314984300    -0.7822107   -0.2654267  
   0.316984200    -0.8117911   -0.1433866  
   0.318984100    -0.8230259   -0.0176508  
   0.320984000    -0.8137606    0.1091294  
   0.322983900    -0.7852060    0.2330143  
   0.324983800    -0.7377785    0.3507576  
   0.326983700    -0.6727184    0.4590474  
   0.328983600    -0.5913826    0.5565557  
   0.330983500    -0.4964264    0.6396118  
   0.332983400    -0.3902593    0.7066463  
   0.334983300    -0.2749775    0.7565377  
   0.336983200    -0.1529476    0.7879784  
   0.338983100    -0.0276234    0.7999105  
   0.340983000     0.0982383    0.7921992  
   0.342982900     0.2218891    0.7648891  
   0.344982800     0.3400432    0.7179859  
   0.346982700     0.4506100    0.6525484  
   0.348982600     0.5498286    0.5699806  
   0.350982500     0.6346070    0.4721794  
   0.352982400     0.7022896    0.3616585  
   0.354982300     0.7533826    0.2362216  
   0.356982200     0.7846469    0.0900555  
   0.358982100     0.7880994   -0.0592568  
   0.360982000     0.7638137   -0.2062085  
   0.362981900     0.7128596   -0.3458435  
   0.364981800     0.6368890   -0.4745362  
   0.366981700     0.5381045   -0.5867025  
   0.368981600     0.4201765   -0.6784142  
   0.370981500     0.2872131   -0.7464956  
   0.372981400     0.1436220   -0.7889652  
   0.374981300    -0.0054565   -0.8034836  
   0.376981200     0.1105047   -0.7916302  
   0.378981100    -0.0381936   -0.8008394  
   0.380981000    -0.1860759   -0.7827872  
   0.382980900    -0.3149963   -0.7425197  
   0.384980800    -0.4301985   -0.6844484  
   0.386980700    -0.5343027   -0.6090737  
   0.388980600    -0.6245397   -0.5187804  
   0.390980500    -0.6991660   -0.4160640  
   0.392980400    -0.7563877   -0.3042771  
   0.394980300    -0.7949710   -0.1859228  
   0.396980200    -0.8153602   -0.0635192  
   0.398980100    -0.8165199    0.0598661  
   0.400980000    -0.7993750    0.1816432  
   0.402979900    -0.7638995    0.2994774  
   0.404979800    -0.7111709    0.4096328  
   0.406979700    -0.6426435    0.5110114  
   0.408979600    -0.5599037    0.6006679  
   0.410979500    -0.4640734    0.6775473  
   0.412979400    -0.3570431    0.7391424  
   0.414979300    -0.2412106    0.7840625  
   0.416979200    -0.1198635    0.8107377  
   0.418979100     0.0044414    0.8186684  
   0.420979000     0.1292398    0.8074161  
   0.422978900     0.2516151    0.7771714  
   0.424978800     0.3685315    0.7275740  
   0.426978700     0.4767780    0.6598691  
   0.428978600     0.5734891    0.5754684  
   0.430978500     0.6559125    0.4767038  
   0.432978400     0.7216883    0.3656587  
   0.434978300     0.7689898    0.2451171  
   0.436978200     0.7964918    0.1180026  
   0.438978100     0.8032839   -0.0125608  
   0.440978000     0.7886387   -0.1429461  
   0.442977900     0.7525549   -0.2698294  
   0.444977800     0.6961493   -0.3893878  
   0.446977700     0.6210915   -0.4981239  
   0.448977600     0.5283706   -0.5929486  
   0.450977500     0.4215706   -0.6719491  
   0.452977400     0.3028784   -0.7318200  
   0.454977300     0.1749973   -0.7711365  
   0.456977200     0.0421024   -0.7887329  
   0.458977100    -0.0919882   -0.7837632  
   0.460977000    -0.2224237   -0.7566809  
   0.462976900    -0.3462438   -0.7085348  
   0.464976800    -0.4595735   -0.6406968  
   0.466976700    -0.5599673   -0.5555848  
   0.468976600    -0.6444614   -0.4558748  
   0.470976500    -0.7113371   -0.3440555  
   0.472976400    -0.7585768   -0.2236910  
   0.474976300    -0.7858551   -0.0978383  
   0.476976200    -0.7923799    0.0296866  
   0.478976100    -0.7788564    0.1559735  
   0.480976000    -0.7454994    0.2768054  
   0.482975900    -0.6942927    0.3904021  
   0.484975800    -0.6265439    0.4940399  
   0.486975700    -0.5436713    0.5860224  
   0.488975600    -0.4479811    0.6638107  
   0.490975500    -0.3413407    0.7261912  
   0.492975400    -0.2266036    0.7714455  
   0.494975300    -0.1064247    0.7985252  
   0.496975200     0.0169601    0.8072257  
   0.498975100     0.1399182    0.7965227  
   0.500975000     0.2598800    0.7674844  
   0.502974900     0.3742395    0.7200330  
   0.504974800     0.4803213    0.6557857  
   0.506974700     0.5761560    0.5751313  
   0.508974600     0.6592124    0.4796833  
   0.510974500     0.7262619    0.3720033  
   0.512974400     0.7764139    0.2542105  
   0.514974300     0.8072262    0.1302848  
   0.516974200     0.8181623    0.0026041  
   0.518974100     0.8093350   -0.1254690  
   0.520974000     0.7800344   -0.2508516  
   0.522973900     0.7307005   -0.3707741  
   0.524973800     0.6632873   -0.4813930  
   0.526973700     0.5786139   -0.5805030  
   0.528973600     0.4789456   -0.6651825  
   0.530973500     0.3663020   -0.7331073  
   0.532973400     0.2441845   -0.7814871  
   0.534973300     0.1157794   -0.8103187  
   0.536973200    -0.0162118   -0.8177699  
   0.538973100    -0.1465436   -0.8042212  
   0.540973000    -0.2730124   -0.7695664  
   0.542972900    -0.3922304   -0.7154269  
   0.544972800    -0.5005000   -0.6430073  
   0.546972700    -0.5965542   -0.5538170  
   0.548972600    -0.6766791   -0.4506929  
   0.550972500    -0.7394296   -0.3358891  
   0.552972400    -0.7826101   -0.2126749  
   0.554972300    -0.8057051   -0.0842396  
   0.556972200    -0.8077311    0.0460750  
   0.558972100    -0.7886984    0.1746581  
   0.560972000    -0.7494399    0.2979937  
   0.562971900    -0.6913606    0.4132326  
   0.564971800    -0.6157798    0.5172817  
   0.566971700    -0.5250896    0.6075078  
   0.568971600    -0.4214053    0.6819199  
   0.570971500    -0.3074642    0.7392018  
   0.572971400    -0.1856600    0.7775541  
   0.574971300    -0.0590229    0.7959450  
   0.576971200     0.0694894    0.7938780  
   0.578971100     0.1965216    0.7715072  
   0.580971000     0.3182789    0.7286252  
   0.582970900     0.4313957    0.6666977  
   0.584970800     0.5329409    0.5875676  
   0.586970700     0.6206642    0.4935285  
   0.588970600     0.6921047    0.3859994  
   0.590970500     0.7450733    0.2686434  
   0.592970400     0.7788208    0.1440087  
   0.594970300     0.7919146    0.0155831  
   0.596970200     0.7844890   -0.1133618  
   0.598970100     0.7559395   -0.2400181  
   0.600970000     0.7075963   -0.3604813  
   0.602969900     0.6403095   -0.4713532  
   0.604969800     0.5557333   -0.5704908  
   0.606969700     0.4564569   -0.6548764  
   0.608969600     0.3442715   -0.7219140  
   0.610969500     0.2229879   -0.7701572  
   0.612969400     0.0958548   -0.7981092  
   0.614969300    -0.0336607   -0.8052168  
   0.616969200    -0.1619665   -0.7918329  
   0.618969100    -0.2852452   -0.7581174  
   0.620969000    -0.4013229   -0.7060792  
   0.622968900    -0.5078471   -0.6369284  
   0.624968800    -0.6019435   -0.5520903  
   0.626968700    -0.6816180   -0.4540635  
   0.628968600    -0.7450668   -0.3448212  
   0.630968500    -0.7909145   -0.2272008  
   0.632968400    -0.8185523   -0.1046316  
   0.634968300    -0.8264689    0.0206500  
   0.636968200    -0.8155676    0.1455146  
   0.638968100    -0.7854493    0.2669448  
   0.640968000    -0.7374988    0.3822677  
   0.642967900    -0.6725127    0.4884553  
   0.644967800    -0.5923200    0.5838060  
   0.646967700    -0.4986971    0.6656063  
   0.648967600    -0.3937409    0.7327780  
   0.650967500    -0.2807126    0.7823991  
   0.652967400    -0.1613200    0.8147565  
   0.654967300    -0.0383619    0.8286995  
   0.656967200     0.0853090    0.8240877  
   0.658967100     0.2070218    0.8005873  
   0.660967000     0.3245511    0.7586605  
   0.662966900     0.4346679    0.6988870  
   0.664966800     0.5355260    0.6220174  
   0.666966700     0.6239883    0.5295287  
   0.668966600     0.6970537    0.4238410  
   0.670966500     0.7531689    0.3074246  
   0.672966400     0.7897281    0.1841082  
   0.674966300     0.8068607    0.0552405  
   0.676966200     0.8028750   -0.0743899  
   0.678966100     0.7781746   -0.2014822  
   0.680966000     0.7331176   -0.3238288  
   0.682965900     0.6693831   -0.4371732  
   0.684965800     0.5881141   -0.5390251  
   0.686965700     0.4909487   -0.6266128  
   0.688965600     0.3812109   -0.6973711  
   0.690965500     0.2613710   -0.7491354  
   0.692965400     0.1348671   -0.7809567  
   0.694965300     0.0054694   -0.7918125  
   0.696965200    -0.1237522   -0.7814198  
   0.698965100    -0.2493483   -0.7505765  
   0.700965000    -0.3680028   -0.7000719  
   0.702964900    -0.4768338   -0.6311145  
   0.704964800    -0.5725599   -0.5462569  
   0.706964700    -0.6533539   -0.4472714  
   0.708964600    -0.7169188   -0.3370828  
   0.710964500    -0.7623408   -0.2182309  
   0.712964400    -0.7876861   -0.0945602  
   0.714964300    -0.7936180    0.0312846  
   0.716964200    -0.7795914    0.1552583  
   0.718964100    -0.7471019    0.2750430  
   0.720964000    -0.6965231    0.3876994  
   0.722963900    -0.6297159    0.4904937  
   0.724963800    -0.5487134    0.5813451  
   0.726963700    -0.4546341    0.6589469  
   0.728963600    -0.3500441    0.7211891  
   0.730963500    -0.2373624    0.7665474  
   0.732963400    -0.1192348    0.7950488  
   0.734963300     0.0021573    0.8048015  
   0.736963200     0.1435257    0.7931035  
   0.738963100     0.2817916    0.7561356  
   0.740963000     0.4127430    0.6958658  
   0.742962900     0.5310019    0.6127372  
   0.744962800     0.6337733    0.5098479  
   0.746962700     0.7167806    0.3896796  
   0.748962600     0.7773732    0.2562233  
   0.750962500     0.7120698    0.3792988  
   0.752962400     0.7705706    0.2439127  
   0.754962300     0.8040423    0.1004680  
   0.756962200     0.8108844   -0.0471041  
   0.758962100     0.7909673   -0.1938848  
   0.760962000     0.7442915   -0.3349346  
   0.762961900     0.6765643   -0.4594125  
   0.764961800     0.5958527   -0.5612093  
   0.766961700     0.5001676   -0.6484532  
   0.768961600     0.3911266   -0.7198712  
   0.770961500     0.2721591   -0.7729929  
   0.772961400     0.1464020   -0.8059551  
   0.774961300     0.0174643   -0.8189684  
   0.776961200    -0.1124273   -0.8109893  
   0.778961100    -0.2387907   -0.7821108  
   0.780961000    -0.3591504   -0.7336426  
   0.782960900    -0.4697745   -0.6664501  
   0.784960800    -0.5682785   -0.5824776  
   0.786960700    -0.6517777   -0.4839800  
   0.788960600    -0.7182230   -0.3739335  
   0.790960500    -0.7660757   -0.2552006  
   0.792960400    -0.7942751   -0.1312049  
   0.794960300    -0.8021987   -0.0048386  
   0.796960200    -0.7908822    0.1200634  
   0.798960100    -0.7599190    0.2411044  
   0.800960000    -0.7109443    0.3549466  
   0.802959900    -0.6453033    0.4593146  
   0.804959800    -0.5648180    0.5517356  
   0.806959700    -0.4713258    0.6304722  
   0.808959600    -0.3673923    0.6933327  
   0.810959500    -0.2554722    0.7398890  
   0.812959400    -0.1378382    0.7682980  
   0.814959300    -0.0172731    0.7786877  
   0.816959200     0.1034473    0.7703077  
   0.818959100     0.2211744    0.7432464  
   0.820959000     0.3344934    0.6989006  
   0.822958900     0.4391619    0.6373985  
   0.824958800     0.5339515    0.5601878  
   0.826958700     0.6157173    0.4687356  
   0.828958600     0.6826078    0.3653630  
   0.830958500     0.7326480    0.2524222  
   0.832958400     0.7647148    0.1327959  
   0.834958300     0.7773859    0.0089838  
   0.836958200     0.7706776   -0.1153486  
   0.838958100     0.7441904   -0.2375021  
   0.840958000     0.6983542   -0.3544002  
   0.842957900     0.6343272   -0.4631254  
   0.844957800     0.5536625   -0.5603889  
   0.846957700     0.4582796   -0.6438439  
   0.848957600     0.3503729   -0.7109946  
   0.850957500     0.2332521   -0.7602763  
   0.852957400     0.1097520   -0.7899012  
   0.854957300    -0.0170749   -0.7997265  
   0.856957200    -0.1433447   -0.7889305  
   0.858957100    -0.2661666   -0.7584043  
   0.860957000    -0.3818655   -0.7091969  
   0.862956900    -0.4877423   -0.6429095  
   0.864956800    -0.5814368   -0.5615298  
   0.866956700    -0.6609274   -0.4675034  
   0.868956600    -0.7244893   -0.3632017  
   0.870956500    -0.7712461   -0.2505551  
   0.872956400    -0.8003724   -0.1324693  
   0.874956300    -0.8108775   -0.0119247  
   0.876956200    -0.8031917    0.1091015  
   0.878956100    -0.7774287    0.2272754  
   0.880956000    -0.7340637    0.3398925  
   0.882955900    -0.6741208    0.4444201  
   0.884955800    -0.5992848    0.5393640  
   0.886955700    -0.5108252    0.6216353  
   0.888955600    -0.4109003    0.6896820  
   0.890955500    -0.3015988    0.7419708  
   0.892955400    -0.1856668    0.7769381  
   0.894955300    -0.0656190    0.7940307  
