! MS46122B
! 2250307/22442219
! 6/20/2025 7:48:56 AM
! C:\USERS\SPARKY\DOCUMENTS\VNA_DATA\JUNE20_2025\3.0K\PORT1_MOS2.S1P
! CHANNEL.1
! TR.MEASUREMENT
! RAW.DATA
# GHZ S RI R 50.0
! FREQ.GHZ         S11RE         S11IM         
!; PortSelection: Port_1
   0.001000000    -0.8651782    0.0500522  
   0.002999900    -0.8404415    0.2438461  
   0.004999800    -0.8050038    0.3809155  
   0.006999700    -0.7452330    0.5033017  
   0.008999600    -0.6628004    0.6097163  
   0.010999500    -0.5619033    0.6985489  
   0.012999400    -0.4465941    0.7677323  
   0.014999300    -0.3206758    0.8168137  
   0.016999200    -0.1885390    0.8451962  
   0.018999100    -0.0535712    0.8530653  
   0.020999000     0.0807411    0.8415199  
   0.022998900     0.2112828    0.8110326  
   0.024998800     0.3086026    0.7439148  
   0.026998700     0.4501254    0.6977613  
   0.028998600     0.5542274    0.6181433  
   0.030998500     0.6448485    0.5247780  
   0.032998400     0.6872327    0.4189923  
   0.034998300     0.7791367    0.3042515  
   0.036998200     0.8195199    0.1815210  
   0.038998100     0.8404754    0.0536163  
   0.040998000     0.8409131   -0.0755980  
   0.042997900     0.8209724   -0.2042072  
   0.044997800     0.7591944   -0.3032757  
   0.046997700     0.7208599   -0.4431792  
   0.048997600     0.6441926   -0.5482661  
   0.050997500     0.5523258   -0.6396765  
   0.052997400     0.4484559   -0.7151183  
   0.054997300     0.3337998   -0.7744938  
   0.056997200     0.2117479   -0.8158082  
   0.058997100     0.0860376   -0.8381037  
   0.060997000    -0.0413246   -0.8412395  
   0.062996900    -0.1670015   -0.8253512  
   0.064996800    -0.2889867   -0.7913216  
   0.066996700    -0.4040655   -0.7390507  
   0.068996600    -0.5097231   -0.6699659  
   0.070996500    -0.6032683   -0.5860758  
   0.072996400    -0.6832862   -0.4890445  
   0.074996300    -0.7471676   -0.3811049  
   0.076996200    -0.7937359   -0.2647421  
   0.078996100    -0.8225197   -0.1429340  
   0.080996000    -0.8323153   -0.0180261  
   0.082995900    -0.8233840    0.1070370  
   0.084995800    -0.7951823    0.2291010  
   0.086995700    -0.7494083    0.3458783  
   0.088995600    -0.6858347    0.4544623  
   0.090995500    -0.6066247    0.5521082  
   0.092995400    -0.5130908    0.6368515  
   0.094995300    -0.4074962    0.7063951  
   0.096995200    -0.2919161    0.7589059  
   0.098995100    -0.1692272    0.7929169  
   0.100995000    -0.0428232    0.8075506  
   0.102994900     0.0845446    0.8016774  
   0.104994800     0.2098817    0.7758698  
   0.106994700     0.3296513    0.7303012  
   0.108994600     0.4409381    0.6667484  
   0.110994500     0.5409018    0.5860547  
   0.112994400     0.6266128    0.4902622  
   0.114994300     0.6961684    0.3823689  
   0.116994200     0.7475740    0.2646717  
   0.118994100     0.7796334    0.1403414  
   0.120994000     0.7912229    0.0126874  
   0.122993900     0.7827601   -0.1148422  
   0.124993800     0.7541493   -0.2390843  
   0.126993700     0.7059989   -0.3566950  
   0.128993600     0.6406507   -0.4655221  
   0.130993500     0.5589650   -0.5619987  
   0.132993400     0.4636889   -0.6436694  
   0.134993300     0.3570744   -0.7094758  
   0.136993200     0.2422369   -0.7576904  
   0.138993100     0.1216053   -0.7874317  
   0.140993000    -0.0009942   -0.7978665  
   0.142992900    -0.1237790   -0.7896017  
   0.144992800    -0.2430906   -0.7630265  
   0.146992700    -0.3562239   -0.7186464  
   0.148992600    -0.4611968   -0.6578589  
   0.150992500    -0.5554369   -0.5823579  
   0.152992400    -0.6370429   -0.4937010  
   0.154992300    -0.7039528   -0.3943890  
   0.156992200    -0.7552893   -0.2862931  
   0.158992100    -0.7903771   -0.1721575  
   0.160992000    -0.8078509   -0.0540724  
   0.162991900    -0.8076830    0.0648331  
   0.164991800    -0.7897651    0.1828083  
   0.166991700    -0.7549937    0.2966262  
   0.168991600    -0.7034773    0.4039178  
   0.170991500    -0.6363856    0.5030957  
   0.172991400    -0.5555103    0.5908236  
   0.174991300    -0.4622803    0.6659304  
   0.176991200    -0.3582357    0.7264252  
   0.178991100    -0.2461332    0.7710182  
   0.180991000    -0.1283824    0.7985216  
   0.182990900    -0.0074593    0.8077980  
   0.184990800     0.1141259    0.7986945  
   0.186990700     0.2339958    0.7712712  
   0.188990600     0.3265313    0.7356318  
   0.190990500     0.4506574    0.6649894  
   0.192990400     0.5491282    0.5842510  
   0.194990300     0.6318554    0.4914145  
   0.196990200     0.6991798    0.3870668  
   0.198990100     0.7492543    0.2729255  
   0.200990000     0.7814276    0.1519686  
   0.202989900     0.7941585    0.0269132  
   0.204989800     0.7870253   -0.0989420  
   0.206989700     0.7600710   -0.2216657  
   0.208989600     0.7141320   -0.3382813  
   0.210989500     0.6502402   -0.4469574  
   0.212989400     0.5696716   -0.5441763  
   0.214989300     0.4745988   -0.6270791  
   0.216989200     0.3683152   -0.6933556  
   0.218989100     0.2532225   -0.7420002  
   0.220989000     0.1319596   -0.7717225  
   0.222988900     0.0073192   -0.7816694  
   0.224988800    -0.1169420   -0.7720330  
   0.226988700    -0.2373734   -0.7425671  
   0.228988600    -0.3509464   -0.6949110  
   0.230988500    -0.4551478   -0.6302457  
   0.232988400    -0.5479054   -0.5503541  
   0.234988300    -0.6267653   -0.4567353  
   0.236988200    -0.6895647   -0.3521334  
   0.238988100    -0.7353987   -0.2395462  
   0.240988000    -0.7627367   -0.1219451  
   0.242987900    -0.7712743   -0.0020596  
   0.244987800    -0.7612534    0.1170398  
   0.246987700    -0.7330133    0.2334548  
   0.248987600    -0.6868862    0.3442812  
   0.250987500    -0.6242575    0.4463505  
   0.252987400    -0.5465540    0.5373266  
   0.254987300    -0.4565463    0.6149267  
   0.256987200    -0.3558803    0.6773031  
   0.258987100    -0.2467854    0.7237729  
   0.260987000    -0.1314099    0.7528954  
   0.262986900    -0.0125404    0.7641069  
   0.264986800     0.1071419    0.7565845  
   0.266986700     0.2239799    0.7305838  
   0.268986600     0.3355408    0.6872070  
   0.270986500     0.4387347    0.6273322  
   0.272986400     0.5315040    0.5516509  
   0.274986300     0.6116744    0.4626150  
   0.276986200     0.6776407    0.3622564  
   0.278986100     0.7273467    0.2521626  
   0.280986000     0.7593282    0.1351501  
   0.282985900     0.7728081    0.0141580  
   0.284985800     0.7673584   -0.1075348  
   0.286985700     0.7429317   -0.2270311  
   0.288985600     0.6999587   -0.3405258  
   0.290985500     0.6405859   -0.4458120  
   0.292985400     0.5656136   -0.5406245  
   0.294985300     0.4765590   -0.6225070  
   0.296985200     0.3755618   -0.6899070  
   0.298985100     0.2650815   -0.7414172  
   0.300985000     0.1473231   -0.7745935  
   0.302984900     0.0264396   -0.7888976  
   0.304984800    -0.0952478   -0.7845840  
   0.306984700    -0.2141234   -0.7617301  
   0.308984600    -0.3268641   -0.7206190  
   0.310984500    -0.4314802   -0.6634118  
   0.312984400    -0.5261612   -0.5915404  
   0.314984300    -0.6082017   -0.5059794  
   0.316984200    -0.6762602   -0.4091850  
   0.318984100    -0.7289219   -0.3028421  
   0.320984000    -0.7652630   -0.1891424  
   0.322983900    -0.7837489   -0.0710572  
   0.324983800    -0.7836800    0.0478169  
   0.326983700    -0.7655991    0.1655073  
   0.328983600    -0.7300687    0.2785491  
   0.330983500    -0.6775791    0.3843675  
   0.332983400    -0.6101845    0.4804952  
   0.334983300    -0.5292173    0.5652143  
   0.336983200    -0.4362621    0.6366569  
   0.338983100    -0.3333477    0.6934575  
   0.340983000    -0.2233142    0.7334208  
   0.342982900    -0.1081798    0.7567598  
   0.344982800     0.0099744    0.7617666  
   0.346982700     0.1283299    0.7487350  
   0.348982600     0.2438020    0.7170929  
   0.350982500     0.3531470    0.6680445  
   0.352982400     0.4538946    0.6017264  
   0.354982300     0.5462930    0.5171013  
   0.356982200     0.6311834    0.4066727  
   0.358982100     0.6941594    0.2833291  
   0.360982000     0.7338412    0.1507686  
   0.362981900     0.7492516    0.0133836  
   0.364981800     0.7392932   -0.1250460  
   0.366981700     0.7041746   -0.2596396  
   0.368981600     0.6449618   -0.3857324  
   0.370981500     0.5638421   -0.4990962  
   0.372981400     0.4632765   -0.5957788  
   0.374981300     0.3457857   -0.6724049  
   0.376981200     0.4348285   -0.6112124  
   0.378981100     0.3155144   -0.6830441  
   0.380981000     0.1845587   -0.7316636  
   0.382980900     0.0596079   -0.7540623  
   0.384980800    -0.0614959   -0.7557611  
   0.386980700    -0.1813349   -0.7387620  
   0.388980600    -0.2962865   -0.7025709  
   0.390980500    -0.4028645   -0.6493254  
   0.392980400    -0.4994655   -0.5809789  
   0.394980300    -0.5835475   -0.4993716  
   0.396980200    -0.6536911   -0.4064885  
   0.398980100    -0.7090225   -0.3043324  
   0.400980000    -0.7479231   -0.1959611  
   0.402979900    -0.7702013   -0.0828283  
   0.404979800    -0.7751540    0.0314715  
   0.406979700    -0.7630756    0.1446039  
   0.408979600    -0.7348387    0.2545558  
   0.410979500    -0.6901559    0.3594767  
   0.412979400    -0.6304747    0.4569713  
   0.414979300    -0.5566916    0.5447587  
   0.416979200    -0.4707686    0.6210282  
   0.418979100    -0.3746011    0.6828431  
   0.420979000    -0.2699386    0.7303596  
   0.422978900    -0.1589635    0.7614837  
   0.424978800    -0.0441761    0.7759780  
   0.426978700     0.0721581    0.7728943  
   0.428978600     0.1871195    0.7520581  
   0.430978500     0.2975724    0.7144251  
   0.432978400     0.4008747    0.6600798  
   0.434978300     0.4951295    0.5903969  
   0.436978200     0.5781749    0.5070596  
   0.438978100     0.6475914    0.4112917  
   0.440978000     0.7013445    0.3051115  
   0.442977900     0.7382803    0.1915353  
   0.444977800     0.7573380    0.0733357  
   0.446977700     0.7570486   -0.0471103  
   0.448977600     0.7375766   -0.1665017  
   0.450977500     0.6995838   -0.2812325  
   0.452977400     0.6434829   -0.3891405  
   0.454977300     0.5697679   -0.4878462  
   0.456977200     0.4806306   -0.5732304  
   0.458977100     0.3787551   -0.6432021  
   0.460977000     0.2662042   -0.6955116  
   0.462976900     0.1473327   -0.7286431  
   0.464976800     0.0248572   -0.7415535  
   0.466976700    -0.0979563   -0.7347714  
   0.468976600    -0.2176647   -0.7076318  
   0.470976500    -0.3307749   -0.6619654  
   0.472976400    -0.4349514   -0.5986140  
   0.474976300    -0.5268551   -0.5194888  
   0.476976200    -0.6042073   -0.4271154  
   0.478976100    -0.6652589   -0.3246506  
   0.480976000    -0.7092500   -0.2147525  
   0.482975900    -0.7349650   -0.1003579  
   0.484975800    -0.7422540    0.0160731  
   0.486975700    -0.7318965    0.1320097  
   0.488975600    -0.7037717    0.2442386  
   0.490975500    -0.6585534    0.3504899  
   0.492975400    -0.5979442    0.4482667  
   0.494975300    -0.5231347    0.5357766  
   0.496975200    -0.4359539    0.6108344  
   0.498975100    -0.3389890    0.6710888  
   0.500975000    -0.2339984    0.7161515  
   0.502974900    -0.1236893    0.7446942  
   0.504974800    -0.0101803    0.7561772  
   0.506974700     0.1042741    0.7503513  
   0.508974600     0.2176454    0.7269684  
   0.510974500     0.3261622    0.6868018  
   0.512974400     0.4272386    0.6299852  
   0.514974300     0.5186574    0.5584741  
   0.516974200     0.5984848    0.4738337  
   0.518974100     0.6645088    0.3781400  
   0.520974000     0.7149099    0.2729241  
   0.522973900     0.7488071    0.1607144  
   0.524973800     0.7650501    0.0448297  
   0.526973700     0.7633473   -0.0733104  
   0.528973600     0.7435241   -0.1899940  
   0.530973500     0.7051892   -0.3026747  
   0.532973400     0.6500676   -0.4085132  
   0.534973300     0.5785757   -0.5046227  
   0.536973200     0.4928699   -0.5887579  
   0.538973100     0.3950777   -0.6581470  
   0.540973000     0.2881507   -0.7112733  
   0.542972900     0.1739966   -0.7470841  
   0.544972800     0.0555981   -0.7647514  
   0.546972700    -0.0644725   -0.7637225  
   0.548972600    -0.1834007   -0.7438901  
   0.550972500    -0.2976047   -0.7055604  
   0.552972400    -0.4042893   -0.6497011  
   0.554972300    -0.5010154   -0.5774722  
   0.556972200    -0.5853692   -0.4911512  
   0.558972100    -0.6544418   -0.3926771  
   0.560972000    -0.7072768   -0.2847176  
   0.562971900    -0.7422504   -0.1704748  
   0.564971800    -0.7589374   -0.0524620  
   0.566971700    -0.7565277    0.0659346  
   0.568971600    -0.7361966    0.1823214  
   0.570971500    -0.6978339    0.2938020  
   0.572971400    -0.6427118    0.3981108  
   0.574971300    -0.5715884    0.4923477  
   0.576971200    -0.4865747    0.5749081  
   0.578971100    -0.3892789    0.6429476  
   0.580971000    -0.2826930    0.6946740  
   0.582970900    -0.1694023    0.7287928  
   0.584970800    -0.0524620    0.7451147  
   0.586970700     0.0656527    0.7424020  
   0.588970600     0.1819753    0.7213614  
   0.590970500     0.2931748    0.6820287  
   0.592970400     0.3971007    0.6257377  
   0.594970300     0.4910653    0.5532748  
   0.596970200     0.5723233    0.4669931  
   0.598970100     0.6391835    0.3682391  
   0.600970000     0.6894431    0.2600859  
   0.602969900     0.7217175    0.1448309  
   0.604969800     0.7353816    0.0254332  
   0.606969700     0.7297798   -0.0950287  
   0.608969600     0.7045705   -0.2130420  
   0.610969500     0.6605002   -0.3262151  
   0.612969400     0.5986719   -0.4306802  
   0.614969300     0.5208364   -0.5232905  
   0.616969200     0.4294897   -0.6022254  
   0.618969100     0.3272175   -0.6649991  
   0.620969000     0.2170929   -0.7105631  
   0.622968900     0.1008826   -0.7379912  
   0.624968800    -0.0179321   -0.7467099  
   0.626968700    -0.1370962   -0.7367505  
   0.628968600    -0.2528847   -0.7084053  
   0.630968500    -0.3627401   -0.6619197  
   0.632968400    -0.4636166   -0.5991628  
   0.634968300    -0.5533074   -0.5219173  
   0.636968200    -0.6298456   -0.4316289  
   0.638968100    -0.6908934   -0.3309183  
   0.640968000    -0.7355172   -0.2220284  
   0.642967900    -0.7637274   -0.1082124  
   0.644967800    -0.7735880    0.0082004  
   0.646967700    -0.7654727    0.1244102  
   0.648967600    -0.7398619    0.2375665  
   0.650967500    -0.6983225    0.3450549  
   0.652967400    -0.6412175    0.4448815  
   0.654967300    -0.5697618    0.5348671  
   0.656967200    -0.4862149    0.6128331  
   0.658967100    -0.3918083    0.6777905  
   0.660967000    -0.2884817    0.7278316  
   0.662966900    -0.1782123    0.7619782  
   0.664966800    -0.0634075    0.7795039  
   0.666966700     0.0539388    0.7795414  
   0.668966600     0.1693600    0.7618036  
   0.670966500     0.2818012    0.7263670  
   0.672966400     0.3876773    0.6734964  
   0.674966300     0.4842458    0.6057886  
   0.676966200     0.5697309    0.5234215  
   0.678966100     0.6413848    0.4289361  
   0.680966000     0.6978976    0.3242587  
   0.682965900     0.7375662    0.2115034  
   0.684965800     0.7594512    0.0942684  
   0.686965700     0.7625817   -0.0261978  
   0.688965600     0.7466975   -0.1458519  
   0.690965500     0.7122303   -0.2616076  
   0.692965400     0.6594673   -0.3709490  
   0.694965300     0.5908233   -0.4702885  
   0.696965200     0.5063763   -0.5579044  
   0.698965100     0.4090241   -0.6306419  
   0.700965000     0.3011976   -0.6873737  
   0.702964900     0.1856145   -0.7261434  
   0.704964800     0.0650149   -0.7458066  
   0.706964700    -0.0566352   -0.7456242  
   0.708964600    -0.1768286   -0.7261987  
   0.710964500    -0.2923175   -0.6875492  
   0.712964400    -0.3995320   -0.6309251  
   0.714964300    -0.4959812   -0.5578486  
   0.716964200    -0.5790433   -0.4713538  
   0.718964100    -0.6467066   -0.3734239  
   0.720964000    -0.6978233   -0.2667310  
   0.722963900    -0.7313293   -0.1541553  
   0.724963800    -0.7473338   -0.0385228  
   0.726963700    -0.7449480    0.0777583  
   0.728963600    -0.7251741    0.1918750  
   0.730963500    -0.6879769    0.3012412  
   0.732963400    -0.6347139    0.4031139  
   0.734963300    -0.5668446    0.4957966  
   0.736963200    -0.4712152    0.5874664  
   0.738963100    -0.3605025    0.6617180  
   0.740963000    -0.2380778    0.7155461  
   0.742962900    -0.1078584    0.7472376  
   0.744962800     0.0264386    0.7559539  
   0.746962700     0.1605445    0.7416074  
   0.748962600     0.2905697    0.7032281  
   0.750962500     0.1617985    0.7416617  
   0.752962400     0.2908676    0.7018933  
   0.754962300     0.4112540    0.6400686  
   0.756962200     0.5193464    0.5577186  
   0.758962100     0.6113689    0.4572013  
   0.760962000     0.6849146    0.3419657  
   0.762961900     0.7350497    0.2213311  
   0.764961800     0.7619580    0.1058701  
   0.766961700     0.7706448   -0.0127408  
   0.768961600     0.7608507   -0.1323332  
   0.770961500     0.7325813   -0.2486743  
   0.772961400     0.6862634   -0.3597304  
   0.774961300     0.6236610   -0.4625161  
   0.776961200     0.5450402   -0.5544211  
   0.778961100     0.4523998   -0.6335533  
   0.780961000     0.3483143   -0.6972779  
   0.782960900     0.2348423   -0.7438869  
   0.784960800     0.1149668   -0.7724134  
   0.786960700    -0.0083306   -0.7810546  
   0.788960600    -0.1313532   -0.7703039  
   0.790960500    -0.2506793   -0.7399529  
   0.792960400    -0.3637310   -0.6908376  
   0.794960300    -0.4668191   -0.6247677  
   0.796960200    -0.5580656   -0.5435020  
   0.798960100    -0.6347174   -0.4495037  
   0.800960000    -0.6952353   -0.3450763  
   0.802959900    -0.7384927   -0.2328633  
   0.804959800    -0.7637483   -0.1162285  
   0.806959700    -0.7704261    0.0022148  
   0.808959600    -0.7590513    0.1197152  
   0.810959500    -0.7297641    0.2337676  
   0.812959400    -0.6833090    0.3411942  
   0.814959300    -0.6213047    0.4399010  
   0.816959200    -0.5454077    0.5274199  
   0.818959100    -0.4571237    0.6026795  
   0.820959000    -0.3580523    0.6632904  
   0.822958900    -0.2517345    0.7081941  
   0.824958800    -0.1394470    0.7363116  
   0.826958700    -0.0242250    0.7469532  
   0.828958600     0.0913456    0.7396263  
   0.830958500     0.2045101    0.7148914  
   0.832958400     0.3129001    0.6733027  
   0.834958300     0.4136204    0.6154440  
   0.836958200     0.5040281    0.5426424  
   0.838958100     0.5828944    0.4565349  
   0.840958000     0.6477711    0.3586266  
   0.842957900     0.6966836    0.2518077  
   0.844957800     0.7288655    0.1375379  
   0.846957700     0.7427593    0.0195245  
   0.848957600     0.7376200   -0.0999444  
   0.850957500     0.7136623   -0.2174705  
   0.852957400     0.6710508   -0.3302357  
   0.854957300     0.6110935   -0.4349865  
   0.856957200     0.5349523   -0.5288946  
   0.858957100     0.4446418   -0.6096955  
   0.860957000     0.3431223   -0.6745965  
   0.862956900     0.2327230   -0.7227271  
   0.864956800     0.1167125   -0.7528009  
   0.866956700    -0.0022856   -0.7645428  
   0.868956600    -0.1211431   -0.7576230  
   0.870956500    -0.2372760   -0.7322017  
   0.872956400    -0.3480388   -0.6892845  
   0.874956300    -0.4502923   -0.6299371  
   0.876956200    -0.5420942   -0.5556036  
   0.878956100    -0.6217778   -0.4682437  
   0.880956000    -0.6864682   -0.3697999  
   0.882955900    -0.7352869   -0.2631692  
   0.884955800    -0.7670931   -0.1502123  
   0.886955700    -0.7816253   -0.0340698  
   0.888955600    -0.7782680    0.0822702  
   0.890955500    -0.7576509    0.1967902  
   0.892955400    -0.7201291    0.3063350  
   0.894955300    -0.6664561    0.4090188  
