! MS46122B
! 2250307/22442219
! 6/13/2025 3:30:52 PM
! C:\USERS\SPARKY\DOCUMENTS\VNA_DATA\JUNE13_2025\3.2K\PORT5_MOS4.S1P
! CHANNEL.1
! TR.MEASUREMENT
! RAW.DATA
# GHZ S RI R 50.0
! FREQ.GHZ         S11RE         S11IM         
!; PortSelection: Port_1
   0.001000000    -0.9243091    0.0521564  
   0.002999900    -0.8975086    0.2552620  
   0.004999800    -0.8604314    0.4025711  
   0.006999700    -0.7956846    0.5347505  
   0.008999600    -0.7068362    0.6501027  
   0.010999500    -0.5978535    0.7459734  
   0.012999400    -0.4731574    0.8210268  
   0.014999300    -0.3370826    0.8734687  
   0.016999200    -0.1945539    0.9034873  
   0.018999100    -0.0491899    0.9114341  
   0.020999000     0.0949829    0.8978323  
   0.022998900     0.2348423    0.8638402  
   0.024998800     0.3388752    0.7912912  
   0.026998700     0.4899163    0.7397020  
   0.028998600     0.6004280    0.6526483  
   0.030998500     0.6962347    0.5511012  
   0.032998400     0.7407040    0.4368152  
   0.034998300     0.8366231    0.3123790  
   0.036998200     0.8779146    0.1797345  
   0.038998100     0.8977430    0.0420075  
   0.040998000     0.8957536   -0.0972215  
   0.042997900     0.8712463   -0.2346915  
   0.044997800     0.8032631   -0.3401555  
   0.046997700     0.7584980   -0.4894808  
   0.048997600     0.6734179   -0.6001298  
   0.050997500     0.5723141   -0.6958848  
   0.052997400     0.4589159   -0.7742622  
   0.054997300     0.3341659   -0.8345172  
   0.056997200     0.2020406   -0.8751506  
   0.058997100     0.0664464   -0.8954066  
   0.060997000    -0.0701221   -0.8946997  
   0.062996900    -0.2046087   -0.8736631  
   0.064996800    -0.3341354   -0.8326035  
   0.066996700    -0.4556282   -0.7725444  
   0.068996600    -0.5664666   -0.6946591  
   0.070996500    -0.6638154   -0.6012020  
   0.072996400    -0.7456629   -0.4940389  
   0.074996300    -0.8101591   -0.3757527  
   0.076996200    -0.8556355   -0.2488984  
   0.078996100    -0.8812118   -0.1170660  
   0.080996000    -0.8866362    0.0174653  
   0.082995900    -0.8714251    0.1513349  
   0.084995800    -0.8358426    0.2811605  
   0.086995700    -0.7811006    0.4044358  
   0.088995600    -0.7078657    0.5182662  
   0.090995500    -0.6179376    0.6194788  
   0.092995400    -0.5131015    0.7057527  
   0.094995300    -0.3961689    0.7753644  
   0.096995200    -0.2691546    0.8257647  
   0.098995100    -0.1350405    0.8557630  
   0.100995000     0.0019394    0.8644860  
   0.102994900     0.1388447    0.8504598  
   0.104994800     0.2722735    0.8154487  
   0.106994700     0.3985581    0.7591481  
   0.108994600     0.5145668    0.6835148  
   0.110994500     0.6168034    0.5902852  
   0.112994400     0.7027032    0.4816613  
   0.114994300     0.7703434    0.3608936  
   0.116994200     0.8175881    0.2305709  
   0.118994100     0.8432990    0.0946814  
   0.120994000     0.8467212   -0.0433132  
   0.122993900     0.8282487   -0.1797149  
   0.124993800     0.7882407   -0.3109607  
   0.126993700     0.7281355   -0.4338921  
   0.128993600     0.6494329   -0.5455606  
   0.130993500     0.5543422   -0.6423523  
   0.132993400     0.4456603   -0.7227531  
   0.134993300     0.3264425   -0.7847347  
   0.136993200     0.1997719   -0.8268143  
   0.138993100     0.0684426   -0.8488411  
   0.140993000    -0.0640420   -0.8502303  
   0.142992900    -0.1942832   -0.8313459  
   0.144992800    -0.3195538   -0.7927998  
   0.146992700    -0.4367477   -0.7360923  
   0.148992600    -0.5438339   -0.6622412  
   0.150992500    -0.6378310   -0.5738977  
   0.152992400    -0.7172910   -0.4721764  
   0.154992300    -0.7806370   -0.3604553  
   0.156992200    -0.8262334   -0.2406333  
   0.158992100    -0.8534257   -0.1157337  
   0.160992000    -0.8619537    0.0119306  
   0.162991900    -0.8510125    0.1392245  
   0.164991800    -0.8214055    0.2637462  
   0.166991700    -0.7736173    0.3820842  
   0.168991600    -0.7089098    0.4924154  
   0.170991500    -0.6279364    0.5919843  
   0.172991400    -0.5331427    0.6783934  
   0.174991300    -0.4261412    0.7499577  
   0.176991200    -0.3087549    0.8049915  
   0.178991100    -0.1838302    0.8415701  
   0.180991000    -0.0550413    0.8591595  
   0.182990900     0.0754096    0.8568082  
   0.184990800     0.2053858    0.8343878  
   0.186990700     0.3310312    0.7923843  
   0.188990600     0.4269228    0.7437689  
   0.190990500     0.5523183    0.6544489  
   0.192990400     0.6491045    0.5569234  
   0.194990300     0.7273358    0.4476856  
   0.196990200     0.7875731    0.3274250  
   0.198990100     0.8278039    0.1989514  
   0.200990000     0.8477831    0.0649979  
   0.202989900     0.8459364   -0.0710408  
   0.204989800     0.8225128   -0.2050460  
   0.206989700     0.7778281   -0.3332821  
   0.208989600     0.7135469   -0.4526797  
   0.210989500     0.6305988   -0.5607028  
   0.212989400     0.5308808   -0.6538547  
   0.214989300     0.4180146   -0.7297761  
   0.216989200     0.2951651   -0.7864630  
   0.218989100     0.1651888   -0.8222913  
   0.220989000     0.0315373   -0.8368579  
   0.222988900    -0.1031192   -0.8298385  
   0.224988800    -0.2344588   -0.8012529  
   0.226988700    -0.3587326   -0.7526076  
   0.228988600    -0.4732019   -0.6852016  
   0.230988500    -0.5745982   -0.6010871  
   0.232988400    -0.6613536   -0.5018279  
   0.234988300    -0.7315869   -0.3904971  
   0.236988200    -0.7829041   -0.2694918  
   0.238988100    -0.8144531   -0.1425242  
   0.240988000    -0.8256537   -0.0131240  
   0.242987900    -0.8165397    0.1157497  
   0.244987800    -0.7875750    0.2409903  
   0.246987700    -0.7391707    0.3607234  
   0.248987600    -0.6727990    0.4715393  
   0.250987500    -0.5898467    0.5706171  
   0.252987400    -0.4929132    0.6552028  
   0.254987300    -0.3846037    0.7233459  
   0.256987200    -0.2672246    0.7740552  
   0.258987100    -0.1434660    0.8060368  
   0.260987000    -0.0157023    0.8182254  
   0.262986900     0.1128231    0.8107316  
   0.264986800     0.2389144    0.7830225  
   0.266986700     0.3595887    0.7360963  
   0.268986600     0.4712789    0.6708819  
   0.270986500     0.5714059    0.5892910  
   0.272986400     0.6574785    0.4930851  
   0.274986300     0.7278317    0.3844234  
   0.276986200     0.7804559    0.2655123  
   0.278986100     0.8141493    0.1394359  
   0.280986000     0.8276843    0.0091805  
   0.282985900     0.8206865   -0.1220134  
   0.284985800     0.7926966   -0.2507136  
   0.286985700     0.7448935   -0.3732941  
   0.288985600     0.6786717   -0.4862414  
   0.290985500     0.5959632   -0.5872293  
   0.292985400     0.4987806   -0.6738849  
   0.294985300     0.3891387   -0.7442304  
   0.296985200     0.2692550   -0.7969185  
   0.298985100     0.1421911   -0.8303297  
   0.300985000     0.0111677   -0.8432384  
   0.302984900    -0.1195820   -0.8353269  
   0.304984800    -0.2472526   -0.8071734  
   0.306984700    -0.3682880   -0.7595652  
   0.308984600    -0.4797108   -0.6945993  
   0.310984500    -0.5791542   -0.6135913  
   0.312984400    -0.6644261   -0.5188734  
   0.314984300    -0.7343450   -0.4122835  
   0.316984200    -0.7868736   -0.2965813  
   0.318984100    -0.8213345   -0.1737899  
   0.320984000    -0.8369650   -0.0465957  
   0.322983900    -0.8321648    0.0817512  
   0.324983800    -0.8077136    0.2075574  
   0.326983700    -0.7645778    0.3276860  
   0.328983600    -0.7033922    0.4393857  
   0.330983500    -0.6258155    0.5405062  
   0.332983400    -0.5346133    0.6276712  
   0.334983300    -0.4308732    0.7001772  
   0.336983200    -0.3174048    0.7556725  
   0.338983100    -0.1964770    0.7930527  
   0.340983000    -0.0712856    0.8116924  
   0.342982900     0.0557631    0.8105509  
   0.344982800     0.1819366    0.7898197  
   0.346982700     0.3041829    0.7489168  
   0.348982600     0.4190201    0.6893675  
   0.350982500     0.5233030    0.6121601  
   0.352982400     0.6142769    0.5189847  
   0.354982300     0.6916282    0.4073028  
   0.356982200     0.7549068    0.2711156  
   0.358982100     0.7921205    0.1258992  
   0.360982000     0.8019853   -0.0232389  
   0.362981900     0.7843971   -0.1717475  
   0.364981800     0.7397086   -0.3150599  
   0.366981700     0.6691751   -0.4479628  
   0.368981600     0.5755864   -0.5655110  
   0.370981500     0.4615786   -0.6638644  
   0.372981400     0.3312086   -0.7393203  
   0.374981300     0.1885093   -0.7894915  
   0.376981200     0.2980485   -0.7487863  
   0.378981100     0.1549663   -0.7930909  
   0.380981000     0.0058218   -0.8102695  
   0.382980900    -0.1299689   -0.8017337  
   0.384980800    -0.2567767   -0.7725689  
   0.386980700    -0.3768023   -0.7236142  
   0.388980600    -0.4868697   -0.6566210  
   0.390980500    -0.5841998   -0.5740101  
   0.392980400    -0.6666541   -0.4782090  
   0.394980300    -0.7331849   -0.3718432  
   0.396980200    -0.7822167   -0.2574080  
   0.398980100    -0.8132572   -0.1368457  
   0.400980000    -0.8255371   -0.0142779  
   0.402979900    -0.8191136    0.1089856  
   0.404979800    -0.7949824    0.2291942  
   0.406979700    -0.7529317    0.3437960  
   0.408979600    -0.6946353    0.4507637  
   0.410979500    -0.6206568    0.5484413  
   0.412979400    -0.5323787    0.6345816  
   0.414979300    -0.4322009    0.7065098  
   0.416979200    -0.3219650    0.7626359  
   0.418979100    -0.2046573    0.8012363  
   0.420979000    -0.0822508    0.8223281  
   0.422978900     0.0422776    0.8246576  
   0.424978800     0.1668348    0.8078518  
   0.426978700     0.2878665    0.7717241  
   0.428978600     0.4022673    0.7172707  
   0.430978500     0.5071079    0.6455159  
   0.432978400     0.5996305    0.5582468  
   0.434978300     0.6778680    0.4571277  
   0.436978200     0.7394010    0.3446518  
   0.438978100     0.7828675    0.2231733  
   0.440978000     0.8063798    0.0955378  
   0.442977900     0.8091865   -0.0346639  
   0.444977800     0.7911393   -0.1643144  
   0.446977700     0.7520444   -0.2896619  
   0.448977600     0.6934595   -0.4070041  
   0.450977500     0.6161120   -0.5139456  
   0.452977400     0.5218997   -0.6068301  
   0.454977300     0.4128150   -0.6840180  
   0.456977200     0.2923998   -0.7418835  
   0.458977100     0.1636404   -0.7788551  
   0.460977000     0.0307561   -0.7941380  
   0.462976900    -0.1020992   -0.7871683  
   0.464976800    -0.2317947   -0.7586595  
   0.466976700    -0.3543418   -0.7089310  
   0.468976600    -0.4664677   -0.6404200  
   0.470976500    -0.5656148   -0.5546854  
   0.472976400    -0.6488714   -0.4546128  
   0.474976300    -0.7145966   -0.3428933  
   0.476976200    -0.7608736   -0.2230434  
   0.478976100    -0.7872763   -0.0984209  
   0.480976000    -0.7936299    0.0277038  
   0.482975900    -0.7805237    0.1521035  
   0.484975800    -0.7479138    0.2720274  
   0.486975700    -0.6974978    0.3852310  
   0.488975600    -0.6306807    0.4891003  
   0.490975500    -0.5486351    0.5813351  
   0.492975400    -0.4537545    0.6595974  
   0.494975300    -0.3482878    0.7222936  
   0.496975200    -0.2340911    0.7684320  
   0.498975100    -0.1150411    0.7964970  
   0.500975000     0.0070485    0.8063801  
   0.502974900     0.1290929    0.7971937  
   0.504974800     0.2486538    0.7698501  
   0.506974700     0.3632744    0.7240906  
   0.508974600     0.4706836    0.6606016  
   0.510974500     0.5672652    0.5813263  
   0.512974400     0.6509032    0.4875587  
   0.514974300     0.7189326    0.3822845  
   0.516974200     0.7700006    0.2672058  
   0.518974100     0.8026592    0.1455287  
   0.520974000     0.8160097    0.0198486  
   0.522973900     0.8099007   -0.1070119  
   0.524973800     0.7838264   -0.2315007  
   0.526973700     0.7380497   -0.3510680  
   0.528973600     0.6742609   -0.4623718  
   0.530973500     0.5928988   -0.5629024  
   0.532973400     0.4970759   -0.6489969  
   0.534973300     0.3881266   -0.7193142  
   0.536973200     0.2689259   -0.7712927  
   0.538973100     0.1435411   -0.8038085  
   0.540973000     0.0149839   -0.8157215  
   0.542972900    -0.1138420   -0.8073682  
   0.544972800    -0.2396915   -0.7785412  
   0.546972700    -0.3599088   -0.7302182  
   0.548972600    -0.4705145   -0.6633157  
   0.550972500    -0.5691086   -0.5793929  
   0.552972400    -0.6533608   -0.4810734  
   0.554972300    -0.7207235   -0.3703893  
   0.556972200    -0.7694979   -0.2507384  
   0.558972100    -0.7986978   -0.1249435  
   0.560972000    -0.8071982    0.0032547  
   0.562971900    -0.7951864    0.1305987  
   0.564971800    -0.7634133    0.2538652  
   0.566971700    -0.7128316    0.3704265  
   0.568971600    -0.6446445    0.4769838  
   0.570971500    -0.5606763    0.5713019  
   0.572971400    -0.4630233    0.6511542  
   0.574971300    -0.3535550    0.7149851  
   0.576971200    -0.2349601    0.7606510  
   0.578971100    -0.1104608    0.7868218  
   0.580971000     0.0165920    0.7931079  
   0.582970900     0.1431683    0.7789456  
   0.584970800     0.2655323    0.7447636  
   0.586970700     0.3806807    0.6914837  
   0.588970600     0.4857207    0.6208321  
   0.590970500     0.5787869    0.5338152  
   0.592970400     0.6565329    0.4331476  
   0.594970300     0.7170311    0.3210576  
   0.596970200     0.7591919    0.2007769  
   0.598970100     0.7813630    0.0746317  
   0.600970000     0.7832394   -0.0532004  
   0.602969900     0.7640980   -0.1804806  
   0.604969800     0.7247714   -0.3029356  
   0.606969700     0.6661673   -0.4178045  
   0.608969600     0.5894434   -0.5221187  
   0.610969500     0.4968671   -0.6127732  
   0.612969400     0.3907359   -0.6868301  
   0.614969300     0.2744999   -0.7427824  
   0.616969200     0.1514138   -0.7788357  
   0.618969100     0.0251509   -0.7949550  
   0.620969000    -0.1011373   -0.7908276  
   0.622968900    -0.2251739   -0.7668687  
   0.624968800    -0.3440291   -0.7238769  
   0.626968700    -0.4544645   -0.6631085  
   0.628968600    -0.5538140   -0.5858815  
   0.630968500    -0.6397609   -0.4943950  
   0.632968400    -0.7105755   -0.3911393  
   0.634968300    -0.7641668   -0.2782643  
   0.636968200    -0.7998686   -0.1586664  
   0.638968100    -0.8163211   -0.0358112  
   0.640968000    -0.8143471    0.0878820  
   0.642967900    -0.7932487    0.2099196  
   0.644967800    -0.7541328    0.3270136  
   0.646967700    -0.6977893    0.4359731  
   0.648967600    -0.6259429    0.5352533  
   0.650967500    -0.5401472    0.6223525  
   0.652967400    -0.4427292    0.6954467  
   0.654967300    -0.3354164    0.7528261  
   0.656967200    -0.2209516    0.7937499  
   0.658967100    -0.1015859    0.8169168  
   0.660967000     0.0202842    0.8221091  
   0.662966900     0.1426118    0.8085922  
   0.664966800     0.2624305    0.7766107  
   0.666966700     0.3763542    0.7259847  
   0.668966600     0.4820388    0.6582444  
   0.670966500     0.5765939    0.5746902  
   0.672966400     0.6564885    0.4767405  
   0.674966300     0.7207170    0.3675771  
   0.676966200     0.7671935    0.2495141  
   0.678966100     0.7946531    0.1255342  
   0.680966000     0.8022652   -0.0017043  
   0.682965900     0.7895104   -0.1285987  
   0.684965800     0.7566110   -0.2522869  
   0.686965700     0.7039236   -0.3693988  
   0.688965600     0.6335965   -0.4773896  
   0.690965500     0.5468095   -0.5722805  
   0.692965400     0.4459193   -0.6519963  
   0.694965300     0.3334467   -0.7144640  
   0.696965200     0.2123803   -0.7580386  
   0.698965100     0.0862861   -0.7815514  
   0.700965000    -0.0422402   -0.7842676  
   0.702964900    -0.1691021   -0.7665126  
   0.704964800    -0.2913062   -0.7284400  
   0.706964700    -0.4052940   -0.6711702  
   0.708964600    -0.5085338   -0.5971246  
   0.710964500    -0.5983483   -0.5069407  
   0.712964400    -0.6722246   -0.4045881  
   0.714964300    -0.7283884   -0.2919407  
   0.716964200    -0.7658296   -0.1726408  
   0.718964100    -0.7840174   -0.0500927  
   0.720964000    -0.7828160    0.0729259  
   0.722963900    -0.7628944    0.1933234  
   0.724963800    -0.7250715    0.3088974  
   0.726963700    -0.6699952    0.4165690  
   0.728963600    -0.5993445    0.5145250  
   0.730963500    -0.5149756    0.6004073  
   0.732963400    -0.4186694    0.6722246  
   0.734963300    -0.3124891    0.7287103  
   0.736963200    -0.1801728    0.7727228  
   0.738963100    -0.0414579    0.7932000  
   0.740963000     0.0998992    0.7893696  
   0.742962900     0.2385270    0.7607086  
   0.744962800     0.3708066    0.7078939  
   0.746962700     0.4920866    0.6329102  
   0.748962600     0.5989068    0.5369122  
   0.750962500     0.4909781    0.6272570  
   0.752962400     0.5959631    0.5298747  
   0.754962300     0.6829857    0.4151397  
   0.756962200     0.7480658    0.2864158  
   0.758962100     0.7896025    0.1479123  
   0.760962000     0.8054436    0.0033236  
   0.762961900     0.7961172   -0.1346562  
   0.764961800     0.7663922   -0.2578027  
   0.766961700     0.7179526   -0.3749501  
   0.768961600     0.6511598   -0.4834491  
   0.770961500     0.5680367   -0.5800721  
   0.772961400     0.4704101   -0.6626396  
   0.774961300     0.3610847   -0.7287189  
   0.776961200     0.2424865   -0.7764980  
   0.778961100     0.1170785   -0.8055041  
   0.780961000    -0.0113266   -0.8138684  
   0.782960900    -0.1396339   -0.8013613  
   0.784960800    -0.2644829   -0.7685769  
   0.786960700    -0.3821134   -0.7162157  
   0.788960600    -0.4899375   -0.6457953  
   0.790960500    -0.5845365   -0.5597755  
   0.792960400    -0.6638663   -0.4596165  
   0.794960300    -0.7259675   -0.3488479  
   0.796960200    -0.7693949   -0.2307657  
   0.798960100    -0.7938173   -0.1079806  
   0.800960000    -0.7986516    0.0164585  
   0.802959900    -0.7838552    0.1393188  
   0.804959800    -0.7505900    0.2577102  
   0.806959700    -0.6997521    0.3687842  
   0.808959600    -0.6329075    0.4704311  
   0.810959500    -0.5515295    0.5598615  
   0.812959400    -0.4574733    0.6359000  
   0.814959300    -0.3534307    0.6963465  
   0.816959200    -0.2416669    0.7402589  
   0.818959100    -0.1246829    0.7663257  
   0.820959000    -0.0048585    0.7745172  
   0.822958900     0.1150819    0.7638545  
   0.824958800     0.2317801    0.7352857  
   0.826958700     0.3435753    0.6892329  
   0.828958600     0.4468241    0.6264051  
   0.830958500     0.5394522    0.5480064  
   0.832958400     0.6192617    0.4558293  
   0.834958300     0.6835582    0.3525512  
   0.836958200     0.7312447    0.2398148  
   0.838958100     0.7612473    0.1207753  
   0.840958000     0.7722886   -0.0020516  
   0.842957900     0.7636083   -0.1257715  
   0.844957800     0.7350170   -0.2471410  
   0.846957700     0.6877072   -0.3628438  
   0.848957600     0.6224225   -0.4697329  
   0.850957500     0.5405699   -0.5651790  
   0.852957400     0.4444774   -0.6467199  
   0.854957300     0.3363080   -0.7114792  
   0.856957200     0.2189812   -0.7584402  
   0.858957100     0.0964019   -0.7858905  
   0.860957000    -0.0288489   -0.7935921  
   0.862956900    -0.1529426   -0.7816397  
   0.864956800    -0.2729565   -0.7503468  
   0.866956700    -0.3861347   -0.7013000  
   0.868956600    -0.4897613   -0.6356562  
   0.870956500    -0.5817541   -0.5552099  
   0.872956400    -0.6600406   -0.4617176  
   0.874956300    -0.7231088   -0.3577318  
   0.876956200    -0.7692990   -0.2457213  
   0.878956100    -0.7977324   -0.1277740  
   0.880956000    -0.8079363   -0.0072749  
   0.882955900    -0.7997835    0.1130655  
   0.884955800    -0.7737756    0.2306556  
   0.886955700    -0.7301468    0.3426797  
   0.888955600    -0.6704171    0.4465675  
   0.890955500    -0.5962293    0.5405560  
   0.892955400    -0.5082723    0.6222183  
   0.894955300    -0.4091032    0.6899883  
