! MS46122B
! 2250307/22442219
! 6/18/2025 7:54:12 AM
! C:\USERS\SPARKY\DOCUMENTS\VNA_DATA\JUNE18_2025\3.0K\PORT5_MOS1.S1P
! CHANNEL.1
! TR.MEASUREMENT
! RAW.DATA
# GHZ S RI R 50.0
! FREQ.GHZ         S11RE         S11IM         
!; PortSelection: Port_1
   0.001000000    -0.8816409    0.0502404  
   0.002999900    -0.8563616    0.2458881  
   0.004999800    -0.8210033    0.3852185  
   0.006999700    -0.7603208    0.5098200  
   0.008999600    -0.6768546    0.6184933  
   0.010999500    -0.5749285    0.7088469  
   0.012999400    -0.4580210    0.7802348  
   0.014999300    -0.3301768    0.8303997  
   0.016999200    -0.1960429    0.8598562  
   0.018999100    -0.0590457    0.8686779  
   0.020999000     0.0774091    0.8576680  
   0.022998900     0.2101218    0.8273118  
   0.024998800     0.3092989    0.7597873  
   0.026998700     0.4534399    0.7142923  
   0.028998600     0.5594793    0.6336471  
   0.030998500     0.6521304    0.5396314  
   0.032998400     0.6961489    0.4325262  
   0.034998300     0.7905316    0.3170898  
   0.036998200     0.8323100    0.1926531  
   0.038998100     0.8548371    0.0629302  
   0.040998000     0.8567594   -0.0685092  
   0.042997900     0.8376902   -0.1990662  
   0.044997800     0.7762017   -0.3001621  
   0.046997700     0.7387881   -0.4429921  
   0.048997600     0.6623036   -0.5504391  
   0.050997500     0.5699227   -0.6442643  
   0.052997400     0.4667185   -0.7210271  
   0.054997300     0.3495545   -0.7842301  
   0.056997200     0.2264213   -0.8274553  
   0.058997100     0.0991618   -0.8517699  
   0.060997000    -0.0300098   -0.8567400  
   0.062996900    -0.1578326   -0.8427234  
   0.064996800    -0.2821383   -0.8097033  
   0.066996700    -0.3997051   -0.7584260  
   0.068996600    -0.5080286   -0.6900483  
   0.070996500    -0.6044790   -0.6065939  
   0.072996400    -0.6872240   -0.5093960  
   0.074996300    -0.7539571   -0.4009765  
   0.076996200    -0.8033721   -0.2839000  
   0.078996100    -0.8348305   -0.1606725  
   0.080996000    -0.8470515   -0.0341112  
   0.082995900    -0.8405804    0.0928289  
   0.084995800    -0.8146321    0.2175294  
   0.086995700    -0.7703373    0.3368812  
   0.088995600    -0.7083811    0.4482219  
   0.090995500    -0.6299593    0.5493037  
   0.092995400    -0.5370658    0.6375630  
   0.094995300    -0.4315435    0.7104595  
   0.096995200    -0.3153844    0.7664859  
   0.098995100    -0.1918400    0.8044309  
   0.100995000    -0.0633964    0.8220933  
   0.102994900     0.0660879    0.8192203  
   0.104994800     0.1938614    0.7963030  
   0.106994700     0.3170599    0.7534143  
   0.108994600     0.4316562    0.6915256  
   0.110994500     0.5354077    0.6121897  
   0.112994400     0.6251178    0.5173299  
   0.114994300     0.6988859    0.4096125  
   0.116994200     0.7542961    0.2914690  
   0.118994100     0.7905250    0.1660472  
   0.120994000     0.8062146    0.0367484  
   0.122993900     0.8012073   -0.0929650  
   0.124993800     0.7758156   -0.2201524  
   0.126993700     0.7307096   -0.3410932  
   0.128993600     0.6675516   -0.4539069  
   0.130993500     0.5874441   -0.5541714  
   0.132993400     0.4930978   -0.6403172  
   0.134993300     0.3870230   -0.7107272  
   0.136993200     0.2718403   -0.7632756  
   0.138993100     0.1503759   -0.7972507  
   0.140993000     0.0260919   -0.8119176  
   0.142992900    -0.0989699   -0.8077545  
   0.144992800    -0.2208978   -0.7846547  
   0.146992700    -0.3373054   -0.7432202  
   0.148992600    -0.4459856   -0.6850951  
   0.150992500    -0.5442889   -0.6119058  
   0.152992400    -0.6300954   -0.5246679  
   0.154992300    -0.7013361   -0.4263218  
   0.156992200    -0.7574806   -0.3182618  
   0.158992100    -0.7971780   -0.2038851  
   0.160992000    -0.8189809   -0.0846613  
   0.162991900    -0.8232628    0.0361417  
   0.164991800    -0.8096535    0.1562342  
   0.166991700    -0.7784072    0.2730068  
   0.168991600    -0.7303402    0.3836905  
   0.170991500    -0.6663070    0.4867189  
   0.172991400    -0.5877622    0.5789794  
   0.174991300    -0.4962773    0.6584465  
   0.176991200    -0.3933670    0.7240735  
   0.178991100    -0.2814120    0.7738400  
   0.180991000    -0.1634510    0.8066632  
   0.182990900    -0.0412055    0.8211091  
   0.184990800     0.0822391    0.8171029  
   0.186990700     0.2046805    0.7948539  
   0.188990600     0.2997843    0.7626424  
   0.190990500     0.4288562    0.6965861  
   0.192990400     0.5321848    0.6195806  
   0.194990300     0.6204486    0.5295019  
   0.196990200     0.6933975    0.4268904  
   0.198990100     0.7497076    0.3140344  
   0.200990000     0.7881685    0.1929908  
   0.202989900     0.8075573    0.0668328  
   0.204989800     0.8066086   -0.0610250  
   0.206989700     0.7854282   -0.1865295  
   0.208989600     0.7451144   -0.3072890  
   0.210989500     0.6859210   -0.4208214  
   0.212989400     0.6094701   -0.5236011  
   0.214989300     0.5176710   -0.6127038  
   0.216989200     0.4135579   -0.6861138  
   0.218989100     0.2993017   -0.7415980  
   0.220989000     0.1779725   -0.7786888  
   0.222988900     0.0522341   -0.7957581  
   0.224988800    -0.0744707   -0.7930716  
   0.226988700    -0.1984828   -0.7700992  
   0.228988600    -0.3165428   -0.7282231  
   0.230988500    -0.4261498   -0.6687039  
   0.232988400    -0.5249304   -0.5931203  
   0.234988300    -0.6105468   -0.5025910  
   0.236988200    -0.6806627   -0.4002229  
   0.238988100    -0.7337568   -0.2884899  
   0.240988000    -0.7685872   -0.1707880  
   0.242987900    -0.7845803   -0.0497049  
   0.244987800    -0.7814893    0.0718018  
   0.246987700    -0.7600207    0.1915800  
   0.248987600    -0.7200970    0.3068694  
   0.250987500    -0.6626059    0.4142564  
   0.252987400    -0.5898576    0.5113797  
   0.254987300    -0.5035236    0.5955682  
   0.256987200    -0.4053567    0.6652055  
   0.258987100    -0.2977661    0.7189599  
   0.260987000    -0.1829076    0.7560349  
   0.262986900    -0.0634134    0.7749588  
   0.264986800     0.0581351    0.7752117  
   0.266986700     0.1780078    0.7568426  
   0.268986600     0.2938017    0.7200789  
   0.270986500     0.4021818    0.6665022  
   0.272986400     0.5011365    0.5963913  
   0.274986300     0.5882527    0.5122677  
   0.276986200     0.6618246    0.4147218  
   0.278986100     0.7195467    0.3070611  
   0.280986000     0.7601591    0.1909267  
   0.282985900     0.7825809    0.0698681  
   0.284985800     0.7854357   -0.0537544  
   0.286985700     0.7693386   -0.1761856  
   0.288985600     0.7343092   -0.2939537  
   0.290985500     0.6815881   -0.4047807  
   0.292985400     0.6126601   -0.5060886  
   0.294985300     0.5286961   -0.5955223  
   0.296985200     0.4315768   -0.6712484  
   0.298985100     0.3235244   -0.7313783  
   0.300985000     0.2071074   -0.7735257  
   0.302984900     0.0857369   -0.7973088  
   0.304984800    -0.0372687   -0.8023255  
   0.306984700    -0.1593599   -0.7877241  
   0.308984600    -0.2766427   -0.7550867  
   0.310984500    -0.3870335   -0.7049061  
   0.312984400    -0.4881823   -0.6394390  
   0.314984300    -0.5779303   -0.5592627  
   0.316984200    -0.6543843   -0.4667137  
   0.318984100    -0.7157904   -0.3630351  
   0.320984000    -0.7611783   -0.2511497  
   0.322983900    -0.7891130   -0.1332054  
   0.324983800    -0.7984887   -0.0128085  
   0.326983700    -0.7895960    0.1071110  
   0.328983600    -0.7626171    0.2244779  
   0.330983500    -0.7181106    0.3356835  
   0.332983400    -0.6578019    0.4378077  
   0.334983300    -0.5831556    0.5300992  
   0.336983200    -0.4950655    0.6099078  
   0.338983100    -0.3963588    0.6755597  
   0.340983000    -0.2885630    0.7253047  
   0.342982900    -0.1744672    0.7584565  
   0.344982800    -0.0560003    0.7737190  
   0.346982700     0.0644907    0.7705289  
   0.348982600     0.1834174    0.7490920  
   0.350982500     0.2978760    0.7091134  
   0.352982400     0.4049810    0.6515668  
   0.354982300     0.5060398    0.5741814  
   0.356982200     0.6016193    0.4712169  
   0.358982100     0.6762450    0.3524719  
   0.360982000     0.7285228    0.2227806  
   0.362981900     0.7568919    0.0855196  
   0.364981800     0.7598897   -0.0548742  
   0.366981700     0.7373385   -0.1936987  
   0.368981600     0.6898465   -0.3263249  
   0.370981500     0.6190634   -0.4485434  
   0.372981400     0.5267347   -0.5558608  
   0.374981300     0.4160011   -0.6445591  
   0.376981200     0.4995023   -0.5736548  
   0.378981100     0.3858429   -0.6579115  
   0.380981000     0.2587853   -0.7195531  
   0.382980900     0.1351108   -0.7543629  
   0.384980800     0.0129202   -0.7679366  
   0.386980700    -0.1095199   -0.7622406  
   0.388980600    -0.2288690   -0.7370933  
   0.390980500    -0.3421489   -0.6938312  
   0.392980400    -0.4461205   -0.6343307  
   0.394980300    -0.5388527   -0.5601948  
   0.396980200    -0.6187564   -0.4731113  
   0.398980100    -0.6842400   -0.3759864  
   0.400980000    -0.7342972   -0.2698939  
   0.402979900    -0.7674890   -0.1582210  
   0.404979800    -0.7836998   -0.0438919  
   0.406979700    -0.7827895    0.0714352  
   0.408979600    -0.7652546    0.1849664  
   0.410979500    -0.7305689    0.2946955  
   0.412979400    -0.6799659    0.3988510  
   0.414979300    -0.6146596    0.4943426  
   0.416979200    -0.5362958    0.5790299  
   0.418979100    -0.4460582    0.6511133  
   0.420979000    -0.3459418    0.7091356  
   0.422978900    -0.2380292    0.7517275  
   0.424978800    -0.1244700    0.7781206  
   0.426978700    -0.0077367    0.7871332  
   0.428978600     0.1093959    0.7786183  
   0.430978500     0.2239227    0.7525449  
   0.432978400     0.3332478    0.7093542  
   0.434978300     0.4350615    0.6500401  
   0.436978200     0.5272644    0.5759252  
   0.438978100     0.6071587    0.4879022  
   0.440978000     0.6731350    0.3882289  
   0.442977900     0.7229208    0.2788301  
   0.444977800     0.7556412    0.1629206  
   0.446977700     0.7696044    0.0424760  
   0.448977600     0.7645267   -0.0789269  
   0.450977500     0.7400809   -0.1982063  
   0.452977400     0.6968588   -0.3131199  
   0.454977300     0.6355262   -0.4208051  
   0.456977200     0.5569730   -0.5170867  
   0.458977100     0.4635505   -0.5997414  
   0.460977000     0.3577988   -0.6662903  
   0.462976900     0.2428222   -0.7143182  
   0.464976800     0.1217238   -0.7431993  
   0.466976700    -0.0024579   -0.7518982  
   0.468976600    -0.1257399   -0.7400235  
   0.470976500    -0.2455291   -0.7088087  
   0.472976400    -0.3581896   -0.6584757  
   0.474976300    -0.4606965   -0.5910339  
   0.476976200    -0.5501672   -0.5083692  
   0.478976100    -0.6247824   -0.4131142  
   0.480976000    -0.6831328   -0.3085793  
   0.482975900    -0.7237766   -0.1969504  
   0.484975800    -0.7462020   -0.0810066  
   0.486975700    -0.7500556    0.0366181  
   0.488975600    -0.7366095    0.1529346  
   0.490975500    -0.7048900    0.2653815  
   0.492975400    -0.6564994    0.3713012  
   0.494975300    -0.5930492    0.4682908  
   0.496975200    -0.5151651    0.5544335  
   0.498975100    -0.4256141    0.6274868  
   0.500975000    -0.3266051    0.6856596  
   0.502974900    -0.2199109    0.7285191  
   0.504974800    -0.1079760    0.7546271  
   0.506974700     0.0072580    0.7633965  
   0.508974600     0.1229455    0.7546110  
   0.510974500     0.2364272    0.7284958  
   0.512974400     0.3447326    0.6850326  
   0.514974300     0.4449912    0.6258324  
   0.516974200     0.5352183    0.5520402  
   0.518974100     0.6133667    0.4655732  
   0.520974000     0.6776146    0.3676122  
   0.522973900     0.7260364    0.2607607  
   0.524973800     0.7579419    0.1476731  
   0.526973700     0.7720659    0.0302181  
   0.528973600     0.7681997   -0.0882463  
   0.530973500     0.7457885   -0.2055495  
   0.532973400     0.7053987   -0.3180203  
   0.534973300     0.6478620   -0.4233014  
   0.536973200     0.5741895   -0.5187284  
   0.538973100     0.4873284   -0.6013901  
   0.540973000     0.3883385   -0.6693722  
   0.542972900     0.2800138   -0.7211381  
   0.544972800     0.1652220   -0.7555840  
   0.546972700     0.0455224   -0.7720075  
   0.548972600    -0.0752631   -0.7695694  
   0.550972500    -0.1943147   -0.7479088  
   0.552972400    -0.3088696   -0.7079856  
   0.554972300    -0.4156063   -0.6505824  
   0.556972200    -0.5118017   -0.5770265  
   0.558972100    -0.5953535   -0.4893848  
   0.560972000    -0.6637590   -0.3899380  
   0.562971900    -0.7157592   -0.2817056  
   0.564971800    -0.7497634   -0.1669578  
   0.566971700    -0.7657004   -0.0487721  
   0.568971600    -0.7628754    0.0697787  
   0.570971500    -0.7418354    0.1863992  
   0.572971400    -0.7028905    0.2984003  
   0.574971300    -0.6468422    0.4029858  
   0.576971200    -0.5750809    0.4978891  
   0.578971100    -0.4892124    0.5802119  
   0.580971000    -0.3913985    0.6481797  
   0.582970900    -0.2846593    0.6998770  
   0.584970800    -0.1710508    0.7341540  
   0.586970700    -0.0540093    0.7503087  
   0.588970600     0.0644484    0.7476240  
   0.590970500     0.1809074    0.7267236  
   0.592970400     0.2925027    0.6873866  
   0.594970300     0.3968381    0.6311293  
   0.596970200     0.4912394    0.5586879  
   0.598970100     0.5734472    0.4722960  
   0.600970000     0.6405486    0.3734872  
   0.602969900     0.6913752    0.2651380  
   0.604969800     0.7242963    0.1493037  
   0.606969700     0.7385361    0.0298399  
   0.608969600     0.7333253   -0.0917340  
   0.610969500     0.7084783   -0.2101779  
   0.612969400     0.6648150   -0.3238077  
   0.614969300     0.6034763   -0.4284897  
   0.616969200     0.5261027   -0.5213266  
   0.618969100     0.4353799   -0.6008430  
   0.620969000     0.3338522   -0.6641873  
   0.622968900     0.2234880   -0.7107778  
   0.624968800     0.1070857   -0.7393062  
   0.626968700    -0.0122847   -0.7486546  
   0.628968600    -0.1318849   -0.7395817  
   0.630968500    -0.2483141   -0.7117935  
   0.632968400    -0.3586203   -0.6663132  
   0.634968300    -0.4601507   -0.6037931  
   0.636968200    -0.5506996   -0.5269462  
   0.638968100    -0.6276429   -0.4370542  
   0.640968000    -0.6896751   -0.3364821  
   0.642967900    -0.7351274   -0.2279730  
   0.644967800    -0.7639309   -0.1143172  
   0.646967700    -0.7747175    0.0022062  
   0.648967600    -0.7674028    0.1182431  
   0.650967500    -0.7429975    0.2313669  
   0.652967400    -0.7024130    0.3390352  
   0.654967300    -0.6462313    0.4391912  
   0.656967200    -0.5757726    0.5297619  
   0.658967100    -0.4928460    0.6084428  
   0.660967000    -0.3989247    0.6746224  
   0.662966900    -0.2958217    0.7258819  
   0.664966800    -0.1854441    0.7611094  
   0.666966700    -0.0704196    0.7798271  
   0.668966600     0.0463694    0.7810754  
   0.670966500     0.1621790    0.7642227  
   0.672966400     0.2746809    0.7296420  
   0.674966300     0.3809196    0.6785682  
   0.676966200     0.4781607    0.6121345  
   0.678966100     0.5641679    0.5315357  
   0.680966000     0.6369815    0.4381831  
   0.682965900     0.6948468    0.3342949  
   0.684965800     0.7360473    0.2227295  
   0.686965700     0.7598464    0.1053893  
   0.688965600     0.7646765   -0.0147955  
   0.690965500     0.7507517   -0.1344382  
   0.692965400     0.7181766   -0.2506495  
   0.694965300     0.6680282   -0.3604861  
   0.696965200     0.6004667   -0.4611372  
   0.698965100     0.5178258   -0.5499933  
   0.700965000     0.4217304   -0.6250032  
   0.702964900     0.3150862   -0.6833926  
   0.704964800     0.2000024   -0.7242100  
   0.706964700     0.0797966   -0.7461048  
   0.708964600    -0.0419633   -0.7482255  
   0.710964500    -0.1627954   -0.7309520  
   0.712964400    -0.2784130   -0.6943813  
   0.714964300    -0.3868798   -0.6396982  
   0.716964200    -0.4845263   -0.5690598  
   0.718964100    -0.5689343   -0.4842861  
   0.720964000    -0.6383203   -0.3878962  
   0.722963900    -0.6915268   -0.2828246  
   0.724963800    -0.7274442   -0.1711636  
   0.726963700    -0.7458501   -0.0558736  
   0.728963600    -0.7459866    0.0600523  
   0.730963500    -0.7286152    0.1746266  
   0.732963400    -0.6939726    0.2843976  
   0.734963300    -0.6427880    0.3875455  
   0.736963200    -0.5649845    0.4941751  
   0.738963100    -0.4688689    0.5860907  
   0.740963000    -0.3578529    0.6601636  
   0.742962900    -0.2356172    0.7137411  
   0.744962800    -0.1054995    0.7452213  
   0.746962700     0.0285252    0.7536303  
   0.748962600     0.1623909    0.7386356  
   0.750962500     0.0304989    0.7562445  
   0.752962400     0.1635854    0.7392528  
   0.754962300     0.2920126    0.6993892  
   0.756962200     0.4119253    0.6375272  
   0.758962100     0.5189567    0.5554197  
   0.760962000     0.6110036    0.4553608  
   0.762961900     0.6807712    0.3465973  
   0.764961800     0.7275434    0.2386420  
   0.766961700     0.7570854    0.1247242  
   0.768961600     0.7688302    0.0067319  
   0.770961500     0.7621320   -0.1119524  
   0.772961400     0.7372827   -0.2282543  
   0.774961300     0.6947544   -0.3398571  
   0.776961200     0.6349509   -0.4441037  
   0.778961100     0.5592064   -0.5377883  
   0.780961000     0.4695299   -0.6194215  
   0.782960900     0.3674738   -0.6861371  
   0.784960800     0.2553571   -0.7359913  
   0.786960700     0.1366856   -0.7677876  
   0.788960600     0.0141197   -0.7799833  
   0.790960500    -0.1085187   -0.7731772  
   0.792960400    -0.2282659   -0.7461581  
   0.794960300    -0.3422312   -0.7007259  
   0.796960200    -0.4466366   -0.6382337  
   0.798960100    -0.5398847   -0.5602631  
   0.800960000    -0.6191311   -0.4694440  
   0.802959900    -0.6827627   -0.3671066  
   0.804959800    -0.7296873   -0.2572909  
   0.806959700    -0.7585769   -0.1420361  
   0.808959600    -0.7692991   -0.0243553  
   0.810959500    -0.7621840    0.0930178  
   0.812959400    -0.7367275    0.2073862  
   0.814959300    -0.6944704    0.3158363  
   0.816959200    -0.6361536    0.4165208  
   0.818959100    -0.5635803    0.5066770  
   0.820959000    -0.4781857    0.5846315  
   0.822958900    -0.3820260    0.6486453  
   0.824958800    -0.2777230    0.6972554  
   0.826958700    -0.1668289    0.7295636  
   0.828958600    -0.0524753    0.7443887  
   0.830958500     0.0628532    0.7413636  
   0.832958400     0.1763406    0.7210495  
   0.834958300     0.2855562    0.6839076  
   0.836958200     0.3878413    0.6302009  
   0.838958100     0.4807483    0.5612115  
   0.840958000     0.5626343    0.4786188  
   0.842957900     0.6308739    0.3837956  
   0.844957800     0.6840110    0.2790426  
   0.846957700     0.7203436    0.1666015  
   0.848957600     0.7389418    0.0497354  
   0.850957500     0.7382413   -0.0695116  
   0.852957400     0.7190302   -0.1871251  
   0.854957300     0.6811085   -0.3007958  
   0.856957200     0.6257911   -0.4071551  
   0.858957100     0.5537930   -0.5036254  
   0.860957000     0.4677432   -0.5872481  
   0.862956900     0.3697338   -0.6557829  
   0.864956800     0.2622889   -0.7081587  
   0.866956700     0.1487610   -0.7427996  
   0.868956600     0.0309970   -0.7596062  
   0.870956500    -0.0874691   -0.7578765  
   0.872956400    -0.2043698   -0.7375145  
   0.874956300    -0.3163254   -0.6996483  
   0.876956200    -0.4208332   -0.6447659  
   0.878956100    -0.5154586   -0.5746454  
   0.880956000    -0.5982918   -0.4910949  
   0.882955900    -0.6669734   -0.3956695  
   0.884955800    -0.7198513   -0.2915364  
   0.886955700    -0.7563916   -0.1806370  
   0.888955600    -0.7757173   -0.0657478  
   0.890955500    -0.7773454    0.0498944  
   0.892955400    -0.7618284    0.1643434  
   0.894955300    -0.7291651    0.2747154  
