! MS46122B
! 2250307/22442219
! 6/20/2025 7:53:22 AM
! C:\USERS\SPARKY\DOCUMENTS\VNA_DATA\JUNE20_2025\3.0K\PORT6_MOS1.S1P
! CHANNEL.1
! TR.MEASUREMENT
! RAW.DATA
# GHZ S RI R 50.0
! FREQ.GHZ         S11RE         S11IM         
!; PortSelection: Port_1
   0.001000000    -0.8869888    0.0502095  
   0.002999900    -0.8616307    0.2468146  
   0.004999800    -0.8258677    0.3870087  
   0.006999700    -0.7649809    0.5127376  
   0.008999600    -0.6809781    0.6221367  
   0.010999500    -0.5781296    0.7132661  
   0.012999400    -0.4605648    0.7848113  
   0.014999300    -0.3317553    0.8355639  
   0.016999200    -0.1967850    0.8652655  
   0.018999100    -0.0587832    0.8740516  
   0.020999000     0.0785980    0.8627746  
   0.022998900     0.2121607    0.8323623  
   0.024998800     0.3120294    0.7642417  
   0.026998700     0.4568555    0.7181759  
   0.028998600     0.5635466    0.6370652  
   0.030998500     0.6567562    0.5424312  
   0.032998400     0.7008071    0.4345494  
   0.034998300     0.7956063    0.3182093  
   0.036998200     0.8377975    0.1929952  
   0.038998100     0.8602411    0.0624373  
   0.040998000     0.8619121   -0.0696963  
   0.042997900     0.8424093   -0.2012341  
   0.044997800     0.7805049   -0.3030787  
   0.046997700     0.7426665   -0.4466509  
   0.048997600     0.6653784   -0.5545800  
   0.050997500     0.5722654   -0.6489521  
   0.052997400     0.4672831   -0.7271866  
   0.054997300     0.3504617   -0.7892772  
   0.056997200     0.2262836   -0.8325109  
   0.058997100     0.0981700   -0.8569412  
   0.060997000    -0.0318588   -0.8616836  
   0.062996900    -0.1605380   -0.8470484  
   0.064996800    -0.2854741   -0.8135887  
   0.066996700    -0.4037995   -0.7619114  
   0.068996600    -0.5126611   -0.6927822  
   0.070996500    -0.6093467   -0.6083454  
   0.072996400    -0.6924779   -0.5104064  
   0.074996300    -0.7594327   -0.4010873  
   0.076996200    -0.8087734   -0.2830881  
   0.078996100    -0.8399395   -0.1589534  
   0.080996000    -0.8521578   -0.0315973  
   0.082995900    -0.8451790    0.0961292  
   0.084995800    -0.8184994    0.2215233  
   0.086995700    -0.7736090    0.3415013  
   0.088995600    -0.7109286    0.4535564  
   0.090995500    -0.6318105    0.5548963  
   0.092995400    -0.5378283    0.6432593  
   0.094995300    -0.4315616    0.7163767  
   0.096995200    -0.3143989    0.7726563  
   0.098995100    -0.1900839    0.8099815  
   0.100995000    -0.0606135    0.8272513  
   0.102994900     0.0696663    0.8241721  
   0.104994800     0.1981859    0.8006490  
   0.106994700     0.3219122    0.7567563  
   0.108994600     0.4370777    0.6941249  
   0.110994500     0.5412509    0.6140323  
   0.112994400     0.6311159    0.5181449  
   0.114994300     0.7047775    0.4093281  
   0.116994200     0.7602444    0.2902707  
   0.118994100     0.7962209    0.1638573  
   0.120994000     0.8113608    0.0336224  
   0.122993900     0.8057170   -0.0969356  
   0.124993800     0.7798145   -0.2246447  
   0.126993700     0.7337415   -0.3464905  
   0.128993600     0.6694597   -0.4594920  
   0.130993500     0.5883970   -0.5602463  
   0.132993400     0.4932808   -0.6463581  
   0.134993300     0.3859665   -0.7166944  
   0.136993200     0.2698317   -0.7688612  
   0.138993100     0.1473781   -0.8026099  
   0.140993000     0.0222109   -0.8167611  
   0.142992900    -0.1034978   -0.8117650  
   0.144992800    -0.2259102   -0.7879172  
   0.146992700    -0.3429973   -0.7456983  
   0.148992600    -0.4519385   -0.6868073  
   0.150992500    -0.5504293   -0.6123263  
   0.152992400    -0.6360541   -0.5241699  
   0.154992300    -0.7075107   -0.4249686  
   0.156992200    -0.7632853   -0.3160333  
   0.158992100    -0.8025460   -0.2007271  
   0.160992000    -0.8239632   -0.0806518  
   0.162991900    -0.8276551    0.0407690  
   0.164991800    -0.8131301    0.1615594  
   0.166991700    -0.7810929    0.2787221  
   0.168991600    -0.7323273    0.3898269  
   0.170991500    -0.6672550    0.4931970  
   0.172991400    -0.5877165    0.5853149  
   0.174991300    -0.4953949    0.6647617  
   0.176991200    -0.3916686    0.7304181  
   0.178991100    -0.2787240    0.7798117  
   0.180991000    -0.1598942    0.8119956  
   0.182990900    -0.0369456    0.8260440  
   0.184990800     0.0873307    0.8214335  
   0.186990700     0.2104094    0.7981238  
   0.188990600     0.3058668    0.7652017  
   0.190990500     0.4354652    0.6981828  
   0.192990400     0.5390494    0.6199715  
   0.194990300     0.6272063    0.5287085  
   0.196990200     0.7000425    0.4250193  
   0.198990100     0.7561877    0.3110233  
   0.200990000     0.7941298    0.1888772  
   0.202989900     0.8125079    0.0618042  
   0.204989800     0.8108621   -0.0667877  
   0.206989700     0.7887168   -0.1931058  
   0.208989600     0.7471246   -0.3144688  
   0.210989500     0.6866103   -0.4282138  
   0.212989400     0.6090493   -0.5312740  
   0.214989300     0.5159272   -0.6202667  
   0.216989200     0.4105521   -0.6930479  
   0.218989100     0.2951517   -0.7482092  
   0.220989000     0.1727825   -0.7846794  
   0.222988900     0.0459936   -0.8006958  
   0.224988800    -0.0814654   -0.7968565  
   0.226988700    -0.2059559   -0.7730792  
   0.228988600    -0.3245656   -0.7297703  
   0.230988500    -0.4342233   -0.6688390  
   0.232988400    -0.5328547   -0.5919604  
   0.234988300    -0.6183072   -0.5003027  
   0.236988200    -0.6880007   -0.3967358  
   0.238988100    -0.7403642   -0.2838476  
   0.240988000    -0.7744164   -0.1652188  
   0.242987900    -0.7895867   -0.0433839  
   0.244987800    -0.7854735    0.0788033  
   0.246987700    -0.7626039    0.1991026  
   0.248987600    -0.7217541    0.3148260  
   0.250987500    -0.6630808    0.4223005  
   0.252987400    -0.5889466    0.5193292  
   0.254987300    -0.5014001    0.6032343  
   0.256987200    -0.4022529    0.6726052  
   0.258987100    -0.2935439    0.7259861  
   0.260987000    -0.1775987    0.7619692  
   0.262986900    -0.0572406    0.7800641  
   0.264986800     0.0647202    0.7794691  
   0.266986700     0.1856273    0.7597958  
   0.268986600     0.3016118    0.7218025  
   0.270986500     0.4105309    0.6667571  
   0.272986400     0.5093346    0.5955513  
   0.274986300     0.5963088    0.5098557  
   0.276986200     0.6691896    0.4110924  
   0.278986100     0.7267331    0.3022768  
   0.280986000     0.7663381    0.1850930  
   0.282985900     0.7875408    0.0630027  
   0.284985800     0.7893066   -0.0614743  
   0.286985700     0.7721007   -0.1844800  
   0.288985600     0.7356443   -0.3025856  
   0.290985500     0.6814091   -0.4135415  
   0.292985400     0.6112310   -0.5148150  
   0.294985300     0.5258946   -0.6039445  
   0.296985200     0.4275177   -0.6791816  
   0.298985100     0.3180814   -0.7383803  
   0.300985000     0.2006015   -0.7798334  
   0.302984900     0.0783580   -0.8025215  
   0.304984800    -0.0453932   -0.8061240  
   0.306984700    -0.1680779   -0.7904659  
   0.308984600    -0.2856311   -0.7564764  
   0.310984500    -0.3960048   -0.7049696  
   0.312984400    -0.4970283   -0.6379718  
   0.314984300    -0.5864334   -0.5566169  
   0.316984200    -0.6624014   -0.4628517  
   0.318984100    -0.7229826   -0.3579773  
   0.320984000    -0.7674537   -0.2450122  
   0.322983900    -0.7945935   -0.1261906  
   0.324983800    -0.8028205   -0.0049499  
   0.326983700    -0.7924921    0.1156135  
   0.328983600    -0.7642993    0.2329726  
   0.330983500    -0.7185692    0.3445517  
   0.332983400    -0.6569207    0.4467146  
   0.334983300    -0.5807046    0.5385802  
   0.336983200    -0.4915576    0.6179854  
   0.338983100    -0.3917136    0.6829243  
   0.340983000    -0.2825527    0.7319456  
   0.342982900    -0.1673565    0.7639908  
   0.344982800    -0.0479546    0.7782459  
   0.346982700     0.0730754    0.7737876  
   0.348982600     0.1926053    0.7507778  
   0.350982500     0.3073141    0.7093859  
   0.352982400     0.4144376    0.6504255  
   0.354982300     0.5152665    0.5715122  
   0.356982200     0.6100036    0.4666555  
   0.358982100     0.6840342    0.3464005  
   0.360982000     0.7350141    0.2155376  
   0.362981900     0.7618805    0.0772179  
   0.364981800     0.7631626   -0.0640669  
   0.366981700     0.7390759   -0.2035538  
   0.368981600     0.6898086   -0.3362466  
   0.370981500     0.6171322   -0.4583137  
   0.372981400     0.5232074   -0.5650544  
   0.374981300     0.4106248   -0.6532022  
   0.376981200     0.4955905   -0.5827248  
   0.378981100     0.3801874   -0.6660087  
   0.380981000     0.2519034   -0.7265571  
   0.382980900     0.1272431   -0.7601464  
   0.384980800     0.0042377   -0.7723421  
   0.386980700    -0.1186989   -0.7649387  
   0.388980600    -0.2384752   -0.7386541  
   0.390980500    -0.3516613   -0.6939163  
   0.392980400    -0.4556082   -0.6327459  
   0.394980300    -0.5478202   -0.5572203  
   0.396980200    -0.6270514   -0.4692086  
   0.398980100    -0.6918931   -0.3706892  
   0.400980000    -0.7408786   -0.2635236  
   0.402979900    -0.7732822   -0.1509847  
   0.404979800    -0.7881826   -0.0357368  
   0.406979700    -0.7859690    0.0799619  
   0.408979600    -0.7670192    0.1939459  
   0.410979500    -0.7310256    0.3037872  
   0.412979400    -0.6791123    0.4078949  
   0.414979300    -0.6123285    0.5030931  
   0.416979200    -0.5324576    0.5874525  
   0.418979100    -0.4410245    0.6589417  
   0.420979000    -0.3397091    0.7162443  
   0.422978900    -0.2307018    0.7575805  
   0.424978800    -0.1162305    0.7830672  
   0.426978700     0.0013163    0.7907515  
   0.428978600     0.1188673    0.7808206  
   0.430978500     0.2336317    0.7532592  
   0.432978400     0.3430190    0.7087936  
   0.434978300     0.4446993    0.6478815  
   0.436978200     0.5364835    0.5721290  
   0.438978100     0.6158440    0.4827498  
   0.440978000     0.6809869    0.3818635  
   0.442977900     0.7297948    0.2712098  
   0.444977800     0.7611657    0.1541778  
   0.446977700     0.7737047    0.0329633  
   0.448977600     0.7672324   -0.0889764  
   0.450977500     0.7411192   -0.2085911  
   0.452977400     0.6962743   -0.3234814  
   0.454977300     0.6332365   -0.4311204  
   0.456977200     0.5529913   -0.5269826  
   0.458977100     0.4577790   -0.6088352  
   0.460977000     0.3505648   -0.6745262  
   0.462976900     0.2346753   -0.7212167  
   0.464976800     0.1123737   -0.7486497  
   0.466976700    -0.0125463   -0.7556129  
   0.468976600    -0.1361669   -0.7421712  
   0.470976500    -0.2561382   -0.7092012  
   0.472976400    -0.3685368   -0.6570373  
   0.474976300    -0.4705652   -0.5879242  
   0.476976200    -0.5595584   -0.5036615  
   0.478976100    -0.6333467   -0.4070784  
   0.480976000    -0.6902711   -0.3011569  
   0.482975900    -0.7297409   -0.1885381  
   0.484975800    -0.7507746   -0.0718505  
   0.486975700    -0.7531577    0.0464164  
   0.488975600    -0.7379810    0.1629916  
   0.490975500    -0.7048120    0.2755231  
   0.492975400    -0.6548700    0.3812266  
   0.494975300    -0.5897281    0.4781088  
   0.496975200    -0.5103069    0.5634055  
   0.498975100    -0.4197433    0.6356722  
   0.500975000    -0.3194120    0.6929490  
   0.502974900    -0.2117746    0.7344381  
   0.504974800    -0.0990244    0.7593465  
   0.506974700     0.0167636    0.7667954  
   0.508974600     0.1329156    0.7564917  
   0.510974500     0.2465010    0.7287868  
   0.512974400     0.3548970    0.6838478  
   0.514974300     0.4548090    0.6231425  
   0.516974200     0.5445790    0.5478646  
   0.518974100     0.6219130    0.4600063  
   0.520974000     0.6854081    0.3607643  
   0.522973900     0.7326682    0.2529124  
   0.524973800     0.7631987    0.1388650  
   0.526973700     0.7759975    0.0205586  
   0.528973600     0.7707390   -0.0981831  
   0.530973500     0.7465942   -0.2158303  
   0.532973400     0.7045942   -0.3282813  
   0.534973300     0.6456293   -0.4332871  
   0.536973200     0.5703835   -0.5282485  
   0.538973100     0.4820360   -0.6101692  
   0.540973000     0.3816687   -0.6770506  
   0.542972900     0.2722906   -0.7277213  
   0.544972800     0.1565204   -0.7609193  
   0.546972700     0.0361671   -0.7756230  
   0.548972600    -0.0852010   -0.7718331  
   0.550972500    -0.2043755   -0.7485901  
   0.552972400    -0.3189383   -0.7069935  
   0.554972300    -0.4255721   -0.6478480  
   0.556972200    -0.5210363   -0.5728060  
   0.558972100    -0.6038730   -0.4837917  
   0.560972000    -0.6713238   -0.3829634  
   0.562971900    -0.7218816   -0.2735798  
   0.564971800    -0.7548357   -0.1579103  
   0.566971700    -0.7691385   -0.0391240  
   0.568971600    -0.7646371    0.0798556  
   0.570971500    -0.7420297    0.1967308  
   0.572971400    -0.7015722    0.3086577  
   0.574971300    -0.6439157    0.4129653  
   0.576971200    -0.5704020    0.5073420  
   0.578971100    -0.4832965    0.5888500  
   0.580971000    -0.3841939    0.6558551  
   0.582970900    -0.2762517    0.7063183  
   0.584970800    -0.1618251    0.7391414  
   0.586970700    -0.0441846    0.7539663  
   0.588970600     0.0746566    0.7498760  
   0.590970500     0.1914482    0.7270936  
   0.592970400     0.3031195    0.6860751  
   0.594970300     0.4072358    0.6282590  
   0.596970200     0.5008778    0.5544090  
   0.598970100     0.5821734    0.4664509  
   0.600970000     0.6482432    0.3664484  
   0.602969900     0.6979201    0.2568976  
   0.604969800     0.7295390    0.1400505  
   0.606969700     0.7419879    0.0198764  
   0.608969600     0.7352337   -0.1019773  
   0.610969500     0.7085039   -0.2209118  
   0.612969400     0.6632018   -0.3341389  
   0.614969300     0.6000901   -0.4383546  
   0.616969200     0.5211402   -0.5306977  
   0.618969100     0.4291666   -0.6091229  
   0.620969000     0.3262657   -0.6711662  
   0.622968900     0.2149759   -0.7164028  
   0.624968800     0.0978671   -0.7435091  
   0.626968700    -0.0219664   -0.7512996  
   0.628968600    -0.1418272   -0.7404532  
   0.630968500    -0.2583039   -0.7111710  
   0.632968400    -0.3683371   -0.6641321  
   0.634968300    -0.4693945   -0.6000366  
   0.636968200    -0.5591123   -0.5218512  
   0.638968100    -0.6353260   -0.4307647  
   0.640968000    -0.6962122   -0.3291189  
   0.642967900    -0.7403569   -0.2196149  
   0.644967800    -0.7679140   -0.1052858  
   0.646967700    -0.7772713    0.0115913  
   0.648967600    -0.7685459    0.1278467  
   0.650967500    -0.7426959    0.2407522  
   0.652967400    -0.7008302    0.3484049  
   0.654967300    -0.6432746    0.4481778  
   0.656967200    -0.5715674    0.5382454  
   0.658967100    -0.4873334    0.6163067  
   0.660967000    -0.3926105    0.6814022  
   0.662966900    -0.2884568    0.7316812  
   0.664966800    -0.1771556    0.7658135  
   0.666966700    -0.0615929    0.7832466  
   0.668966600     0.0555581    0.7830561  
   0.670966500     0.1718560    0.7646776  
   0.672966400     0.2841555    0.7286323  
   0.674966300     0.3898906    0.6763307  
   0.676966200     0.4868054    0.6084369  
   0.678966100     0.5720829    0.5264921  
   0.680966000     0.6440260    0.4318624  
   0.682965900     0.7008086    0.3270622  
   0.684965800     0.7408931    0.2146762  
   0.686965700     0.7631532    0.0967158  
   0.688965600     0.7665581   -0.0239202  
   0.690965500     0.7512200   -0.1437353  
   0.692965400     0.7170234   -0.2600417  
   0.694965300     0.6653020   -0.3693110  
   0.696965200     0.5963273   -0.4694366  
   0.698965100     0.5124398   -0.5575918  
   0.700965000     0.4151430   -0.6315169  
   0.702964900     0.3074413   -0.6886994  
   0.704964800     0.1916192   -0.7283183  
   0.706964700     0.0708479   -0.7487758  
   0.708964600    -0.0512498   -0.7493855  
   0.710964500    -0.1721780   -0.7305785  
   0.712964400    -0.2877915   -0.6925662  
   0.714964300    -0.3957295   -0.6364666  
   0.716964200    -0.4925290   -0.5644136  
   0.718964100    -0.5760408   -0.4786660  
   0.720964000    -0.6445689   -0.3813170  
   0.722963900    -0.6966514   -0.2756127  
   0.724963800    -0.7313358   -0.1631569  
   0.726963700    -0.7485468   -0.0476962  
   0.728963600    -0.7474854    0.0688499  
   0.730963500    -0.7287619    0.1832585  
   0.732963400    -0.6928587    0.2928978  
   0.734963300    -0.6406590    0.3956249  
   0.736963200    -0.5611845    0.5020432  
   0.738963100    -0.4639228    0.5928747  
   0.740963000    -0.3519048    0.6659963  
   0.742962900    -0.2288925    0.7184258  
   0.744962800    -0.0980573    0.7487928  
   0.746962700     0.0364952    0.7557885  
   0.748962600     0.1704419    0.7393039  
   0.750962500     0.0383205    0.7580346  
   0.752962400     0.1714450    0.7394775  
   0.754962300     0.2997423    0.6981961  
   0.756962200     0.4194257    0.6350303  
   0.758962100     0.5257619    0.5516513  
   0.760962000     0.6169476    0.4503336  
   0.762961900     0.6857467    0.3406400  
   0.764961800     0.7315033    0.2320880  
   0.766961700     0.7600046    0.1174914  
   0.768961600     0.7704133   -0.0008720  
   0.770961500     0.7625898   -0.1198001  
   0.772961400     0.7364478   -0.2360748  
   0.774961300     0.6926618   -0.3474211  
   0.776961200     0.6315513   -0.4512890  
   0.778961100     0.5547213   -0.5444469  
   0.780961000     0.4640037   -0.6252565  
   0.782960900     0.3609746   -0.6909818  
   0.784960800     0.2481406   -0.7398870  
   0.786960700     0.1289763   -0.7704983  
   0.788960600     0.0060941   -0.7815107  
   0.790960500    -0.1168807   -0.7731357  
   0.792960400    -0.2365483   -0.7449989  
   0.794960300    -0.3501446   -0.6982855  
   0.796960200    -0.4539591   -0.6347373  
   0.798960100    -0.5466229   -0.5556491  
   0.800960000    -0.6251565   -0.4639820  
   0.802959900    -0.6877981   -0.3607186  
   0.804959800    -0.7336284   -0.2501541  
   0.806959700    -0.7615040   -0.1345146  
   0.808959600    -0.7711021   -0.0165279  
   0.810959500    -0.7627255    0.1008963  
   0.812959400    -0.7359751    0.2152488  
   0.814959300    -0.6927447    0.3233927  
   0.816959200    -0.6332287    0.4237746  
   0.818959100    -0.5595750    0.5133963  
   0.820959000    -0.4732165    0.5904357  
   0.822958900    -0.3762232    0.6535763  
   0.824958800    -0.2713174    0.7011044  
   0.826958700    -0.1598979    0.7322921  
   0.828958600    -0.0451913    0.7460480  
   0.830958500     0.0702153    0.7417876  
   0.832958400     0.1836629    0.7203118  
   0.834958300     0.2925836    0.6818876  
   0.836958200     0.3944730    0.6271849  
   0.838958100     0.4867962    0.5572045  
   0.840958000     0.5679474    0.4736286  
   0.842957900     0.6353398    0.3779288  
   0.844957800     0.6875118    0.2726663  
   0.846957700     0.7229013    0.1596589  
   0.848957600     0.7403151    0.0424057  
   0.850957500     0.7385773   -0.0770543  
   0.852957400     0.7180957   -0.1947505  
   0.854957300     0.6789615   -0.3082444  
   0.856957200     0.6223950   -0.4142211  
   0.858957100     0.5494255   -0.5099319  
   0.860957000     0.4623803   -0.5928060  
   0.862956900     0.3636537   -0.6604972  
   0.864956800     0.2555113   -0.7118368  
   0.866956700     0.1415926   -0.7455168  
   0.868956600     0.0235230   -0.7612369  
   0.870956500    -0.0949696   -0.7583394  
   0.872956400    -0.2117309   -0.7368238  
   0.874956300    -0.3235081   -0.6978910  
   0.876956200    -0.4275914   -0.6420487  
   0.878956100    -0.5217316   -0.5707638  
   0.880956000    -0.6039211   -0.4864317  
   0.882955900    -0.6717358   -0.3902147  
   0.884955800    -0.7237932   -0.2857532  
   0.886955700    -0.7592366   -0.1741390  
   0.888955600    -0.7776037   -0.0590757  
   0.890955500    -0.7781761    0.0567744  
   0.892955400    -0.7614145    0.1710635  
   0.894955300    -0.7277157    0.2813824  
