! MS46122B
! 2250307/22442219
! 6/20/2025 7:49:52 AM
! C:\USERS\SPARKY\DOCUMENTS\VNA_DATA\JUNE20_2025\3.0K\PORT2_MOS3.S1P
! CHANNEL.1
! TR.MEASUREMENT
! RAW.DATA
# GHZ S RI R 50.0
! FREQ.GHZ         S11RE         S11IM         
!; PortSelection: Port_1
   0.001000000    -0.8754448    0.0505412  
   0.002999900    -0.8502421    0.2461893  
   0.004999800    -0.8142943    0.3852588  
   0.006999700    -0.7531795    0.5095147  
   0.008999600    -0.6695935    0.6177071  
   0.010999500    -0.5672038    0.7075073  
   0.012999400    -0.4498011    0.7779023  
   0.014999300    -0.3216578    0.8270207  
   0.016999200    -0.1875075    0.8557844  
   0.018999100    -0.0505754    0.8632803  
   0.020999000     0.0856710    0.8508487  
   0.022998900     0.2180183    0.8192620  
   0.024998800     0.3165497    0.7509472  
   0.026998700     0.4597685    0.7034626  
   0.028998600     0.5646850    0.6215872  
   0.030998500     0.6560057    0.5265330  
   0.032998400     0.6985452    0.4188924  
   0.034998300     0.7906904    0.3019162  
   0.036998200     0.8303819    0.1769138  
   0.038998100     0.8507671    0.0469993  
   0.040998000     0.8502387   -0.0843971  
   0.042997900     0.8282988   -0.2144009  
   0.044997800     0.7649863   -0.3143526  
   0.046997700     0.7245723   -0.4560045  
   0.048997600     0.6455857   -0.5616146  
   0.050997500     0.5511194   -0.6531855  
   0.052997400     0.4450374   -0.7286813  
   0.054997300     0.3280785   -0.7877067  
   0.056997200     0.2036416   -0.8275875  
   0.058997100     0.0758427   -0.8485796  
   0.060997000    -0.0532510   -0.8502228  
   0.062996900    -0.1806577   -0.8323722  
   0.064996800    -0.3037926   -0.7957133  
   0.066996700    -0.4197886   -0.7411748  
   0.068996600    -0.5258874   -0.6694760  
   0.070996500    -0.6193908   -0.5827935  
   0.072996400    -0.6987887   -0.4829066  
   0.074996300    -0.7619606   -0.3725262  
   0.076996200    -0.8072436   -0.2536246  
   0.078996100    -0.8340417   -0.1294212  
   0.080996000    -0.8416440   -0.0025246  
   0.082995900    -0.8303660    0.1242050  
   0.084995800    -0.7994277    0.2474844  
   0.086995700    -0.7502624    0.3650036  
   0.088995600    -0.6837323    0.4739819  
   0.090995500    -0.6013873    0.5714667  
   0.092995400    -0.5045299    0.6554775  
   0.094995300    -0.3955243    0.7235977  
   0.096995200    -0.2772039    0.7743941  
   0.098995100    -0.1517886    0.8060905  
   0.100995000    -0.0230083    0.8176236  
   0.102994900     0.1061079    0.8086517  
   0.104994800     0.2327086    0.7793379  
   0.106994700     0.3533851    0.7299625  
   0.108994600     0.4644518    0.6621767  
   0.110994500     0.5637922    0.5777758  
   0.112994400     0.6481878    0.4780804  
   0.114994300     0.7155880    0.3664387  
   0.116994200     0.7642562    0.2454318  
   0.118994100     0.7933259    0.1184226  
   0.120994000     0.8012723   -0.0114339  
   0.122993900     0.7884265   -0.1405178  
   0.124993800     0.7558054   -0.2656305  
   0.126993700     0.7033223   -0.3837992  
   0.128993600     0.6335364   -0.4917764  
   0.130993500     0.5474579   -0.5867987  
   0.132993400     0.4481623   -0.6668792  
   0.134993300     0.3379901   -0.7300480  
   0.136993200     0.2199160   -0.7749427  
   0.138993100     0.0967973   -0.8008865  
   0.140993000    -0.0283907   -0.8075327  
   0.142992900    -0.1521527   -0.7949628  
   0.144992800    -0.2721335   -0.7635731  
   0.146992700    -0.3854672   -0.7148519  
   0.148992600    -0.4898109   -0.6494043  
   0.150992500    -0.5825043   -0.5697004  
   0.152992400    -0.6617039   -0.4768377  
   0.154992300    -0.7262985   -0.3737893  
   0.156992200    -0.7743641   -0.2623492  
   0.158992100    -0.8055626   -0.1452302  
   0.160992000    -0.8188574   -0.0249083  
   0.162991900    -0.8145629    0.0958949  
   0.164991800    -0.7917455    0.2147889  
   0.166991700    -0.7518373    0.3289119  
   0.168991600    -0.6956002    0.4357045  
   0.170991500    -0.6236300    0.5339102  
   0.172991400    -0.5378389    0.6195889  
   0.174991300    -0.4400328    0.6920159  
   0.176991200    -0.3320451    0.7493461  
   0.178991100    -0.2161858    0.7900618  
   0.180991000    -0.0954375    0.8126416  
   0.182990900     0.0278179    0.8168512  
   0.184990800     0.1510366    0.8023400  
   0.186990700     0.2718047    0.7691427  
   0.188990600     0.3642974    0.7281569  
   0.190990500     0.4873021    0.6507940  
   0.192990400     0.5833434    0.5642139  
   0.194990300     0.6629201    0.4655822  
   0.196990200     0.7261157    0.3560236  
   0.198990100     0.7714683    0.2377475  
   0.200990000     0.7980424    0.1131086  
   0.202989900     0.8042669   -0.0147817  
   0.204989800     0.7901520   -0.1424577  
   0.206989700     0.7564858   -0.2654244  
   0.208989600     0.7034243   -0.3816766  
   0.210989500     0.6322108   -0.4882811  
   0.212989400     0.5449755   -0.5826841  
   0.214989300     0.4439068   -0.6614113  
   0.216989200     0.3319999   -0.7226678  
   0.218989100     0.2122871   -0.7649106  
   0.220989000     0.0873820   -0.7881492  
   0.222988900    -0.0394601   -0.7908976  
   0.224988800    -0.1650173   -0.7735303  
   0.226988700    -0.2855012   -0.7362078  
   0.228988600    -0.3978039   -0.6811272  
   0.230988500    -0.4996109   -0.6091317  
   0.232988400    -0.5884553   -0.5220222  
   0.234988300    -0.6627653   -0.4222519  
   0.236988200    -0.7199445   -0.3121510  
   0.238988100    -0.7590761   -0.1947897  
   0.240988000    -0.7791636   -0.0738962  
   0.242987900    -0.7801254    0.0480688  
   0.244987800    -0.7622640    0.1682806  
   0.246987700    -0.7257750    0.2845077  
   0.248987600    -0.6717089    0.3940698  
   0.250987500    -0.6012853    0.4937996  
   0.252987400    -0.5164657    0.5807606  
   0.254987300    -0.4197232    0.6533068  
   0.256987200    -0.3133535    0.7099094  
   0.258987100    -0.1994125    0.7497042  
   0.260987000    -0.0801741    0.7712470  
   0.262986900     0.0414987    0.7740603  
   0.264986800     0.1622712    0.7584828  
   0.266986700     0.2795075    0.7236186  
   0.268986600     0.3896246    0.6715736  
   0.270986500     0.4903163    0.6031253  
   0.272986400     0.5793696    0.5197334  
   0.274986300     0.6542600    0.4233954  
   0.276986200     0.7134723    0.3161727  
   0.278986100     0.7561510    0.2007069  
   0.280986000     0.7799518    0.0792634  
   0.282985900     0.7841837   -0.0445684  
   0.284985800     0.7693769   -0.1679216  
   0.286985700     0.7354507   -0.2873940  
   0.288985600     0.6829733   -0.3994618  
   0.290985500     0.6141041   -0.5015854  
   0.292985400     0.5304062   -0.5918940  
   0.294985300     0.4338891   -0.6681957  
   0.296985200     0.3259695   -0.7287102  
   0.298985100     0.2092858   -0.7717057  
   0.300985000     0.0871399   -0.7959682  
   0.302984900    -0.0366492   -0.8010413  
   0.304984800    -0.1595302   -0.7863374  
   0.306984700    -0.2781518   -0.7531271  
   0.308984600    -0.3894751   -0.7023317  
   0.310984500    -0.4907065   -0.6357640  
   0.312984400    -0.5805424   -0.5546066  
   0.314984300    -0.6565067   -0.4609345  
   0.316984200    -0.7174808   -0.3570603  
   0.318984100    -0.7619447   -0.2446168  
   0.320984000    -0.7889469   -0.1262224  
   0.322983900    -0.7974086   -0.0046968  
   0.324983800    -0.7869579    0.1160342  
   0.326983700    -0.7584488    0.2334944  
   0.328983600    -0.7120109    0.3451618  
   0.330983500    -0.6495156    0.4479350  
   0.332983400    -0.5724080    0.5395605  
   0.334983300    -0.4822557    0.6182744  
   0.336983200    -0.3816298    0.6824262  
   0.338983100    -0.2717959    0.7304258  
   0.340983000    -0.1560164    0.7610596  
   0.342982900    -0.0367542    0.7734565  
   0.344982800     0.0837362    0.7675787  
   0.346982700     0.2030864    0.7429363  
   0.348982600     0.3172898    0.6994182  
   0.350982500     0.4235588    0.6385656  
   0.352982400     0.5193799    0.5615050  
   0.354982300     0.6051100    0.4658981  
   0.356982200     0.6797770    0.3451010  
   0.358982100     0.7312355    0.2135271  
   0.360982000     0.7581366    0.0746495  
   0.362981900     0.7592914   -0.0665588  
   0.364981800     0.7342914   -0.2063839  
   0.366981700     0.6844212   -0.3390975  
   0.368981600     0.6109610   -0.4609747  
   0.370981500     0.5160499   -0.5671737  
   0.372981400     0.4030755   -0.6541178  
   0.374981300     0.2757871   -0.7191163  
   0.376981200     0.3730029   -0.6673967  
   0.378981100     0.2439525   -0.7270151  
   0.380981000     0.1061589   -0.7616336  
   0.382980900    -0.0230069   -0.7706704  
   0.384980800    -0.1460340   -0.7592223  
   0.386980700    -0.2652036   -0.7283182  
   0.388980600    -0.3775954   -0.6792844  
   0.390980500    -0.4802146   -0.6134384  
   0.392980400    -0.5699484   -0.5335169  
   0.394980300    -0.6459261   -0.4414970  
   0.396980200    -0.7071607   -0.3399167  
   0.398980100    -0.7513572   -0.2302738  
   0.400980000    -0.7786725   -0.1158473  
   0.402979900    -0.7885004    0.0010404  
   0.404979800    -0.7807716    0.1173439  
   0.406979700    -0.7561210    0.2310942  
   0.408979600    -0.7145737    0.3390086  
   0.410979500    -0.6575457    0.4407345  
   0.412979400    -0.5856466    0.5328602  
   0.414979300    -0.5007572    0.6136352  
   0.416979200    -0.4046404    0.6808172  
   0.418979100    -0.2996651    0.7328103  
   0.420979000    -0.1876944    0.7682511  
   0.422978900    -0.0710425    0.7871231  
   0.424978800     0.0478719    0.7879889  
   0.426978700     0.1657879    0.7707887  
   0.428978600     0.2802374    0.7356214  
   0.430978500     0.3881764    0.6830021  
   0.432978400     0.4867281    0.6148614  
   0.434978300     0.5740923    0.5319002  
   0.436978200     0.6476365    0.4357704  
   0.438978100     0.7059053    0.3289499  
   0.440978000     0.7467536    0.2137390  
   0.442977900     0.7692210    0.0929191  
   0.444977800     0.7719297   -0.0304161  
   0.446977700     0.7551149   -0.1530082  
   0.448977600     0.7188168   -0.2717116  
   0.450977500     0.6637591   -0.3829996  
   0.452977400     0.5907267   -0.4848106  
   0.454977300     0.5017586   -0.5744944  
   0.456977200     0.3990138   -0.6482575  
   0.458977100     0.2846600   -0.7040170  
   0.460977000     0.1631814   -0.7402713  
   0.462976900     0.0379125   -0.7560413  
   0.464976800    -0.0881181   -0.7509694  
   0.466976700    -0.2112595   -0.7249181  
   0.468976600    -0.3281866   -0.6800876  
   0.470976500    -0.4357274   -0.6167561  
   0.472976400    -0.5311320   -0.5366523  
   0.474976300    -0.6114652   -0.4429688  
   0.476976200    -0.6760871   -0.3382284  
   0.478976100    -0.7220405   -0.2253069  
   0.480976000    -0.7493231   -0.1077244  
   0.482975900    -0.7579446    0.0115673  
   0.484975800    -0.7479286    0.1302596  
   0.486975700    -0.7195985    0.2454253  
   0.488975600    -0.6739624    0.3542078  
   0.490975500    -0.6122601    0.4547798  
   0.492975400    -0.5364333    0.5445356  
   0.494975300    -0.4474920    0.6215029  
   0.496975200    -0.3480280    0.6837526  
   0.498975100    -0.2406570    0.7303400  
   0.500975000    -0.1276658    0.7597850  
   0.502974900    -0.0116565    0.7718266  
   0.504974800     0.1052390    0.7660724  
   0.506974700     0.2205963    0.7426419  
   0.508974600     0.3316754    0.7015346  
   0.510974500     0.4354047    0.6436900  
   0.512974400     0.5295267    0.5702642  
   0.514974300     0.6112584    0.4833000  
   0.516974200     0.6789641    0.3848658  
   0.518974100     0.7305906    0.2769881  
   0.520974000     0.7652552    0.1616856  
   0.522973900     0.7814900    0.0425721  
   0.524973800     0.7792945   -0.0783569  
   0.526973700     0.7582690   -0.1982010  
   0.528973600     0.7185724   -0.3132579  
   0.530973500     0.6610497   -0.4218142  
   0.532973400     0.5870171   -0.5198491  
   0.534973300     0.4985920   -0.6054256  
   0.536973200     0.3970057   -0.6763716  
   0.538973100     0.2861816   -0.7296127  
   0.540973000     0.1683356   -0.7652106  
   0.542972900     0.0460701   -0.7819079  
   0.544972800    -0.0766133   -0.7792597  
   0.546972700    -0.1984355   -0.7567019  
   0.548972600    -0.3151482   -0.7157345  
   0.550972500    -0.4235939   -0.6566714  
   0.552972400    -0.5216579   -0.5806814  
   0.554972300    -0.6065293   -0.4906169  
   0.556972200    -0.6756712   -0.3881413  
   0.558972100    -0.7279351   -0.2759245  
   0.560972000    -0.7613302   -0.1574675  
   0.562971900    -0.7758191   -0.0356537  
   0.564971800    -0.7706789    0.0861923  
   0.566971700    -0.7466697    0.2055441  
   0.568971600    -0.7043701    0.3191694  
   0.570971500    -0.6447940    0.4245636  
   0.572971400    -0.5695246    0.5192832  
   0.574971300    -0.4800695    0.6010162  
   0.576971200    -0.3784012    0.6682081  
   0.578971100    -0.2673320    0.7182473  
   0.580971000    -0.1498315    0.7500584  
   0.582970900    -0.0287519    0.7628198  
   0.584970800     0.0928253    0.7564827  
   0.586970700     0.2114003    0.7310007  
   0.588970600     0.3244945    0.6865589  
   0.590970500     0.4292682    0.6251426  
   0.592970400     0.5230773    0.5474095  
   0.594970300     0.6038371    0.4557954  
   0.596970200     0.6684314    0.3520685  
   0.598970100     0.7159739    0.2391647  
   0.600970000     0.7448868    0.1198951  
   0.602969900     0.7544071   -0.0029277  
   0.604969800     0.7439350   -0.1265300  
   0.606969700     0.7136225   -0.2462331  
   0.608969600     0.6642707   -0.3605376  
   0.610969500     0.5967604   -0.4655693  
   0.612969400     0.5133964   -0.5575359  
   0.614969300     0.4159297   -0.6354253  
   0.616969200     0.3079921   -0.6960080  
   0.618969100     0.1927264   -0.7382159  
   0.620969000     0.0725469   -0.7610587  
   0.622968900    -0.0497359   -0.7655334  
   0.624968800    -0.1707488   -0.7501459  
   0.626968700    -0.2882118   -0.7160814  
   0.628968600    -0.3986048   -0.6640944  
   0.630968500    -0.4992554   -0.5958840  
   0.632968400    -0.5878605   -0.5128591  
   0.634968300    -0.6623955   -0.4172060  
   0.636968200    -0.7209290   -0.3113623  
   0.638968100    -0.7621339   -0.1982451  
   0.640968000    -0.7859742   -0.0804569  
   0.642967900    -0.7913725    0.0392817  
   0.644967800    -0.7782930    0.1580882  
   0.646967700    -0.7471523    0.2730451  
   0.648967600    -0.6999210    0.3817533  
   0.650967500    -0.6367013    0.4817261  
   0.652967400    -0.5595436    0.5706711  
   0.654967300    -0.4703968    0.6471327  
   0.656967200    -0.3702337    0.7093595  
   0.658967100    -0.2625059    0.7559429  
   0.660967000    -0.1483299    0.7860086  
   0.662966900    -0.0305349    0.7983922  
   0.664966800     0.0887839    0.7934573  
   0.666966700     0.2069595    0.7695540  
   0.668966600     0.3202482    0.7283358  
   0.670966500     0.4266838    0.6694311  
   0.672966400     0.5224031    0.5946941  
   0.674966300     0.6061822    0.5061958  
   0.676966200     0.6751998    0.4052042  
   0.678966100     0.7279238    0.2948861  
   0.680966000     0.7629088    0.1769206  
   0.682965900     0.7790987    0.0551723  
   0.684965800     0.7760921   -0.0680628  
   0.686965700     0.7529270   -0.1898044  
   0.688965600     0.7109456   -0.3071066  
   0.690965500     0.6510958   -0.4162287  
   0.692965400     0.5742413   -0.5142816  
   0.694965300     0.4828184   -0.5988961  
   0.696965200     0.3787091   -0.6680721  
   0.698965100     0.2651547   -0.7193474  
   0.700965000     0.1444245   -0.7517501  
   0.702964900     0.0201561   -0.7644936  
   0.704964800    -0.1043462   -0.7569858  
   0.706964700    -0.2258440   -0.7295524  
   0.708964600    -0.3409739   -0.6830282  
   0.710964500    -0.4474978   -0.6187112  
   0.712964400    -0.5413623   -0.5383278  
   0.714964300    -0.6210943   -0.4443119  
   0.716964200    -0.6841586   -0.3398463  
   0.718964100    -0.7297788   -0.2272126  
   0.720964000    -0.7567330   -0.1098621  
   0.722963900    -0.7655050    0.0094576  
   0.724963800    -0.7557142    0.1279584  
   0.726963700    -0.7280504    0.2433413  
   0.728963600    -0.6829226    0.3524799  
   0.730963500    -0.6218479    0.4532367  
   0.732963400    -0.5465912    0.5432714  
   0.734963300    -0.4585114    0.6206623  
   0.736963200    -0.3427708    0.6917244  
   0.738963100    -0.2155774    0.7420379  
   0.740963000    -0.0811440    0.7694172  
   0.742962900     0.0564109    0.7729906  
   0.744962800     0.1929245    0.7525522  
   0.746962700     0.3245388    0.7081549  
   0.748962600     0.4467879    0.6415467  
   0.750962500     0.3249316    0.7056835  
   0.752962400     0.4461362    0.6371850  
   0.754962300     0.5534192    0.5483902  
   0.756962200     0.6437033    0.4413552  
   0.758962100     0.7142180    0.3200728  
   0.760962000     0.7621093    0.1875406  
   0.762961900     0.7850218    0.0551261  
   0.764961800     0.7854651   -0.0673829  
   0.766961700     0.7668854   -0.1889414  
   0.768961600     0.7293422   -0.3066531  
   0.770961500     0.6738031   -0.4172247  
   0.772961400     0.6014781   -0.5179098  
   0.774961300     0.5140548   -0.6059223  
   0.776961200     0.4135486   -0.6796079  
   0.778961100     0.3021825   -0.7368517  
   0.780961000     0.1825386   -0.7756530  
   0.782960900     0.0583195   -0.7949921  
   0.784960800    -0.0680561   -0.7944438  
   0.786960700    -0.1926532   -0.7734568  
   0.788960600    -0.3123871   -0.7327707  
   0.790960500    -0.4235624   -0.6737074  
   0.792960400    -0.5236577   -0.5980154  
   0.794960300    -0.6097715   -0.5075089  
   0.796960200    -0.6800708   -0.4053991  
   0.798960100    -0.7330946   -0.2937172  
   0.800960000    -0.7682044   -0.1762599  
   0.802959900    -0.7838329   -0.0549923  
   0.804959800    -0.7809636    0.0660810  
   0.806959700    -0.7593228    0.1848451  
   0.808959600    -0.7197313    0.2981452  
   0.810959500    -0.6636556    0.4035204  
   0.812959400    -0.5920927    0.4985997  
   0.814959300    -0.5072219    0.5815314  
   0.816959200    -0.4111402    0.6499296  
   0.818959100    -0.3056470    0.7031974  
   0.820959000    -0.1933159    0.7396874  
   0.822958900    -0.0768868    0.7585141  
   0.824958800     0.0414745    0.7593390  
   0.826958700     0.1582465    0.7417905  
   0.828958600     0.2715805    0.7069555  
   0.830958500     0.3781583    0.6550666  
   0.832958400     0.4758344    0.5870880  
   0.834958300     0.5619982    0.5046196  
   0.836958200     0.6342328    0.4098492  
   0.838958100     0.6913412    0.3044733  
   0.840958000     0.7316128    0.1912927  
   0.842957900     0.7537643    0.0720416  
   0.844957800     0.7572645   -0.0495959  
   0.846957700     0.7408797   -0.1706021  
   0.848957600     0.7057624   -0.2880454  
   0.850957500     0.6520907   -0.3990119  
   0.852957400     0.5810692   -0.5001324  
   0.854957300     0.4949529   -0.5884438  
   0.856957200     0.3954472   -0.6624504  
   0.858957100     0.2859383   -0.7193137  
   0.860957000     0.1686426   -0.7579024  
   0.862956900     0.0471904   -0.7776532  
   0.864956800    -0.0749370   -0.7777543  
   0.866956700    -0.1951834   -0.7592283  
   0.868956600    -0.3104922   -0.7221355  
   0.870956500    -0.4185309   -0.6681735  
   0.872956400    -0.5167388   -0.5979812  
   0.874956300    -0.6027983   -0.5139839  
   0.876956200    -0.6747475   -0.4178061  
   0.878956100    -0.7308944   -0.3120180  
   0.880956000    -0.7703859   -0.1989862  
   0.882955900    -0.7917076   -0.0818465  
   0.884955800    -0.7953815    0.0369253  
   0.886955700    -0.7810529    0.1549266  
   0.888955600    -0.7491187    0.2690189  
   0.890955500    -0.7004458    0.3764487  
   0.892955400    -0.6365247    0.4758191  
   0.894955300    -0.5582843    0.5642104  
