! MS46122B
! 2250307/22442219
! 6/15/2025 8:15:03 AM
! C:\USERS\SPARKY\DOCUMENTS\VNA_DATA\JUNE15_2025\3.2K\PORT3_MOS1.S1P
! CHANNEL.1
! TR.MEASUREMENT
! RAW.DATA
# GHZ S RI R 50.0
! FREQ.GHZ         S11RE         S11IM         
!; PortSelection: Port_1
   0.001000000    -0.8918272    0.0505476  
   0.002999900    -0.8661129    0.2478301  
   0.004999800    -0.8306062    0.3887892  
   0.006999700    -0.7691790    0.5148476  
   0.008999600    -0.6847036    0.6249938  
   0.010999500    -0.5813746    0.7167267  
   0.012999400    -0.4631426    0.7889378  
   0.014999300    -0.3337537    0.8398259  
   0.016999200    -0.1980518    0.8696843  
   0.018999100    -0.0593940    0.8785967  
   0.020999000     0.0787153    0.8674266  
   0.022998900     0.2129250    0.8367258  
   0.024998800     0.3132799    0.7685627  
   0.026998700     0.4588929    0.7222900  
   0.028998600     0.5661880    0.6409420  
   0.030998500     0.6597488    0.5456074  
   0.032998400     0.7043400    0.4371990  
   0.034998300     0.7996550    0.3204544  
   0.036998200     0.8420303    0.1946350  
   0.038998100     0.8646096    0.0634613  
   0.040998000     0.8664644   -0.0695286  
   0.042997900     0.8470188   -0.2014913  
   0.044997800     0.7847938   -0.3040642  
   0.046997700     0.7468535   -0.4483396  
   0.048997600     0.6693051   -0.5570703  
   0.050997500     0.5757677   -0.6518489  
   0.052997400     0.4707972   -0.7299588  
   0.054997300     0.3526775   -0.7931769  
   0.056997200     0.2282051   -0.8367698  
   0.058997100     0.0994171   -0.8611789  
   0.060997000    -0.0312619   -0.8660985  
   0.062996900    -0.1605830   -0.8517101  
   0.064996800    -0.2861546   -0.8181842  
   0.066996700    -0.4050736   -0.7661576  
   0.068996600    -0.5145199   -0.6968486  
   0.070996500    -0.6119564   -0.6122769  
   0.072996400    -0.6954665   -0.5138537  
   0.074996300    -0.7628102   -0.4040436  
   0.076996200    -0.8127510   -0.2854570  
   0.078996100    -0.8442613   -0.1608334  
   0.080996000    -0.8564775   -0.0328374  
   0.082995900    -0.8496345    0.0955293  
   0.084995800    -0.8231492    0.2215998  
   0.086995700    -0.7782123    0.3422884  
   0.088995600    -0.7152650    0.4548327  
   0.090995500    -0.6358688    0.5569008  
   0.092995400    -0.5415366    0.6461160  
   0.094995300    -0.4348012    0.7195914  
   0.096995200    -0.3171764    0.7762964  
   0.098995100    -0.1920730    0.8141292  
   0.100995000    -0.0621559    0.8317990  
   0.102994900     0.0688436    0.8286621  
   0.104994800     0.1980803    0.8052187  
   0.106994700     0.3223612    0.7617228  
   0.108994600     0.4385050    0.6986877  
   0.110994500     0.5432618    0.6182188  
   0.112994400     0.6338199    0.5220811  
   0.114994300     0.7082018    0.4127548  
   0.116994200     0.7639853    0.2930761  
   0.118994100     0.8003716    0.1660750  
   0.120994000     0.8160376    0.0351895  
   0.122993900     0.8104610   -0.0960985  
   0.124993800     0.7844436   -0.2247364  
   0.126993700     0.7383777   -0.3471399  
   0.128993600     0.6741431   -0.4608754  
   0.130993500     0.5927573   -0.5622146  
   0.132993400     0.4971035   -0.6490030  
   0.134993300     0.3894635   -0.7198131  
   0.136993200     0.2728031   -0.7727090  
   0.138993100     0.1496956   -0.8066386  
   0.140993000     0.0239222   -0.8210490  
   0.142992900    -0.1023863   -0.8163846  
   0.144992800    -0.2256561   -0.7926019  
   0.146992700    -0.3432131   -0.7502386  
   0.148992600    -0.4529674   -0.6911486  
   0.150992500    -0.5519235   -0.6168406  
   0.152992400    -0.6382103   -0.5282265  
   0.154992300    -0.7102000   -0.4285704  
   0.156992200    -0.7664061   -0.3191258  
   0.158992100    -0.8063473   -0.2034819  
   0.160992000    -0.8277746   -0.0827444  
   0.162991900    -0.8316803    0.0392881  
   0.164991800    -0.8174074    0.1605981  
   0.166991700    -0.7855756    0.2785857  
   0.168991600    -0.7365349    0.3902440  
   0.170991500    -0.6713996    0.4942043  
   0.172991400    -0.5918163    0.5870016  
   0.174991300    -0.4990709    0.6670768  
   0.176991200    -0.3948800    0.7331541  
   0.178991100    -0.2814841    0.7831377  
   0.180991000    -0.1621080    0.8157575  
   0.182990900    -0.0386072    0.8299813  
   0.184990800     0.0863075    0.8255559  
   0.186990700     0.2100088    0.8024521  
   0.188990600     0.3060270    0.7696117  
   0.190990500     0.4363479    0.7024236  
   0.192990400     0.5405713    0.6240396  
   0.194990300     0.6294187    0.5327086  
   0.196990200     0.7028435    0.4286249  
   0.198990100     0.7594437    0.3140860  
   0.200990000     0.7977257    0.1915063  
   0.202989900     0.8167803    0.0639800  
   0.204989800     0.8152974   -0.0654638  
   0.206989700     0.7932963   -0.1923276  
   0.208989600     0.7519752   -0.3144925  
   0.210989500     0.6915144   -0.4289611  
   0.212989400     0.6137038   -0.5325035  
   0.214989300     0.5203670   -0.6222996  
   0.216989200     0.4145543   -0.6958899  
   0.218989100     0.2989050   -0.7517201  
   0.220989000     0.1758914   -0.7884699  
   0.222988900     0.0485282   -0.8049211  
   0.224988800    -0.0796026   -0.8016053  
   0.226988700    -0.2048374   -0.7776942  
   0.228988600    -0.3241249   -0.7346444  
   0.230988500    -0.4344675   -0.6738253  
   0.232988400    -0.5339918   -0.5968668  
   0.234988300    -0.6200297   -0.5048668  
   0.236988200    -0.6903676   -0.4009748  
   0.238988100    -0.7435234   -0.2876923  
   0.240988000    -0.7780454   -0.1685452  
   0.242987900    -0.7935103   -0.0461036  
   0.244987800    -0.7898712    0.0768788  
   0.246987700    -0.7673717    0.1976416  
   0.248987600    -0.7263477    0.3140608  
   0.250987500    -0.6677895    0.4223525  
   0.252987400    -0.5935895    0.5200232  
   0.254987300    -0.5059505    0.6047012  
   0.256987200    -0.4064191    0.6746064  
   0.258987100    -0.2973125    0.7286225  
   0.260987000    -0.1811094    0.7651848  
   0.262986900    -0.0600316    0.7838076  
   0.264986800     0.0626093    0.7834484  
   0.266986700     0.1839766    0.7641396  
   0.268986600     0.3007291    0.7263936  
   0.270986500     0.4101557    0.6715841  
   0.272986400     0.5097671    0.6001633  
   0.274986300     0.5974175    0.5144833  
   0.276986200     0.6711555    0.4155644  
   0.278986100     0.7289879    0.3064026  
   0.280986000     0.7693570    0.1887384  
   0.282985900     0.7912011    0.0661578  
   0.284985800     0.7933818   -0.0588234  
   0.286985700     0.7764129   -0.1824449  
   0.288985600     0.7402019   -0.3012411  
   0.290985500     0.6863040   -0.4129967  
   0.292985400     0.6160455   -0.5149153  
   0.294985300     0.5305806   -0.6048166  
   0.296985200     0.4320338   -0.6806585  
   0.298985100     0.3223597   -0.7407479  
   0.300985000     0.2044293   -0.7826425  
   0.302984900     0.0816897   -0.8058921  
   0.304984800    -0.0426244   -0.8099563  
   0.306984700    -0.1659430   -0.7947098  
   0.308984600    -0.2840929   -0.7607992  
   0.310984500    -0.3951935   -0.7094785  
   0.312984400    -0.4969168   -0.6426421  
   0.314984300    -0.5870768   -0.5610770  
   0.316984200    -0.6636798   -0.4671644  
   0.318984100    -0.7249669   -0.3620782  
   0.320984000    -0.7701160   -0.2487798  
   0.322983900    -0.7975948   -0.1295641  
   0.324983800    -0.8062717   -0.0078533  
   0.326983700    -0.7963864    0.1134468  
   0.328983600    -0.7684692    0.2315378  
   0.330983500    -0.7228457    0.3435746  
   0.332983400    -0.6614149    0.4464464  
   0.334983300    -0.5850917    0.5390856  
   0.336983200    -0.4959951    0.6189566  
   0.338983100    -0.3957388    0.6846988  
   0.340983000    -0.2864926    0.7342268  
   0.342982900    -0.1710507    0.7669396  
   0.344982800    -0.0512717    0.7815333  
   0.346982700     0.0704256    0.7776393  
   0.348982600     0.1905076    0.7550421  
   0.350982500     0.3058924    0.7140137  
   0.352982400     0.4136495    0.6551076  
   0.354982300     0.5152448    0.5762618  
   0.356982200     0.6108834    0.4714331  
   0.358982100     0.6856169    0.3510223  
   0.360982000     0.7374076    0.2197560  
   0.362981900     0.7649960    0.0810356  
   0.364981800     0.7670394   -0.0609592  
   0.366981700     0.7432811   -0.2011726  
   0.368981600     0.6944169   -0.3345973  
   0.370981500     0.6219439   -0.4574984  
   0.372981400     0.5280515   -0.5652120  
   0.374981300     0.4154641   -0.6540910  
   0.376981200     0.5003434   -0.5829700  
   0.378981100     0.3849600   -0.6670793  
   0.380981000     0.2562590   -0.7284989  
   0.382980900     0.1312164   -0.7627754  
   0.384980800     0.0077109   -0.7754397  
   0.386980700    -0.1157525   -0.7685774  
   0.388980600    -0.2360220   -0.7426121  
   0.390980500    -0.3500298   -0.6981297  
   0.392980400    -0.4546269   -0.6371984  
   0.394980300    -0.5475603   -0.5619032  
   0.396980200    -0.6274915   -0.4735286  
   0.398980100    -0.6930190   -0.3748266  
   0.400980000    -0.7425759   -0.2676323  
   0.402979900    -0.7753592   -0.1547880  
   0.404979800    -0.7909893   -0.0393113  
   0.406979700    -0.7891833    0.0770071  
   0.408979600    -0.7707220    0.1914208  
   0.410979500    -0.7349452    0.3018064  
   0.412979400    -0.6833029    0.4064935  
   0.414979300    -0.6166930    0.5023541  
   0.416979200    -0.5370235    0.5873812  
   0.418979100    -0.4454893    0.6594521  
   0.420979000    -0.3440754    0.7174091  
   0.422978900    -0.2349414    0.7594231  
   0.424978800    -0.1202174    0.7854584  
   0.426978700    -0.0023783    0.7937468  
   0.428978600     0.1156953    0.7842939  
   0.430978500     0.2310744    0.7572725  
   0.432978400     0.3409756    0.7131491  
   0.434978300     0.4432837    0.6523977  
   0.436978200     0.5358353    0.5769029  
   0.438978100     0.6158892    0.4875944  
   0.440978000     0.6817474    0.3865994  
   0.442977900     0.7312703    0.2758908  
   0.444977800     0.7634375    0.1585825  
   0.446977700     0.7767571    0.0370669  
   0.448977600     0.7707016   -0.0854781  
   0.450977500     0.7451237   -0.2056642  
   0.452977400     0.7007830   -0.3213119  
   0.454977300     0.6379561   -0.4296505  
   0.456977200     0.5580547   -0.5261518  
   0.458977100     0.4628976   -0.6087735  
   0.460977000     0.3556696   -0.6753454  
   0.462976900     0.2394328   -0.7228761  
   0.464976800     0.1168940   -0.7510365  
   0.466976700    -0.0084869   -0.7587230  
   0.468976600    -0.1326084   -0.7459384  
   0.470976500    -0.2532378   -0.7133679  
   0.472976400    -0.3664354   -0.6616614  
   0.474976300    -0.4690827   -0.5929008  
   0.476976200    -0.5588832   -0.5088975  
   0.478976100    -0.6334749   -0.4121820  
   0.480976000    -0.6912197   -0.3062347  
   0.482975900    -0.7314672   -0.1933910  
   0.484975800    -0.7531937   -0.0764232  
   0.486975700    -0.7562249    0.0422013  
   0.488975600    -0.7416492    0.1593486  
   0.490975500    -0.7088653    0.2724751  
   0.492975400    -0.6593211    0.3787728  
   0.494975300    -0.5946016    0.4762012  
   0.496975200    -0.5154967    0.5624111  
   0.498975100    -0.4247698    0.6353577  
   0.500975000    -0.3244467    0.6934260  
   0.502974900    -0.2166763    0.7356295  
   0.504974800    -0.1036616    0.7612754  
   0.506974700     0.0124341    0.7692708  
   0.508974600     0.1289608    0.7596204  
   0.510974500     0.2431719    0.7323641  
   0.512974400     0.3520129    0.6879563  
   0.514974300     0.4526040    0.6275887  
   0.516974200     0.5430595    0.5526084  
   0.518974100     0.6211808    0.4649354  
   0.520974000     0.6853582    0.3658409  
   0.522973900     0.7334611    0.2578401  
   0.524973800     0.7646886    0.1436385  
   0.526973700     0.7782623    0.0249826  
   0.528973600     0.7735408   -0.0941569  
   0.530973500     0.7500198   -0.2122432  
   0.532973400     0.7085094   -0.3253450  
   0.534973300     0.6499808   -0.4309323  
   0.536973200     0.5750293   -0.5265834  
   0.538973100     0.4868750   -0.6092243  
   0.540973000     0.3866903   -0.6769696  
   0.542972900     0.2772842   -0.7284468  
   0.544972800     0.1613156   -0.7623128  
   0.546972700     0.0407175   -0.7777925  
   0.548972600    -0.0812209   -0.7747671  
   0.550972500    -0.2007279   -0.7520246  
   0.552972400    -0.3158262   -0.7110271  
   0.554972300    -0.4229429   -0.6523778  
   0.556972200    -0.5192610   -0.5777661  
   0.558972100    -0.6028162   -0.4889868  
   0.560972000    -0.6709919   -0.3882240  
   0.562971900    -0.7225226   -0.2789055  
   0.564971800    -0.7560853   -0.1631493  
   0.566971700    -0.7712368   -0.0440760  
   0.568971600    -0.7674790    0.0752955  
   0.570971500    -0.7455909    0.1926092  
   0.572971400    -0.7057260    0.3051112  
   0.574971300    -0.6485368    0.4100594  
   0.576971200    -0.5754389    0.5051033  
   0.578971100    -0.4885999    0.5874385  
   0.580971000    -0.3896858    0.6552587  
   0.582970900    -0.2818301    0.7065362  
   0.584970800    -0.1672810    0.7401925  
   0.586970700    -0.0492792    0.7558366  
   0.588970600     0.0699949    0.7524218  
   0.590970500     0.1870006    0.7304032  
   0.592970400     0.2991192    0.6901642  
   0.594970300     0.4039720    0.6327624  
   0.596970200     0.4983336    0.5593759  
   0.598970100     0.5805888    0.4716111  
   0.600970000     0.6474095    0.3720420  
   0.602969900     0.6980712    0.2622932  
   0.604969800     0.7303878    0.1456524  
   0.606969700     0.7438072    0.0252611  
   0.608969600     0.7377605   -0.0967604  
   0.610969500     0.7119333   -0.2160679  
   0.612969400     0.6673327   -0.3300159  
   0.614969300     0.6049355   -0.4350011  
   0.616969200     0.5265164   -0.5279745  
   0.618969100     0.4348376   -0.6073296  
   0.620969000     0.3321971   -0.6703274  
   0.622968900     0.2209978   -0.7165284  
   0.624968800     0.1038384   -0.7444836  
   0.626968700    -0.0162502   -0.7532094  
   0.628968600    -0.1363988   -0.7433170  
   0.630968500    -0.2533107   -0.7147340  
   0.632968400    -0.3640139   -0.6684102  
   0.634968300    -0.4657288   -0.6049076  
   0.636968200    -0.5562708   -0.5271901  
   0.638968100    -0.6332526   -0.4365141  
   0.640968000    -0.6950088   -0.3351455  
   0.642967900    -0.7400370   -0.2257605  
   0.644967800    -0.7685603   -0.1113693  
   0.646967700    -0.7787710    0.0056326  
   0.648967600    -0.7709004    0.1221988  
   0.650967500    -0.7456774    0.2357609  
   0.652967400    -0.7046247    0.3436840  
   0.654967300    -0.6476194    0.4442727  
   0.656967200    -0.5764385    0.5349018  
   0.658967100    -0.4926808    0.6136330  
   0.660967000    -0.3981780    0.6795422  
   0.662966900    -0.2942493    0.7307234  
   0.664966800    -0.1831790    0.7655759  
   0.666966700    -0.0676612    0.7839557  
   0.668966600     0.0499254    0.7847149  
   0.670966500     0.1664647    0.7671575  
   0.672966400     0.2791230    0.7318802  
   0.674966300     0.3854524    0.6802259  
   0.676966200     0.4830575    0.6130227  
   0.678966100     0.5689966    0.5316405  
   0.680966000     0.6418407    0.4373769  
   0.682965900     0.6994782    0.3329625  
   0.684965800     0.7404618    0.2207426  
   0.686965700     0.7637340    0.1027963  
   0.688965600     0.7680728   -0.0179140  
   0.690965500     0.7536777   -0.1379895  
   0.692965400     0.7204322   -0.2546753  
   0.694965300     0.6694624   -0.3647317  
   0.696965200     0.6013433   -0.4654636  
   0.698965100     0.5180186   -0.5544012  
   0.700965000     0.4212043   -0.6293234  
   0.702964900     0.3138590   -0.6874421  
   0.704964800     0.1981675   -0.7280545  
   0.706964700     0.0774347   -0.7495732  
   0.708964600    -0.0447718   -0.7512454  
   0.710964500    -0.1660565   -0.7333134  
   0.712964400    -0.2821248   -0.6963134  
   0.714964300    -0.3906992   -0.6410217  
   0.716964200    -0.4883900   -0.5695953  
   0.718964100    -0.5727748   -0.4844263  
   0.720964000    -0.6421639   -0.3874444  
   0.722963900    -0.6952170   -0.2819436  
   0.724963800    -0.7308696   -0.1697394  
   0.726963700    -0.7490022   -0.0541437  
   0.728963600    -0.7488741    0.0626186  
   0.730963500    -0.7310657    0.1772666  
   0.732963400    -0.6959535    0.2874886  
   0.734963300    -0.6443932    0.3907073  
   0.736963200    -0.5659305    0.4976517  
   0.738963100    -0.4692401    0.5895066  
   0.740963000    -0.3576847    0.6634928  
   0.742962900    -0.2348393    0.7171062  
   0.744962800    -0.1043813    0.7482005  
   0.746962700     0.0299812    0.7562779  
   0.748962600     0.1643999    0.7411112  
   0.750962500     0.0320586    0.7588829  
   0.752962400     0.1654286    0.7414569  
   0.754962300     0.2942428    0.7011306  
   0.756962200     0.4142808    0.6390281  
   0.758962100     0.5215415    0.5564566  
   0.760962000     0.6136594    0.4559323  
   0.762961900     0.6834056    0.3467067  
   0.764961800     0.7301455    0.2385369  
   0.766961700     0.7595726    0.1242442  
   0.768961600     0.7710508    0.0058250  
   0.770961500     0.7642103   -0.1132281  
   0.772961400     0.7390694   -0.2297524  
   0.774961300     0.6962965   -0.3415221  
   0.776961200     0.6361404   -0.4459613  
   0.778961100     0.5601425   -0.5399443  
   0.780961000     0.4700220   -0.6214845  
   0.782960900     0.3677437   -0.6881651  
   0.784960800     0.2552741   -0.7380692  
   0.786960700     0.1363442   -0.7699639  
   0.788960600     0.0135047   -0.7820215  
   0.790960500    -0.1094333   -0.7749566  
   0.792960400    -0.2294716   -0.7478957  
   0.794960300    -0.3437025   -0.7021748  
   0.796960200    -0.4482180   -0.6395755  
   0.798960100    -0.5416076   -0.5612977  
   0.800960000    -0.6210952   -0.4703163  
   0.802959900    -0.6847403   -0.3677824  
   0.804959800    -0.7316437   -0.2575261  
   0.806959700    -0.7606063   -0.1420287  
   0.808959600    -0.7713585   -0.0241513  
   0.810959500    -0.7641745    0.0934713  
   0.812959400    -0.7385031    0.2081100  
   0.814959300    -0.6961259    0.3169226  
   0.816959200    -0.6378391    0.4177934  
   0.818959100    -0.5649978    0.5081469  
   0.820959000    -0.4793180    0.5859503  
   0.822958900    -0.3831251    0.6500127  
   0.824958800    -0.2784952    0.6987957  
   0.826958700    -0.1674912    0.7309514  
   0.828958600    -0.0531330    0.7459025  
   0.830958500     0.0624191    0.7428163  
   0.832958400     0.1761151    0.7225736  
   0.834958300     0.2854403    0.6853889  
   0.836958200     0.3879234    0.6317095  
   0.838958100     0.4809523    0.5628045  
   0.840958000     0.5630909    0.4800621  
   0.842957900     0.6315401    0.3850063  
   0.844957800     0.6848238    0.2803214  
   0.846957700     0.7213425    0.1677671  
   0.848957600     0.7399626    0.0507898  
   0.850957500     0.7395004   -0.0687098  
   0.852957400     0.7203392   -0.1867192  
   0.854957300     0.6824877   -0.3005482  
   0.856957200     0.6270564   -0.4070330  
   0.858957100     0.5551915   -0.5035486  
   0.860957000     0.4691741   -0.5872525  
   0.862956900     0.3712186   -0.6560090  
   0.864956800     0.2637132   -0.7085589  
   0.866956700     0.1500747   -0.7435402  
   0.868956600     0.0323243   -0.7605240  
   0.870956500    -0.0863080   -0.7590045  
   0.872956400    -0.2033545   -0.7387727  
   0.874956300    -0.3155413   -0.7011088  
   0.876956200    -0.4202046   -0.6463575  
   0.878956100    -0.5150844   -0.5761037  
   0.880956000    -0.5979798   -0.4926265  
   0.882955900    -0.6669670   -0.3973939  
   0.884955800    -0.7200590   -0.2934227  
   0.886955700    -0.7567728   -0.1823888  
   0.888955600    -0.7764288   -0.0675429  
   0.890955500    -0.7782645    0.0481768  
   0.892955400    -0.7629353    0.1629071  
   0.894955300    -0.7303034    0.2731923  
