! MS46122B
! 2250307/22442219
! 6/13/2025 3:31:57 PM
! C:\USERS\SPARKY\DOCUMENTS\VNA_DATA\JUNE13_2025\3.2K\PORT6_MOS5.S1P
! CHANNEL.1
! TR.MEASUREMENT
! RAW.DATA
# GHZ S RI R 50.0
! FREQ.GHZ         S11RE         S11IM         
!; PortSelection: Port_1
   0.001000000    -0.9253453    0.0526622  
   0.002999900    -0.8980448    0.2569960  
   0.004999800    -0.8603615    0.4051435  
   0.006999700    -0.7945029    0.5383223  
   0.008999600    -0.7044829    0.6544321  
   0.010999500    -0.5940787    0.7504427  
   0.012999400    -0.4676371    0.8253781  
   0.014999300    -0.3299109    0.8771412  
   0.016999200    -0.1860275    0.9061416  
   0.018999100    -0.0393975    0.9127457  
   0.020999000     0.1058368    0.8974426  
   0.022998900     0.2463886    0.8614920  
   0.024998800     0.3504585    0.7871192  
   0.026998700     0.5018396    0.7328979  
   0.028998600     0.6116939    0.6435131  
   0.030998500     0.7066226    0.5395976  
   0.032998400     0.7495442    0.4237903  
   0.034998300     0.8437256    0.2964198  
   0.036998200     0.8826496    0.1618911  
   0.038998100     0.8997678    0.0224720  
   0.040998000     0.8946087   -0.1177707  
   0.042997900     0.8667310   -0.2558239  
   0.044997800     0.7956924   -0.3604177  
   0.046997700     0.7465659   -0.5094923  
   0.048997600     0.6579180   -0.6186720  
   0.050997500     0.5534362   -0.7124391  
   0.052997400     0.4368253   -0.7880460  
   0.054997300     0.3091854   -0.8450786  
   0.056997200     0.1751175   -0.8819215  
   0.058997100     0.0378417   -0.8980845  
   0.060997000    -0.0996146   -0.8928728  
   0.062996900    -0.2344074   -0.8669904  
   0.064996800    -0.3634783   -0.8212375  
   0.066996700    -0.4836217   -0.7562999  
   0.068996600    -0.5923582   -0.6737267  
   0.070996500    -0.6869364   -0.5757498  
   0.072996400    -0.7651650   -0.4645709  
   0.074996300    -0.8251963   -0.3427563  
   0.076996200    -0.8657151   -0.2130770  
   0.078996100    -0.8857718   -0.0790008  
   0.080996000    -0.8852676    0.0566990  
   0.082995900    -0.8638596    0.1909169  
   0.084995800    -0.8219407    0.3203538  
   0.086995700    -0.7606162    0.4416814  
   0.088995600    -0.6812943    0.5528450  
   0.090995500    -0.5855093    0.6502520  
   0.092995400    -0.4752777    0.7319982  
   0.094995300    -0.3534284    0.7956150  
   0.096995200    -0.2225382    0.8395786  
   0.098995100    -0.0861796    0.8620601  
   0.100995000     0.0527729    0.8626873  
   0.102994900     0.1898488    0.8406847  
   0.104994800     0.3220925    0.7971542  
   0.106994700     0.4459056    0.7324470  
   0.108994600     0.5577543    0.6490182  
   0.110994500     0.6546950    0.5484368  
   0.112994400     0.7342696    0.4334397  
   0.114994300     0.7937930    0.3070945  
   0.116994200     0.8324805    0.1729287  
   0.118994100     0.8488517    0.0345468  
   0.120994000     0.8423670   -0.1042623  
   0.122993900     0.8138800   -0.2401474  
   0.124993800     0.7642146   -0.3689637  
   0.126993700     0.6946494   -0.4880102  
   0.128993600     0.6075418   -0.5941092  
   0.130993500     0.5045934   -0.6841168  
   0.132993400     0.3894995   -0.7565961  
   0.134993300     0.2650744   -0.8095444  
   0.136993200     0.1344945   -0.8419886  
   0.138993100     0.0013041   -0.8536336  
   0.140993000    -0.1316985   -0.8446518  
   0.142992900    -0.2610411   -0.8152627  
   0.144992800    -0.3835187   -0.7666160  
   0.146992700    -0.4964973   -0.7000805  
   0.148992600    -0.5981206   -0.6172258  
   0.150992500    -0.6850318   -0.5205783  
   0.152992400    -0.7562670   -0.4118121  
   0.154992300    -0.8102520   -0.2944345  
   0.156992200    -0.8459328   -0.1698780  
   0.158992100    -0.8625976   -0.0418027  
   0.160992000    -0.8595526    0.0872018  
   0.162991900    -0.8375534    0.2140421  
   0.164991800    -0.7963470    0.3367227  
   0.166991700    -0.7376831    0.4516312  
   0.168991600    -0.6621553    0.5566269  
   0.170991500    -0.5711707    0.6494419  
   0.172991400    -0.4671801    0.7274733  
   0.174991300    -0.3525982    0.7889807  
   0.176991200    -0.2287237    0.8326289  
   0.178991100    -0.0992717    0.8572977  
   0.180991000     0.0325388    0.8616711  
   0.182990900     0.1641190    0.8458224  
   0.184990800     0.2929274    0.8094574  
   0.186990700     0.4150555    0.7532091  
   0.188990600     0.5064697    0.6933477  
   0.190990500     0.6226402    0.5893348  
   0.192990400     0.7090070    0.4801948  
   0.194990300     0.7750193    0.3610063  
   0.196990200     0.8215783    0.2327169  
   0.198990100     0.8467078    0.0984078  
   0.200990000     0.8503867   -0.0390525  
   0.202989900     0.8314898   -0.1754153  
   0.204989800     0.7908399   -0.3071489  
   0.206989700     0.7298743   -0.4303252  
   0.208989600     0.6495942   -0.5417050  
   0.210989500     0.5520099   -0.6391256  
   0.212989400     0.4399522   -0.7193608  
   0.214989300     0.3167681   -0.7802997  
   0.216989200     0.1859253   -0.8200859  
   0.218989100     0.0510390   -0.8380464  
   0.220989000    -0.0847717   -0.8342136  
   0.222988900    -0.2182100   -0.8084071  
   0.224988800    -0.3453866   -0.7613177  
   0.226988700    -0.4624587   -0.6950706  
   0.228988600    -0.5669745   -0.6115152  
   0.230988500    -0.6562358   -0.5125945  
   0.232988400    -0.7285802   -0.4012691  
   0.234988300    -0.7820958   -0.2797032  
   0.236988200    -0.8156787   -0.1514740  
   0.238988100    -0.8284181   -0.0201603  
   0.240988000    -0.8202612    0.1106038  
   0.242987900    -0.7918394    0.2378480  
   0.244987800    -0.7438114    0.3586098  
   0.246987700    -0.6775531    0.4707866  
   0.248987600    -0.5941687    0.5713162  
   0.250987500    -0.4960285    0.6575890  
   0.252987400    -0.3858947    0.7270886  
   0.254987300    -0.2668438    0.7785282  
   0.256987200    -0.1415114    0.8107086  
   0.258987100    -0.0126986    0.8226103  
   0.260987000     0.1170724    0.8146340  
   0.262986900     0.2445815    0.7860319  
   0.264986800     0.3664886    0.7379557  
   0.266986700     0.4795032    0.6709656  
   0.268986600     0.5807031    0.5870261  
   0.270986500     0.6670052    0.4884731  
   0.272986400     0.7370521    0.3774424  
   0.274986300     0.7887949    0.2568982  
   0.276986200     0.8210419    0.1287875  
   0.278986100     0.8328889   -0.0030633  
   0.280986000     0.8237782   -0.1357946  
   0.282985900     0.7933821   -0.2656758  
   0.284985800     0.7428267   -0.3893169  
   0.286985700     0.6729443   -0.5031067  
   0.288985600     0.5866662   -0.6040062  
   0.290985500     0.4859065   -0.6896902  
   0.292985400     0.3730348   -0.7583501  
   0.294985300     0.2507734   -0.8083810  
   0.296985200     0.1218396   -0.8388658  
   0.298985100    -0.0109537   -0.8482912  
   0.300985000    -0.1434861   -0.8366538  
   0.302984900    -0.2722516   -0.8043590  
   0.304984800    -0.3937412   -0.7522016  
   0.306984700    -0.5051784   -0.6821367  
   0.308984600    -0.6034268   -0.5962688  
   0.310984500    -0.6867402   -0.4968144  
   0.312984400    -0.7533370   -0.3860928  
   0.314984300    -0.8020722   -0.2669233  
   0.316984200    -0.8318518   -0.1418290  
   0.318984100    -0.8423755   -0.0127808  
   0.320984000    -0.8320652    0.1164580  
   0.322983900    -0.8017700    0.2434446  
   0.324983800    -0.7527405    0.3631765  
   0.326983700    -0.6853823    0.4738125  
   0.328983600    -0.6016547    0.5728832  
   0.330983500    -0.5039422    0.6574302  
   0.332983400    -0.3948849    0.7254574  
   0.334983300    -0.2765710    0.7757395  
   0.336983200    -0.1514576    0.8070684  
   0.338983100    -0.0232304    0.8185862  
   0.340983000     0.1056084    0.8100311  
   0.342982900     0.2317645    0.7811611  
   0.344982800     0.3527127    0.7324026  
   0.346982700     0.4654138    0.6648287  
   0.348982600     0.5663336    0.5796778  
   0.350982500     0.6521167    0.4792127  
   0.352982400     0.7211680    0.3654698  
   0.354982300     0.7723515    0.2368888  
   0.356982200     0.8034419    0.0872403  
   0.358982100     0.8059735   -0.0655133  
   0.360982000     0.7805755   -0.2156693  
   0.362981900     0.7275680   -0.3585136  
   0.364981800     0.6486064   -0.4891950  
   0.366981700     0.5469021   -0.6031951  
   0.368981600     0.4259095   -0.6963860  
   0.370981500     0.2893248   -0.7650358  
   0.372981400     0.1423171   -0.8072453  
   0.374981300    -0.0101882   -0.8211217  
   0.376981200     0.1085671   -0.8095666  
   0.378981100    -0.0432896   -0.8179042  
   0.380981000    -0.1941302   -0.7983778  
   0.382980900    -0.3255844   -0.7564104  
   0.384980800    -0.4425506   -0.6965367  
   0.386980700    -0.5483034   -0.6187716  
   0.388980600    -0.6396425   -0.5262402  
   0.390980500    -0.7151863   -0.4209988  
   0.392980400    -0.7726343   -0.3066879  
   0.394980300    -0.8114027   -0.1857589  
   0.396980200    -0.8312404   -0.0612438  
   0.398980100    -0.8319169    0.0646304  
   0.400980000    -0.8136965    0.1887127  
   0.402979900    -0.7768061    0.3084981  
   0.404979800    -0.7226242    0.4207003  
   0.406979700    -0.6521825    0.5233844  
   0.408979600    -0.5673292    0.6143103  
   0.410979500    -0.4694135    0.6919272  
   0.412979400    -0.3599568    0.7543237  
   0.414979300    -0.2419557    0.7993809  
   0.416979200    -0.1179064    0.8261665  
   0.418979100     0.0087089    0.8335743  
   0.420979000     0.1356861    0.8215421  
   0.422978900     0.2601184    0.7899275  
   0.424978800     0.3789448    0.7388021  
   0.426978700     0.4889401    0.6693731  
   0.428978600     0.5871291    0.5829611  
   0.430978500     0.6704693    0.4819778  
   0.432978400     0.7368748    0.3686541  
   0.434978300     0.7846291    0.2456038  
   0.436978200     0.8118116    0.1160345  
   0.438978100     0.8181186   -0.0169073  
   0.440978000     0.8025687   -0.1498669  
   0.442977900     0.7653716   -0.2786475  
   0.444977800     0.7073597   -0.4001203  
   0.446977700     0.6303297   -0.5104516  
   0.448977600     0.5355800   -0.6065681  
   0.450977500     0.4262801   -0.6864277  
   0.452977400     0.3050542   -0.7467243  
   0.454977300     0.1748219   -0.7860150  
   0.456977200     0.0393074   -0.8032898  
   0.458977100    -0.0968396   -0.7975264  
   0.460977000    -0.2295575   -0.7692521  
   0.462976900    -0.3552083   -0.7195604  
   0.464976800    -0.4701858   -0.6499893  
   0.466976700    -0.5716450   -0.5629802  
   0.468976600    -0.6569145   -0.4612554  
   0.470976500    -0.7242911   -0.3472412  
   0.472976400    -0.7717442   -0.2248017  
   0.474976300    -0.7986612   -0.0970103  
   0.476976200    -0.8047357    0.0327031  
   0.478976100    -0.7904178    0.1606233  
   0.480976000    -0.7560598    0.2831362  
   0.482975900    -0.7036357    0.3981676  
   0.484975800    -0.6344067    0.5030770  
   0.486975700    -0.5499474    0.5959113  
   0.488975600    -0.4526827    0.6744073  
   0.490975500    -0.3443382    0.7372460  
   0.492975400    -0.2278235    0.7826582  
   0.494975300    -0.1060043    0.8097737  
   0.496975200     0.0190750    0.8180719  
   0.498975100     0.1436504    0.8068843  
   0.500975000     0.2650715    0.7771024  
   0.502974900     0.3807825    0.7287033  
   0.504974800     0.4880730    0.6633348  
   0.506974700     0.5847510    0.5814438  
   0.508974600     0.6686155    0.4846224  
   0.510974500     0.7363388    0.3752745  
   0.512974400     0.7867618    0.2560848  
   0.514974300     0.8176609    0.1304330  
   0.516974200     0.8284832    0.0012626  
   0.518974100     0.8192337   -0.1283894  
   0.520974000     0.7892650   -0.2551645  
   0.522973900     0.7393466   -0.3763152  
   0.524973800     0.6707144   -0.4882334  
   0.526973700     0.5849441   -0.5883349  
   0.528973600     0.4839203   -0.6737511  
   0.530973500     0.3698442   -0.7422197  
   0.532973400     0.2463530   -0.7911240  
   0.534973300     0.1163586   -0.8199189  
   0.536973200    -0.0170104   -0.8272223  
   0.538973100    -0.1489538   -0.8132610  
   0.540973000    -0.2764466   -0.7783009  
   0.542972900    -0.3968615   -0.7233177  
   0.544972800    -0.5061906   -0.6500320  
   0.546972700    -0.6032153   -0.5598683  
   0.548972600    -0.6840189   -0.4555323  
   0.550972500    -0.7472575   -0.3395899  
   0.552972400    -0.7908744   -0.2150207  
   0.554972300    -0.8141154   -0.0853058  
   0.556972200    -0.8160824    0.0462040  
   0.558972100    -0.7969941    0.1759568  
   0.560972000    -0.7572268    0.3005702  
   0.562971900    -0.6985587    0.4169031  
   0.564971800    -0.6224137    0.5219318  
   0.566971700    -0.5309235    0.6132222  
   0.568971600    -0.4264102    0.6884837  
   0.570971500    -0.3112568    0.7460752  
   0.572971400    -0.1883699    0.7847993  
   0.574971300    -0.0605682    0.8035453  
   0.576971200     0.0689895    0.8015420  
   0.578971100     0.1971323    0.7791230  
   0.580971000     0.3199928    0.7360533  
   0.582970900     0.4342385    0.6736630  
   0.584970800     0.5365593    0.5942442  
   0.586970700     0.6253781    0.4992746  
   0.588970600     0.6972988    0.3913242  
   0.590970500     0.7510891    0.2729420  
   0.592970400     0.7852805    0.1476004  
   0.594970300     0.7988300    0.0179938  
   0.596970200     0.7915887   -0.1119418  
   0.598970100     0.7631470   -0.2394813  
   0.600970000     0.7145270   -0.3610000  
   0.602969900     0.6471210   -0.4728398  
   0.604969800     0.5621210   -0.5729842  
   0.606969700     0.4622329   -0.6582426  
   0.608969600     0.3494116   -0.7260256  
   0.610969500     0.2274642   -0.7749678  
   0.612969400     0.0994562   -0.8032810  
   0.614969300    -0.0307825   -0.8110964  
   0.616969200    -0.1598255   -0.7978263  
   0.618969100    -0.2839654   -0.7641687  
   0.620969000    -0.4008602   -0.7122909  
   0.622968900    -0.5083145   -0.6429577  
   0.624968800    -0.6032326   -0.5578716  
   0.626968700    -0.6837588   -0.4596426  
   0.628968600    -0.7479039   -0.3499738  
   0.630968500    -0.7944285   -0.2317858  
   0.632968400    -0.8226241   -0.1086988  
   0.634968300    -0.8309988    0.0171322  
   0.636968200    -0.8205930    0.1427890  
   0.638968100    -0.7908018    0.2648302  
   0.640968000    -0.7431478    0.3809836  
   0.642967900    -0.6782309    0.4879829  
   0.644967800    -0.5981854    0.5840542  
   0.646967700    -0.5044065    0.6667587  
   0.648967600    -0.3994712    0.7345804  
   0.650967500    -0.2858987    0.7851137  
   0.652967400    -0.1661123    0.8181576  
   0.654967300    -0.0427658    0.8327473  
   0.656967200     0.0815386    0.8287491  
   0.658967100     0.2038212    0.8058002  
   0.660967000     0.3221125    0.7643211  
   0.662966900     0.4331368    0.7047279  
   0.664966800     0.5349277    0.6278194  
   0.666966700     0.6242250    0.5357964  
   0.668966600     0.6980681    0.4299829  
   0.670966500     0.7549407    0.3136150  
   0.672966400     0.7926109    0.1897716  
   0.674966300     0.8104557    0.0606961  
   0.676966200     0.8072824   -0.0695576  
   0.678966100     0.7832147   -0.1973399  
   0.680966000     0.7387567   -0.3204457  
   0.682965900     0.6754916   -0.4345982  
   0.684965800     0.5945339   -0.5373321  
   0.686965700     0.4977589   -0.6258044  
   0.688965600     0.3879147   -0.6975672  
   0.690965500     0.2678130   -0.7504208  
   0.692965400     0.1412954   -0.7830266  
   0.694965300     0.0115641   -0.7949530  
   0.696965200    -0.1181344   -0.7854425  
   0.698965100    -0.2443308   -0.7554543  
   0.700965000    -0.3638060   -0.7056460  
   0.702964900    -0.4735196   -0.6373295  
   0.704964800    -0.5702284   -0.5529773  
   0.706964700    -0.6521841   -0.4541660  
   0.708964600    -0.7167920   -0.3441716  
   0.710964500    -0.7633240   -0.2253007  
   0.712964400    -0.7897756   -0.1013421  
   0.714964300    -0.7966713    0.0249091  
   0.716964200    -0.7836827    0.1494017  
   0.718964100    -0.7520000    0.2697792  
   0.720964000    -0.7021528    0.3829598  
   0.722963900    -0.6361129    0.4866679  
   0.724963800    -0.5555035    0.5786537  
   0.726963700    -0.4619438    0.6571139  
   0.728963600    -0.3575349    0.7204118  
   0.730963500    -0.2451078    0.7668543  
   0.732963400    -0.1269166    0.7963989  
   0.734963300    -0.0051459    0.8072471  
   0.736963200     0.1364904    0.7967935  
   0.738963100     0.2755553    0.7610072  
   0.740963000     0.4073791    0.7017377  
   0.742962900     0.5266454    0.6194659  
   0.744962800     0.6305020    0.5173294  
   0.746962700     0.7148196    0.3976752  
   0.748962600     0.7767124    0.2646046  
   0.750962500     0.7098340    0.3874509  
   0.752962400     0.7698808    0.2527136  
   0.754962300     0.8048598    0.1092668  
   0.756962200     0.8132567   -0.0383961  
   0.758962100     0.7947482   -0.1856300  
   0.760962000     0.7496902   -0.3274050  
   0.762961900     0.6832448   -0.4527721  
   0.764961800     0.6036313   -0.5555351  
   0.766961700     0.5088788   -0.6440475  
   0.768961600     0.4005594   -0.7169123  
   0.770961500     0.2818964   -0.7715197  
   0.772961400     0.1564480   -0.8060672  
   0.774961300     0.0274728   -0.8207237  
   0.776961200    -0.1029065   -0.8143586  
   0.778961100    -0.2299274   -0.7869505  
   0.780961000    -0.3510818   -0.7399392  
   0.782960900    -0.4628947   -0.6738951  
   0.784960800    -0.5626273   -0.5910207  
   0.786960700    -0.6476777   -0.4932427  
   0.788960600    -0.7155697   -0.3837661  
   0.790960500    -0.7649027   -0.2653573  
   0.792960400    -0.7949652   -0.1411947  
   0.794960300    -0.8046746   -0.0149099  
   0.796960200    -0.7945410    0.1106202  
   0.798960100    -0.7651398    0.2322185  
   0.800960000    -0.7174504    0.3469276  
   0.802959900    -0.6529260    0.4523267  
   0.804959800    -0.5734704    0.5460588  
   0.806959700    -0.4808960    0.6260273  
   0.808959600    -0.3774432    0.6904835  
   0.810959500    -0.2659334    0.7384470  
   0.812959400    -0.1485540    0.7684761  
   0.814959300    -0.0279862    0.7804441  
   0.816959200     0.0929540    0.7738480  
   0.818959100     0.2113967    0.7481505  
   0.820959000     0.3254328    0.7053002  
   0.822958900     0.4311504    0.6450195  
   0.824958800     0.5270777    0.5689585  
   0.826958700     0.6101902    0.4786232  
   0.828958600     0.6785005    0.3761098  
   0.830958500     0.7303883    0.2636477  
   0.832958400     0.7641395    0.1444756  
   0.834958300     0.7785454    0.0208915  
   0.836958200     0.7738022   -0.1038592  
   0.838958100     0.7491333   -0.2265713  
   0.840958000     0.7049936   -0.3443056  
   0.842957900     0.6426415   -0.4540309  
   0.844957800     0.5632326   -0.5529664  
   0.846957700     0.4690342   -0.6378245  
   0.848957600     0.3620307   -0.7069924  
   0.850957500     0.2454268   -0.7581306  
   0.852957400     0.1219430   -0.7898293  
   0.854957300    -0.0049646   -0.8016319  
   0.856957200    -0.1318338   -0.7927018  
   0.858957100    -0.2551382   -0.7641150  
   0.860957000    -0.3719746   -0.7164530  
   0.862956900    -0.4790983   -0.6517550  
   0.864956800    -0.5742477   -0.5717154  
   0.866956700    -0.6553471   -0.4786909  
   0.868956600    -0.7208149   -0.3749913  
   0.870956500    -0.7694297   -0.2627853  
   0.872956400    -0.8003709   -0.1450209  
   0.874956300    -0.8128410   -0.0241821  
   0.876956200    -0.8069936    0.0973176  
   0.878956100    -0.7828522    0.2160163  
   0.880956000    -0.7411398    0.3294472  
   0.882955900    -0.6826717    0.4354932  
   0.884955800    -0.6091776    0.5317667  
   0.886955700    -0.5219183    0.6156182  
   0.888955600    -0.4228022    0.6854086  
   0.890955500    -0.3139783    0.7394531  
   0.892955400    -0.1983241    0.7763613  
   0.894955300    -0.0782059    0.7954596  
