! MS46122B
! 2250307/22442219
! 6/20/2025 7:51:40 AM
! C:\USERS\SPARKY\DOCUMENTS\VNA_DATA\JUNE20_2025\3.0K\PORT4_MOS5.S1P
! CHANNEL.1
! TR.MEASUREMENT
! RAW.DATA
# GHZ S RI R 50.0
! FREQ.GHZ         S11RE         S11IM         
!; PortSelection: Port_1
   0.001000000    -0.8873258    0.0515913  
   0.002999900    -0.8612707    0.2503817  
   0.004999800    -0.8241662    0.3928386  
   0.006999700    -0.7610487    0.5199858  
   0.008999600    -0.6743122    0.6305115  
   0.010999500    -0.5684330    0.7219098  
   0.012999400    -0.4477401    0.7929018  
   0.014999300    -0.3156347    0.8421909  
   0.016999200    -0.1777381    0.8695969  
   0.018999100    -0.0371559    0.8753103  
   0.020999000     0.1020851    0.8606673  
   0.022998900     0.2369570    0.8259073  
   0.024998800     0.3367101    0.7541559  
   0.026998700     0.4820703    0.7023553  
   0.028998600     0.5876983    0.6163818  
   0.030998500     0.6787462    0.5166286  
   0.032998400     0.7197180    0.4052067  
   0.034998300     0.8104014    0.2830943  
   0.036998200     0.8474652    0.1538697  
   0.038998100     0.8637626    0.0202621  
   0.040998000     0.8588341   -0.1144160  
   0.042997900     0.8318688   -0.2468985  
   0.044997800     0.7636177   -0.3470810  
   0.046997700     0.7164826   -0.4901809  
   0.048997600     0.6313025   -0.5949342  
   0.050997500     0.5308924   -0.6849242  
   0.052997400     0.4188492   -0.7574214  
   0.054997300     0.2963816   -0.8122888  
   0.056997200     0.1675189   -0.8476442  
   0.058997100     0.0356601   -0.8629574  
   0.060997000    -0.0964455   -0.8579271  
   0.062996900    -0.2260316   -0.8331283  
   0.064996800    -0.3499357   -0.7892392  
   0.066996700    -0.4653666   -0.7267826  
   0.068996600    -0.5697524   -0.6474094  
   0.070996500    -0.6605583   -0.5531703  
   0.072996400    -0.7356909   -0.4463922  
   0.074996300    -0.7932621   -0.3293104  
   0.076996200    -0.8320457   -0.2047523  
   0.078996100    -0.8513770   -0.0758770  
   0.080996000    -0.8507074    0.0545026  
   0.082995900    -0.8299698    0.1832935  
   0.084995800    -0.7895976    0.3075793  
   0.086995700    -0.7307151    0.4242075  
   0.088995600    -0.6542920    0.5307826  
   0.090995500    -0.5622667    0.6241600  
   0.092995400    -0.4564348    0.7023960  
   0.094995300    -0.3392697    0.7632891  
   0.096995200    -0.2137758    0.8054187  
   0.098995100    -0.0827491    0.8265766  
   0.100995000     0.0505937    0.8273793  
   0.102994900     0.1817925    0.8059947  
   0.104994800     0.3087369    0.7640957  
   0.106994700     0.4272256    0.7021995  
   0.108994600     0.5345209    0.6221436  
   0.110994500     0.6274256    0.5256009  
   0.112994400     0.7034916    0.4152130  
   0.114994300     0.7607985    0.2941987  
   0.116994200     0.7979187    0.1655193  
   0.118994100     0.8134376    0.0330640  
   0.120994000     0.8074563   -0.1002338  
   0.122993900     0.7803395   -0.2305893  
   0.124993800     0.7327133   -0.3542370  
   0.126993700     0.6659076   -0.4684154  
   0.128993600     0.5823309   -0.5703777  
   0.130993500     0.4840323   -0.6570243  
   0.132993400     0.3736217   -0.7266903  
   0.134993300     0.2539890   -0.7776636  
   0.136993200     0.1286721   -0.8092099  
   0.138993100     0.0006642   -0.8206056  
   0.140993000    -0.1271831   -0.8120953  
   0.142992900    -0.2515240   -0.7838972  
   0.144992800    -0.3692719   -0.7373773  
   0.146992700    -0.4784066   -0.6734442  
   0.148992600    -0.5762023   -0.5939287  
   0.150992500    -0.6597168   -0.5008537  
   0.152992400    -0.7287586   -0.3964477  
   0.154992300    -0.7807491   -0.2831861  
   0.156992200    -0.8152159   -0.1634906  
   0.158992100    -0.8311271   -0.0400823  
   0.160992000    -0.8285494    0.0840998  
   0.162991900    -0.8072857    0.2064942  
   0.164991800    -0.7676507    0.3245735  
   0.166991700    -0.7111790    0.4352073  
   0.168991600    -0.6384696    0.5363879  
   0.170991500    -0.5505512    0.6258918  
   0.172991400    -0.4504814    0.7009787  
   0.174991300    -0.3398251    0.7601380  
   0.176991200    -0.2208260    0.8022734  
   0.178991100    -0.0960525    0.8257405  
   0.180991000     0.0307808    0.8301378  
   0.182990900     0.1573415    0.8146412  
   0.184990800     0.2812713    0.7794139  
   0.186990700     0.3987145    0.7255630  
   0.188990600     0.4867013    0.6678544  
   0.190990500     0.5986212    0.5677165  
   0.192990400     0.6816603    0.4625062  
   0.194990300     0.7451513    0.3479156  
   0.196990200     0.7897722    0.2245665  
   0.198990100     0.8140026    0.0955373  
   0.200990000     0.8173338   -0.0364612  
   0.202989900     0.7992584   -0.1678133  
   0.204989800     0.7604989   -0.2942848  
   0.206989700     0.7017536   -0.4126058  
   0.208989600     0.6246117   -0.5197189  
   0.210989500     0.5312434   -0.6135660  
   0.212989400     0.4234699   -0.6908594  
   0.214989300     0.3052485   -0.7493271  
   0.216989200     0.1796971   -0.7877234  
   0.218989100     0.0499052   -0.8053799  
   0.220989000    -0.0805072   -0.8018461  
   0.222988900    -0.2089062   -0.7773993  
   0.224988800    -0.3313340   -0.7323804  
   0.226988700    -0.4440566   -0.6689362  
   0.228988600    -0.5447668   -0.5887524  
   0.230988500    -0.6308106   -0.4937610  
   0.232988400    -0.7007008   -0.3867551  
   0.234988300    -0.7524398   -0.2697804  
   0.236988200    -0.7849945   -0.1465134  
   0.238988100    -0.7974706   -0.0200510  
   0.240988000    -0.7897187    0.1059018  
   0.242987900    -0.7624594    0.2287106  
   0.244987800    -0.7166779    0.3450319  
   0.246987700    -0.6529294    0.4532254  
   0.248987600    -0.5727717    0.5502909  
   0.250987500    -0.4782685    0.6335359  
   0.252987400    -0.3721162    0.7006484  
   0.254987300    -0.2574128    0.7504101  
   0.256987200    -0.1368068    0.7812021  
   0.258987100    -0.0123199    0.7929947  
   0.260987000     0.1127777    0.7853759  
   0.262986900     0.2359993    0.7580539  
   0.264986800     0.3535721    0.7116287  
   0.266986700     0.4626152    0.6470727  
   0.268986600     0.5600561    0.5662462  
   0.270986500     0.6435584    0.4713356  
   0.272986400     0.7110695    0.3640490  
   0.274986300     0.7612904    0.2476815  
   0.276986200     0.7925413    0.1242562  
   0.278986100     0.8040754   -0.0029305  
   0.280986000     0.7951533   -0.1311518  
   0.282985900     0.7662150   -0.2565634  
   0.284985800     0.7174190   -0.3761331  
   0.286985700     0.6501433   -0.4859789  
   0.288985600     0.5669658   -0.5835732  
   0.290985500     0.4697080   -0.6665049  
   0.292985400     0.3608633   -0.7328773  
   0.294985300     0.2428161   -0.7812787  
   0.296985200     0.1183539   -0.8110390  
   0.298985100    -0.0099879   -0.8206720  
   0.300985000    -0.1381710   -0.8096726  
   0.302984900    -0.2628062   -0.7786022  
   0.304984800    -0.3803173   -0.7285106  
   0.306984700    -0.4884602   -0.6609239  
   0.308984600    -0.5835969   -0.5780603  
   0.310984500    -0.6641814   -0.4821246  
   0.312984400    -0.7291026   -0.3750803  
   0.314984300    -0.7765808   -0.2596679  
   0.316984200    -0.8052979   -0.1386207  
   0.318984100    -0.8156942   -0.0137032  
   0.320984000    -0.8062087    0.1114376  
   0.322983900    -0.7773908    0.2344325  
   0.324983800    -0.7299759    0.3505006  
   0.326983700    -0.6649276    0.4579981  
   0.328983600    -0.5841475    0.5540510  
   0.330983500    -0.4895535    0.6360978  
   0.332983400    -0.3839885    0.7021815  
   0.334983300    -0.2693595    0.7511126  
   0.336983200    -0.1484064    0.7817735  
   0.338983100    -0.0242990    0.7930637  
   0.340983000     0.1006302    0.7847506  
   0.342982900     0.2230319    0.7573428  
   0.344982800     0.3400775    0.7103170  
   0.346982700     0.4495136    0.6449611  
   0.348982600     0.5474205    0.5626483  
   0.350982500     0.6308351    0.4655221  
   0.352982400     0.6978614    0.3554162  
   0.354982300     0.7478887    0.2309133  
   0.356982200     0.7782581    0.0857713  
   0.358982100     0.7811486   -0.0621415  
   0.360982000     0.7564718   -0.2077861  
   0.362981900     0.7054559   -0.3460597  
   0.364981800     0.6296467   -0.4731885  
   0.366981700     0.5312722   -0.5840401  
   0.368981600     0.4137590   -0.6745847  
   0.370981500     0.2819235   -0.7415959  
   0.372981400     0.1395216   -0.7832441  
   0.374981300    -0.0084914   -0.7971265  
   0.376981200     0.1067845   -0.7859043  
   0.378981100    -0.0407748   -0.7945272  
   0.380981000    -0.1871246   -0.7760996  
   0.382980900    -0.3151055   -0.7359205  
   0.384980800    -0.4291115   -0.6780683  
   0.386980700    -0.5323391   -0.6029702  
   0.388980600    -0.6214185   -0.5133420  
   0.390980500    -0.6951702   -0.4110677  
   0.392980400    -0.7517750   -0.3001323  
   0.394980300    -0.7899785   -0.1824686  
   0.396980200    -0.8097143   -0.0613020  
   0.398980100    -0.8107045    0.0614128  
   0.400980000    -0.7935401    0.1821878  
   0.402979900    -0.7580293    0.2990981  
   0.404979800    -0.7055308    0.4084013  
   0.406979700    -0.6372426    0.5088593  
   0.408979600    -0.5549626    0.5976828  
   0.410979500    -0.4596909    0.6738302  
   0.412979400    -0.3530890    0.7348889  
   0.414979300    -0.2380528    0.7793237  
   0.416979200    -0.1175480    0.8055155  
   0.418979100     0.0059920    0.8132874  
   0.420979000     0.1298783    0.8017421  
   0.422978900     0.2514573    0.7712995  
   0.424978800     0.3672769    0.7220442  
   0.426978700     0.4747658    0.6545866  
   0.428978600     0.5705947    0.5705922  
   0.430978500     0.6522651    0.4723845  
   0.432978400     0.7173542    0.3621001  
   0.434978300     0.7640992    0.2423791  
   0.436978200     0.7912526    0.1161676  
   0.438978100     0.7978622   -0.0134517  
   0.440978000     0.7831406   -0.1428641  
   0.442977900     0.7471582   -0.2687691  
   0.444977800     0.6912441   -0.3873276  
   0.446977700     0.6164725   -0.4951794  
   0.448977600     0.5244359   -0.5893183  
   0.450977500     0.4184130   -0.6675910  
   0.452977400     0.3005699   -0.7270265  
   0.454977300     0.1735744   -0.7660624  
   0.456977200     0.0415689   -0.7835347  
   0.458977100    -0.0915696   -0.7786204  
   0.460977000    -0.2211211   -0.7517390  
   0.462976900    -0.3440204   -0.7038841  
   0.464976800    -0.4566636   -0.6365283  
   0.466976700    -0.5563518   -0.5521241  
   0.468976600    -0.6403335   -0.4531317  
   0.470976500    -0.7068198   -0.3420264  
   0.472976400    -0.7538992   -0.2225213  
   0.474976300    -0.7810635   -0.0977272  
   0.476976200    -0.7876523    0.0292461  
   0.478976100    -0.7743523    0.1545302  
   0.480976000    -0.7413933    0.2748275  
   0.482975900    -0.6905441    0.3876529  
   0.484975800    -0.6232649    0.4907699  
   0.486975700    -0.5411336    0.5823712  
   0.488975600    -0.4460926    0.6598234  
   0.490975500    -0.3401954    0.7219799  
   0.492975400    -0.2260932    0.7670752  
   0.494975300    -0.1067720    0.7942398  
   0.496975200     0.0158758    0.8029918  
   0.498975100     0.1381276    0.7927165  
   0.500975000     0.2574262    0.7640076  
   0.502974900     0.3712315    0.7170648  
   0.504974800     0.4767302    0.6533172  
   0.506974700     0.5721911    0.5735452  
   0.508974600     0.6548680    0.4787965  
   0.510974500     0.7220044    0.3718438  
   0.512974400     0.7720878    0.2549546  
   0.514974300     0.8031043    0.1317589  
   0.516974200     0.8143400    0.0048889  
   0.518974100     0.8059622   -0.1224423  
   0.520974000     0.7771621   -0.2473674  
   0.522973900     0.7286233   -0.3665059  
   0.524973800     0.6619635   -0.4768426  
   0.526973700     0.5779392   -0.5756673  
   0.528973600     0.4793307   -0.6601907  
   0.530973500     0.3676375   -0.7281980  
   0.532973400     0.2466481   -0.7768611  
   0.534973300     0.1187869   -0.8061188  
   0.536973200    -0.0124054   -0.8140640  
   0.538973100    -0.1422724   -0.8011066  
   0.540973000    -0.2680689   -0.7673737  
   0.542972900    -0.3868682   -0.7141883  
   0.544972800    -0.4949658   -0.6425660  
   0.546972700    -0.5909260   -0.5545525  
   0.548972600    -0.6712525   -0.4523498  
   0.550972500    -0.7342719   -0.3385721  
   0.552972400    -0.7780129   -0.2161504  
   0.554972300    -0.8018013   -0.0884829  
   0.556972200    -0.8045049    0.0412204  
   0.558972100    -0.7863852    0.1692740  
   0.560972000    -0.7481503    0.2922291  
   0.562971900    -0.6911027    0.4072661  
   0.564971800    -0.6166304    0.5112872  
   0.566971700    -0.5267108    0.6017295  
   0.568971600    -0.4242935    0.6764918  
   0.570971500    -0.3112517    0.7342830  
   0.572971400    -0.1903272    0.7733468  
   0.574971300    -0.0643207    0.7926220  
   0.576971200     0.0633888    0.7914657  
   0.578971100     0.1900942    0.7702048  
   0.580971000     0.3116916    0.7284228  
   0.582970900     0.4248101    0.6676279  
   0.584970800     0.5263465    0.5899132  
   0.586970700     0.6146164    0.4966243  
   0.588970600     0.6864207    0.3905057  
   0.590970500     0.7402471    0.2739676  
   0.592970400     0.7749653    0.1502936  
   0.594970300     0.7891266    0.0221624  
   0.596970200     0.7827702   -0.1061588  
   0.598970100     0.7554517   -0.2325297  
   0.600970000     0.7084118   -0.3528328  
   0.602969900     0.6423045   -0.4640074  
   0.604969800     0.5589281   -0.5634255  
   0.606969700     0.4607640   -0.6484814  
   0.608969600     0.3497482   -0.7161621  
   0.610969500     0.2292621   -0.7653818  
   0.612969400     0.1027048   -0.7943321  
   0.614969300    -0.0262279   -0.8026942  
   0.616969200    -0.1542259   -0.7905042  
   0.618969100    -0.2772683   -0.7581192  
   0.620969000    -0.3935179   -0.7073479  
   0.622968900    -0.5002226   -0.6394414  
   0.624968800    -0.5947342   -0.5559661  
   0.626968700    -0.6752357   -0.4589331  
   0.628968600    -0.7395549   -0.3507000  
   0.630968500    -0.7863596   -0.2339285  
   0.632968400    -0.8151327   -0.1120672  
   0.634968300    -0.8242060    0.0126740  
   0.636968200    -0.8147663    0.1373084  
   0.638968100    -0.7859775    0.2585680  
   0.640968000    -0.7394221    0.3740000  
   0.642967900    -0.6757633    0.4805089  
   0.644967800    -0.5970327    0.5762722  
   0.646967700    -0.5043961    0.6590058  
   0.648967600    -0.4008446    0.7268968  
   0.650967500    -0.2883953    0.7778321  
   0.652967400    -0.1700102    0.8114007  
   0.654967300    -0.0474489    0.8266646  
   0.656967200     0.0756375    0.8235770  
   0.658967100     0.1971148    0.8017062  
   0.660967000     0.3148150    0.7611959  
   0.662966900     0.4252519    0.7031661  
   0.664966800     0.5266845    0.6276300  
   0.666966700     0.6161186    0.5368502  
   0.668966600     0.6903656    0.4321854  
   0.670966500     0.7477375    0.3171849  
   0.672966400     0.7860746    0.1944338  
   0.674966300     0.8047752    0.0665916  
   0.676966200     0.8026144   -0.0628235  
   0.678966100     0.7796809   -0.1897842  
   0.680966000     0.7368566   -0.3126933  
   0.682965900     0.6746435   -0.4263894  
   0.684965800     0.5951319   -0.5290210  
   0.686965700     0.4997630   -0.6177146  
   0.688965600     0.3912098   -0.6900272  
   0.690965500     0.2724890   -0.7434373  
   0.692965400     0.1469442   -0.7770271  
   0.694965300     0.0181478   -0.7901052  
   0.696965200    -0.1108748   -0.7817564  
   0.698965100    -0.2366296   -0.7530807  
   0.700965000    -0.3557740   -0.7045634  
   0.702964900    -0.4655247   -0.6376250  
   0.704964800    -0.5624310   -0.5545508  
   0.706964700    -0.6447198   -0.4570811  
   0.708964600    -0.7099888   -0.3482333  
   0.710964500    -0.7572994   -0.2304214  
   0.712964400    -0.7846562   -0.1073743  
   0.714964300    -0.7926724    0.0180092  
   0.716964200    -0.7807963    0.1420745  
   0.718964100    -0.7504414    0.2621333  
   0.720964000    -0.7018225    0.3752086  
   0.722963900    -0.6370293    0.4789734  
   0.724963800    -0.5577132    0.5711337  
   0.726963700    -0.4653546    0.6500375  
   0.728963600    -0.3617848    0.7141168  
   0.730963500    -0.2505616    0.7612110  
   0.732963400    -0.1329375    0.7917126  
   0.734963300    -0.0120608    0.8035646  
   0.736963200     0.1292779    0.7945747  
   0.738963100     0.2677355    0.7599627  
   0.740963000     0.3994347    0.7021333  
   0.742962900     0.5189611    0.6213082  
   0.744962800     0.6233219    0.5205705  
   0.746962700     0.7082816    0.4021381  
   0.748962600     0.7711356    0.2701783  
   0.750962500     0.7033734    0.3920095  
   0.752962400     0.7644937    0.2584423  
   0.754962300     0.8005165    0.1158192  
   0.756962200     0.8102466   -0.0312153  
   0.758962100     0.7931666   -0.1779739  
   0.760962000     0.7494901   -0.3196014  
   0.762961900     0.6844141   -0.4450365  
   0.764961800     0.6060802   -0.5481051  
   0.766961700     0.5123819   -0.6370784  
   0.768961600     0.4052295   -0.7106295  
   0.770961500     0.2875103   -0.7660438  
   0.772961400     0.1628969   -0.8014971  
   0.774961300     0.0346161   -0.8173201  
   0.776961200    -0.0952556   -0.8121326  
   0.778961100    -0.2219995   -0.7860542  
   0.780961000    -0.3431262   -0.7402804  
   0.782960900    -0.4550407   -0.6756802  
   0.784960800    -0.5552117   -0.5939810  
   0.786960700    -0.6407549   -0.4975758  
   0.788960600    -0.7094041   -0.3891463  
   0.790960500    -0.7598156   -0.2717641  
   0.792960400    -0.7908893   -0.1484911  
   0.794960300    -0.8018172   -0.0226254  
   0.796960200    -0.7930613    0.1023945  
   0.798960100    -0.7649885    0.2239541  
   0.800960000    -0.7185680    0.3387668  
   0.802959900    -0.6552472    0.4443291  
   0.804959800    -0.5772107    0.5384778  
   0.806959700    -0.4857939    0.6190748  
   0.808959600    -0.3834221    0.6844092  
   0.810959500    -0.2726963    0.7333964  
   0.812959400    -0.1560186    0.7644668  
   0.814959300    -0.0359035    0.7776277  
   0.816959200     0.0845126    0.7722505  
   0.818959100     0.2027747    0.7478418  
   0.820959000     0.3167715    0.7064070  
   0.822958900     0.4227068    0.6473923  
   0.824958800     0.5189784    0.5727267  
   0.826958700     0.6026149    0.4836066  
   0.828958600     0.6719845    0.3823209  
   0.830958500     0.7248629    0.2707905  
   0.832958400     0.7598149    0.1524000  
   0.834958300     0.7755918    0.0293422  
   0.836958200     0.7721710   -0.0948524  
   0.838958100     0.7488957   -0.2172259  
   0.840958000     0.7062266   -0.3350951  
   0.842957900     0.6453450   -0.4450860  
   0.844957800     0.5674354   -0.5445324  
   0.846957700     0.4745072   -0.6300952  
   0.848957600     0.3687350   -0.7003038  
   0.850957500     0.2530919   -0.7525693  
   0.852957400     0.1304371   -0.7854865  
   0.854957300     0.0040804   -0.7986189  
   0.856957200    -0.1222759   -0.7911578  
   0.858957100    -0.2452990   -0.7641526  
   0.860957000    -0.3622077   -0.7179343  
   0.862956900    -0.4696646   -0.6548613  
   0.864956800    -0.5653956   -0.5762872  
   0.866956700    -0.6471841   -0.4848572  
   0.868956600    -0.7138211   -0.3822034  
   0.870956500    -0.7635776   -0.2711336  
   0.872956400    -0.7958722   -0.1542205  
   0.874956300    -0.8098747   -0.0339503  
   0.876956200    -0.8055487    0.0870520  
   0.878956100    -0.7828684    0.2055258  
   0.880956000    -0.7427889    0.3195777  
   0.882955900    -0.6858699    0.4256930  
   0.884955800    -0.6138242    0.5223748  
   0.886955700    -0.5279064    0.6070943  
   0.888955600    -0.4298985    0.6777442  
   0.890955500    -0.3224197    0.7329872  
   0.892955400    -0.2077217    0.7711755  
   0.894955300    -0.0882153    0.7917026  
