! MS46122B
! 2250307/22442219
! 6/16/2025 7:54:10 AM
! C:\USERS\SPARKY\DOCUMENTS\VNA_DATA\JUNE16_2025\3.1K\PORT6_MOS3.S1P
! CHANNEL.1
! TR.MEASUREMENT
! RAW.DATA
# GHZ S RI R 50.0
! FREQ.GHZ         S11RE         S11IM         
!; PortSelection: Port_1
   0.001000000    -0.8934751    0.0510808  
   0.002999900    -0.8675164    0.2496145  
   0.004999800    -0.8312886    0.3914907  
   0.006999700    -0.7689403    0.5184207  
   0.008999600    -0.6833639    0.6290383  
   0.010999500    -0.5786924    0.7211472  
   0.012999400    -0.4589845    0.7932093  
   0.014999300    -0.3282799    0.8435881  
   0.016999200    -0.1911723    0.8727469  
   0.018999100    -0.0513288    0.8806214  
   0.020999000     0.0876937    0.8680514  
   0.022998900     0.2225995    0.8356510  
   0.024998800     0.3231166    0.7660345  
   0.026998700     0.4692301    0.7174740  
   0.028998600     0.5760713    0.6342210  
   0.030998500     0.6690113    0.5368276  
   0.032998400     0.7126254    0.4269892  
   0.034998300     0.8064545    0.3078610  
   0.036998200     0.8471507    0.1803172  
   0.038998100     0.8673806    0.0476716  
   0.040998000     0.8669904   -0.0862816  
   0.042997900     0.8445386   -0.2189856  
   0.044997800     0.7798244   -0.3209268  
   0.046997700     0.7384656   -0.4654565  
   0.048997600     0.6578387   -0.5731301  
   0.050997500     0.5614110   -0.6663814  
   0.052997400     0.4538655   -0.7425816  
   0.054997300     0.3334163   -0.8032500  
   0.056997200     0.2067818   -0.8439928  
   0.058997100     0.0764559   -0.8651445  
   0.060997000    -0.0552700   -0.8664682  
   0.062996900    -0.1851671   -0.8484253  
   0.064996800    -0.3106002   -0.8108772  
   0.066996700    -0.4287185   -0.7548586  
   0.068996600    -0.5368713   -0.6816885  
   0.070996500    -0.6322135   -0.5932452  
   0.072996400    -0.7130327   -0.4913372  
   0.074996300    -0.7771454   -0.3784713  
   0.076996200    -0.8233969   -0.2571966  
   0.078996100    -0.8505379   -0.1305331  
   0.080996000    -0.8581931   -0.0010518  
   0.082995900    -0.8461910    0.1281297  
   0.084995800    -0.8146691    0.2539305  
   0.086995700    -0.7643936    0.3737130  
   0.088995600    -0.6961462    0.4846883  
   0.090995500    -0.6119510    0.5841271  
   0.092995400    -0.5130792    0.6697894  
   0.094995300    -0.4018384    0.7390836  
   0.096995200    -0.2810226    0.7906958  
   0.098995100    -0.1530854    0.8229551  
   0.100995000    -0.0212868    0.8343784  
   0.102994900     0.1106729    0.8248563  
   0.104994800     0.2397343    0.7945072  
   0.106994700     0.3629416    0.7439430  
   0.108994600     0.4761717    0.6746289  
   0.110994500     0.5772086    0.5878152  
   0.112994400     0.6630880    0.4858808  
   0.114994300     0.7316565    0.3717747  
   0.116994200     0.7809998    0.2480385  
   0.118994100     0.8100026    0.1182825  
   0.120994000     0.8179060   -0.0143251  
   0.122993900     0.8044604   -0.1460087  
   0.124993800     0.7704136   -0.2736491  
   0.126993700     0.7165155   -0.3937537  
   0.128993600     0.6448959   -0.5039328  
   0.130993500     0.5566678   -0.6005827  
   0.132993400     0.4550379   -0.6816971  
   0.134993300     0.3424289   -0.7456708  
   0.136993200     0.2219331   -0.7911977  
   0.138993100     0.0960959   -0.8170576  
   0.140993000    -0.0312202   -0.8231542  
   0.142992900    -0.1575052   -0.8099201  
   0.144992800    -0.2797753   -0.7776080  
   0.146992700    -0.3949355   -0.7274268  
   0.148992600    -0.5010116   -0.6603789  
   0.150992500    -0.5952780   -0.5787877  
   0.152992400    -0.6756886   -0.4837547  
   0.154992300    -0.7408242   -0.3784626  
   0.156992200    -0.7896822   -0.2647762  
   0.158992100    -0.8211645   -0.1453461  
   0.160992000    -0.8339885   -0.0226464  
   0.162991900    -0.8289584    0.1004320  
   0.164991800    -0.8054485    0.2215473  
   0.166991700    -0.7643992    0.3376829  
   0.168991600    -0.7065259    0.4462123  
   0.170991500    -0.6327789    0.5458875  
   0.172991400    -0.5452379    0.6330947  
   0.174991300    -0.4453686    0.7065495  
   0.176991200    -0.3347544    0.7643338  
   0.178991100    -0.2165925    0.8054844  
   0.180991000    -0.0935021    0.8281401  
   0.182990900     0.0322479    0.8318152  
   0.184990800     0.1578019    0.8166012  
   0.186990700     0.2806072    0.7822136  
   0.188990600     0.3748145    0.7401212  
   0.190990500     0.4998509    0.6606023  
   0.192990400     0.5973140    0.5718746  
   0.194990300     0.6782133    0.4712897  
   0.196990200     0.7420555    0.3590779  
   0.198990100     0.7878552    0.2381704  
   0.200990000     0.8141519    0.1108736  
   0.202989900     0.8201288   -0.0196265  
   0.204989800     0.8050995   -0.1495828  
   0.206989700     0.7699165   -0.2749873  
   0.208989600     0.7152749   -0.3931601  
   0.210989500     0.6422254   -0.5016795  
   0.212989400     0.5525184   -0.5973508  
   0.214989300     0.4489924   -0.6770279  
   0.216989200     0.3346218   -0.7390625  
   0.218989100     0.2123375   -0.7817898  
   0.220989000     0.0846572   -0.8043895  
   0.222988900    -0.0447870   -0.8063633  
   0.224988800    -0.1727819   -0.7880546  
   0.226988700    -0.2954455   -0.7492318  
   0.228988600    -0.4095590   -0.6921644  
   0.230988500    -0.5130762   -0.6181485  
   0.232988400    -0.6031763   -0.5288786  
   0.234988300    -0.6780843   -0.4264801  
   0.236988200    -0.7356529   -0.3138498  
   0.238988100    -0.7749069   -0.1940914  
   0.240988000    -0.7946110   -0.0706875  
   0.242987900    -0.7946059    0.0537721  
   0.244987800    -0.7756866    0.1762592  
   0.246987700    -0.7379102    0.2947024  
   0.248987600    -0.6820075    0.4057784  
   0.250987500    -0.6095945    0.5068877  
   0.252987400    -0.5224510    0.5949293  
   0.254987300    -0.4234273    0.6684442  
   0.256987200    -0.3146735    0.7251730  
   0.258987100    -0.1982487    0.7649747  
   0.260987000    -0.0766248    0.7862520  
   0.262986900     0.0472609    0.7884496  
   0.264986800     0.1701752    0.7715973  
   0.266986700     0.2893295    0.7354522  
   0.268986600     0.4014059    0.6817883  
   0.270986500     0.5033543    0.6111017  
   0.272986400     0.5934147    0.5256795  
   0.274986300     0.6691077    0.4269782  
   0.276986200     0.7290374    0.3175273  
   0.278986100     0.7713487    0.1995048  
   0.280986000     0.7946932    0.0756579  
   0.282985900     0.7985550   -0.0503801  
   0.284985800     0.7824749   -0.1759440  
   0.286985700     0.7468277   -0.2973444  
   0.288985600     0.6927255   -0.4110347  
   0.290985500     0.6221175   -0.5149173  
   0.292985400     0.5363672   -0.6059105  
   0.294985300     0.4370802   -0.6828509  
   0.296985200     0.3268749   -0.7436660  
   0.298985100     0.2078913   -0.7866538  
   0.300985000     0.0834763   -0.8104109  
   0.302984900    -0.0426288   -0.8146043  
   0.304984800    -0.1677030   -0.7988660  
   0.306984700    -0.2880951   -0.7642193  
   0.308984600    -0.4009038   -0.7114639  
   0.310984500    -0.5035398   -0.6428841  
   0.312984400    -0.5944281   -0.5596561  
   0.314984300    -0.6707751   -0.4638786  
   0.316984200    -0.7319387   -0.3576296  
   0.318984100    -0.7762890   -0.2430030  
   0.320984000    -0.8029955   -0.1223394  
   0.322983900    -0.8104016    0.0012313  
   0.324983800    -0.7989487    0.1239116  
   0.326983700    -0.7689650    0.2432125  
   0.328983600    -0.7210143    0.3565741  
   0.330983500    -0.6564674    0.4603049  
   0.332983400    -0.5772455    0.5530170  
   0.334983300    -0.4851981    0.6323646  
   0.336983200    -0.3822523    0.6967664  
   0.338983100    -0.2700947    0.7446188  
   0.340983000    -0.1521172    0.7748981  
   0.342982900    -0.0307570    0.7866487  
   0.344982800     0.0917534    0.7796196  
   0.346982700     0.2125199    0.7535878  
   0.348982600     0.3284589    0.7085272  
   0.350982500     0.4359574    0.6459270  
   0.352982400     0.5329294    0.5666080  
   0.354982300     0.6191518    0.4685770  
   0.356982200     0.6941299    0.3452626  
   0.358982100     0.7453800    0.2110362  
   0.360982000     0.7715130    0.0695887  
   0.362981900     0.7713107   -0.0743342  
   0.364981800     0.7449551   -0.2161020  
   0.366981700     0.6930575   -0.3505110  
   0.368981600     0.6172160   -0.4737622  
   0.370981500     0.5198492   -0.5809323  
   0.372981400     0.4043600   -0.6684833  
   0.374981300     0.2741812   -0.7331508  
   0.376981200     0.3734190   -0.6812803  
   0.378981100     0.2418279   -0.7407086  
   0.380981000     0.1015500   -0.7748209  
   0.382980900    -0.0298872   -0.7826042  
   0.384980800    -0.1547926   -0.7697677  
   0.386980700    -0.2754273   -0.7374606  
   0.388980600    -0.3889369   -0.6866137  
   0.390980500    -0.4924302   -0.6187966  
   0.392980400    -0.5830476   -0.5368023  
   0.394980300    -0.6592215   -0.4427612  
   0.396980200    -0.7203260   -0.3387429  
   0.398980100    -0.7641165   -0.2271992  
   0.400980000    -0.7909314   -0.1108863  
   0.402979900    -0.7997679    0.0076161  
   0.404979800    -0.7907594    0.1256652  
   0.406979700    -0.7646753    0.2408044  
   0.408979600    -0.7216790    0.3501026  
   0.410979500    -0.6629325    0.4523982  
   0.412979400    -0.5891359    0.5451814  
   0.414979300    -0.5025111    0.6262259  
   0.416979200    -0.4044841    0.6936194  
   0.418979100    -0.2972546    0.7455075  
   0.420979000    -0.1835726    0.7803249  
   0.422978900    -0.0651353    0.7985098  
   0.424978800     0.0554949    0.7983384  
   0.426978700     0.1748133    0.7799457  
   0.428978600     0.2907847    0.7432396  
   0.430978500     0.3997953    0.6891460  
   0.432978400     0.4992175    0.6188056  
   0.434978300     0.5869208    0.5338247  
   0.436978200     0.6608275    0.4356745  
   0.438978100     0.7189062    0.3267954  
   0.440978000     0.7592968    0.2094262  
   0.442977900     0.7808294    0.0866646  
   0.444977800     0.7824396   -0.0385137  
   0.446977700     0.7643986   -0.1627049  
   0.448977600     0.7260717   -0.2827957  
   0.450977500     0.6691340   -0.3951723  
   0.452977400     0.5941841   -0.4977582  
   0.454977300     0.5030402   -0.5877095  
   0.456977200     0.3977884   -0.6615528  
   0.458977100     0.2814241   -0.7168425  
   0.460977000     0.1581482   -0.7524254  
   0.462976900     0.0306403   -0.7670397  
   0.464976800    -0.0969126   -0.7605356  
   0.466976700    -0.2216928   -0.7330775  
   0.468976600    -0.3394994   -0.6863234  
   0.470976500    -0.4478824   -0.6208230  
   0.472976400    -0.5436859   -0.5387796  
   0.474976300    -0.6242751   -0.4429366  
   0.476976200    -0.6883656   -0.3362813  
   0.478976100    -0.7337213   -0.2215031  
   0.480976000    -0.7602315   -0.1022378  
   0.482975900    -0.7677741    0.0186764  
   0.484975800    -0.7563325    0.1385139  
   0.486975700    -0.7265863    0.2549891  
   0.488975600    -0.6794065    0.3646315  
   0.490975500    -0.6159462    0.4658330  
   0.492975400    -0.5382870    0.5559276  
   0.494975300    -0.4476466    0.6328653  
   0.496975200    -0.3464819    0.6949545  
   0.498975100    -0.2373244    0.7410146  
   0.500975000    -0.1228837    0.7697952  
   0.502974900    -0.0053617    0.7809299  
   0.504974800     0.1127153    0.7741044  
   0.506974700     0.2292702    0.7492549  
   0.508974600     0.3412170    0.7067176  
   0.510974500     0.4456700    0.6473397  
   0.512974400     0.5401195    0.5721983  
   0.514974300     0.6219838    0.4835067  
   0.516974200     0.6895832    0.3833599  
   0.518974100     0.7408989    0.2739207  
   0.520974000     0.7747998    0.1570969  
   0.522973900     0.7902267    0.0363194  
   0.524973800     0.7869786   -0.0859132  
   0.526973700     0.7647129   -0.2067697  
   0.528973600     0.7233847   -0.3227786  
   0.530973500     0.6643063   -0.4319964  
   0.532973400     0.5887198   -0.5303581  
   0.534973300     0.4985170   -0.6161821  
   0.536973200     0.3951814   -0.6868567  
   0.538973100     0.2824104   -0.7398728  
   0.540973000     0.1632490   -0.7747433  
   0.542972900     0.0395214   -0.7903140  
   0.544972800    -0.0845178   -0.7865017  
   0.546972700    -0.2073258   -0.7626683  
   0.548972600    -0.3248352   -0.7202191  
   0.550972500    -0.4336472   -0.6593850  
   0.552972400    -0.5320615   -0.5819099  
   0.554972300    -0.6168563   -0.4901889  
   0.556972200    -0.6858167   -0.3858998  
   0.558972100    -0.7375545   -0.2722815  
   0.560972000    -0.7703695   -0.1523606  
   0.562971900    -0.7836908   -0.0292442  
   0.564971800    -0.7773919    0.0937923  
   0.566971700    -0.7519900    0.2139353  
   0.568971600    -0.7082831    0.3282416  
   0.570971500    -0.6473621    0.4340409  
   0.572971400    -0.5704596    0.5289003  
   0.574971300    -0.4794180    0.6106406  
   0.576971200    -0.3762992    0.6774235  
   0.578971100    -0.2637543    0.7269813  
   0.580971000    -0.1448804    0.7579982  
   0.582970900    -0.0226623    0.7699838  
   0.584970800     0.0999273    0.7624793  
   0.586970700     0.2193210    0.7355772  
   0.588970600     0.3327116    0.6900259  
   0.590970500     0.4380232    0.6269901  
   0.592970400     0.5320694    0.5478199  
   0.594970300     0.6126881    0.4548261  
   0.596970200     0.6769288    0.3496562  
   0.598970100     0.7239823    0.2355179  
   0.600970000     0.7521883    0.1148367  
   0.602969900     0.7606434   -0.0086969  
   0.604969800     0.7492474   -0.1331683  
   0.606969700     0.7176981   -0.2537842  
   0.608969600     0.6670954   -0.3685043  
   0.610969500     0.5983437   -0.4735024  
   0.612969400     0.5137330   -0.5656858  
   0.614969300     0.4150041   -0.6434982  
   0.616969200     0.3059406   -0.7035872  
   0.618969100     0.1893830   -0.7453666  
   0.620969000     0.0683098   -0.7675254  
   0.622968900    -0.0547529   -0.7711893  
   0.624968800    -0.1765939   -0.7547656  
   0.626968700    -0.2944140   -0.7198506  
   0.628968600    -0.4052565   -0.6668348  
   0.630968500    -0.5061807   -0.5974784  
   0.632968400    -0.5947657   -0.5134278  
   0.634968300    -0.6691933   -0.4166849  
   0.636968200    -0.7274443   -0.3100005  
   0.638968100    -0.7683290   -0.1961699  
   0.640968000    -0.7914036   -0.0774624  
   0.642967900    -0.7962868    0.0430686  
   0.644967800    -0.7824255    0.1625499  
   0.646967700    -0.7505764    0.2779232  
   0.648967600    -0.7023517    0.3871253  
   0.650967500    -0.6383032    0.4872114  
   0.652967400    -0.5601693    0.5763752  
   0.654967300    -0.4702525    0.6527034  
   0.656967200    -0.3692042    0.7147433  
   0.658967100    -0.2607046    0.7610105  
   0.660967000    -0.1458090    0.7905982  
   0.662966900    -0.0274097    0.8026349  
   0.664966800     0.0929036    0.7968853  
   0.666966700     0.2110185    0.7725933  
   0.668966600     0.3248421    0.7305813  
   0.670966500     0.4314275    0.6710604  
   0.672966400     0.5274202    0.5955268  
   0.674966300     0.6113010    0.5061926  
   0.676966200     0.6802378    0.4044325  
   0.678966100     0.7328045    0.2933325  
   0.680966000     0.7676152    0.1748655  
   0.682965900     0.7833344    0.0523101  
   0.684965800     0.7797285   -0.0715788  
   0.686965700     0.7560462   -0.1940042  
   0.688965600     0.7132083   -0.3115204  
   0.690965500     0.6525530   -0.4211437  
   0.692965400     0.5752110   -0.5190969  
   0.694965300     0.4830020   -0.6037859  
   0.696965200     0.3781616   -0.6728677  
   0.698965100     0.2639235   -0.7238967  
   0.700965000     0.1425637   -0.7561260  
   0.702964900     0.0176832   -0.7683355  
   0.704964800    -0.1072576   -0.7604024  
   0.706964700    -0.2291669   -0.7324355  
   0.708964600    -0.3446451   -0.6852854  
   0.710964500    -0.4512967   -0.6203233  
   0.712964400    -0.5452833   -0.5393086  
   0.714964300    -0.6250346   -0.4446376  
   0.716964200    -0.6880153   -0.3393711  
   0.718964100    -0.7333274   -0.2263485  
   0.720964000    -0.7600942   -0.1084369  
   0.722963900    -0.7685179    0.0110967  
   0.724963800    -0.7583652    0.1302614  
   0.726963700    -0.7301554    0.2458528  
   0.728963600    -0.6846166    0.3551989  
   0.730963500    -0.6231976    0.4559979  
   0.732963400    -0.5474390    0.5461828  
   0.734963300    -0.4588470    0.6235955  
   0.736963200    -0.3426311    0.6946383  
   0.738963100    -0.2150674    0.7448375  
   0.740963000    -0.0801220    0.7720396  
   0.742962900     0.0578215    0.7753404  
   0.744962800     0.1946773    0.7546378  
   0.746962700     0.3265036    0.7099437  
   0.748962600     0.4490046    0.6429279  
   0.750962500     0.3267651    0.7074997  
   0.752962400     0.4482940    0.6386953  
   0.754962300     0.5557870    0.5495241  
   0.756962200     0.6461276    0.4422078  
   0.758962100     0.7167575    0.3205732  
   0.760962000     0.7646126    0.1874379  
   0.762961900     0.7875610    0.0549481  
   0.764961800     0.7879956   -0.0679366  
   0.766961700     0.7694237   -0.1897549  
   0.768961600     0.7316800   -0.3077440  
   0.770961500     0.6760201   -0.4185724  
   0.772961400     0.6034377   -0.5195784  
   0.774961300     0.5158238   -0.6078091  
   0.776961200     0.4151179   -0.6816280  
   0.778961100     0.3034831   -0.7389324  
   0.780961000     0.1837097   -0.7776952  
   0.782960900     0.0591191   -0.7973492  
   0.784960800    -0.0675414   -0.7966938  
   0.786960700    -0.1923930   -0.7758185  
   0.788960600    -0.3123140   -0.7351556  
   0.790960500    -0.4237162   -0.6760305  
   0.792960400    -0.5240524   -0.6002723  
   0.794960300    -0.6104457   -0.5097721  
   0.796960200    -0.6810266   -0.4075433  
   0.798960100    -0.7342405   -0.2957583  
   0.800960000    -0.7696019   -0.1781297  
   0.802959900    -0.7854660   -0.0567151  
   0.804959800    -0.7828316    0.0648114  
   0.806959700    -0.7613125    0.1836820  
   0.808959600    -0.7218017    0.2973866  
   0.810959500    -0.6658501    0.4030411  
   0.812959400    -0.5944048    0.4982478  
   0.814959300    -0.5097008    0.5814545  
   0.816959200    -0.4133702    0.6503463  
   0.818959100    -0.3080247    0.7039556  
   0.820959000    -0.1956884    0.7405245  
   0.822958900    -0.0790847    0.7598891  
   0.824958800     0.0393970    0.7606648  
   0.826958700     0.1563678    0.7437490  
   0.828958600     0.2700747    0.7092291  
   0.830958500     0.3769311    0.6575745  
   0.832958400     0.4750419    0.5898321  
   0.834958300     0.5614926    0.5076016  
   0.836958200     0.6343075    0.4128628  
   0.838958100     0.6918631    0.3075045  
   0.840958000     0.7326519    0.1942643  
   0.842957900     0.7551794    0.0748534  
   0.844957800     0.7590808   -0.0468759  
   0.846957700     0.7431307   -0.1682677  
   0.848957600     0.7083075   -0.2858921  
   0.850957500     0.6549954   -0.3971297  
   0.852957400     0.5842853   -0.4985305  
   0.854957300     0.4985164   -0.5873997  
   0.856957200     0.3990788   -0.6618556  
   0.858957100     0.2895775   -0.7192079  
   0.860957000     0.1722527   -0.7584196  
   0.862956900     0.0510192   -0.7785362  
   0.864956800    -0.0712735   -0.7792449  
   0.866956700    -0.1918445   -0.7611757  
   0.868956600    -0.3074456   -0.7246573  
   0.870956500    -0.4159661   -0.6709127  
   0.872956400    -0.5144015   -0.6012440  
   0.874956300    -0.6010667   -0.5176229  
   0.876956200    -0.6733966   -0.4217536  
   0.878956100    -0.7301996   -0.3162042  
   0.880956000    -0.7703357   -0.2032817  
   0.882955900    -0.7923728   -0.0860034  
   0.884955800    -0.7965899    0.0330089  
   0.886955700    -0.7828167    0.1509478  
   0.888955600    -0.7513574    0.2651594  
   0.890955500    -0.7035046    0.3731487  
   0.892955400    -0.6401658    0.4730516  
   0.894955300    -0.5623813    0.5618169  
