! MS46122B
! 2250307/22442219
! 6/13/2025 3:28:05 PM
! C:\USERS\SPARKY\DOCUMENTS\VNA_DATA\JUNE13_2025\3.2K\PORT2_MOS1.S1P
! CHANNEL.1
! TR.MEASUREMENT
! RAW.DATA
# GHZ S RI R 50.0
! FREQ.GHZ         S11RE         S11IM         
!; PortSelection: Port_1
   0.001000000    -0.9288417    0.0515340  
   0.002999900    -0.9022108    0.2537309  
   0.004999800    -0.8658714    0.4004377  
   0.006999700    -0.8020967    0.5322622  
   0.008999600    -0.7146726    0.6476578  
   0.010999500    -0.6069158    0.7442183  
   0.012999400    -0.4835855    0.8199698  
   0.014999300    -0.3487953    0.8736437  
   0.016999200    -0.2072974    0.9052777  
   0.018999100    -0.0627987    0.9151798  
   0.020999000     0.0808587    0.9035438  
   0.022998900     0.2205774    0.8720473  
   0.024998800     0.3251607    0.8014032  
   0.026998700     0.4764878    0.7529855  
   0.028998600     0.5884103    0.6686364  
   0.030998500     0.6857938    0.5697659  
   0.032998400     0.7326193    0.4570839  
   0.034998300     0.8314127    0.3355905  
   0.036998200     0.8759758    0.2049477  
   0.038998100     0.8996120    0.0683841  
   0.040998000     0.9017445   -0.0702693  
   0.042997900     0.8816209   -0.2076324  
   0.044997800     0.8172944   -0.3143832  
   0.046997700     0.7780170   -0.4647678  
   0.048997600     0.6973496   -0.5777849  
   0.050997500     0.6002895   -0.6766365  
   0.052997400     0.4903921   -0.7588200  
   0.054997300     0.3689578   -0.8240139  
   0.056997200     0.2392408   -0.8694792  
   0.058997100     0.1052388   -0.8952447  
   0.060997000    -0.0304720   -0.9006281  
   0.062996900    -0.1651275   -0.8858247  
   0.064996800    -0.2957099   -0.8508252  
   0.066996700    -0.4194401   -0.7970569  
   0.068996600    -0.5333142   -0.7253110  
   0.070996500    -0.6347046   -0.6373259  
   0.072996400    -0.7218200   -0.5352380  
   0.074996300    -0.7921782   -0.4212749  
   0.076996200    -0.8443437   -0.2981917  
   0.078996100    -0.8773741   -0.1685189  
   0.080996000    -0.8906352   -0.0353722  
   0.082995900    -0.8836495    0.0981047  
   0.084995800    -0.8566561    0.2291154  
   0.086995700    -0.8100110    0.3547930  
   0.088995600    -0.7449470    0.4721502  
   0.090995500    -0.6627401    0.5786322  
   0.092995400    -0.5649148    0.6715984  
   0.094995300    -0.4540945    0.7487544  
   0.096995200    -0.3317446    0.8079441  
   0.098995100    -0.2018551    0.8477070  
   0.100995000    -0.0664908    0.8667936  
   0.102994900     0.0701857    0.8638885  
   0.104994800     0.2047755    0.8400348  
   0.106994700     0.3345470    0.7948431  
   0.108994600     0.4557636    0.7297012  
   0.110994500     0.5651007    0.6462839  
   0.112994400     0.6597939    0.5463709  
   0.114994300     0.7376269    0.4326624  
   0.116994200     0.7962084    0.3080577  
   0.118994100     0.8343627    0.1756799  
   0.120994000     0.8509440    0.0393707  
   0.122993900     0.8454767   -0.0974593  
   0.124993800     0.8186520   -0.2317228  
   0.126993700     0.7710112   -0.3592399  
   0.128993600     0.7041987   -0.4778582  
   0.130993500     0.6200730   -0.5836183  
   0.132993400     0.5201669   -0.6741648  
   0.134993300     0.4082859   -0.7481883  
   0.136993200     0.2869052   -0.8033162  
   0.138993100     0.1589756   -0.8387728  
   0.140993000     0.0280589   -0.8540782  
   0.142992900    -0.1033273   -0.8493748  
   0.144992800    -0.2315699   -0.8248781  
   0.146992700    -0.3539358   -0.7812864  
   0.148992600    -0.4679439   -0.7200198  
   0.150992500    -0.5710818   -0.6427391  
   0.152992400    -0.6608366   -0.5510896  
   0.154992300    -0.7358772   -0.4477314  
   0.156992200    -0.7947013   -0.3343153  
   0.158992100    -0.8360949   -0.2142965  
   0.160992000    -0.8590673   -0.0891476  
   0.162991900    -0.8632581    0.0375359  
   0.164991800    -0.8490344    0.1635706  
   0.166991700    -0.8163940    0.2858939  
   0.168991600    -0.7658885    0.4021124  
   0.170991500    -0.6987872    0.5103526  
   0.172991400    -0.6165556    0.6068935  
   0.174991300    -0.5207921    0.6908082  
   0.176991200    -0.4129768    0.7597697  
   0.178991100    -0.2955050    0.8121331  
   0.180991000    -0.1716862    0.8466069  
   0.182990900    -0.0435680    0.8621862  
   0.184990800     0.0860073    0.8582374  
   0.186990700     0.2148004    0.8348724  
   0.188990600     0.3149310    0.8014084  
   0.190990500     0.4507992    0.7323917  
   0.192990400     0.5596401    0.6516320  
   0.194990300     0.6524799    0.5570345  
   0.196990200     0.7295596    0.4490645  
   0.198990100     0.7892576    0.3302953  
   0.200990000     0.8299417    0.2027283  
   0.202989900     0.8501561    0.0700009  
   0.204989800     0.8493706   -0.0646154  
   0.206989700     0.8274246   -0.1968914  
   0.208989600     0.7849584   -0.3244256  
   0.210989500     0.7227271   -0.4439801  
   0.212989400     0.6420104   -0.5525202  
   0.214989300     0.5451932   -0.6462900  
   0.216989200     0.4352196   -0.7235891  
   0.218989100     0.3149733   -0.7822099  
   0.220989000     0.1867471   -0.8209800  
   0.222988900     0.0541464   -0.8390440  
   0.224988800    -0.0793663   -0.8356875  
   0.226988700    -0.2099743   -0.8113951  
   0.228988600    -0.3344726   -0.7671720  
   0.230988500    -0.4497325   -0.7045137  
   0.232988400    -0.5535786   -0.6244276  
   0.234988300    -0.6435475   -0.5289989  
   0.236988200    -0.7174972   -0.4212409  
   0.238988100    -0.7731737   -0.3034192  
   0.240988000    -0.8096222   -0.1794341  
   0.242987900    -0.8263943   -0.0521273  
   0.244987800    -0.8233257    0.0758495  
   0.246987700    -0.8004729    0.2015888  
   0.248987600    -0.7581366    0.3230309  
   0.250987500    -0.6978847    0.4359690  
   0.252987400    -0.6214064    0.5380599  
   0.254987300    -0.5303688    0.6265072  
   0.256987200    -0.4272548    0.6998471  
   0.258987100    -0.3142118    0.7567970  
   0.260987000    -0.1937429    0.7956138  
   0.262986900    -0.0677257    0.8156190  
   0.264986800     0.0600988    0.8159447  
   0.266986700     0.1862849    0.7967542  
   0.268986600     0.3080467    0.7585916  
   0.270986500     0.4221305    0.7018870  
   0.272986400     0.5261616    0.6283377  
   0.274986300     0.6180865    0.5398099  
   0.276986200     0.6953619    0.4375513  
   0.278986100     0.7564441    0.3241805  
   0.280986000     0.7991115    0.2022717  
   0.282985900     0.8225829    0.0746831  
   0.284985800     0.8260473   -0.0552157  
   0.286985700     0.8088532   -0.1839688  
   0.288985600     0.7722098   -0.3078011  
   0.290985500     0.7168179   -0.4242851  
   0.292985400     0.6443069   -0.5307305  
   0.294985300     0.5562215   -0.6248098  
   0.296985200     0.4541394   -0.7043681  
   0.298985100     0.3404442   -0.7674129  
   0.300985000     0.2181387   -0.8119587  
   0.302984900     0.0906725   -0.8369136  
   0.304984800    -0.0386242   -0.8418014  
   0.306984700    -0.1668080   -0.8265415  
   0.308984600    -0.2898495   -0.7922069  
   0.310984500    -0.4057040   -0.7399334  
   0.312984400    -0.5116524   -0.6707031  
   0.314984300    -0.6056947   -0.5866057  
   0.316984200    -0.6858904   -0.4895735  
   0.318984100    -0.7504520   -0.3809835  
   0.320984000    -0.7978355   -0.2633555  
   0.322983900    -0.8275972   -0.1395558  
   0.324983800    -0.8372992   -0.0135628  
   0.326983700    -0.8278564    0.1125118  
   0.328983600    -0.7994023    0.2353186  
   0.330983500    -0.7529011    0.3518559  
   0.332983400    -0.6898735    0.4592478  
   0.334983300    -0.6114293    0.5559766  
   0.336983200    -0.5193908    0.6396779  
   0.338983100    -0.4157438    0.7085795  
   0.340983000    -0.3030133    0.7610863  
   0.342982900    -0.1830682    0.7958710  
   0.344982800    -0.0589458    0.8119372  
   0.346982700     0.0676683    0.8090541  
   0.348982600     0.1926553    0.7865526  
   0.350982500     0.3129849    0.7446387  
   0.352982400     0.4254792    0.6843528  
   0.354982300     0.5315765    0.6035303  
   0.356982200     0.6318275    0.4951649  
   0.358982100     0.7104284    0.3705569  
   0.360982000     0.7654424    0.2345155  
   0.362981900     0.7953635    0.0906111  
   0.364981800     0.7986563   -0.0570274  
   0.366981700     0.7751194   -0.2029512  
   0.368981600     0.7254056   -0.3422013  
   0.370981500     0.6510761   -0.4706578  
   0.372981400     0.5542085   -0.5834321  
   0.374981300     0.4380139   -0.6767003  
   0.376981200     0.5256214   -0.6019365  
   0.378981100     0.4059820   -0.6901469  
   0.380981000     0.2728053   -0.7548393  
   0.382980900     0.1430480   -0.7914104  
   0.384980800     0.0149499   -0.8054535  
   0.386980700    -0.1134847   -0.7995329  
   0.388980600    -0.2385013   -0.7730406  
   0.390980500    -0.3570442   -0.7277630  
   0.392980400    -0.4657730   -0.6653481  
   0.394980300    -0.5628502   -0.5876402  
   0.396980200    -0.6463566   -0.4966007  
   0.398980100    -0.7150485   -0.3947534  
   0.400980000    -0.7671700   -0.2840677  
   0.402979900    -0.8019787   -0.1672525  
   0.404979800    -0.8190273   -0.0476167  
   0.406979700    -0.8179201    0.0729874  
   0.408979600    -0.7996408    0.1915987  
   0.410979500    -0.7633213    0.3065462  
   0.412979400    -0.7108513    0.4150435  
   0.414979300    -0.6427478    0.5149233  
   0.416979200    -0.5605793    0.6035945  
   0.418979100    -0.4664724    0.6790813  
   0.420979000    -0.3620096    0.7398054  
   0.422978900    -0.2492601    0.7843273  
   0.424978800    -0.1305905    0.8121878  
   0.426978700    -0.0086613    0.8218651  
   0.428978600     0.1137530    0.8134231  
   0.430978500     0.2333971    0.7862226  
   0.432978400     0.3477386    0.7415548  
   0.434978300     0.4544639    0.6799681  
   0.436978200     0.5509164    0.6024331  
   0.438978100     0.6347211    0.5106961  
   0.440978000     0.7041568    0.4064972  
   0.442977900     0.7568535    0.2923699  
   0.444977800     0.7911736    0.1707697  
   0.446977700     0.8061122    0.0449453  
   0.448977600     0.8011193   -0.0823886  
   0.450977500     0.7760615   -0.2073848  
   0.452977400     0.7308331   -0.3279847  
   0.454977300     0.6668246   -0.4408033  
   0.456977200     0.5846645   -0.5420141  
   0.458977100     0.4866106   -0.6289908  
   0.460977000     0.3759046   -0.6989503  
   0.462976900     0.2555651   -0.7493656  
   0.464976800     0.1285699   -0.7797061  
   0.466976700    -0.0017913   -0.7888715  
   0.468976600    -0.1307469   -0.7767692  
   0.470976500    -0.2562902   -0.7438606  
   0.472976400    -0.3743320   -0.6910681  
   0.474976300    -0.4815029   -0.6204810  
   0.476976200    -0.5754084   -0.5340004  
   0.478976100    -0.6537877   -0.4343392  
   0.480976000    -0.7144958   -0.3247686  
   0.482975900    -0.7569145   -0.2079756  
   0.484975800    -0.7803869   -0.0867532  
   0.486975700    -0.7849622    0.0360474  
   0.488975600    -0.7703078    0.1578401  
   0.490975500    -0.7373034    0.2752283  
   0.492975400    -0.6867082    0.3858493  
   0.494975300    -0.6203877    0.4873071  
   0.496975200    -0.5392826    0.5771518  
   0.498975100    -0.4458001    0.6533312  
   0.500975000    -0.3424245    0.7141966  
   0.502974900    -0.2313149    0.7589038  
   0.504974800    -0.1145020    0.7863054  
   0.506974700     0.0055616    0.7958156  
   0.508974600     0.1261322    0.7868246  
   0.510974500     0.2445072    0.7595065  
   0.512974400     0.3573207    0.7145587  
   0.514974300     0.4618589    0.6532470  
   0.516974200     0.5561856    0.5763552  
   0.518974100     0.6378172    0.4862870  
   0.520974000     0.7049541    0.3845994  
   0.522973900     0.7557189    0.2734062  
   0.524973800     0.7891092    0.1554839  
   0.526973700     0.8042416    0.0332264  
   0.528973600     0.8003606   -0.0902271  
   0.530973500     0.7772993   -0.2124503  
   0.532973400     0.7354705   -0.3296137  
   0.534973300     0.6757405   -0.4395176  
   0.536973200     0.5993415   -0.5391334  
   0.538973100     0.5088558   -0.6254027  
   0.540973000     0.4061217   -0.6963269  
   0.542972900     0.2933198   -0.7506540  
   0.544972800     0.1738763   -0.7865874  
   0.546972700     0.0491106   -0.8036172  
   0.548972600    -0.0767017   -0.8014977  
   0.550972500    -0.2006087   -0.7790309  
   0.552972400    -0.3200051   -0.7378327  
   0.554972300    -0.4309913   -0.6782740  
   0.556972200    -0.5315607   -0.6017001  
   0.558972100    -0.6185574   -0.5106453  
   0.560972000    -0.6900958   -0.4071537  
   0.562971900    -0.7440913   -0.2944809  
   0.564971800    -0.7798962   -0.1751122  
   0.566971700    -0.7964071   -0.0521951  
   0.568971600    -0.7936388    0.0713424  
   0.570971500    -0.7718061    0.1926020  
   0.572971400    -0.7315464    0.3091947  
   0.574971300    -0.6733787    0.4181437  
   0.576971200    -0.5988232    0.5168084  
   0.578971100    -0.5096180    0.6026678  
   0.580971000    -0.4081060    0.6735938  
   0.582970900    -0.2970870    0.7275387  
   0.584970800    -0.1790365    0.7633041  
   0.586970700    -0.0573104    0.7803779  
   0.588970600     0.0658017    0.7780485  
   0.590970500     0.1870312    0.7562734  
   0.592970400     0.3031512    0.7157215  
   0.594970300     0.4118544    0.6574221  
   0.596970200     0.5100898    0.5822594  
   0.598970100     0.5955948    0.4926490  
   0.600970000     0.6654509    0.3901031  
   0.602969900     0.7187881    0.2773438  
   0.604969800     0.7532452    0.1571811  
   0.606969700     0.7681069    0.0329514  
   0.608969600     0.7629017   -0.0930372  
   0.610969500     0.7372849   -0.2163719  
   0.612969400     0.6920786   -0.3344699  
   0.614969300     0.6284086   -0.4433101  
   0.616969200     0.5485098   -0.5398747  
   0.618969100     0.4544244   -0.6223552  
   0.620969000     0.3491235   -0.6882833  
   0.622968900     0.2347409   -0.7365224  
   0.624968800     0.1141262   -0.7661645  
   0.626968700    -0.0096330   -0.7762591  
   0.628968600    -0.1333770   -0.7668282  
   0.630968500    -0.2541482   -0.7381297  
   0.632968400    -0.3684033   -0.6911314  
   0.634968300    -0.4734477   -0.6268947  
   0.636968200    -0.5672455   -0.5471029  
   0.638968100    -0.6470111   -0.4542703  
   0.640968000    -0.7112578   -0.3503508  
   0.642967900    -0.7583507   -0.2384837  
   0.644967800    -0.7883349   -0.1208017  
   0.646967700    -0.7995064   -0.0006388  
   0.648967600    -0.7923777    0.1192032  
   0.650967500    -0.7671961    0.2358844  
   0.652967400    -0.7254294    0.3473470  
   0.654967300    -0.6677225    0.4507171  
   0.656967200    -0.5951775    0.5443851  
   0.658967100    -0.5100285    0.6259148  
   0.660967000    -0.4130284    0.6940696  
   0.662966900    -0.3066441    0.7471741  
   0.664966800    -0.1928088    0.7838023  
   0.666966700    -0.0742131    0.8033759  
   0.668966600     0.0462084    0.8047851  
   0.670966500     0.1656173    0.7877379  
   0.672966400     0.2817257    0.7522014  
   0.674966300     0.3911662    0.6997312  
   0.676966200     0.4916865    0.6313863  
   0.678966100     0.5803559    0.5484340  
   0.680966000     0.6555514    0.4523900  
   0.682965900     0.7153437    0.3454732  
   0.684965800     0.7582523    0.2305304  
   0.686965700     0.7826962    0.1096729  
   0.688965600     0.7878053   -0.0141711  
   0.690965500     0.7738425   -0.1373312  
   0.692965400     0.7402328   -0.2572478  
   0.694965300     0.6886117   -0.3704389  
   0.696965200     0.6192433   -0.4741375  
   0.698965100     0.5342440   -0.5658470  
   0.700965000     0.4352413   -0.6430982  
   0.702964900     0.3254657   -0.7033741  
   0.704964800     0.2070202   -0.7454038  
   0.706964700     0.0832598   -0.7681003  
   0.708964600    -0.0421148   -0.7703054  
   0.710964500    -0.1666638   -0.7525454  
   0.712964400    -0.2857181   -0.7149565  
   0.714964300    -0.3973659   -0.6586882  
   0.716964200    -0.4976415   -0.5859618  
   0.718964100    -0.5843767   -0.4987950  
   0.720964000    -0.6558337   -0.3997310  
   0.722963900    -0.7105049   -0.2917881  
   0.724963800    -0.7477838   -0.1771908  
   0.726963700    -0.7663819   -0.0587389  
   0.728963600    -0.7665030    0.0606211  
   0.730963500    -0.7486446    0.1781553  
   0.732963400    -0.7130127    0.2910945  
   0.734963300    -0.6605828    0.3968513  
   0.736963200    -0.5807176    0.5063536  
   0.738963100    -0.4821155    0.6007875  
   0.740963000    -0.3681644    0.6767466  
   0.742962900    -0.2428799    0.7321063  
   0.744962800    -0.1094412    0.7643148  
   0.746962700     0.0279621    0.7730542  
   0.748962600     0.1650344    0.7577974  
   0.750962500     0.0302400    0.7750424  
   0.752962400     0.1664853    0.7576011  
   0.754962300     0.2980334    0.7168695  
   0.756962200     0.4208235    0.6536519  
   0.758962100     0.5305158    0.5697166  
   0.760962000     0.6248010    0.4673121  
   0.762961900     0.6962515    0.3560849  
   0.764961800     0.7441478    0.2456474  
   0.766961700     0.7746402    0.1293225  
   0.768961600     0.7866807    0.0084367  
   0.770961500     0.7800457   -0.1130070  
   0.772961400     0.7548184   -0.2320949  
   0.774961300     0.7114763   -0.3462939  
   0.776961200     0.6503171   -0.4531700  
   0.778961100     0.5729191   -0.5491942  
   0.780961000     0.4812627   -0.6327484  
   0.782960900     0.3768208   -0.7011505  
   0.784960800     0.2620551   -0.7522565  
   0.786960700     0.1406914   -0.7849109  
   0.788960600     0.0152580   -0.7975214  
   0.790960500    -0.1102081   -0.7905217  
   0.792960400    -0.2327683   -0.7629889  
   0.794960300    -0.3492824   -0.7166504  
   0.796960200    -0.4561173   -0.6526374  
   0.798960100    -0.5515311   -0.5728049  
   0.800960000    -0.6325377   -0.4798647  
   0.802959900    -0.6976106   -0.3754113  
   0.804959800    -0.7454115   -0.2629392  
   0.806959700    -0.7749386   -0.1450671  
   0.808959600    -0.7858030   -0.0247014  
   0.810959500    -0.7784142    0.0951051  
   0.812959400    -0.7521917    0.2120182  
   0.814959300    -0.7089230    0.3226275  
   0.816959200    -0.6495519    0.4255466  
   0.818959100    -0.5751660    0.5175200  
   0.820959000    -0.4878340    0.5969012  
   0.822958900    -0.3895273    0.6620505  
   0.824958800    -0.2829912    0.7116156  
   0.826958700    -0.1698330    0.7443008  
   0.828958600    -0.0534049    0.7592716  
   0.830958500     0.0643789    0.7560134  
   0.832958400     0.1801796    0.7352380  
   0.834958300     0.2913975    0.6970922  
   0.836958200     0.3956453    0.6423219  
   0.838958100     0.4902523    0.5719463  
   0.840958000     0.5735974    0.4875714  
   0.842957900     0.6430949    0.3909351  
   0.844957800     0.6971027    0.2839496  
   0.846957700     0.7342526    0.1693176  
   0.848957600     0.7527192    0.0502245  
   0.850957500     0.7523054   -0.0712532  
   0.852957400     0.7322680   -0.1912164  
   0.854957300     0.6935918   -0.3068807  
   0.856957200     0.6367942   -0.4153056  
   0.858957100     0.5634488   -0.5133030  
   0.860957000     0.4755372   -0.5984039  
   0.862956900     0.3757340   -0.6679402  
   0.864956800     0.2661209   -0.7211252  
   0.866956700     0.1504279   -0.7562327  
   0.868956600     0.0305801   -0.7730327  
   0.870956500    -0.0901285   -0.7710426  
   0.872956400    -0.2089321   -0.7498913  
   0.874956300    -0.3227993   -0.7110749  
   0.876956200    -0.4290577   -0.6549615  
   0.878956100    -0.5249794   -0.5832672  
   0.880956000    -0.6091217   -0.4980415  
   0.882955900    -0.6785693   -0.4007742  
   0.884955800    -0.7321234   -0.2947814  
   0.886955700    -0.7689103   -0.1818763  
   0.888955600    -0.7880369   -0.0650405  
   0.890955500    -0.7892133    0.0525570  
   0.892955400    -0.7729588    0.1690190  
   0.894955300    -0.7394415    0.2808661  
