! MS46122B
! 2250307/22442219
! 6/12/2025 7:36:36 AM
! C:\USERS\SPARKY\DOCUMENTS\VNA_DATA\JUNE12_2025\3.1 KELVIN\PORT2.S1P
! CHANNEL.1
! TR.MEASUREMENT
! RAW.DATA
# GHZ S RI R 50.0
! FREQ.GHZ         S11RE         S11IM         
!; PortSelection: Port_1
   0.001000000    -0.9437519    0.0516351  
   0.002999900    -0.9163817    0.2566900  
   0.004999800    -0.8795404    0.4060972  
   0.006999700    -0.8145952    0.5402056  
   0.008999600    -0.7252293    0.6581410  
   0.010999500    -0.6154267    0.7563052  
   0.012999400    -0.4894165    0.8335870  
   0.014999300    -0.3520125    0.8880552  
   0.016999200    -0.2076239    0.9200761  
   0.018999100    -0.0604279    0.9296369  
   0.020999000     0.0859476    0.9172161  
   0.022998900     0.2278677    0.8846176  
   0.024998800     0.3341652    0.8121448  
   0.026998700     0.4881522    0.7622156  
   0.028998600     0.6012249    0.6756935  
   0.030998500     0.6999236    0.5745786  
   0.032998400     0.7466698    0.4596176  
   0.034998300     0.8463305    0.3352090  
   0.036998200     0.8907421    0.2018993  
   0.038998100     0.9138571    0.0627473  
   0.040998000     0.9148134   -0.0784443  
   0.042997900     0.8933303   -0.2181042  
   0.044997800     0.8269273   -0.3263262  
   0.046997700     0.7854331   -0.4789034  
   0.048997600     0.7022701   -0.5931368  
   0.050997500     0.6023855   -0.6927787  
   0.052997400     0.4905102   -0.7748597  
   0.054997300     0.3650643   -0.8399695  
   0.056997200     0.2330299   -0.8851427  
   0.058997100     0.0963760   -0.9097237  
   0.060997000    -0.0417787   -0.9135501  
   0.062996900    -0.1785852   -0.8967318  
   0.064996800    -0.3110160   -0.8594874  
   0.066996700    -0.4360952   -0.8030729  
   0.068996600    -0.5509573   -0.7285294  
   0.070996500    -0.6529323   -0.6375940  
   0.072996400    -0.7400050   -0.5324271  
   0.074996300    -0.8099656   -0.4154260  
   0.076996200    -0.8612085   -0.2893423  
   0.078996100    -0.8926731   -0.1569040  
   0.080996000    -0.9040844   -0.0211616  
   0.082995900    -0.8948212    0.1145280  
   0.084995800    -0.8650475    0.2473986  
   0.086995700    -0.8153793    0.3746649  
   0.088995600    -0.7470562    0.4931021  
   0.090995500    -0.6613277    0.5997615  
   0.092995400    -0.5598729    0.6926021  
   0.094995300    -0.4454901    0.7690589  
   0.096995200    -0.3197461    0.8268588  
   0.098995100    -0.1865627    0.8646739  
   0.100995000    -0.0483072    0.8813984  
   0.102994900     0.0907499    0.8753903  
   0.104994800     0.2275691    0.8478421  
   0.106994700     0.3585313    0.7988986  
   0.108994600     0.4804887    0.7297170  
   0.110994500     0.5898865    0.6420027  
   0.112994400     0.6839851    0.5380830  
   0.114994300     0.7602085    0.4202230  
   0.116994200     0.8168838    0.2917536  
   0.118994100     0.8521124    0.1559985  
   0.120994000     0.8652378    0.0167917  
   0.122993900     0.8559443   -0.1225346  
   0.124993800     0.8250530   -0.2580750  
   0.126993700     0.7730247   -0.3869341  
   0.128993600     0.7016609   -0.5055212  
   0.130993500     0.6128115   -0.6106516  
   0.132993400     0.5088657   -0.7001229  
   0.134993300     0.3927022   -0.7715950  
   0.136993200     0.2676566   -0.8241358  
   0.138993100     0.1364113   -0.8563750  
   0.140993000     0.0031414   -0.8679156  
   0.142992900    -0.1302862   -0.8591207  
   0.144992800    -0.2597191   -0.8304144  
   0.146992700    -0.3831182   -0.7822002  
   0.148992600    -0.4969742   -0.7163360  
   0.150992500    -0.5994407   -0.6346389  
   0.152992400    -0.6878967   -0.5386322  
   0.154992300    -0.7609400   -0.4312631  
   0.156992200    -0.8168303   -0.3140662  
   0.158992100    -0.8550959   -0.1906125  
   0.160992000    -0.8745326   -0.0626771  
   0.162991900    -0.8744928    0.0664682  
   0.164991800    -0.8557384    0.1941743  
   0.166991700    -0.8184239    0.3173901  
   0.168991600    -0.7632226    0.4342028  
   0.170991500    -0.6910287    0.5418352  
   0.172991400    -0.6038739    0.6374325  
   0.174991300    -0.5034001    0.7191534  
   0.176991200    -0.3912022    0.7854550  
   0.178991100    -0.2696328    0.8346723  
   0.180991000    -0.1421650    0.8650990  
   0.182990900    -0.0111242    0.8759958  
   0.184990800     0.1211311    0.8669718  
   0.186990700     0.2514927    0.8381525  
   0.188990600     0.3521917    0.7999533  
   0.190990500     0.4875989    0.7240146  
   0.192990400     0.5951288    0.6369632  
   0.194990300     0.6857276    0.5366467  
   0.196990200     0.7596011    0.4234924  
   0.198990100     0.8152887    0.2998160  
   0.200990000     0.8509365    0.1680294  
   0.202989900     0.8657284    0.0317662  
   0.204989800     0.8585364   -0.1053178  
   0.206989700     0.8299890   -0.2392694  
   0.208989600     0.7807052   -0.3669045  
   0.210989500     0.7112421   -0.4856951  
   0.212989400     0.6239097   -0.5921230  
   0.214989300     0.5204324   -0.6830634  
   0.216989200     0.4048206   -0.7561891  
   0.218989100     0.2792969   -0.8093851  
   0.220989000     0.1470386   -0.8423327  
   0.222988900     0.0111242   -0.8539698  
   0.224988800    -0.1246920   -0.8434693  
   0.226988700    -0.2560364   -0.8117491  
   0.228988600    -0.3802647   -0.7601472  
   0.230988500    -0.4943611   -0.6899791  
   0.232988400    -0.5955266   -0.6030537  
   0.234988300    -0.6819955   -0.5011731  
   0.236988200    -0.7507629   -0.3875282  
   0.238988100    -0.8009703   -0.2646940  
   0.240988000    -0.8309969   -0.1365847  
   0.242987900    -0.8410169   -0.0061903  
   0.244987800    -0.8304676    0.1237084  
   0.246987700    -0.8000911    0.2504730  
   0.248987600    -0.7501053    0.3714790  
   0.250987500    -0.6823065    0.4828770  
   0.252987400    -0.5983877    0.5821834  
   0.254987300    -0.5007969    0.6668688  
   0.256987200    -0.3915586    0.7353544  
   0.258987100    -0.2731593    0.7864743  
   0.260987000    -0.1479284    0.8189569  
   0.262986900    -0.0186716    0.8314689  
   0.264986800     0.1112199    0.8244027  
   0.266986700     0.2384756    0.7967961  
   0.268986600     0.3600422    0.7503183  
   0.270986500     0.4726684    0.6856058  
   0.272986400     0.5741553    0.6043114  
   0.274986300     0.6618686    0.5082291  
   0.276986200     0.7341297    0.3992204  
   0.278986100     0.7887701    0.2799050  
   0.280986000     0.8244520    0.1528557  
   0.282985900     0.8398449    0.0217298  
   0.284985800     0.8347764   -0.1106267  
   0.286985700     0.8087714   -0.2405147  
   0.288985600     0.7629442   -0.3640626  
   0.290985500     0.6987681   -0.4788110  
   0.292985400     0.6178973   -0.5821469  
   0.294985300     0.5218969   -0.6716349  
   0.296985200     0.4126292   -0.7455730  
   0.298985100     0.2926365   -0.8016565  
   0.300985000     0.1651498   -0.8385438  
   0.302984900     0.0338830   -0.8547456  
   0.304984800    -0.0978420   -0.8504606  
   0.306984700    -0.2268758   -0.8258143  
   0.308984600    -0.3492981   -0.7819425  
   0.310984500    -0.4630153   -0.7205313  
   0.312984400    -0.5657783   -0.6426179  
   0.314984300    -0.6549569   -0.5504222  
   0.316984200    -0.7292399   -0.4459811  
   0.318984100    -0.7868925   -0.3309049  
   0.320984000    -0.8264862   -0.2078218  
   0.322983900    -0.8470295   -0.0806136  
   0.324983800    -0.8474873    0.0486477  
   0.326983700    -0.8283489    0.1757355  
   0.328983600    -0.7902940    0.2982388  
   0.330983500    -0.7340663    0.4129818  
   0.332983400    -0.6615393    0.5173259  
   0.334983300    -0.5743821    0.6093594  
   0.336983200    -0.4742920    0.6873417  
   0.338983100    -0.3633710    0.7491269  
   0.340983000    -0.2445595    0.7930682  
   0.342982900    -0.1199218    0.8188748  
   0.344982800     0.0078093    0.8251216  
   0.346982700     0.1360741    0.8117195  
   0.348982600     0.2610896    0.7784047  
   0.350982500     0.3800290    0.7256315  
   0.352982400     0.4894028    0.6546258  
   0.354982300     0.5902452    0.5634857  
   0.356982200     0.6827317    0.4447066  
   0.358982100     0.7516459    0.3112657  
   0.360982000     0.7957296    0.1679686  
   0.362981900     0.8131559    0.0190839  
   0.364981800     0.8029849   -0.1309932  
   0.366981700     0.7659920   -0.2772045  
   0.368981600     0.7027693   -0.4142761  
   0.370981500     0.6151141   -0.5376469  
   0.372981400     0.5062826   -0.6427652  
   0.374981300     0.3793855   -0.7266521  
   0.376981200     0.4754269   -0.6593231  
   0.378981100     0.3461043   -0.7372466  
   0.380981000     0.2048129   -0.7902236  
   0.382980900     0.0698846   -0.8151542  
   0.384980800    -0.0610935   -0.8171698  
   0.386980700    -0.1906684   -0.7988746  
   0.388980600    -0.3146996   -0.7603526  
   0.390980500    -0.4301614   -0.7031599  
   0.392980400    -0.5344362   -0.6294737  
   0.394980300    -0.6250916   -0.5417607  
   0.396980200    -0.7011082   -0.4418197  
   0.398980100    -0.7607752   -0.3319690  
   0.400980000    -0.8027673   -0.2151353  
   0.402979900    -0.8269231   -0.0935082  
   0.404979800    -0.8326309    0.0293880  
   0.406979700    -0.8202175    0.1512239  
   0.408979600    -0.7900084    0.2692560  
   0.410979500    -0.7423998    0.3822642  
   0.412979400    -0.6785289    0.4871490  
   0.414979300    -0.5995903    0.5820361  
   0.416979200    -0.5077775    0.6637140  
   0.418979100    -0.4047865    0.7308933  
   0.420979000    -0.2926776    0.7821475  
   0.422978900    -0.1737054    0.8163010  
   0.424978800    -0.0502775    0.8325192  
   0.426978700     0.0746178    0.8299410  
   0.428978600     0.1982102    0.8084170  
   0.430978500     0.3172131    0.7682624  
   0.432978400     0.4286944    0.7105427  
   0.434978300     0.5305897    0.6362628  
   0.436978200     0.6203046    0.5470307  
   0.438978100     0.6956144    0.4442620  
   0.440978000     0.7543851    0.3304983  
   0.442977900     0.7950387    0.2084061  
   0.444977800     0.8158755    0.0807186  
   0.446977700     0.8164315   -0.0492014  
   0.448977600     0.7963324   -0.1778360  
   0.450977500     0.7556083   -0.3020424  
   0.452977400     0.6955842   -0.4190150  
   0.454977300     0.6164913   -0.5256009  
   0.456977200     0.5203112   -0.6182041  
   0.458977100     0.4104531   -0.6940604  
   0.460977000     0.2894299   -0.7509139  
   0.462976900     0.1610063   -0.7868824  
   0.464976800     0.0288066   -0.8010684  
   0.466976700    -0.1038518   -0.7936134  
   0.468976600    -0.2330392   -0.7647781  
   0.470976500    -0.3549563   -0.7155017  
   0.472976400    -0.4673145   -0.6470601  
   0.474976300    -0.5662036   -0.5619573  
   0.476976200    -0.6496370   -0.4626926  
   0.478976100    -0.7155952   -0.3520752  
   0.480976000    -0.7623761   -0.2337909  
   0.482975900    -0.7900079   -0.1108057  
   0.484975800    -0.7980247    0.0141412  
   0.486975700    -0.7865320    0.1386528  
   0.488975600    -0.7562813    0.2590175  
   0.490975500    -0.7076896    0.3729758  
   0.492975400    -0.6429163    0.4779442  
   0.494975300    -0.5629035    0.5715966  
   0.496975200    -0.4693651    0.6517234  
   0.498975100    -0.3655568    0.7163588  
   0.500975000    -0.2533140    0.7646608  
   0.502974900    -0.1356349    0.7953324  
   0.504974800    -0.0141431    0.8080575  
   0.506974700     0.1083023    0.8019086  
   0.508974600     0.2292699    0.7771986  
   0.510974500     0.3453954    0.7339931  
   0.512974400     0.4537611    0.6738062  
   0.514974300     0.5513607    0.5979196  
   0.516974200     0.6369352    0.5076891  
   0.518974100     0.7073458    0.4055105  
   0.520974000     0.7615296    0.2933763  
   0.522973900     0.7979429    0.1735529  
   0.524973800     0.8156684    0.0499434  
   0.526973700     0.8143503   -0.0763389  
   0.528973600     0.7931753   -0.2009473  
   0.530973500     0.7525280   -0.3214713  
   0.532973400     0.6937390   -0.4343441  
   0.534973300     0.6176800   -0.5371928  
   0.536973200     0.5263038   -0.6271015  
   0.538973100     0.4223161   -0.7012409  
   0.540973000     0.3076762   -0.7582138  
   0.542972900     0.1858634   -0.7963728  
   0.544972800     0.0596093   -0.8151875  
   0.546972700    -0.0686121   -0.8142162  
   0.548972600    -0.1953538   -0.7930188  
   0.550972500    -0.3171535   -0.7519396  
   0.552972400    -0.4310977   -0.6922104  
   0.554972300    -0.5341962   -0.6150396  
   0.556972200    -0.6237301   -0.5227430  
   0.558972100    -0.6972240   -0.4174643  
   0.560972000    -0.7533512   -0.3025229  
   0.562971900    -0.7904904   -0.1806604  
   0.564971800    -0.8078539   -0.0551444  
   0.566971700    -0.8053365    0.0710757  
   0.568971600    -0.7830375    0.1949235  
   0.570971500    -0.7420515    0.3136564  
   0.572971400    -0.6832042    0.4242953  
   0.574971300    -0.6074289    0.5246683  
   0.576971200    -0.5164831    0.6119722  
   0.578971100    -0.4128379    0.6842636  
   0.580971000    -0.2994162    0.7389538  
   0.582970900    -0.1788338    0.7752193  
   0.584970800    -0.0542946    0.7922441  
   0.586970700     0.0713041    0.7892963  
   0.588970600     0.1946627    0.7665041  
   0.590970500     0.3126682    0.7244670  
   0.592970400     0.4231070    0.6643659  
   0.594970300     0.5227316    0.5872143  
   0.596970200     0.6090770    0.4953688  
   0.598970100     0.6795582    0.3903053  
   0.600970000     0.7327186    0.2753385  
   0.602969900     0.7668274    0.1529550  
   0.604969800     0.7810066    0.0260962  
   0.606969700     0.7746446   -0.1014985  
   0.608969600     0.7475846   -0.2267174  
   0.610969500     0.7005701   -0.3465756  
   0.612969400     0.6346520   -0.4569686  
   0.614969300     0.5520382   -0.5549853  
   0.616969200     0.4550350   -0.6381285  
   0.618969100     0.3464519   -0.7042944  
   0.620969000     0.2298385   -0.7518903  
   0.622968900     0.1066566   -0.7804898  
   0.624968800    -0.0189331   -0.7895561  
   0.626968700    -0.1445602   -0.7781750  
   0.628968600    -0.2666947   -0.7475541  
   0.630968500    -0.3823607   -0.6982431  
   0.632968400    -0.4886205   -0.6318927  
   0.634968300    -0.5826898   -0.5495698  
   0.636968200    -0.6626233   -0.4540350  
   0.638968100    -0.7266114   -0.3477800  
   0.640968000    -0.7732594   -0.2335530  
   0.642967900    -0.8016998   -0.1134973  
   0.644967800    -0.8118163    0.0089888  
   0.646967700    -0.8028011    0.1311399  
   0.648967600    -0.7756073    0.2495474  
   0.650967500    -0.7313684    0.3625630  
   0.652967400    -0.6708985    0.4667315  
   0.654967300    -0.5956568    0.5608755  
   0.656967200    -0.5076379    0.6425104  
   0.658967100    -0.4082349    0.7099540  
   0.660967000    -0.2997909    0.7621059  
   0.662966900    -0.1840706    0.7974546  
   0.664966800    -0.0638460    0.8152083  
   0.666966700     0.0588908    0.8149204  
   0.668966600     0.1798808    0.7956033  
   0.670966500     0.2973985    0.7580939  
   0.672966400     0.4079361    0.7022680  
   0.674966300     0.5087283    0.6309158  
   0.676966200     0.5979855    0.5444161  
   0.678966100     0.6726161    0.4451733  
   0.680966000     0.7311937    0.3354042  
   0.682965900     0.7722749    0.2173667  
   0.684965800     0.7946270    0.0943645  
   0.686965700     0.7972438   -0.0317686  
   0.688965600     0.7800674   -0.1567074  
   0.690965500     0.7431720   -0.2778886  
   0.692965400     0.6876764   -0.3920879  
   0.694965300     0.6148781   -0.4956359  
   0.696965200     0.5259626   -0.5866913  
   0.698965100     0.4236212   -0.6623108  
   0.700965000     0.3104927   -0.7206765  
   0.702964900     0.1892207   -0.7602963  
   0.704964800     0.0632780   -0.7799563  
   0.706964700    -0.0640772   -0.7786981  
   0.708964600    -0.1893628   -0.7572263  
   0.710964500    -0.3096997   -0.7159312  
   0.712964400    -0.4210154   -0.6558731  
   0.714964300    -0.5210827   -0.5790205  
   0.716964200    -0.6067838   -0.4877355  
   0.718964100    -0.6765012   -0.3850669  
   0.720964000    -0.7287143   -0.2733943  
   0.722963900    -0.7626154   -0.1558584  
   0.724963800    -0.7783349   -0.0351585  
   0.726963700    -0.7745748    0.0857738  
   0.728963600    -0.7529016    0.2041917  
   0.730963500    -0.7131374    0.3174604  
   0.732963400    -0.6569017    0.4231285  
   0.734963300    -0.5852601    0.5187204  
   0.736963200    -0.4853130    0.6130311  
   0.738963100    -0.3697008    0.6891443  
   0.740963000    -0.2421699    0.7439806  
   0.742962900    -0.1068770    0.7757293  
   0.744962800     0.0323942    0.7839099  
   0.746962700     0.1713893    0.7675986  
   0.748962600     0.3058667    0.7268581  
   0.750962500     0.1730749    0.7672814  
   0.752962400     0.3065311    0.7248085  
   0.754962300     0.4307130    0.6598026  
   0.756962200     0.5419803    0.5736716  
   0.758962100     0.6365829    0.4689277  
   0.760962000     0.7119481    0.3487268  
   0.762961900     0.7625300    0.2234466  
   0.764961800     0.7894909    0.1036610  
   0.766961700     0.7974918   -0.0192309  
   0.768961600     0.7862247   -0.1429928  
   0.770961500     0.7559538   -0.2632353  
   0.772961400     0.7073255   -0.3780612  
   0.774961300     0.6413203   -0.4836492  
   0.776961200     0.5587389   -0.5782437  
   0.778961100     0.4623459   -0.6592012  
   0.780961000     0.3539300   -0.7242817  
   0.782960900     0.2357413   -0.7713572  
   0.784960800     0.1115881   -0.7996370  
   0.786960700    -0.0161623   -0.8071830  
   0.788960600    -0.1433212   -0.7943990  
   0.790960500    -0.2665935   -0.7616621  
   0.792960400    -0.3825378   -0.7094314  
   0.794960300    -0.4883482   -0.6399638  
   0.796960200    -0.5814232   -0.5548797  
   0.798960100    -0.6593267   -0.4568111  
   0.800960000    -0.7205215   -0.3482673  
   0.802959900    -0.7638453   -0.2320079  
   0.804959800    -0.7882467   -0.1113802  
   0.806959700    -0.7939564    0.0108111  
   0.808959600    -0.7805853    0.1318834  
   0.810959500    -0.7488535    0.2488479  
   0.812959400    -0.6996956    0.3588745  
   0.814959300    -0.6348806    0.4597803  
   0.816959200    -0.5553194    0.5492769  
   0.818959100    -0.4635326    0.6253669  
   0.820959000    -0.3610429    0.6865211  
   0.822958900    -0.2509237    0.7314417  
   0.824958800    -0.1350682    0.7591680  
   0.826958700    -0.0165847    0.7688394  
   0.828958600     0.1023413    0.7597564  
   0.830958500     0.2186370    0.7332957  
   0.832958400     0.3294313    0.6890528  
   0.834958300     0.4323874    0.6284448  
   0.836958200     0.5247169    0.5523987  
   0.838958100     0.6047572    0.4629330  
   0.840958000     0.6703053    0.3614457  
   0.842957900     0.7194617    0.2509063  
   0.844957800     0.7510564    0.1329810  
   0.846957700     0.7638739    0.0112365  
   0.848957600     0.7571140   -0.1113279  
   0.850957500     0.7306610   -0.2318791  
   0.852957400     0.6854981   -0.3470361  
   0.854957300     0.6223929   -0.4539146  
   0.856957200     0.5429760   -0.5492327  
   0.858957100     0.4492626   -0.6309833  
   0.860957000     0.3441018   -0.6963793  
   0.862956900     0.2299089   -0.7443960  
   0.864956800     0.1106667   -0.7735117  
   0.866956700    -0.0117298   -0.7838309  
   0.868956600    -0.1335095   -0.7750213  
   0.870956500    -0.2523356   -0.7470816  
   0.872956400    -0.3652825   -0.7014331  
   0.874956300    -0.4692287   -0.6390808  
   0.876956200    -0.5624522   -0.5615148  
   0.878956100    -0.6423992   -0.4706280  
   0.880956000    -0.7070091   -0.3689923  
   0.882955900    -0.7553836   -0.2588799  
   0.884955800    -0.7862946   -0.1430303  
   0.886955700    -0.7991375   -0.0239687  
   0.888955600    -0.7939598    0.0948940  
   0.890955500    -0.7711204    0.2118073  
   0.892955400    -0.7309821    0.3231321  
   0.894955300    -0.6746818    0.4271882  
