! MS46122B
! 2250307/22442219
! 6/20/2025 7:52:37 AM
! C:\USERS\SPARKY\DOCUMENTS\VNA_DATA\JUNE20_2025\3.0K\PORT5_MOS6.S1P
! CHANNEL.1
! TR.MEASUREMENT
! RAW.DATA
# GHZ S RI R 50.0
! FREQ.GHZ         S11RE         S11IM         
!; PortSelection: Port_1
   0.001000000     1.0239170   -0.0590885  
   0.002999900     0.9337270   -0.2186642  
   0.004999800     0.8664854   -0.3635098  
   0.006999700     0.7861975   -0.4966501  
   0.008999600     0.6902252   -0.6110112  
   0.010999500     0.5824990   -0.7113821  
   0.012999400     0.4645222   -0.7973967  
   0.014999300     0.3368463   -0.8666900  
   0.016999200     0.2012184   -0.9166707  
   0.018999100     0.0595687   -0.9454113  
   0.020999000    -0.0850350   -0.9511465  
   0.022998900    -0.2289550   -0.9334747  
   0.024998800    -0.3428860   -0.8689355  
   0.026998700    -0.5003025   -0.8260173  
   0.028998600    -0.6199095   -0.7389306  
   0.030998500    -0.7240897   -0.6323912  
   0.032998400    -0.7767953   -0.5078956  
   0.034998300    -0.8752764   -0.3754260  
   0.036998200    -0.9184544   -0.2322432  
   0.038998100    -0.9384782   -0.0843959  
   0.040998000    -0.9359447    0.0638483  
   0.042997900    -0.9108309    0.2096540  
   0.044997800    -0.8435909    0.3225546  
   0.046997700    -0.7963707    0.4799896  
   0.048997600    -0.7100033    0.5988520  
   0.050997500    -0.6057287    0.7029321  
   0.052997400    -0.4871173    0.7889849  
   0.054997300    -0.3549938    0.8559830  
   0.056997200    -0.2134374    0.9006171  
   0.058997100    -0.0668199    0.9218225  
   0.060997000     0.0811756    0.9189175  
   0.062996900     0.2271238    0.8924632  
   0.064996800     0.3668456    0.8427368  
   0.066996700     0.4970365    0.7717179  
   0.068996600     0.6140553    0.6807382  
   0.070996500     0.7149180    0.5722538  
   0.072996400     0.7978495    0.4496676  
   0.074996300     0.8598479    0.3155564  
   0.076996200     0.8998249    0.1733365  
   0.078996100     0.9166225    0.0268747  
   0.080996000     0.9099941   -0.1200783  
   0.082995900     0.8800148   -0.2636838  
   0.084995800     0.8281519   -0.4004647  
   0.086995700     0.7551879   -0.5265245  
   0.088995600     0.6639664   -0.6392547  
   0.090995500     0.5563679   -0.7356945  
   0.092995400     0.4356804   -0.8139228  
   0.094995300     0.3048385   -0.8722965  
   0.096995200     0.1669574   -0.9096946  
   0.098995100     0.0257887   -0.9251354  
   0.100995000    -0.1157048   -0.9190781  
   0.102994900    -0.2541114   -0.8915451  
   0.104994800    -0.3858530   -0.8435953  
   0.106994700    -0.5088923   -0.7766435  
   0.108994600    -0.6202415   -0.6918916  
   0.110994500    -0.7171019   -0.5917583  
   0.112994400    -0.7977496   -0.4782104  
   0.114994300    -0.8604746   -0.3537067  
   0.116994200    -0.9034020   -0.2214968  
   0.118994100    -0.9259519   -0.0843431  
   0.120994000    -0.9279051    0.0546052  
   0.122993900    -0.9084020    0.1926645  
   0.124993800    -0.8686849    0.3263728  
   0.126993700    -0.8089253    0.4526044  
   0.128993600    -0.7304037    0.5688719  
   0.130993500    -0.6351300    0.6721015  
   0.132993400    -0.5245239    0.7598276  
   0.134993300    -0.4013560    0.8300187  
   0.136993200    -0.2682540    0.8801284  
   0.138993100    -0.1283002    0.9091178  
   0.140993000     0.0149891    0.9160118  
   0.142992900     0.1585528    0.9007174  
   0.144992800     0.2983634    0.8625318  
   0.146992700     0.4304633    0.8023410  
   0.148992600     0.5520563    0.7214463  
   0.150992500     0.6592485    0.6222184  
   0.152992400     0.7493594    0.5061811  
   0.154992300     0.8195810    0.3773828  
   0.156992200     0.8683773    0.2384385  
   0.158992100     0.8938721    0.0934370  
   0.160992000     0.8954173   -0.0535643  
   0.162991900     0.8730562   -0.1990272  
   0.164991800     0.8272855   -0.3388870  
   0.166991700     0.7597961   -0.4686717  
   0.168991600     0.6725445   -0.5851835  
   0.170991500     0.5674427   -0.6863690  
   0.172991400     0.4482220   -0.7684680  
   0.174991300     0.3179770   -0.8300380  
   0.176991200     0.1800098   -0.8698505  
   0.178991100     0.0383509   -0.8868160  
   0.180991000    -0.1032816   -0.8811857  
   0.182990900    -0.2412769   -0.8535632  
   0.184990800    -0.3728577   -0.8046135  
   0.186990700    -0.4941490   -0.7359760  
   0.188990600    -0.5837473   -0.6670271  
   0.190990500    -0.6930983   -0.5518137  
   0.192990400    -0.7712880   -0.4351315  
   0.194990300    -0.8286853   -0.3115445  
   0.196990200    -0.8662477   -0.1819948  
   0.198990100    -0.8835354   -0.0487258  
   0.200990000    -0.8806148    0.0855985  
   0.202989900    -0.8574431    0.2176119  
   0.204989800    -0.8146845    0.3444012  
   0.206989700    -0.7539474    0.4623584  
   0.208989600    -0.6762742    0.5699568  
   0.210989500    -0.5831572    0.6648943  
   0.212989400    -0.4765546    0.7452846  
   0.214989300    -0.3591030    0.8087180  
   0.216989200    -0.2337797    0.8535262  
   0.218989100    -0.1034027    0.8794263  
   0.220989000     0.0301653    0.8853389  
   0.222988900     0.1639163    0.8708612  
   0.224988800     0.2943908    0.8363937  
   0.226988700     0.4181314    0.7824292  
   0.228988600     0.5322868    0.7105940  
   0.230988500     0.6346279    0.6219675  
   0.232988400     0.7229052    0.5183132  
   0.234988300     0.7940087    0.4015780  
   0.236988200     0.8472536    0.2746349  
   0.238988100     0.8800248    0.1411009  
   0.240988000     0.8916035    0.0039339  
   0.242987900     0.8821644   -0.1331151  
   0.244987800     0.8513471   -0.2674023  
   0.246987700     0.8000796   -0.3957561  
   0.248987600     0.7290887   -0.5153901  
   0.250987500     0.6403479   -0.6222477  
   0.252987400     0.5359817   -0.7139124  
   0.254987300     0.4194706   -0.7877338  
   0.256987200     0.2930094   -0.8422096  
   0.258987100     0.1597970   -0.8765354  
   0.260987000     0.0228694   -0.8898763  
   0.262986900    -0.1147382   -0.8816852  
   0.264986800    -0.2491063   -0.8517591  
   0.266986700    -0.3770083   -0.8016464  
   0.268986600    -0.4948863   -0.7324804  
   0.270986500    -0.5998140   -0.6468111  
   0.272986400    -0.6900049   -0.5462965  
   0.274986300    -0.7633653   -0.4336746  
   0.276986200    -0.8186101   -0.3109964  
   0.278986100    -0.8540157   -0.1814050  
   0.280986000    -0.8691694   -0.0476030  
   0.282985900    -0.8633378    0.0867886  
   0.284985800    -0.8372912    0.2183723  
   0.286985700    -0.7911002    0.3440132  
   0.288985600    -0.7268243    0.4597192  
   0.290985500    -0.6458002    0.5640039  
   0.292985400    -0.5502365    0.6545832  
   0.294985300    -0.4417208    0.7294755  
   0.296985200    -0.3228595    0.7874098  
   0.298985100    -0.1952679    0.8264412  
   0.300985000    -0.0630185    0.8450416  
   0.302984900     0.0705322    0.8429105  
   0.304984800     0.2020542    0.8200192  
   0.306984700     0.3283257    0.7770717  
   0.308984600     0.4459846    0.7153271  
   0.310984500     0.5526067    0.6360837  
   0.312984400     0.6456277    0.5409918  
   0.314984300     0.7226064    0.4328953  
   0.316984200     0.7822284    0.3137960  
   0.318984100     0.8225843    0.1859151  
   0.320984000     0.8430034    0.0524411  
   0.322983900     0.8417453   -0.0830601  
   0.324983800     0.8189920   -0.2166918  
   0.326983700     0.7754236   -0.3449719  
   0.328983600     0.7122952   -0.4646360  
   0.330983500     0.6311669   -0.5724133  
   0.332983400     0.5347129   -0.6656020  
   0.334983300     0.4254661   -0.7425770  
   0.336983200     0.3055204   -0.8012224  
   0.338983100     0.1782213   -0.8405204  
   0.340983000     0.0469640   -0.8594689  
   0.342982900    -0.0854610   -0.8582287  
   0.344982800    -0.2162385   -0.8362910  
   0.346982700    -0.3423039   -0.7942285  
   0.348982600    -0.4603788   -0.7334201  
   0.350982500    -0.5675014   -0.6553590  
   0.352982400    -0.6609792   -0.5617042  
   0.354982300    -0.7418216   -0.4499794  
   0.356982200    -0.8086445   -0.3124044  
   0.358982100    -0.8496636   -0.1666513  
   0.360982000    -0.8643122   -0.0175349  
   0.362981900    -0.8526841    0.1313649  
   0.364981800    -0.8153521    0.2751109  
   0.366981700    -0.7542850    0.4095153  
   0.368981600    -0.6710575    0.5311857  
   0.370981500    -0.5688482    0.6361625  
   0.372981400    -0.4500057    0.7220395  
   0.374981300    -0.3179564    0.7865307  
   0.376981200    -0.4388863    0.7356698  
   0.378981100    -0.3019908    0.7986059  
   0.380981000    -0.1564800    0.8362525  
   0.382980900    -0.0204170    0.8480862  
   0.384980800     0.1103013    0.8389096  
   0.386980700     0.2385355    0.8096336  
   0.388980600     0.3603869    0.7604110  
   0.390980500     0.4734891    0.6931051  
   0.392980400     0.5743447    0.6086476  
   0.394980300     0.6608682    0.5099068  
   0.396980200     0.7309114    0.3983606  
   0.398980100     0.7828035    0.2771012  
   0.400980000     0.8150343    0.1486544  
   0.402979900     0.8265094    0.0167160  
   0.404979800     0.8170226   -0.1156594  
   0.406979700     0.7864161   -0.2446035  
   0.408979600     0.7357270   -0.3670967  
   0.410979500     0.6659033   -0.4805722  
   0.412979400     0.5780854   -0.5816672  
   0.414979300     0.4757227   -0.6673077  
   0.416979200     0.3606854   -0.7353468  
   0.418979100     0.2369512   -0.7837099  
   0.420979000     0.1074703   -0.8116848  
   0.422978900    -0.0250287   -0.8184506  
   0.424978800    -0.1561297   -0.8039746  
   0.426978700    -0.2831348   -0.7688740  
   0.428978600    -0.4020712   -0.7143725  
   0.430978500    -0.5099578   -0.6430767  
   0.432978400    -0.6044100   -0.5562660  
   0.434978300    -0.6838134   -0.4565514  
   0.436978200    -0.7464226   -0.3469207  
   0.438978100    -0.7917792   -0.2292392  
   0.440978000    -0.8184051   -0.1069985  
   0.442977900    -0.8260576    0.0167784  
   0.444977800    -0.8155419    0.1401568  
   0.446977700    -0.7866744    0.2600268  
   0.448977600    -0.7410125    0.3734214  
   0.450977500    -0.6790147    0.4781733  
   0.452977400    -0.6021764    0.5734503  
   0.454977300    -0.5121538    0.6567239  
   0.456977200    -0.4103135    0.7253869  
   0.458977100    -0.2995191    0.7786485  
   0.460977000    -0.1820617    0.8147923  
   0.462976900    -0.0609048    0.8331434  
   0.464976800     0.0619056    0.8335885  
   0.466976700     0.1836474    0.8155971  
   0.468976600     0.3016919    0.7799776  
   0.470976500     0.4133421    0.7268966  
   0.472976400     0.5163750    0.6574037  
   0.474976300     0.6082166    0.5732066  
   0.476976200     0.6865413    0.4757988  
   0.478976100     0.7492761    0.3676505  
   0.480976000     0.7950952    0.2516698  
   0.482975900     0.8228016    0.1295292  
   0.484975800     0.8321044    0.0044362  
   0.486975700     0.8222964   -0.1214957  
   0.488975600     0.7929683   -0.2447984  
   0.490975500     0.7448700   -0.3626370  
   0.492975400     0.6791163   -0.4724023  
   0.494975300     0.5966582   -0.5708605  
   0.496975200     0.4993079   -0.6557345  
   0.498975100     0.3904160   -0.7238485  
   0.500975000     0.2715034   -0.7743036  
   0.502974900     0.1465526   -0.8059394  
   0.504974800     0.0177026   -0.8169714  
   0.506974700    -0.1113778   -0.8078303  
   0.508974600    -0.2384728   -0.7779685  
   0.510974500    -0.3588316   -0.7286224  
   0.512974400    -0.4700026   -0.6607254  
   0.514974300    -0.5675225   -0.5767846  
   0.516974200    -0.6506885   -0.4787342  
   0.518974100    -0.7167747   -0.3697065  
   0.520974000    -0.7650302   -0.2518054  
   0.522973900    -0.7934827   -0.1287701  
   0.524973800    -0.8025078   -0.0035089  
   0.526973700    -0.7922730    0.1216917  
   0.528973600    -0.7629347    0.2428064  
   0.530973500    -0.7150181    0.3579531  
   0.532973400    -0.6502302    0.4637176  
   0.534973300    -0.5703521    0.5581439  
   0.536973200    -0.4771590    0.6388397  
   0.538973100    -0.3733817    0.7038708  
   0.540973000    -0.2615803    0.7521845  
   0.542972900    -0.1441023    0.7829480  
   0.544972800    -0.0233004    0.7952837  
   0.546972700     0.0978902    0.7893305  
   0.548972600     0.2172623    0.7651951  
   0.550972500     0.3313013    0.7231027  
   0.552972400     0.4381977    0.6640158  
   0.554972300     0.5349447    0.5891173  
   0.556972200     0.6191118    0.4998606  
   0.558972100     0.6886341    0.3990836  
   0.560972000     0.7420992    0.2888345  
   0.562971900     0.7780724    0.1718923  
   0.564971800     0.7957043    0.0509788  
   0.566971700     0.7946569   -0.0714239  
   0.568971600     0.7750850   -0.1915007  
   0.570971500     0.7375176   -0.3079782  
   0.572971400     0.6824910   -0.4174207  
   0.574971300     0.6108905   -0.5172890  
   0.576971200     0.5249328   -0.6058009  
   0.578971100     0.4256639   -0.6802738  
   0.580971000     0.3167089   -0.7385932  
   0.582970900     0.2001739   -0.7794328  
   0.584970800     0.0791831   -0.8016464  
   0.586970700    -0.0433452   -0.8055858  
   0.588970600    -0.1645469   -0.7906345  
   0.590970500    -0.2818334   -0.7576538  
   0.592970400    -0.3926247   -0.7077322  
   0.594970300    -0.4946503   -0.6416247  
   0.596970200    -0.5850238   -0.5612090  
   0.598970100    -0.6626219   -0.4683990  
   0.600970000    -0.7251506   -0.3652296  
   0.602969900    -0.7713456   -0.2541107  
   0.604969800    -0.8006151   -0.1374586  
   0.606969700    -0.8124088   -0.0176717  
   0.608969600    -0.8057227    0.1027340  
   0.610969500    -0.7812682    0.2201347  
   0.612969400    -0.7396168    0.3326966  
   0.614969300    -0.6817593    0.4374418  
   0.616969200    -0.6094782    0.5324550  
   0.618969100    -0.5241565    0.6146599  
   0.620969000    -0.4281971    0.6834447  
   0.622968900    -0.3226283    0.7373608  
   0.624968800    -0.2103195    0.7750274  
   0.626968700    -0.0930458    0.7954746  
   0.628968600     0.0265745    0.7981417  
   0.630968500     0.1453146    0.7828527  
   0.632968400     0.2607830    0.7497816  
   0.634968300     0.3703451    0.6985360  
   0.636968200     0.4707808    0.6316265  
   0.638968100     0.5602512    0.5496092  
   0.640968000     0.6361935    0.4545673  
   0.642967900     0.6962644    0.3486222  
   0.644967800     0.7397358    0.2339355  
   0.646967700     0.7643176    0.1140824  
   0.648967600     0.7699670   -0.0078768  
   0.650967500     0.7563197   -0.1292797  
   0.652967400     0.7238274   -0.2466874  
   0.654967300     0.6730608   -0.3574510  
   0.656967200     0.6056902   -0.4587576  
   0.658967100     0.5232929   -0.5483415  
   0.660967000     0.4275877   -0.6240054  
   0.662966900     0.3203070   -0.6837198  
   0.664966800     0.2052816   -0.7262797  
   0.666966700     0.0845334   -0.7496561  
   0.668966600    -0.0381719   -0.7532189  
   0.670966500    -0.1596884   -0.7372795  
   0.672966400    -0.2764307   -0.7028384  
   0.674966300    -0.3854684   -0.6502100  
   0.676966200    -0.4845035   -0.5816624  
   0.678966100    -0.5709078   -0.4985453  
   0.680966000    -0.6432758   -0.4042795  
   0.682965900    -0.6995811   -0.2999403  
   0.684965800    -0.7389439   -0.1888847  
   0.686965700    -0.7608141   -0.0733410  
   0.688965600    -0.7651048    0.0435597  
   0.690965500    -0.7510867    0.1591070  
   0.692965400    -0.7201742    0.2710112  
   0.694965300    -0.6730157    0.3764824  
   0.696965200    -0.6107053    0.4731508  
   0.698965100    -0.5346457    0.5596491  
   0.700965000    -0.4466024    0.6335061  
   0.702964900    -0.3487311    0.6936625  
   0.704964800    -0.2422968    0.7383704  
   0.706964700    -0.1306248    0.7669820  
   0.708964600    -0.0155321    0.7783784  
   0.710964500     0.1010782    0.7723656  
   0.712964400     0.2154112    0.7492162  
   0.714964300     0.3252311    0.7083359  
   0.716964200     0.4273583    0.6520133  
   0.718964100     0.5198213    0.5807667  
   0.720964000     0.6007748    0.4962392  
   0.722963900     0.6676292    0.4006222  
   0.724963800     0.7190383    0.2957993  
   0.726963700     0.7546870    0.1836577  
   0.728963600     0.7729024    0.0673038  
   0.730963500     0.7732493   -0.0510606  
   0.732963400     0.7554065   -0.1686908  
   0.734963300     0.7194562   -0.2825894  
   0.736963200     0.6576171   -0.4060920  
   0.738963100     0.5736712   -0.5169755  
   0.740963000     0.4712348   -0.6111522  
   0.742962900     0.3534926   -0.6846586  
   0.744962800     0.2244720   -0.7352957  
   0.746962700     0.0886212   -0.7618892  
   0.748962600    -0.0494107   -0.7628946  
   0.750962500     0.0493887   -0.7595106  
   0.752962400    -0.0891116   -0.7555562  
   0.754962300    -0.2237401   -0.7258787  
   0.756962200    -0.3498424   -0.6725991  
   0.758962100    -0.4636199   -0.5973501  
   0.760962000    -0.5611432   -0.5029793  
   0.762961900    -0.6367011   -0.3988952  
   0.764961800    -0.6894687   -0.2936831  
   0.766961700    -0.7248915   -0.1825335  
   0.768961600    -0.7424432   -0.0678213  
   0.770961500    -0.7422671    0.0475719  
   0.772961400    -0.7243745    0.1605033  
   0.774961300    -0.6899620    0.2686139  
   0.776961200    -0.6394120    0.3696131  
   0.778961100    -0.5742749    0.4615369  
   0.780961000    -0.4961545    0.5422702  
   0.782960900    -0.4069530    0.6103483  
   0.784960800    -0.3079751    0.6638092  
   0.786960700    -0.2022486    0.7019726  
   0.788960600    -0.0918483    0.7235501  
   0.790960500     0.0203234    0.7286971  
   0.792960400     0.1322816    0.7162560  
   0.794960300     0.2406153    0.6868111  
   0.796960200     0.3433436    0.6417706  
   0.798960100     0.4379333    0.5816503  
   0.800960000     0.5221906    0.5073912  
   0.802959900     0.5945974    0.4214583  
   0.804959800     0.6531212    0.3249722  
   0.806959700     0.6965101    0.2207442  
   0.808959600     0.7233126    0.1109562  
   0.810959500     0.7331454   -0.0021627  
   0.812959400     0.7254162   -0.1162503  
   0.814959300     0.7004144   -0.2278358  
   0.816959200     0.6580021   -0.3348791  
   0.818959100     0.5996937   -0.4342586  
   0.820959000     0.5260372   -0.5239535  
   0.822958900     0.4394184   -0.6010990  
   0.824958800     0.3411337   -0.6638581  
   0.826958700     0.2344646   -0.7106532  
   0.828958600     0.1215680   -0.7402368  
   0.830958500     0.0051657   -0.7515638  
   0.832958400    -0.1110812   -0.7447637  
   0.834958300    -0.2248080   -0.7201739  
   0.836958200    -0.3324804   -0.6782215  
   0.838958100    -0.4325798   -0.6200166  
   0.840958000    -0.5220020   -0.5475689  
   0.842957900    -0.5993162   -0.4621854  
   0.844957800    -0.6622022   -0.3660515  
   0.846957700    -0.7094340   -0.2616389  
   0.848957600    -0.7402301   -0.1518227  
   0.850957500    -0.7536603   -0.0388776  
   0.852957400    -0.7497073    0.0748947  
   0.854957300    -0.7283303    0.1857366  
   0.856957200    -0.6907516    0.2923246  
   0.858957100    -0.6374048    0.3912636  
   0.860957000    -0.5703384    0.4805497  
   0.862956900    -0.4910065    0.5581574  
   0.864956800    -0.4017426    0.6219733  
   0.866956700    -0.3042501    0.6718633  
   0.868956600    -0.2008540    0.7065383  
   0.870956500    -0.0931151    0.7259132  
   0.872956400     0.0164639    0.7285075  
   0.874956300     0.1254278    0.7147430  
   0.876956200     0.2321096    0.6844494  
   0.878956100     0.3330069    0.6381274  
   0.880956000     0.4264213    0.5764996  
   0.882955900     0.5093331    0.5006172  
   0.884955800     0.5802383    0.4129500  
   0.886955700     0.6368023    0.3143261  
   0.888955600     0.6771018    0.2077871  
   0.890955500     0.7000788    0.0959732  
   0.892955400     0.7048908   -0.0185437  
   0.894955300     0.6913762   -0.1328758  
