! MS46122B
! 2250307/22442219
! 6/13/2025 3:29:49 PM
! C:\USERS\SPARKY\DOCUMENTS\VNA_DATA\JUNE13_2025\3.2K\PORT4_MOS3.S1P
! CHANNEL.1
! TR.MEASUREMENT
! RAW.DATA
# GHZ S RI R 50.0
! FREQ.GHZ         S11RE         S11IM         
!; PortSelection: Port_1
   0.001000000    -0.9250688    0.0518013  
   0.002999900    -0.8983256    0.2547212  
   0.004999800    -0.8614362    0.4014011  
   0.006999700    -0.7971343    0.5332749  
   0.008999600    -0.7090303    0.6486499  
   0.010999500    -0.6004440    0.7446916  
   0.012999400    -0.4763741    0.8198287  
   0.014999300    -0.3408748    0.8726413  
   0.016999200    -0.1989434    0.9032032  
   0.018999100    -0.0540254    0.9118868  
   0.020999000     0.0898851    0.8989476  
   0.022998900     0.2295806    0.8659123  
   0.024998800     0.3336936    0.7940828  
   0.026998700     0.4845074    0.7437084  
   0.028998600     0.5955285    0.6577100  
   0.030998500     0.6917998    0.5572824  
   0.032998400     0.7371047    0.4436547  
   0.034998300     0.8339419    0.3203923  
   0.036998200     0.8763542    0.1885514  
   0.038998100     0.8976074    0.0514002  
   0.040998000     0.8971313   -0.0874008  
   0.042997900     0.8741699   -0.2247846  
   0.044997800     0.8076097   -0.3306036  
   0.046997700     0.7647925   -0.4801975  
   0.048997600     0.6814157   -0.5915540  
   0.050997500     0.5818195   -0.6883603  
   0.052997400     0.4698649   -0.7679588  
   0.054997300     0.3463303   -0.8298737  
   0.056997200     0.2152286   -0.8723476  
   0.058997100     0.0803583   -0.8946371  
   0.060997000    -0.0557827   -0.8961767  
   0.062996900    -0.1902360   -0.8773247  
   0.064996800    -0.3200414   -0.8385164  
   0.066996700    -0.4422453   -0.7807927  
   0.068996600    -0.5541103   -0.7051803  
   0.070996500    -0.6528204   -0.6137758  
   0.072996400    -0.7365730   -0.5085539  
   0.074996300    -0.8031535   -0.3918875  
   0.076996200    -0.8509952   -0.2664472  
   0.078996100    -0.8792433   -0.1355841  
   0.080996000    -0.8875555   -0.0015976  
   0.082995900    -0.8753333    0.1320255  
   0.084995800    -0.8428897    0.2621664  
   0.086995700    -0.7910838    0.3862837  
   0.088995600    -0.7210142    0.5013499  
   0.090995500    -0.6338214    0.6044087  
   0.092995400    -0.5315815    0.6930001  
   0.094995300    -0.4169157    0.7652901  
   0.096995200    -0.2917330    0.8190445  
   0.098995100    -0.1591595    0.8525403  
   0.100995000    -0.0228372    0.8648711  
   0.102994900     0.1139476    0.8549879  
   0.104994800     0.2477367    0.8238902  
   0.106994700     0.3754492    0.7716388  
   0.108994600     0.4929627    0.7000388  
   0.110994500     0.5978128    0.6103445  
   0.112994400     0.6870394    0.5049542  
   0.114994300     0.7583285    0.3867300  
   0.116994200     0.8096642    0.2584908  
   0.118994100     0.8400171    0.1240066  
   0.120994000     0.8481549   -0.0132638  
   0.122993900     0.8344387   -0.1500130  
   0.124993800     0.7992251   -0.2822201  
   0.126993700     0.7436927   -0.4069600  
   0.128993600     0.6692930   -0.5207417  
   0.130993500     0.5780470   -0.6210907  
   0.132993400     0.4726912   -0.7053641  
   0.134993300     0.3560941   -0.7714358  
   0.136993200     0.2314435   -0.8183334  
   0.138993100     0.1010933   -0.8452668  
   0.140993000    -0.0306309   -0.8516944  
   0.142992900    -0.1613033   -0.8379403  
   0.144992800    -0.2876123   -0.8046597  
   0.146992700    -0.4070342   -0.7525679  
   0.148992600    -0.5163664   -0.6833860  
   0.150992500    -0.6138813   -0.5990356  
   0.152992400    -0.6970655   -0.5008131  
   0.154992300    -0.7646982   -0.3924794  
   0.156992200    -0.8149436   -0.2747666  
   0.158992100    -0.8475125   -0.1514540  
   0.160992000    -0.8613014   -0.0248062  
   0.162991900    -0.8559297    0.1023238  
   0.164991800    -0.8317819    0.2273762  
   0.166991700    -0.7895925    0.3474167  
   0.168991600    -0.7302002    0.4597301  
   0.170991500    -0.6541166    0.5626698  
   0.172991400    -0.5639652    0.6528937  
   0.174991300    -0.4609178    0.7288781  
   0.176991200    -0.3469242    0.7890338  
   0.178991100    -0.2248448    0.8316110  
   0.180991000    -0.0977586    0.8552787  
   0.182990900     0.0320135    0.8595816  
   0.184990800     0.1619436    0.8441368  
   0.186990700     0.2889979    0.8088600  
   0.188990600     0.3864209    0.7656742  
   0.190990500     0.5159647    0.6837424  
   0.192990400     0.6170582    0.5923027  
   0.194990300     0.7009256    0.4883378  
   0.196990200     0.7672180    0.3725711  
   0.198990100     0.8150325    0.2476937  
   0.200990000     0.8425325    0.1157349  
   0.202989900     0.8489910   -0.0193958  
   0.204989800     0.8339887   -0.1539487  
   0.206989700     0.7974752   -0.2838900  
   0.208989600     0.7412476   -0.4065382  
   0.210989500     0.6656617   -0.5189003  
   0.212989400     0.5728467   -0.6181252  
   0.214989300     0.4656461   -0.7008278  
   0.216989200     0.3473142   -0.7652600  
   0.218989100     0.2205913   -0.8095697  
   0.220989000     0.0885185   -0.8331174  
   0.222988900    -0.0457064   -0.8353780  
   0.224988800    -0.1781145   -0.8161845  
   0.226988700    -0.3050784   -0.7763305  
   0.228988600    -0.4233320   -0.7172008  
   0.230988500    -0.5304270   -0.6406167  
   0.232988400    -0.6237628   -0.5484115  
   0.234988300    -0.7012143   -0.4424094  
   0.236988200    -0.7611055   -0.3259715  
   0.238988100    -0.8017886   -0.2019670  
   0.240988000    -0.8222958   -0.0743776  
   0.242987900    -0.8227370    0.0543877  
   0.244987800    -0.8032452    0.1808941  
   0.246987700    -0.7642213    0.3033907  
   0.248987600    -0.7065782    0.4183113  
   0.250987500    -0.6318620    0.5229997  
   0.252987400    -0.5419521    0.6144722  
   0.254987300    -0.4395925    0.6903140  
   0.256987200    -0.3274312    0.7495459  
   0.258987100    -0.2072011    0.7907494  
   0.260987000    -0.0814429    0.8130355  
   0.262986900     0.0465712    0.8157443  
   0.264986800     0.1735831    0.7984106  
   0.266986700     0.2969689    0.7617418  
   0.268986600     0.4128838    0.7061845  
   0.270986500     0.5183938    0.6336030  
   0.272986400     0.6117654    0.5453643  
   0.274986300     0.6904061    0.4436692  
   0.276986200     0.7524455    0.3305655  
   0.278986100     0.7964817    0.2086740  
   0.280986000     0.8210604    0.0808063  
   0.282985900     0.8253110   -0.0496003  
   0.284985800     0.8088996   -0.1793195  
   0.286985700     0.7724653   -0.3047884  
   0.288985600     0.7168946   -0.4224851  
   0.290985500     0.6440405   -0.5298622  
   0.292985400     0.5556353   -0.6242324  
   0.294985300     0.4533711   -0.7036291  
   0.296985200     0.3396131   -0.7667976  
   0.298985100     0.2167732   -0.8113561  
   0.300985000     0.0883996   -0.8362755  
   0.302984900    -0.0418723   -0.8407094  
   0.304984800    -0.1710991   -0.8247165  
   0.306984700    -0.2954107   -0.7890300  
   0.308984600    -0.4117763   -0.7351125  
   0.310984500    -0.5180259   -0.6643417  
   0.312984400    -0.6116346   -0.5785596  
   0.314984300    -0.6908520   -0.4798670  
   0.316984200    -0.7541223   -0.3705930  
   0.318984100    -0.7999405   -0.2522698  
   0.320984000    -0.8278662   -0.1279257  
   0.322983900    -0.8358779   -0.0002510  
   0.324983800    -0.8242157    0.1262257  
   0.326983700    -0.7933298    0.2494251  
   0.328983600    -0.7442033    0.3660537  
   0.330983500    -0.6779596    0.4734788  
   0.332983400    -0.5966341    0.5690939  
   0.334983300    -0.5016059    0.6512220  
   0.336983200    -0.3957207    0.7178252  
   0.338983100    -0.2804313    0.7677041  
   0.340983000    -0.1588176    0.7991484  
   0.342982900    -0.0337824    0.8116080  
   0.344982800     0.0930258    0.8047087  
   0.346982700     0.2177403    0.7781110  
   0.348982600     0.3375471    0.7320690  
   0.350982500     0.4484290    0.6677426  
   0.352982400     0.5487387    0.5862173  
   0.354982300     0.6381560    0.4853016  
   0.356982200     0.7157817    0.3582183  
   0.358982100     0.7689033    0.2199074  
   0.360982000     0.7962214    0.0739606  
   0.362981900     0.7967123   -0.0743002  
   0.364981800     0.7697701   -0.2206541  
   0.366981700     0.7165586   -0.3598033  
   0.368981600     0.6387175   -0.4870465  
   0.370981500     0.5384967   -0.5979978  
   0.372981400     0.4194445   -0.6884332  
   0.374981300     0.2854074   -0.7554688  
   0.376981200     0.3875643   -0.7013826  
   0.378981100     0.2519438   -0.7629463  
   0.380981000     0.1073760   -0.7984776  
   0.382980900    -0.0277993   -0.8067645  
   0.384980800    -0.1566101   -0.7940997  
   0.386980700    -0.2809872   -0.7606844  
   0.388980600    -0.3981642   -0.7084323  
   0.390980500    -0.5046856   -0.6389241  
   0.392980400    -0.5979027   -0.5548927  
   0.394980300    -0.6768042   -0.4579513  
   0.396980200    -0.7396675   -0.3513948  
   0.398980100    -0.7850740   -0.2364970  
   0.400980000    -0.8128381   -0.1170777  
   0.402979900    -0.8222266    0.0048774  
   0.404979800    -0.8134196    0.1263348  
   0.406979700    -0.7867610    0.2446353  
   0.408979600    -0.7428771    0.3570386  
   0.410979500    -0.6826935    0.4623553  
   0.412979400    -0.6070299    0.5582665  
   0.414979300    -0.5182860    0.6416639  
   0.416979200    -0.4176741    0.7112595  
   0.418979100    -0.3077060    0.7648712  
   0.420979000    -0.1910034    0.8012028  
   0.422978900    -0.0693715    0.8202041  
   0.424978800     0.0546086    0.8204682  
   0.426978700     0.1774714    0.8021156  
   0.428978600     0.2967534    0.7647960  
   0.430978500     0.4089154    0.7095187  
   0.432978400     0.5114209    0.6377466  
   0.434978300     0.6019624    0.5506806  
   0.436978200     0.6784235    0.4501199  
   0.438978100     0.7385672    0.3384104  
   0.440978000     0.7808133    0.2179237  
   0.442977900     0.8033638    0.0916543  
   0.444977800     0.8055337   -0.0371575  
   0.446977700     0.7874318   -0.1650506  
   0.448977600     0.7485266   -0.2888414  
   0.450977500     0.6904567   -0.4047359  
   0.452977400     0.6137008   -0.5107710  
   0.454977300     0.5201373   -0.6036020  
   0.456977200     0.4121089   -0.6798995  
   0.458977100     0.2928637   -0.7374476  
   0.460977000     0.1654928   -0.7743089  
   0.462976900     0.0345858   -0.7898706  
   0.464976800    -0.0969095   -0.7835411  
   0.466976700    -0.2254720   -0.7560042  
   0.468976600    -0.3465950   -0.7077597  
   0.470976500    -0.4582008   -0.6407706  
   0.472976400    -0.5571591   -0.5566057  
   0.474976300    -0.6400683   -0.4586472  
   0.476976200    -0.7062677   -0.3487226  
   0.478976100    -0.7531949   -0.2309678  
   0.480976000    -0.7806936   -0.1084400  
   0.482975900    -0.7886952    0.0156818  
   0.484975800    -0.7772617    0.1388262  
   0.486975700    -0.7470486    0.2582987  
   0.488975600    -0.6989471    0.3711985  
   0.490975500    -0.6339943    0.4751490  
   0.492975400    -0.5546432    0.5677127  
   0.494975300    -0.4618508    0.6470010  
   0.496975200    -0.3582581    0.7109328  
   0.498975100    -0.2464596    0.7584468  
   0.500975000    -0.1293445    0.7883410  
   0.502974900    -0.0088224    0.8003083  
   0.504974800     0.1122582    0.7936395  
   0.506974700     0.2315940    0.7684379  
   0.508974600     0.3465471    0.7252270  
   0.510974500     0.4538296    0.6649454  
   0.512974400     0.5509657    0.5884051  
   0.514974300     0.6348326    0.4978966  
   0.516974200     0.7045347    0.3954797  
   0.518974100     0.7574664    0.2835097  
   0.520974000     0.7926661    0.1638863  
   0.522973900     0.8089249    0.0405121  
   0.524973800     0.8062771   -0.0845824  
   0.526973700     0.7837590   -0.2084839  
   0.528973600     0.7420186   -0.3274595  
   0.530973500     0.6819918   -0.4394820  
   0.532973400     0.6049527   -0.5404511  
   0.534973300     0.5128980   -0.6286447  
   0.536973200     0.4074792   -0.7014398  
   0.538973100     0.2924585   -0.7561343  
   0.540973000     0.1704821   -0.7923505  
   0.542972900     0.0440357   -0.8086475  
   0.544972800    -0.0829619   -0.8053715  
   0.546972700    -0.2084947   -0.7816697  
   0.548972600    -0.3291007   -0.7384375  
   0.550972500    -0.4405985   -0.6766762  
   0.552972400    -0.5418406   -0.5978814  
   0.554972300    -0.6288035   -0.5042353  
   0.556972200    -0.6996824   -0.3979362  
   0.558972100    -0.7530320   -0.2818277  
   0.560972000    -0.7871405   -0.1593697  
   0.562971900    -0.8012208   -0.0336384  
   0.564971800    -0.7952958    0.0921180  
   0.566971700    -0.7697670    0.2151303  
   0.568971600    -0.7255856    0.3321787  
   0.570971500    -0.6636630    0.4406359  
   0.572971400    -0.5856977    0.5379078  
   0.574971300    -0.4928386    0.6218750  
   0.576971200    -0.3877991    0.6906162  
   0.578971100    -0.2731526    0.7417500  
   0.580971000    -0.1517739    0.7739082  
   0.582970900    -0.0270043    0.7867163  
   0.584970800     0.0983092    0.7797432  
   0.586970700     0.2204154    0.7527117  
   0.588970600     0.3366189    0.7066783  
   0.590970500     0.4444705    0.6428624  
   0.592970400     0.5405997    0.5626305  
   0.594970300     0.6232331    0.4680054  
   0.596970200     0.6894727    0.3610254  
   0.598970100     0.7382382    0.2445022  
   0.600970000     0.7674787    0.1217135  
   0.602969900     0.7766813   -0.0044991  
   0.604969800     0.7658095   -0.1314454  
   0.606969700     0.7340590   -0.2545219  
   0.608969600     0.6829990   -0.3718376  
   0.610969500     0.6133616   -0.4793339  
   0.612969400     0.5274847   -0.5738728  
   0.614969300     0.4273656   -0.6533527  
   0.616969200     0.3162529   -0.7152860  
   0.618969100     0.1979147   -0.7583696  
   0.620969000     0.0745073   -0.7815553  
   0.622968900    -0.0508160   -0.7857392  
   0.624968800    -0.1751148   -0.7696657  
   0.626968700    -0.2951517   -0.7345800  
   0.628968600    -0.4082188   -0.6810959  
   0.630968500    -0.5112376   -0.6109815  
   0.632968400    -0.6016514   -0.5258572  
   0.634968300    -0.6778414   -0.4277156  
   0.636968200    -0.7375636   -0.3194684  
   0.638968100    -0.7798517   -0.2039097  
   0.640968000    -0.8036460   -0.0832814  
   0.642967900    -0.8091394    0.0392177  
   0.644967800    -0.7956439    0.1606683  
   0.646967700    -0.7639319    0.2782274  
   0.648967600    -0.7153376    0.3891347  
   0.650967500    -0.6507288    0.4913300  
   0.652967400    -0.5717965    0.5820882  
   0.654967300    -0.4808335    0.6600413  
   0.656967200    -0.3785194    0.7235647  
   0.658967100    -0.2685955    0.7711003  
   0.660967000    -0.1520458    0.8016897  
   0.662966900    -0.0319925    0.8145802  
   0.664966800     0.0899389    0.8094496  
   0.666966700     0.2105047    0.7850718  
   0.668966600     0.3260464    0.7430016  
   0.670966500     0.4344899    0.6831384  
   0.672966400     0.5325064    0.6068635  
   0.674966300     0.6177076    0.5166726  
   0.676966200     0.6882529    0.4137817  
   0.678966100     0.7420495    0.3014444  
   0.680966000     0.7779885    0.1811747  
   0.682965900     0.7944846    0.0571534  
   0.684965800     0.7914327   -0.0684130  
   0.686965700     0.7681449   -0.1925334  
   0.688965600     0.7254978   -0.3119766  
   0.690965500     0.6644939   -0.4233499  
   0.692965400     0.5863421   -0.5234428  
   0.694965300     0.4933858   -0.6096842  
   0.696965200     0.3874217   -0.6801739  
   0.698965100     0.2718499   -0.7324979  
   0.700965000     0.1489851   -0.7659974  
   0.702964900     0.0226569   -0.7790470  
   0.704964800    -0.1042062   -0.7714031  
   0.706964700    -0.2279619   -0.7436759  
   0.708964600    -0.3451534   -0.6965228  
   0.710964500    -0.4536428   -0.6312449  
   0.712964400    -0.5491337   -0.5496181  
   0.714964300    -0.6304611   -0.4540830  
   0.716964200    -0.6947767   -0.3478333  
   0.718964100    -0.7412559   -0.2336159  
   0.720964000    -0.7689728   -0.1143219  
   0.722963900    -0.7780224    0.0066213  
   0.724963800    -0.7684202    0.1273702  
   0.726963700    -0.7404179    0.2442756  
   0.728963600    -0.6949896    0.3552822  
   0.730963500    -0.6332884    0.4576130  
   0.732963400    -0.5570598    0.5492302  
   0.734963300    -0.4679186    0.6279832  
   0.736963200    -0.3507541    0.7003901  
   0.738963100    -0.2220260    0.7518183  
   0.740963000    -0.0858293    0.7800359  
   0.742962900     0.0536364    0.7841682  
   0.744962800     0.1919548    0.7639437  
   0.746962700     0.3254544    0.7196034  
   0.748962600     0.4495721    0.6525602  
   0.750962500     0.3257047    0.7169659  
   0.752962400     0.4487244    0.6482171  
   0.754962300     0.5577812    0.5589029  
   0.756962200     0.6498331    0.4510258  
   0.758962100     0.7217367    0.3286087  
   0.760962000     0.7709286    0.1945703  
   0.762961900     0.7948340    0.0608970  
   0.764961800     0.7960339   -0.0630691  
   0.766961700     0.7779990   -0.1861724  
   0.768961600     0.7407798   -0.3053035  
   0.770961500     0.6854595   -0.4176493  
   0.772961400     0.6129407   -0.5200076  
   0.774961300     0.5251176   -0.6097819  
   0.776961200     0.4239694   -0.6849383  
   0.778961100     0.3116317   -0.7436609  
   0.780961000     0.1908674   -0.7837248  
   0.782960900     0.0653934   -0.8043956  
   0.784960800    -0.0625312   -0.8044953  
   0.786960700    -0.1886167   -0.7842234  
   0.788960600    -0.3098195   -0.7440441  
   0.790960500    -0.4227025   -0.6850914  
   0.792960400    -0.5245513   -0.6092348  
   0.794960300    -0.6122617   -0.5184804  
   0.796960200    -0.6841342   -0.4158878  
   0.798960100    -0.7385465   -0.3035515  
   0.800960000    -0.7749748   -0.1850769  
   0.802959900    -0.7917145   -0.0626991  
   0.804959800    -0.7899340    0.0596932  
   0.806959700    -0.7690405    0.1797914  
   0.808959600    -0.7300290    0.2943917  
   0.810959500    -0.6743335    0.4014218  
   0.812959400    -0.6030505    0.4979266  
   0.814959300    -0.5179290    0.5824739  
   0.816959200    -0.4215602    0.6523299  
   0.818959100    -0.3157601    0.7070949  
   0.820959000    -0.2029037    0.7447013  
   0.822958900    -0.0855504    0.7650781  
   0.824958800     0.0337615    0.7669673  
   0.826958700     0.1515945    0.7506170  
   0.828958600     0.2662145    0.7166268  
   0.830958500     0.3742079    0.6654131  
   0.832958400     0.4733941    0.5979952  
   0.834958300     0.5610109    0.5159805  
   0.836958200     0.6350585    0.4212964  
   0.838958100     0.6937946    0.3156625  
   0.840958000     0.7357985    0.2020376  
   0.842957900     0.7596681    0.0821166  
   0.844957800     0.7644541   -0.0403541  
   0.846957700     0.7495970   -0.1625598  
   0.848957600     0.7154958   -0.2812518  
   0.850957500     0.6627728   -0.3936571  
   0.852957400     0.5924476   -0.4964257  
   0.854957300     0.5068299   -0.5865561  
   0.856957200     0.4075509   -0.6622939  
   0.858957100     0.2978163   -0.7210152  
   0.860957000     0.1802048   -0.7613791  
   0.862956900     0.0583064   -0.7827512  
   0.864956800    -0.0646945   -0.7844442  
   0.866956700    -0.1860546   -0.7673622  
   0.868956600    -0.3027838   -0.7315027  
   0.870956500    -0.4123033   -0.6784947  
   0.872956400    -0.5120630   -0.6091459  
   0.874956300    -0.5999286   -0.5257162  
   0.876956200    -0.6734577   -0.4299386  
   0.878956100    -0.7314261   -0.3240065  
   0.880956000    -0.7726613   -0.2109154  
   0.882955900    -0.7957643   -0.0931605  
   0.884955800    -0.8008846    0.0264416  
   0.886955700    -0.7879959    0.1451986  
   0.888955600    -0.7574683    0.2603316  
   0.890955500    -0.7100440    0.3690186  
   0.892955400    -0.6471741    0.4699224  
   0.894955300    -0.5699092    0.5597268  
