! MS46122B
! 2250307/22442219
! 6/20/2025 7:50:41 AM
! C:\USERS\SPARKY\DOCUMENTS\VNA_DATA\JUNE20_2025\3.0K\PORT3_MOS4.S1P
! CHANNEL.1
! TR.MEASUREMENT
! RAW.DATA
# GHZ S RI R 50.0
! FREQ.GHZ         S11RE         S11IM         
!; PortSelection: Port_1
   0.001000000    -0.8852600    0.0510041  
   0.002999900    -0.8594347    0.2485821  
   0.004999800    -0.8229383    0.3897413  
   0.006999700    -0.7607875    0.5158744  
   0.008999600    -0.6755157    0.6258320  
   0.010999500    -0.5711504    0.7168259  
   0.012999400    -0.4518352    0.7879297  
   0.014999300    -0.3216723    0.8376505  
   0.016999200    -0.1851617    0.8658814  
   0.018999100    -0.0461391    0.8729172  
   0.020999000     0.0921169    0.8596423  
   0.022998900     0.2261608    0.8268581  
   0.024998800     0.3258199    0.7566949  
   0.026998700     0.4706606    0.7074098  
   0.028998600     0.5764098    0.6236990  
   0.030998500     0.6681702    0.5262940  
   0.032998400     0.7105402    0.4165350  
   0.034998300     0.8026263    0.2971002  
   0.036998200     0.8417808    0.1698293  
   0.038998100     0.8607466    0.0377311  
   0.040998000     0.8585614   -0.0958299  
   0.042997900     0.8347681   -0.2273816  
   0.044997800     0.7692411   -0.3282990  
   0.046997700     0.7260224   -0.4711927  
   0.048997600     0.6443813   -0.5772008  
   0.050997500     0.5472159   -0.6688201  
   0.052997400     0.4381492   -0.7437913  
   0.054997300     0.3186820   -0.8013074  
   0.056997200     0.1916550   -0.8400499  
   0.058997100     0.0616053   -0.8592107  
   0.060997000    -0.0694940   -0.8583087  
   0.062996900    -0.1984644   -0.8378636  
   0.064996800    -0.3226569   -0.7983280  
   0.066996700    -0.4391518   -0.7404873  
   0.068996600    -0.5453401   -0.6655015  
   0.070996500    -0.6384244   -0.5754538  
   0.072996400    -0.7168920   -0.4725378  
   0.074996300    -0.7783593   -0.3589113  
   0.076996200    -0.8216994   -0.2370467  
   0.078996100    -0.8457795   -0.1105339  
   0.080996000    -0.8506511    0.0186290  
   0.082995900    -0.8356106    0.1469241  
   0.084995800    -0.8010195    0.2712914  
   0.086995700    -0.7480374    0.3894633  
   0.088995600    -0.6774694    0.4981477  
   0.090995500    -0.5908611    0.5950287  
   0.092995400    -0.4901281    0.6772818  
   0.094995300    -0.3774203    0.7434244  
   0.096995200    -0.2557891    0.7914045  
   0.098995100    -0.1271794    0.8195316  
   0.100995000     0.0040168    0.8270618  
   0.102994900     0.1350924    0.8136190  
   0.104994800     0.2625240    0.7794580  
   0.106994700     0.3834404    0.7250764  
   0.108994600     0.4942222    0.6523191  
   0.110994500     0.5918942    0.5626953  
   0.112994400     0.6735717    0.4584945  
   0.114994300     0.7377342    0.3425181  
   0.116994200     0.7826805    0.2178396  
   0.118994100     0.8069364    0.0876405  
   0.120994000     0.8098201   -0.0444806  
   0.122993900     0.7917030   -0.1750509  
   0.124993800     0.7532836   -0.3005301  
   0.126993700     0.6949462   -0.4181139  
   0.128993600     0.6194993   -0.5247281  
   0.130993500     0.5282460   -0.6175030  
   0.132993400     0.4239571   -0.6943262  
   0.134993300     0.3094977   -0.7534103  
   0.136993200     0.1877213   -0.7934925  
   0.138993100     0.0619265   -0.8144263  
   0.140993000    -0.0649520   -0.8153530  
   0.142992900    -0.1901494   -0.7970468  
   0.144992800    -0.3100368   -0.7598071  
   0.146992700    -0.4228804   -0.7049889  
   0.148992600    -0.5254297   -0.6338086  
   0.150992500    -0.6155265   -0.5486948  
   0.152992400    -0.6915549   -0.4508281  
   0.154992300    -0.7518912   -0.3430916  
   0.156992200    -0.7953612   -0.2279068  
   0.158992100    -0.8211508   -0.1075816  
   0.160992000    -0.8289216    0.0151878  
   0.162991900    -0.8181513    0.1374746  
   0.164991800    -0.7891651    0.2571779  
   0.166991700    -0.7427263    0.3708225  
   0.168991600    -0.6799390    0.4766775  
   0.170991500    -0.6016622    0.5719939  
   0.172991400    -0.5097571    0.6545143  
   0.174991300    -0.4067329    0.7228602  
   0.176991200    -0.2936584    0.7750350  
   0.178991100    -0.1734392    0.8099025  
   0.180991000    -0.0496609    0.8259400  
   0.182990900     0.0758637    0.8233390  
   0.184990800     0.2005666    0.8009143  
   0.186990700     0.3210231    0.7599475  
   0.188990600     0.4128738    0.7125165  
   0.190990500     0.5329932    0.6259975  
   0.192990400     0.6251251    0.5318010  
   0.194990300     0.6997359    0.4265306  
   0.196990200     0.7567528    0.3109899  
   0.198990100     0.7949299    0.1874493  
   0.200990000     0.8131753    0.0589655  
   0.202989900     0.8107697   -0.0716193  
   0.204989800     0.7874457   -0.2001148  
   0.206989700     0.7440152   -0.3228295  
   0.208989600     0.6814975   -0.4369971  
   0.210989500     0.6016191   -0.5399013  
   0.212989400     0.5058832   -0.6290137  
   0.214989300     0.3971922   -0.7012464  
   0.216989200     0.2789518   -0.7547353  
   0.218989100     0.1545436   -0.7888203  
   0.220989000     0.0261453   -0.8020713  
   0.222988900    -0.1028805   -0.7948538  
   0.224988800    -0.2286959   -0.7669535  
   0.226988700    -0.3477491   -0.7197390  
   0.228988600    -0.4568963   -0.6544862  
   0.230988500    -0.5539990   -0.5734304  
   0.232988400    -0.6369281   -0.4779202  
   0.234988300    -0.7037164   -0.3705454  
   0.236988200    -0.7525035   -0.2542718  
   0.238988100    -0.7821761   -0.1322797  
   0.240988000    -0.7924148   -0.0080812  
   0.242987900    -0.7829121    0.1157358  
   0.244987800    -0.7543151    0.2359866  
   0.246987700    -0.7075548    0.3504637  
   0.248987600    -0.6433529    0.4567110  
   0.250987500    -0.5629914    0.5515575  
   0.252987400    -0.4693868    0.6322851  
   0.254987300    -0.3648911    0.6971851  
   0.256987200    -0.2518503    0.7453393  
   0.258987100    -0.1325404    0.7749858  
   0.260987000    -0.0097420    0.7861478  
   0.262986900     0.1138577    0.7781548  
   0.264986800     0.2348438    0.7509122  
   0.266986700     0.3506320    0.7047392  
   0.268986600     0.4576029    0.6415858  
   0.270986500     0.5533465    0.5625170  
   0.272986400     0.6356602    0.4691164  
   0.274986300     0.7023014    0.3643386  
   0.276986200     0.7524820    0.2497608  
   0.278986100     0.7839070    0.1283113  
   0.280986000     0.7962353    0.0029031  
   0.282985900     0.7883285   -0.1233120  
   0.284985800     0.7610467   -0.2469833  
   0.286985700     0.7140622   -0.3646773  
   0.288985600     0.6497578   -0.4727724  
   0.290985500     0.5696272   -0.5695032  
   0.292985400     0.4755419   -0.6523771  
   0.294985300     0.3695849   -0.7193753  
   0.296985200     0.2540338   -0.7694104  
   0.298985100     0.1314264   -0.8008004  
   0.300985000     0.0053380   -0.8126342  
   0.302984900    -0.1206999   -0.8043151  
   0.304984800    -0.2435642   -0.7764122  
   0.306984700    -0.3598740   -0.7301369  
   0.308984600    -0.4670017   -0.6667597  
   0.310984500    -0.5622267   -0.5882867  
   0.312984400    -0.6440293   -0.4962054  
   0.314984300    -0.7110432   -0.3934031  
   0.316984200    -0.7608881   -0.2815688  
   0.318984100    -0.7933389   -0.1627835  
   0.320984000    -0.8074580   -0.0399524  
   0.322983900    -0.8021982    0.0835279  
   0.324983800    -0.7781482    0.2048419  
   0.326983700    -0.7358003    0.3202473  
   0.328983600    -0.6762134    0.4279316  
   0.330983500    -0.6007434    0.5249709  
   0.332983400    -0.5121372    0.6084989  
   0.334983300    -0.4116562    0.6777004  
   0.336983200    -0.3018747    0.7307683  
   0.338983100    -0.1851358    0.7659174  
   0.340983000    -0.0637714    0.7830670  
   0.342982900     0.0585314    0.7811629  
   0.344982800     0.1803167    0.7604467  
   0.346982700     0.2978081    0.7201935  
   0.348982600     0.4081533    0.6619321  
   0.350982500     0.5081872    0.5867228  
   0.352982400     0.5954716    0.4963928  
   0.354982300     0.6693341    0.3880312  
   0.356982200     0.7294367    0.2563119  
   0.358982100     0.7645034    0.1160532  
   0.360982000     0.7729467   -0.0280807  
   0.362981900     0.7548283   -0.1712497  
   0.364981800     0.7108610   -0.3090333  
   0.366981700     0.6423213   -0.4366807  
   0.368981600     0.5511992   -0.5495243  
   0.370981500     0.4406692   -0.6434985  
   0.372981400     0.3144745   -0.7158133  
   0.374981300     0.1765130   -0.7634655  
   0.376981200     0.2825965   -0.7252229  
   0.378981100     0.1441830   -0.7672081  
   0.380981000    -0.0000150   -0.7831428  
   0.382980900    -0.1310050   -0.7741135  
   0.384980800    -0.2535440   -0.7453250  
   0.386980700    -0.3692909   -0.6974760  
   0.388980600    -0.4754388   -0.6321598  
   0.390980500    -0.5693995   -0.5516442  
   0.392980400    -0.6486224   -0.4586624  
   0.394980300    -0.7125418   -0.3557080  
   0.396980200    -0.7594742   -0.2441909  
   0.398980100    -0.7889562   -0.1276623  
   0.400980000    -0.8003305   -0.0087016  
   0.402979900    -0.7937175    0.1106622  
   0.404979800    -0.7696726    0.2271023  
   0.406979700    -0.7281649    0.3380492  
   0.408979600    -0.6710958    0.4415664  
   0.410979500    -0.5988430    0.5357525  
   0.412979400    -0.5129243    0.6187824  
   0.414979300    -0.4154745    0.6878215  
   0.416979200    -0.3082728    0.7418875  
   0.418979100    -0.1942428    0.7786470  
   0.420979000    -0.0754230    0.7983907  
   0.422978900     0.0456188    0.7997394  
   0.424978800     0.1661250    0.7826816  
   0.426978700     0.2832404    0.7469922  
   0.428978600     0.3940375    0.6933801  
   0.430978500     0.4950233    0.6232192  
   0.432978400     0.5843831    0.5381195  
   0.434978300     0.6593981    0.4395879  
   0.436978200     0.7184238    0.3301873  
   0.438978100     0.7595562    0.2120833  
   0.440978000     0.7818479    0.0882828  
   0.442977900     0.7836953   -0.0378778  
   0.444977800     0.7655891   -0.1632930  
   0.446977700     0.7269934   -0.2845703  
   0.448977600     0.6693820   -0.3978343  
   0.450977500     0.5937755   -0.5007322  
   0.452977400     0.5022299   -0.5905831  
   0.454977300     0.3964118   -0.6646167  
   0.456977200     0.2789355   -0.7201541  
   0.458977100     0.1541886   -0.7553278  
   0.460977000     0.0254682   -0.7696725  
   0.462976900    -0.1033077   -0.7622442  
   0.464976800    -0.2289486   -0.7337026  
   0.466976700    -0.3474500   -0.6853170  
   0.468976600    -0.4560614   -0.6185743  
   0.470976500    -0.5519185   -0.5349047  
   0.472976400    -0.6322187   -0.4373637  
   0.474976300    -0.6957476   -0.3287919  
   0.476976200    -0.7402798   -0.2123027  
   0.478976100    -0.7655366   -0.0909101  
   0.480976000    -0.7712491    0.0314908  
   0.482975900    -0.7579315    0.1524595  
   0.484975800    -0.7259256    0.2687954  
   0.486975700    -0.6765002    0.3786588  
   0.488975600    -0.6110150    0.4794414  
   0.490975500    -0.5310848    0.5691379  
   0.492975400    -0.4383534    0.6449573  
   0.494975300    -0.3355208    0.7056255  
   0.496975200    -0.2241936    0.7501913  
   0.498975100    -0.1080337    0.7771929  
   0.500975000     0.0109671    0.7860436  
   0.502974900     0.1298244    0.7767439  
   0.504974800     0.2463197    0.7496141  
   0.506974700     0.3577696    0.7048236  
   0.508974600     0.4620985    0.6423322  
   0.510974500     0.5560939    0.5646034  
   0.512974400     0.6374424    0.4730479  
   0.514974300     0.7033298    0.3701057  
   0.516974200     0.7527755    0.2576007  
   0.518974100     0.7842201    0.1387937  
   0.520974000     0.7968161    0.0164014  
   0.522973900     0.7902292   -0.1075760  
   0.524973800     0.7644584   -0.2290029  
   0.526973700     0.7194185   -0.3455244  
   0.528973600     0.6567546   -0.4539200  
   0.530973500     0.5770713   -0.5516765  
   0.532973400     0.4831933   -0.6355976  
   0.534973300     0.3766160   -0.7038950  
   0.536973200     0.2601953   -0.7542054  
   0.538973100     0.1377852   -0.7855296  
   0.540973000     0.0120948   -0.7970226  
   0.542972900    -0.1136713   -0.7885181  
   0.544972800    -0.2365984   -0.7599971  
   0.546972700    -0.3538707   -0.7124362  
   0.548972600    -0.4618269   -0.6469538  
   0.550972500    -0.5579979   -0.5648161  
   0.552972400    -0.6402736   -0.4684636  
   0.554972300    -0.7056934   -0.3603869  
   0.556972200    -0.7532823   -0.2431459  
   0.558972100    -0.7815757   -0.1201034  
   0.560972000    -0.7895427    0.0052944  
   0.562971900    -0.7777600    0.1298190  
   0.564971800    -0.7464242    0.2503676  
   0.566971700    -0.6967506    0.3642581  
   0.568971600    -0.6298427    0.4683751  
   0.570971500    -0.5475610    0.5606275  
   0.572971400    -0.4518606    0.6385571  
   0.574971300    -0.3446717    0.7009206  
   0.576971200    -0.2285865    0.7454574  
   0.578971100    -0.1065267    0.7708758  
   0.580971000     0.0178381    0.7768774  
   0.582970900     0.1418072    0.7627507  
   0.584970800     0.2613233    0.7291645  
   0.586970700     0.3743512    0.6768755  
   0.588970600     0.4771918    0.6073930  
   0.590970500     0.5678959    0.5221014  
   0.592970400     0.6443493    0.4233792  
   0.594970300     0.7034780    0.3134769  
   0.596970200     0.7447155    0.1952243  
   0.598970100     0.7663879    0.0717919  
   0.600970000     0.7680504   -0.0535885  
   0.602969900     0.7491781   -0.1783248  
   0.604969800     0.7105064   -0.2985217  
   0.606969700     0.6530038   -0.4112081  
   0.608969600     0.5775062   -0.5137525  
   0.610969500     0.4866349   -0.6025026  
   0.612969400     0.3823063   -0.6751609  
   0.614969300     0.2682543   -0.7301151  
   0.616969200     0.1475497   -0.7654901  
   0.618969100     0.0233014   -0.7813252  
   0.620969000    -0.1008252   -0.7771820  
   0.622968900    -0.2227931   -0.7536364  
   0.624968800    -0.3395686   -0.7114164  
   0.626968700    -0.4482838   -0.6515783  
   0.628968600    -0.5459360   -0.5757830  
   0.630968500    -0.6306667   -0.4857497  
   0.632968400    -0.7002388   -0.3842146  
   0.634968300    -0.7530710   -0.2730429  
   0.636968200    -0.7883240   -0.1555308  
   0.638968100    -0.8045933   -0.0345093  
   0.640968000    -0.8026871    0.0875491  
   0.642967900    -0.7819217    0.2074920  
   0.644967800    -0.7433442    0.3228910  
   0.646967700    -0.6880954    0.4303444  
   0.648967600    -0.6173862    0.5281499  
   0.650967500    -0.5330484    0.6139721  
   0.652967400    -0.4371007    0.6861880  
   0.654967300    -0.3315802    0.7427462  
   0.656967200    -0.2185559    0.7833017  
   0.658967100    -0.1011251    0.8064914  
   0.660967000     0.0191580    0.8116730  
   0.662966900     0.1397099    0.7984937  
   0.664966800     0.2580713    0.7668331  
   0.666966700     0.3706128    0.7173762  
   0.668966600     0.4749039    0.6507784  
   0.670966500     0.5678490    0.5686927  
   0.672966400     0.6472808    0.4720867  
   0.674966300     0.7109907    0.3645224  
   0.676966200     0.7570243    0.2482530  
   0.678966100     0.7844965    0.1259617  
   0.680966000     0.7922716    0.0005017  
   0.682965900     0.7801406   -0.1249541  
   0.684965800     0.7479083   -0.2469066  
   0.686965700     0.6963415   -0.3627978  
   0.688965600     0.6273248   -0.4696474  
   0.690965500     0.5420219   -0.5635896  
   0.692965400     0.4425931   -0.6426990  
   0.694965300     0.3318130   -0.7047120  
   0.696965200     0.2123569   -0.7483554  
   0.698965100     0.0879924   -0.7720571  
   0.700965000    -0.0389922   -0.7752496  
   0.702964900    -0.1644334   -0.7582603  
   0.704964800    -0.2853262   -0.7211684  
   0.706964700    -0.3982568   -0.6651356  
   0.708964600    -0.5006655   -0.5922831  
   0.710964500    -0.5898699   -0.5036466  
   0.712964400    -0.6633401   -0.4028686  
   0.714964300    -0.7194394   -0.2917310  
   0.716964200    -0.7570570   -0.1738957  
   0.718964100    -0.7756524   -0.0529507  
   0.720964000    -0.7752002    0.0688752  
   0.722963900    -0.7560501    0.1880725  
   0.724963800    -0.7193367    0.3025897  
   0.726963700    -0.6652697    0.4096535  
   0.728963600    -0.5960486    0.5067837  
   0.730963500    -0.5128816    0.5922630  
   0.732963400    -0.4179511    0.6639344  
   0.734963300    -0.3130886    0.7204109  
   0.736963200    -0.1822433    0.7647628  
   0.738963100    -0.0448942    0.7859927  
   0.740963000     0.0950278    0.7828376  
   0.742962900     0.2324371    0.7550101  
   0.744962800     0.3637212    0.7037579  
   0.746962700     0.4844746    0.6297929  
   0.748962600     0.5908029    0.5354378  
   0.750962500     0.4833933    0.6245874  
   0.752962400     0.5879281    0.5287151  
   0.754962300     0.6748012    0.4155165  
   0.756962200     0.7401773    0.2883593  
   0.758962100     0.7821251    0.1511235  
   0.760962000     0.7986987    0.0078349  
   0.762961900     0.7903404   -0.1289683  
   0.764961800     0.7615565   -0.2513248  
   0.766961700     0.7142758   -0.3676435  
   0.768961600     0.6486287   -0.4755109  
   0.770961500     0.5668313   -0.5719218  
   0.772961400     0.4704712   -0.6543886  
   0.774961300     0.3626294   -0.7205365  
   0.776961200     0.2453976   -0.7687064  
   0.778961100     0.1214088   -0.7982472  
   0.780961000    -0.0058443   -0.8075768  
   0.782960900    -0.1332286   -0.7961095  
   0.784960800    -0.2572531   -0.7645853  
   0.786960700    -0.3743061   -0.7135267  
   0.788960600    -0.4817154   -0.6445897  
   0.790960500    -0.5763374   -0.5599920  
   0.792960400    -0.6558362   -0.4612210  
   0.794960300    -0.7182691   -0.3519896  
   0.796960200    -0.7623712   -0.2348713  
   0.798960100    -0.7875295   -0.1131984  
   0.800960000    -0.7933329    0.0100914  
   0.802959900    -0.7797860    0.1323193  
   0.804959800    -0.7477405    0.2499117  
   0.806959700    -0.6983048    0.3607809  
   0.808959600    -0.6327485    0.4623101  
   0.810959500    -0.5527404    0.5516627  
   0.812959400    -0.4601724    0.6280012  
   0.814959300    -0.3575481    0.6887551  
   0.816959200    -0.2469107    0.7334443  
   0.818959100    -0.1306739    0.7605387  
   0.820959000    -0.0118649    0.7697037  
   0.822958900     0.1074290    0.7601935  
   0.824958800     0.2235143    0.7328447  
   0.826958700     0.3349506    0.6881515  
   0.828958600     0.4381044    0.6266823  
   0.830958500     0.5308188    0.5496908  
   0.832958400     0.6109031    0.4589379  
   0.834958300     0.6757732    0.3569818  
   0.836958200     0.7242166    0.2456250  
   0.838958100     0.7551691    0.1276738  
   0.840958000     0.7672421    0.0059925  
   0.842957900     0.7599318   -0.1169316  
   0.844957800     0.7329298   -0.2379015  
   0.846957700     0.6871941   -0.3533598  
   0.848957600     0.6235479   -0.4602349  
   0.850957500     0.5433019   -0.5558866  
   0.852957400     0.4487523   -0.6379284  
   0.854957300     0.3420768   -0.7034677  
   0.856957200     0.2260356   -0.7514968  
   0.858957100     0.1045270   -0.7801681  
   0.860957000    -0.0197509   -0.7892830  
   0.862956900    -0.1432912   -0.7787958  
   0.864956800    -0.2629128   -0.7491173  
   0.866956700    -0.3758440   -0.7018217  
   0.868956600    -0.4797758   -0.6377234  
   0.870956500    -0.5720410   -0.5588112  
   0.872956400    -0.6510202   -0.4669724  
   0.874956300    -0.7149409   -0.3644240  
   0.876956200    -0.7622995   -0.2534935  
   0.878956100    -0.7920384   -0.1370071  
   0.880956000    -0.8036982   -0.0172916  
   0.882955900    -0.7971227    0.1024201  
   0.884955800    -0.7729068    0.2196192  
   0.886955700    -0.7309150    0.3314841  
   0.888955600    -0.6729572    0.4356339  
   0.890955500    -0.6004159    0.5300445  
   0.892955400    -0.5141005    0.6123551  
   0.894955300    -0.4165300    0.6810327  
