! MS46122B
! 2250307/22442219
! 6/12/2025 7:38:20 AM
! C:\USERS\SPARKY\DOCUMENTS\VNA_DATA\JUNE12_2025\3.1 KELVIN\PORT5.S1P
! CHANNEL.1
! TR.MEASUREMENT
! RAW.DATA
# GHZ S RI R 50.0
! FREQ.GHZ         S11RE         S11IM         
!; PortSelection: Port_1
   0.001000000    -0.9430392    0.0527136  
   0.002999900    -0.9153109    0.2599960  
   0.004999800    -0.8769571    0.4108454  
   0.006999700    -0.8102678    0.5462183  
   0.008999600    -0.7186329    0.6648504  
   0.010999500    -0.6062402    0.7633158  
   0.012999400    -0.4774183    0.8397908  
   0.014999300    -0.3372670    0.8928872  
   0.016999200    -0.1906750    0.9228966  
   0.018999100    -0.0413859    0.9297646  
   0.020999000     0.1065498    0.9141692  
   0.022998900     0.2496527    0.8779132  
   0.024998800     0.3557432    0.8022730  
   0.026998700     0.5097149    0.7474097  
   0.028998600     0.6215696    0.6565689  
   0.030998500     0.7181785    0.5511398  
   0.032998400     0.7624032    0.4330392  
   0.034998300     0.8582921    0.3038219  
   0.036998200     0.8981802    0.1670086  
   0.038998100     0.9159048    0.0251827  
   0.040998000     0.9109664   -0.1175491  
   0.042997900     0.8830424   -0.2582898  
   0.044997800     0.8108876   -0.3648327  
   0.046997700     0.7612498   -0.5166443  
   0.048997600     0.6712927   -0.6280369  
   0.050997500     0.5652734   -0.7236158  
   0.052997400     0.4473588   -0.8004171  
   0.054997300     0.3169787   -0.8591791  
   0.056997200     0.1807263   -0.8972304  
   0.058997100     0.0411869   -0.9137844  
   0.060997000    -0.0986866   -0.9089169  
   0.062996900    -0.2358495   -0.8832213  
   0.064996800    -0.3672863   -0.8367856  
   0.066996700    -0.4897884   -0.7711203  
   0.068996600    -0.6006294   -0.6875098  
   0.070996500    -0.6972390   -0.5882114  
   0.072996400    -0.7771893   -0.4752771  
   0.074996300    -0.8386012   -0.3515560  
   0.076996200    -0.8802909   -0.2197641  
   0.078996100    -0.9013469   -0.0834442  
   0.080996000    -0.9012426    0.0545993  
   0.082995900    -0.8800426    0.1912694  
   0.084995800    -0.8379651    0.3232206  
   0.086995700    -0.7760844    0.4468931  
   0.088995600    -0.6957579    0.5603497  
   0.090995500    -0.5987578    0.6599447  
   0.092995400    -0.4870648    0.7438062  
   0.094995300    -0.3632195    0.8090485  
   0.096995200    -0.2301006    0.8543444  
   0.098995100    -0.0912398    0.8779224  
   0.100995000     0.0499630    0.8794132  
   0.102994900     0.1898727    0.8574605  
   0.104994800     0.3246799    0.8137553  
   0.106994700     0.4512747    0.7486256  
   0.108994600     0.5655781    0.6640528  
   0.110994500     0.6647004    0.5620217  
   0.112994400     0.7462973    0.4452580  
   0.114994300     0.8077015    0.3170213  
   0.116994200     0.8476257    0.1805125  
   0.118994100     0.8649028    0.0395963  
   0.120994000     0.8590468   -0.1018473  
   0.122993900     0.8306768   -0.2403700  
   0.124993800     0.7807668   -0.3718893  
   0.126993700     0.7104224   -0.4932891  
   0.128993600     0.6223649   -0.6018693  
   0.130993500     0.5180575   -0.6941062  
   0.132993400     0.4010243   -0.7683458  
   0.134993300     0.2745295   -0.8228732  
   0.136993200     0.1419624   -0.8565432  
   0.138993100     0.0062030   -0.8690459  
   0.140993000    -0.1290169   -0.8605935  
   0.142992900    -0.2606161   -0.8313311  
   0.144992800    -0.3856257   -0.7825065  
   0.146992700    -0.5010517   -0.7152804  
   0.148992600    -0.6047482   -0.6316576  
   0.150992500    -0.6936455   -0.5339113  
   0.152992400    -0.7669619   -0.4237665  
   0.154992300    -0.8223801   -0.3044651  
   0.156992200    -0.8592790   -0.1780802  
   0.158992100    -0.8771150   -0.0480400  
   0.160992000    -0.8748227    0.0831809  
   0.162991900    -0.8532188    0.2122561  
   0.164991800    -0.8122484    0.3372112  
   0.166991700    -0.7531700    0.4545244  
   0.168991600    -0.6771176    0.5617904  
   0.170991500    -0.5851255    0.6567571  
   0.172991400    -0.4799410    0.7368311  
   0.174991300    -0.3639717    0.8000725  
   0.176991200    -0.2383906    0.8456355  
   0.178991100    -0.1068026    0.8714420  
   0.180991000     0.0272602    0.8769243  
   0.182990900     0.1611280    0.8617609  
   0.184990800     0.2923630    0.8257385  
   0.186990700     0.4168706    0.7696076  
   0.188990600     0.5104077    0.7094088  
   0.190990500     0.6294459    0.6044006  
   0.192990400     0.7181789    0.4941800  
   0.194990300     0.7865237    0.3733325  
   0.196990200     0.8346578    0.2434027  
   0.198990100     0.8615170    0.1068418  
   0.200990000     0.8661485   -0.0328111  
   0.202989900     0.8483214   -0.1718653  
   0.204989800     0.8080001   -0.3064209  
   0.206989700     0.7469488   -0.4323110  
   0.208989600     0.6662835   -0.5464008  
   0.210989500     0.5678192   -0.6463096  
   0.212989400     0.4542865   -0.7289244  
   0.214989300     0.3294221   -0.7920343  
   0.216989200     0.1966665   -0.8336664  
   0.218989100     0.0594617   -0.8531283  
   0.220989000    -0.0787624   -0.8505677  
   0.222988900    -0.2149390   -0.8253323  
   0.224988800    -0.3448097   -0.7784454  
   0.226988700    -0.4647096   -0.7121894  
   0.228988600    -0.5717015   -0.6279048  
   0.230988500    -0.6634060   -0.5281928  
   0.232988400    -0.7380181   -0.4152988  
   0.234988300    -0.7936397   -0.2921820  
   0.236988200    -0.8287523   -0.1619011  
   0.238988100    -0.8430616   -0.0283575  
   0.240988000    -0.8358127    0.1047237  
   0.242987900    -0.8080132    0.2343995  
   0.244987800    -0.7605186    0.3577381  
   0.246987700    -0.6938679    0.4724180  
   0.248987600    -0.6103467    0.5755967  
   0.250987500    -0.5112157    0.6642147  
   0.252987400    -0.3996407    0.7357315  
   0.254987300    -0.2791311    0.7891489  
   0.256987200    -0.1521878    0.8230169  
   0.258987100    -0.0211776    0.8363824  
   0.260987000     0.1108653    0.8294194  
   0.262986900     0.2406096    0.8017008  
   0.264986800     0.3649336    0.7541371  
   0.266986700     0.4804814    0.6870390  
   0.268986600     0.5841027    0.6027597  
   0.270986500     0.6728082    0.5036082  
   0.272986400     0.7451450    0.3916272  
   0.274986300     0.7988704    0.2694662  
   0.276986200     0.8328601    0.1398666  
   0.278986100     0.8462578    0.0058394  
   0.280986000     0.8383246   -0.1290676  
   0.282985900     0.8088046   -0.2613110  
   0.284985800     0.7586936   -0.3874032  
   0.286985700     0.6888419   -0.5037575  
   0.288985600     0.6023206   -0.6071709  
   0.290985500     0.5008230   -0.6951639  
   0.292985400     0.3868023   -0.7660136  
   0.294985300     0.2631661   -0.8180509  
   0.296985200     0.1326057   -0.8502213  
   0.298985100    -0.0020434   -0.8613738  
   0.300985000    -0.1368418   -0.8507650  
   0.302984900    -0.2679322   -0.8192592  
   0.304984800    -0.3917387   -0.7674670  
   0.306984700    -0.5055991   -0.6976941  
   0.308984600    -0.6062097   -0.6112667  
   0.310984500    -0.6918019   -0.5110806  
   0.312984400    -0.7604740   -0.3996019  
   0.314984300    -0.8110085   -0.2788989  
   0.316984200    -0.8424904   -0.1522938  
   0.318984100    -0.8543817   -0.0217023  
   0.320984000    -0.8453405    0.1098746  
   0.322983900    -0.8158879    0.2386218  
   0.324983800    -0.7671776    0.3610010  
   0.326983700    -0.7002117    0.4736502  
   0.328983600    -0.6160865    0.5751188  
   0.330983500    -0.5180550    0.6616835  
   0.332983400    -0.4081187    0.7318116  
   0.334983300    -0.2887902    0.7840216  
   0.336983200    -0.1623900    0.8171065  
   0.338983100    -0.0323927    0.8301374  
   0.340983000     0.0982849    0.8228618  
   0.342982900     0.2264048    0.7950134  
   0.344982800     0.3494957    0.7471351  
   0.346982700     0.4644481    0.6796820  
   0.348982600     0.5675883    0.5947058  
   0.350982500     0.6560510    0.4936117  
   0.352982400     0.7269421    0.3794185  
   0.354982300     0.7804841    0.2494839  
   0.356982200     0.8136289    0.0980017  
   0.358982100     0.8180327   -0.0565966  
   0.360982000     0.7940005   -0.2090821  
   0.362981900     0.7419961   -0.3544911  
   0.364981800     0.6635822   -0.4879172  
   0.366981700     0.5618510   -0.6044934  
   0.368981600     0.4401121   -0.7004372  
   0.370981500     0.3025482   -0.7716625  
   0.372981400     0.1539657   -0.8160665  
   0.374981300    -0.0003180   -0.8319667  
   0.376981200     0.1197369   -0.8187090  
   0.378981100    -0.0340129   -0.8288053  
   0.380981000    -0.1869754   -0.8105559  
   0.382980900    -0.3205588   -0.7693997  
   0.384980800    -0.4396755   -0.7100435  
   0.386980700    -0.5476457   -0.6324490  
   0.388980600    -0.6410190   -0.5397645  
   0.390980500    -0.7185612   -0.4342301  
   0.392980400    -0.7780156   -0.3190875  
   0.394980300    -0.8185567   -0.1972709  
   0.396980200    -0.8399533   -0.0711418  
   0.398980100    -0.8419051    0.0559483  
   0.400980000    -0.8247238    0.1818339  
   0.402979900    -0.7887349    0.3034071  
   0.404979800    -0.7350566    0.4172391  
   0.406979700    -0.6650207    0.5218925  
   0.408979600    -0.5801425    0.6148619  
   0.410979500    -0.4820651    0.6943092  
   0.412979400    -0.3723063    0.7583737  
   0.414979300    -0.2532046    0.8054519  
   0.416979200    -0.1284329    0.8336200  
   0.418979100    -0.0007008    0.8426068  
   0.420979000     0.1279152    0.8319625  
   0.422978900     0.2539809    0.8013896  
   0.424978800     0.3745874    0.7511979  
   0.426978700     0.4864566    0.6822533  
   0.428978600     0.5867425    0.5960962  
   0.430978500     0.6722088    0.4949947  
   0.432978400     0.7406686    0.3813005  
   0.434978300     0.7903947    0.2574759  
   0.436978200     0.8193870    0.1269012  
   0.438978100     0.8273182   -0.0074174  
   0.440978000     0.8132000   -0.1417218  
   0.442977900     0.7771087   -0.2725922  
   0.444977800     0.7199841   -0.3960511  
   0.446977700     0.6433997   -0.5084690  
   0.448977600     0.5488605   -0.6069306  
   0.450977500     0.4392534   -0.6887005  
   0.452977400     0.3175076   -0.7510875  
   0.454977300     0.1863263   -0.7923214  
   0.456977200     0.0494701   -0.8114139  
   0.458977100    -0.0881638   -0.8071079  
   0.460977000    -0.2226790   -0.7802280  
   0.462976900    -0.3501015   -0.7312955  
   0.464976800    -0.4668871   -0.6623940  
   0.466976700    -0.5704044   -0.5756612  
   0.468976600    -0.6578063   -0.4736959  
   0.470976500    -0.7271606   -0.3592287  
   0.472976400    -0.7763354   -0.2361906  
   0.474976300    -0.8050109   -0.1073337  
   0.476976200    -0.8124902    0.0233462  
   0.478976100    -0.7993712    0.1528699  
   0.480976000    -0.7660862    0.2768346  
   0.482975900    -0.7142241    0.3932915  
   0.484975800    -0.6456917    0.4999975  
   0.486975700    -0.5616340    0.5946160  
   0.488975600    -0.4641733    0.6747411  
   0.490975500    -0.3557242    0.7393238  
   0.492975400    -0.2388118    0.7864799  
   0.494975300    -0.1160573    0.8148987  
   0.496975200     0.0098785    0.8247135  
   0.498975100     0.1355648    0.8146642  
   0.500975000     0.2583202    0.7859185  
   0.502974900     0.3753896    0.7385833  
   0.504974800     0.4841894    0.6737159  
   0.506974700     0.5824807    0.5923296  
   0.508974600     0.6679655    0.4955743  
   0.510974500     0.7374054    0.3862342  
   0.512974400     0.7895399    0.2666921  
   0.514974300     0.8220512    0.1405653  
   0.516974200     0.8343745    0.0104484  
   0.518974100     0.8263615   -0.1202283  
   0.520974000     0.7976387   -0.2482657  
   0.522973900     0.7487949   -0.3707950  
   0.524973800     0.6807343   -0.4842907  
   0.526973700     0.5953896   -0.5860208  
   0.528973600     0.4945474   -0.6731335  
   0.530973500     0.3803672   -0.7433844  
   0.532973400     0.2566936   -0.7938426  
   0.534973300     0.1259119   -0.8242799  
   0.536973200    -0.0083828   -0.8330302  
   0.538973100    -0.1411106   -0.8203753  
   0.540973000    -0.2700732   -0.7864942  
   0.542972900    -0.3919607   -0.7322187  
   0.544972800    -0.5026889   -0.6596082  
   0.546972700    -0.6013169   -0.5697773  
   0.548972600    -0.6837238   -0.4655414  
   0.550972500    -0.7485496   -0.3494686  
   0.552972400    -0.7936607   -0.2245599  
   0.554972300    -0.8183966   -0.0942135  
   0.556972200    -0.8216728    0.0381270  
   0.558972100    -0.8037209    0.1688817  
   0.560972000    -0.7650493    0.2946448  
   0.562971900    -0.7070488    0.4122519  
   0.564971800    -0.6314733    0.5186378  
   0.566971700    -0.5405006    0.6113167  
   0.568971600    -0.4360051    0.6879642  
   0.570971500    -0.3207869    0.7471141  
   0.572971400    -0.1977281    0.7873542  
   0.574971300    -0.0694101    0.8074127  
   0.576971200     0.0607530    0.8066167  
   0.578971100     0.1899987    0.7854624  
   0.580971000     0.3137593    0.7434583  
   0.582970900     0.4293970    0.6818392  
   0.584970800     0.5331973    0.6028890  
   0.586970700     0.6231557    0.5085087  
   0.588970600     0.6967113    0.4005574  
   0.590970500     0.7517315    0.2823960  
   0.592970400     0.7874666    0.1564801  
   0.594970300     0.8023930    0.0264995  
   0.596970200     0.7964567   -0.1044040  
   0.598970100     0.7692863   -0.2324069  
   0.600970000     0.7214425   -0.3550743  
   0.602969900     0.6548845   -0.4681500  
   0.604969800     0.5704030   -0.5696216  
   0.606969700     0.4709320   -0.6562134  
   0.608969600     0.3583059   -0.7254136  
   0.610969500     0.2363960   -0.7755479  
   0.612969400     0.1079814   -0.8053954  
   0.614969300    -0.0227809   -0.8143299  
   0.616969200    -0.1525416   -0.8023447  
   0.618969100    -0.2775224   -0.7696975  
   0.620969000    -0.3953100   -0.7187217  
   0.622968900    -0.5038842   -0.6499741  
   0.624968800    -0.5998576   -0.5656294  
   0.626968700    -0.6815928   -0.4675797  
   0.628968600    -0.7470491   -0.3580461  
   0.630968500    -0.7948454   -0.2399217  
   0.632968400    -0.8241923   -0.1165707  
   0.634968300    -0.8337138    0.0096851  
   0.636968200    -0.8242671    0.1358245  
   0.638968100    -0.7955001    0.2586085  
   0.640968000    -0.7487120    0.3754809  
   0.642967900    -0.6845980    0.4831969  
   0.644967800    -0.6049533    0.5804722  
   0.646967700    -0.5116884    0.6641436  
   0.648967600    -0.4068744    0.7331842  
   0.650967500    -0.2935476    0.7847387  
   0.652967400    -0.1737696    0.8189217  
   0.654967300    -0.0501481    0.8346357  
   0.656967200     0.0744509    0.8316333  
   0.658967100     0.1972007    0.8098639  
   0.660967000     0.3162053    0.7691160  
   0.662966900     0.4279941    0.7106051  
   0.664966800     0.5304803    0.6343255  
   0.666966700     0.6208847    0.5427749  
   0.668966600     0.6959637    0.4377654  
   0.670966500     0.7541680    0.3214302  
   0.672966400     0.7929428    0.1976660  
   0.674966300     0.8120524    0.0682844  
   0.676966200     0.8100150   -0.0621880  
   0.678966100     0.7871005   -0.1904322  
   0.680966000     0.7436520   -0.3141943  
   0.682965900     0.6812722   -0.4293655  
   0.684965800     0.6012005   -0.5329878  
   0.686965700     0.5049700   -0.6225929  
   0.688965600     0.3955351   -0.6956416  
   0.690965500     0.2758356   -0.7496123  
   0.692965400     0.1491048   -0.7836497  
   0.694965300     0.0192577   -0.7967644  
   0.696965200    -0.1109303   -0.7883799  
   0.698965100    -0.2376904   -0.7594953  
   0.700965000    -0.3578694   -0.7106883  
   0.702964900    -0.4685026   -0.6432188  
   0.704964800    -0.5660969   -0.5595877  
   0.706964700    -0.6491881   -0.4612307  
   0.708964600    -0.7151552   -0.3516040  
   0.710964500    -0.7626647   -0.2328323  
   0.712964400    -0.7903706   -0.1091026  
   0.714964300    -0.7982450    0.0173491  
   0.716964200    -0.7864193    0.1424445  
   0.718964100    -0.7556773    0.2633228  
   0.720964000    -0.7067244    0.3772359  
   0.722963900    -0.6414076    0.4816560  
   0.724963800    -0.5616462    0.5743609  
   0.726963700    -0.4685248    0.6538083  
   0.728963600    -0.3644085    0.7181920  
   0.730963500    -0.2521757    0.7656801  
   0.732963400    -0.1340085    0.7963077  
   0.734963300    -0.0124258    0.8082310  
   0.736963200     0.1296758    0.7991939  
   0.738963100     0.2690473    0.7645360  
   0.740963000     0.4014543    0.7062718  
   0.742962900     0.5216196    0.6250244  
   0.744962800     0.6265625    0.5236949  
   0.746962700     0.7121047    0.4046966  
   0.748962600     0.7753630    0.2720589  
   0.750962500     0.7072990    0.3945084  
   0.752962400     0.7686712    0.2601669  
   0.754962300     0.8049176    0.1168531  
   0.756962200     0.8148142   -0.0310562  
   0.758962100     0.7976592   -0.1786077  
   0.760962000     0.7537251   -0.3210380  
   0.762961900     0.6883695   -0.4472180  
   0.764961800     0.6097273   -0.5507759  
   0.766961700     0.5154679   -0.6404074  
   0.768961600     0.4076810   -0.7143285  
   0.770961500     0.2892325   -0.7701174  
   0.772961400     0.1640382   -0.8058885  
   0.774961300     0.0350066   -0.8216450  
   0.776961200    -0.0954988   -0.8165095  
   0.778961100    -0.2229546   -0.7901763  
   0.780961000    -0.3446810   -0.7442793  
   0.782960900    -0.4573197   -0.6792508  
   0.784960800    -0.5580505   -0.5972364  
   0.786960700    -0.6439768   -0.5001321  
   0.788960600    -0.7130132   -0.3910560  
   0.790960500    -0.7635854   -0.2730841  
   0.792960400    -0.7948605   -0.1492470  
   0.794960300    -0.8058164   -0.0226938  
   0.796960200    -0.7969067    0.1030481  
   0.798960100    -0.7687154    0.2250420  
   0.800960000    -0.7220730    0.3403962  
   0.802959900    -0.6584415    0.4465156  
   0.804959800    -0.5800875    0.5410432  
   0.806959700    -0.4880838    0.6221114  
   0.808959600    -0.3851251    0.6877663  
   0.810959500    -0.2740723    0.7369497  
   0.812959400    -0.1568343    0.7682402  
   0.814959300    -0.0361708    0.7814330  
   0.816959200     0.0847380    0.7759480  
   0.818959100     0.2037135    0.7516584  
   0.820959000     0.3183558    0.7099206  
   0.822958900     0.4247744    0.6508903  
   0.824958800     0.5216147    0.5757989  
   0.826958700     0.6058882    0.4862433  
   0.828958600     0.6754889    0.3843820  
   0.830958500     0.7286928    0.2722968  
   0.832958400     0.7638001    0.1532434  
   0.834958300     0.7796027    0.0295410  
   0.836958200     0.7761360   -0.0952703  
   0.838958100     0.7527710   -0.2186077  
   0.840958000     0.7097912   -0.3369274  
   0.842957900     0.6485232   -0.4475965  
   0.844957800     0.5699635   -0.5474077  
   0.846957700     0.4764675   -0.6333959  
   0.848957600     0.3702613   -0.7038239  
   0.850957500     0.2539319   -0.7562764  
   0.852957400     0.1306268   -0.7893527  
   0.854957300     0.0036626   -0.8024881  
   0.856957200    -0.1234763   -0.7949407  
   0.858957100    -0.2473084   -0.7676299  
   0.860957000    -0.3646524   -0.7210718  
   0.862956900    -0.4727569   -0.6574712  
   0.864956800    -0.5689644   -0.5782329  
   0.866956700    -0.6511086   -0.4862090  
   0.868956600    -0.7178950   -0.3828183  
   0.870956500    -0.7677514   -0.2710151  
   0.872956400    -0.7998822   -0.1534641  
   0.874956300    -0.8138124   -0.0325989  
   0.876956200    -0.8092277    0.0890108  
   0.878956100    -0.7862562    0.2080829  
   0.880956000    -0.7458066    0.3224194  
   0.882955900    -0.6884562    0.4288804  
   0.884955800    -0.6159937    0.5259911  
   0.886955700    -0.5295610    0.6111470  
   0.888955600    -0.4311323    0.6821195  
   0.890955500    -0.3230292    0.7375292  
   0.892955400    -0.2075495    0.7758325  
   0.894955300    -0.0876045    0.7962759  
