! MS46122B
! 2250307/22442219
! 6/15/2025 8:18:36 AM
! C:\USERS\SPARKY\DOCUMENTS\VNA_DATA\JUNE15_2025\3.2K\PORT6_MOS4.S1P
! CHANNEL.1
! TR.MEASUREMENT
! RAW.DATA
# GHZ S RI R 50.0
! FREQ.GHZ         S11RE         S11IM         
!; PortSelection: Port_1
   0.001000000    -0.8961848    0.0513845  
   0.002999900    -0.8698605    0.2506357  
   0.004999800    -0.8334149    0.3935771  
   0.006999700    -0.7703052    0.5212029  
   0.008999600    -0.6840709    0.6326141  
   0.010999500    -0.5782743    0.7250715  
   0.012999400    -0.4574044    0.7972168  
   0.014999300    -0.3258692    0.8476024  
   0.016999200    -0.1873432    0.8763206  
   0.018999100    -0.0464882    0.8834193  
   0.020999000     0.0934630    0.8699780  
   0.022998900     0.2288876    0.8367432  
   0.024998800     0.3299415    0.7660252  
   0.026998700     0.4764304    0.7157994  
   0.028998600     0.5835323    0.6311939  
   0.030998500     0.6761443    0.5325533  
   0.032998400     0.7192738    0.4213537  
   0.034998300     0.8121237    0.3004818  
   0.036998200     0.8519653    0.1716824  
   0.038998100     0.8707625    0.0379162  
   0.040998000     0.8685516   -0.0971645  
   0.042997900     0.8442932   -0.2303218  
   0.044997800     0.7781386   -0.3323941  
   0.046997700     0.7343110   -0.4771142  
   0.048997600     0.6514999   -0.5842683  
   0.050997500     0.5531076   -0.6768078  
   0.052997400     0.4435958   -0.7519849  
   0.054997300     0.3213536   -0.8108955  
   0.056997200     0.1932999   -0.8497460  
   0.058997100     0.0617055   -0.8690351  
   0.060997000    -0.0708374   -0.8680812  
   0.062996900    -0.2013022   -0.8473138  
   0.064996800    -0.3268428   -0.8071150  
   0.066996700    -0.4446995   -0.7485851  
   0.068996600    -0.5520009   -0.6726561  
   0.070996500    -0.6461465   -0.5815310  
   0.072996400    -0.7253017   -0.4772698  
   0.074996300    -0.7874712   -0.3623194  
   0.076996200    -0.8312177   -0.2390551  
   0.078996100    -0.8554866   -0.1109994  
   0.080996000    -0.8602783    0.0196641  
   0.082995900    -0.8450127    0.1494289  
   0.084995800    -0.8099518    0.2752532  
   0.086995700    -0.7561746    0.3946713  
   0.088995600    -0.6846961    0.5047487  
   0.090995500    -0.5970994    0.6026590  
   0.092995400    -0.4950026    0.6858082  
   0.094995300    -0.3809358    0.7526289  
   0.096995200    -0.2578305    0.8011554  
   0.098995100    -0.1277108    0.8295587  
   0.100995000     0.0052617    0.8369690  
   0.102994900     0.1378805    0.8230572  
   0.104994800     0.2669580    0.7885101  
   0.106994700     0.3891114    0.7333237  
   0.108994600     0.5011786    0.6594081  
   0.110994500     0.5998113    0.5687205  
   0.112994400     0.6824428    0.4629053  
   0.114994300     0.7472820    0.3455305  
   0.116994200     0.7926469    0.2191880  
   0.118994100     0.8168734    0.0873729  
   0.120994000     0.8196437   -0.0463291  
   0.122993900     0.8010780   -0.1784087  
   0.124993800     0.7618848   -0.3054272  
   0.126993700     0.7027123   -0.4242560  
   0.128993600     0.6261536   -0.5319855  
   0.130993500     0.5336339   -0.6255763  
   0.132993400     0.4279660   -0.7033299  
   0.134993300     0.3120496   -0.7628450  
   0.136993200     0.1888116   -0.8031555  
   0.138993100     0.0614089   -0.8239177  
   0.140993000    -0.0670227   -0.8246858  
   0.142992900    -0.1934600   -0.8059382  
   0.144992800    -0.3146661   -0.7679403  
   0.146992700    -0.4286289   -0.7123311  
   0.148992600    -0.5321436   -0.6402321  
   0.150992500    -0.6231838   -0.5538894  
   0.152992400    -0.6998222   -0.4547190  
   0.154992300    -0.7607017   -0.3456662  
   0.156992200    -0.8044978   -0.2290961  
   0.158992100    -0.8303579   -0.1073587  
   0.160992000    -0.8378544    0.0167601  
   0.162991900    -0.8266731    0.1403717  
   0.164991800    -0.7972192    0.2613548  
   0.166991700    -0.7499308    0.3761803  
   0.168991600    -0.6862032    0.4830973  
   0.170991500    -0.6068855    0.5793632  
   0.172991400    -0.5138463    0.6626735  
   0.174991300    -0.4095044    0.7316290  
   0.176991200    -0.2949549    0.7840872  
   0.178991100    -0.1734791    0.8190294  
   0.180991000    -0.0477174    0.8352152  
   0.182990900     0.0788848    0.8319530  
   0.184990800     0.2051042    0.8091355  
   0.186990700     0.3267087    0.7674471  
   0.188990600     0.4195179    0.7192047  
   0.190990500     0.5408065    0.6314759  
   0.192990400     0.6339394    0.5359157  
   0.194990300     0.7090420    0.4293124  
   0.196990200     0.7663072    0.3120572  
   0.198990100     0.8046539    0.1871899  
   0.200990000     0.8228472    0.0569359  
   0.202989900     0.8200162   -0.0751069  
   0.204989800     0.7959993   -0.2049593  
   0.206989700     0.7518133   -0.3289995  
   0.208989600     0.6883922   -0.4443941  
   0.210989500     0.6070350   -0.5484727  
   0.212989400     0.5099204   -0.6380508  
   0.214989300     0.3998142   -0.7108597  
   0.216989200     0.2800201   -0.7647821  
   0.218989100     0.1538298   -0.7986716  
   0.220989000     0.0238898   -0.8117830  
   0.222988900    -0.1065141   -0.8041075  
   0.224988800    -0.2336918   -0.7753485  
   0.226988700    -0.3539189   -0.7271950  
   0.228988600    -0.4645493   -0.6609849  
   0.230988500    -0.5623125   -0.5785432  
   0.232988400    -0.6458625   -0.4815457  
   0.234988300    -0.7130699   -0.3728418  
   0.236988200    -0.7621340   -0.2549585  
   0.238988100    -0.7917814   -0.1314229  
   0.240988000    -0.8014572   -0.0056795  
   0.242987900    -0.7915945    0.1195417  
   0.244987800    -0.7622508    0.2411202  
   0.246987700    -0.7145086    0.3568955  
   0.248987600    -0.6490241    0.4640293  
   0.250987500    -0.5676246    0.5596557  
   0.252987400    -0.4726263    0.6411165  
   0.254987300    -0.3666041    0.7062795  
   0.256987200    -0.2522042    0.7545872  
   0.258987100    -0.1313591    0.7843942  
   0.260987000    -0.0071377    0.7950877  
   0.262986900     0.1179787    0.7864985  
   0.264986800     0.2402583    0.7585359  
   0.266986700     0.3570310    0.7117597  
   0.268986600     0.4649929    0.6472601  
   0.270986500     0.5615447    0.5668731  
   0.272986400     0.6445077    0.4723536  
   0.274986300     0.7115514    0.3659691  
   0.276986200     0.7617766    0.2499526  
   0.278986100     0.7931635    0.1269359  
   0.280986000     0.8051727    0.0000547  
   0.282985900     0.7969102   -0.1274764  
   0.284985800     0.7685077   -0.2522996  
   0.286985700     0.7206923   -0.3712436  
   0.288985600     0.6552922   -0.4803740  
   0.290985500     0.5738479   -0.5779120  
   0.292985400     0.4781919   -0.6612191  
   0.294985300     0.3707424   -0.7287213  
   0.296985200     0.2538344   -0.7788320  
   0.298985100     0.1297412   -0.8100699  
   0.300985000     0.0021310   -0.8213373  
   0.302984900    -0.1250844   -0.8124263  
   0.304984800    -0.2493089   -0.7836858  
   0.306984700    -0.3666566   -0.7361810  
   0.308984600    -0.4745598   -0.6717415  
   0.310984500    -0.5706343   -0.5919577  
   0.312984400    -0.6528873   -0.4984913  
   0.314984300    -0.7198279   -0.3941666  
   0.316984200    -0.7699463   -0.2808884  
   0.318984100    -0.8020085   -0.1609037  
   0.320984000    -0.8159533   -0.0366200  
   0.322983900    -0.8098488    0.0882064  
   0.324983800    -0.7850798    0.2106553  
   0.326983700    -0.7417223    0.3272379  
   0.328983600    -0.6808251    0.4356205  
   0.330983500    -0.6040721    0.5334232  
   0.332983400    -0.5141802    0.6175101  
   0.334983300    -0.4122377    0.6869003  
   0.336983200    -0.3010187    0.7397950  
   0.338983100    -0.1827284    0.7749335  
   0.340983000    -0.0603361    0.7917065  
   0.342982900     0.0634093    0.7889628  
   0.344982800     0.1863494    0.7672974  
   0.346982700     0.3048557    0.7261683  
   0.348982600     0.4160407    0.6668390  
   0.350982500     0.5167758    0.5901057  
   0.352982400     0.6045941    0.4982929  
   0.354982300     0.6787092    0.3885143  
   0.356982200     0.7387472    0.2550363  
   0.358982100     0.7733240    0.1130144  
   0.360982000     0.7811482   -0.0326900  
   0.362981900     0.7621398   -0.1773968  
   0.364981800     0.7167953   -0.3163376  
   0.366981700     0.6466150   -0.4450518  
   0.368981600     0.5540330   -0.5585973  
   0.370981500     0.4416257   -0.6531299  
   0.372981400     0.3134760   -0.7251167  
   0.374981300     0.1739277   -0.7724506  
   0.376981200     0.2814208   -0.7344909  
   0.378981100     0.1411791   -0.7760527  
   0.380981000    -0.0045148   -0.7910140  
   0.382980900    -0.1369627   -0.7811114  
   0.384980800    -0.2605171   -0.7514248  
   0.386980700    -0.3772129   -0.7022669  
   0.388980600    -0.4838668   -0.6354119  
   0.390980500    -0.5782307   -0.5538400  
   0.392980400    -0.6577661   -0.4592091  
   0.394980300    -0.7214935   -0.3547317  
   0.396980200    -0.7682220   -0.2418707  
   0.398980100    -0.7972453   -0.1239520  
   0.400980000    -0.8078867   -0.0038329  
   0.402979900    -0.8003448    0.1166377  
   0.404979800    -0.7753549    0.2340552  
   0.406979700    -0.7327970    0.3457685  
   0.408979600    -0.6745125    0.4497501  
   0.410979500    -0.6007776    0.5446623  
   0.412979400    -0.5137042    0.6276871  
   0.414979300    -0.4147815    0.6969500  
   0.416979200    -0.3059784    0.7506609  
   0.418979100    -0.1908979    0.7868881  
   0.420979000    -0.0707265    0.8062330  
   0.422978900     0.0515522    0.8067522  
   0.424978800     0.1730279    0.7887717  
   0.426978700     0.2909958    0.7518619  
   0.428978600     0.4025216    0.6971589  
   0.430978500     0.5041954    0.6254337  
   0.432978400     0.5937098    0.5387627  
   0.434978300     0.6689616    0.4387023  
   0.436978200     0.7277656    0.3277939  
   0.438978100     0.7685197    0.2080915  
   0.440978000     0.7898660    0.0828893  
   0.442977900     0.7908635   -0.0446884  
   0.444977800     0.7715315   -0.1711415  
   0.446977700     0.7314582   -0.2933361  
   0.448977600     0.6724729   -0.4073708  
   0.450977500     0.5951865   -0.5107482  
   0.452977400     0.5017782   -0.6004552  
   0.454977300     0.3941571   -0.6746500  
   0.456977200     0.2753805   -0.7296155  
   0.458977100     0.1488602   -0.7641866  
   0.460977000     0.0188433   -0.7772854  
   0.462976900    -0.1112112   -0.7686191  
   0.464976800    -0.2377993   -0.7389733  
   0.466976700    -0.3569848   -0.6888989  
   0.468976600    -0.4659844   -0.6202986  
   0.470976500    -0.5619935   -0.5350996  
   0.472976400    -0.6421561   -0.4360746  
   0.474976300    -0.7051990   -0.3258106  
   0.476976200    -0.7490075   -0.2078062  
   0.478976100    -0.7734556   -0.0854031  
   0.480976000    -0.7781529    0.0383486  
   0.482975900    -0.7634704    0.1603351  
   0.484975800    -0.7302008    0.2777510  
   0.486975700    -0.6794130    0.3878732  
   0.488975600    -0.6124822    0.4890667  
   0.490975500    -0.5309071    0.5785103  
   0.492975400    -0.4366494    0.6542439  
   0.494975300    -0.3324226    0.7145320  
   0.496975200    -0.2197176    0.7584323  
   0.498975100    -0.1023824    0.7845271  
   0.500975000     0.0177011    0.7925391  
   0.502974900     0.1375587    0.7822117  
   0.504974800     0.2548687    0.7535390  
   0.506974700     0.3670632    0.7071539  
   0.508974600     0.4715402    0.6434912  
   0.510974500     0.5656270    0.5642906  
   0.512974400     0.6467556    0.4710489  
   0.514974300     0.7122897    0.3666447  
   0.516974200     0.7611117    0.2527223  
   0.518974100     0.7916843    0.1325459  
   0.520974000     0.8031856    0.0088242  
   0.522973900     0.7955765   -0.1160746  
   0.524973800     0.7682310   -0.2382512  
   0.526973700     0.7216037   -0.3553841  
   0.528973600     0.6572455   -0.4640203  
   0.530973500     0.5760229   -0.5620123  
   0.532973400     0.4803306   -0.6456076  
   0.534973300     0.3722952   -0.7132559  
   0.536973200     0.2542959   -0.7629229  
   0.538973100     0.1303689   -0.7932871  
   0.540973000     0.0036925   -0.8033265  
   0.542972900    -0.1230485   -0.7934428  
   0.544972800    -0.2466752   -0.7633514  
   0.546972700    -0.3644158   -0.7142243  
   0.548972600    -0.4725859   -0.6468236  
   0.550972500    -0.5684332   -0.5630620  
   0.552972400    -0.6502618   -0.4650708  
   0.554972300    -0.7150658   -0.3552517  
   0.556972200    -0.7616651   -0.2366583  
   0.558972100    -0.7887664   -0.1123456  
   0.560972000    -0.7955903    0.0141132  
   0.562971900    -0.7820754    0.1395366  
   0.564971800    -0.7491251    0.2606221  
   0.566971700    -0.6977715    0.3747815  
   0.568971600    -0.6292012    0.4790704  
   0.570971500    -0.5450918    0.5709869  
   0.572971400    -0.4478576    0.6483840  
   0.574971300    -0.3390987    0.7099022  
   0.576971200    -0.2215085    0.7534652  
   0.578971100    -0.0982697    0.7776080  
   0.580971000     0.0271625    0.7821729  
   0.582970900     0.1518188    0.7664834  
   0.584970800     0.2721672    0.7311030  
   0.586970700     0.3851481    0.6770868  
   0.588970600     0.4880770    0.6057234  
   0.590970500     0.5786569    0.5188388  
   0.592970400     0.6540560    0.4184055  
   0.594970300     0.7123078    0.3069363  
   0.596970200     0.7522858    0.1874624  
   0.598970100     0.7726179    0.0626266  
   0.600970000     0.7728100   -0.0637001  
   0.602969900     0.7522191   -0.1891206  
   0.604969800     0.7118103   -0.3096801  
   0.606969700     0.6525277   -0.4223384  
   0.608969600     0.5752932   -0.5243800  
   0.610969500     0.4826995   -0.6127170  
   0.612969400     0.3768344   -0.6846837  
   0.614969300     0.2611241   -0.7385129  
   0.616969200     0.1391986   -0.7726794  
   0.618969100     0.0140471   -0.7870334  
   0.620969000    -0.1107669   -0.7814049  
   0.622968900    -0.2332886   -0.7561464  
   0.624968800    -0.3502555   -0.7122591  
   0.626968700    -0.4589134   -0.6506820  
   0.628968600    -0.5562086   -0.5732318  
   0.630968500    -0.6402481   -0.4816495  
   0.632968400    -0.7091399   -0.3785273  
   0.634968300    -0.7609152   -0.2660972  
   0.636968200    -0.7948979   -0.1474031  
   0.638968100    -0.8097078   -0.0255492  
   0.640968000    -0.8064171    0.0972663  
   0.642967900    -0.7840474    0.2175805  
   0.644967800    -0.7438627    0.3330912  
   0.646967700    -0.6868546    0.4405884  
   0.648967600    -0.6145037    0.5381740  
   0.650967500    -0.5285236    0.6234906  
   0.652967400    -0.4310718    0.6948878  
   0.654967300    -0.3240845    0.7505596  
   0.656967200    -0.2100613    0.7898086  
   0.658967100    -0.0914137    0.8115086  
   0.660967000     0.0294659    0.8153253  
   0.662966900     0.1507976    0.8002336  
   0.664966800     0.2691841    0.7675251  
   0.666966700     0.3819182    0.7156840  
   0.668966600     0.4856856    0.6475309  
   0.670966500     0.5781879    0.5632641  
   0.672966400     0.6566768    0.4654990  
   0.674966300     0.7192501    0.3564319  
   0.676966200     0.7640173    0.2388410  
   0.678966100     0.7899349    0.1154248  
   0.680966000     0.7959889   -0.0109565  
   0.682965900     0.7819592   -0.1367451  
   0.684965800     0.7479613   -0.2591789  
   0.686965700     0.6944042   -0.3748406  
   0.688965600     0.6233917   -0.4812353  
   0.690965500     0.5361013   -0.5744960  
   0.692965400     0.4351546   -0.6525012  
   0.694965300     0.3227671   -0.7133541  
   0.696965200     0.2020678   -0.7552505  
   0.698965100     0.0766607   -0.7772490  
   0.700965000    -0.0510064   -0.7785968  
   0.702964900    -0.1767945   -0.7595578  
   0.704964800    -0.2977467   -0.7204398  
   0.706964700    -0.4103702   -0.6622609  
   0.708964600    -0.5121321   -0.5876123  
   0.710964500    -0.6003282   -0.4972005  
   0.712964400    -0.6726563   -0.3947637  
   0.714964300    -0.7273422   -0.2821638  
   0.716964200    -0.7633007   -0.1632940  
   0.718964100    -0.7801208   -0.0412910  
   0.720964000    -0.7777502    0.0809430  
   0.722963900    -0.7566686    0.2005294  
   0.724963800    -0.7179862    0.3149517  
   0.726963700    -0.6619948    0.4217188  
   0.728963600    -0.5908953    0.5182727  
   0.730963500    -0.5059201    0.6028814  
   0.732963400    -0.4092856    0.6732973  
   0.734963300    -0.3033516    0.7283970  
   0.736963200    -0.1710633    0.7708621  
   0.738963100    -0.0328817    0.7899017  
   0.740963000     0.1077596    0.7846493  
   0.742962900     0.2454739    0.7546846  
   0.744962800     0.3766445    0.7007891  
   0.746962700     0.4967006    0.6247265  
   0.748962600     0.6020291    0.5282228  
   0.750962500     0.4951430    0.6191949  
   0.752962400     0.5991833    0.5211251  
   0.754962300     0.6845063    0.4059031  
   0.756962200     0.7480056    0.2771307  
   0.758962100     0.7878964    0.1387237  
   0.760962000     0.8022130   -0.0054745  
   0.762961900     0.7914494   -0.1428352  
   0.764961800     0.7605211   -0.2652441  
   0.766961700     0.7109138   -0.3815184  
   0.768961600     0.6432785   -0.4888246  
   0.770961500     0.5592389   -0.5841271  
   0.772961400     0.4610835   -0.6653607  
   0.774961300     0.3516166   -0.7299132  
   0.776961200     0.2328734   -0.7763473  
   0.778961100     0.1077587   -0.8036261  
   0.780961000    -0.0201668   -0.8106695  
   0.782960900    -0.1478978   -0.7968612  
   0.784960800    -0.2717557   -0.7629467  
   0.786960700    -0.3885222   -0.7094164  
   0.788960600    -0.4951533   -0.6381788  
   0.790960500    -0.5885454   -0.5513848  
   0.792960400    -0.6665113   -0.4507382  
   0.794960300    -0.7270602   -0.3397942  
   0.796960200    -0.7690848   -0.2216713  
   0.798960100    -0.7920812   -0.0990841  
   0.800960000    -0.7956824    0.0248854  
   0.802959900    -0.7795382    0.1472866  
   0.804959800    -0.7452360    0.2646654  
   0.806959700    -0.6934443    0.3749188  
   0.808959600    -0.6258592    0.4754648  
   0.810959500    -0.5437376    0.5637798  
   0.812959400    -0.4493627    0.6386009  
   0.814959300    -0.3449981    0.6977934  
   0.816959200    -0.2332173    0.7404213  
   0.818959100    -0.1162549    0.7652748  
   0.820959000     0.0033112    0.7721893  
   0.822958900     0.1227789    0.7604088  
   0.824958800     0.2389447    0.7307440  
   0.826958700     0.3498635    0.6836685  
   0.828958600     0.4522398    0.6199261  
   0.830958500     0.5438312    0.5407465  
   0.832958400     0.6224458    0.4480082  
   0.834958300     0.6855779    0.3443232  
   0.836958200     0.7319639    0.2314373  
   0.838958100     0.7607053    0.1123300  
   0.840958000     0.7704154   -0.0101947  
   0.842957900     0.7605689   -0.1335477  
   0.844957800     0.7307778   -0.2542853  
   0.846957700     0.6825447   -0.3692352  
   0.848957600     0.6163597   -0.4751484  
   0.850957500     0.5336147   -0.5697243  
   0.852957400     0.4368883   -0.6500724  
   0.854957300     0.3283205   -0.7136292  
   0.856957200     0.2108567   -0.7591975  
   0.858957100     0.0882617   -0.7853910  
   0.860957000    -0.0368556   -0.7918153  
   0.862956900    -0.1606001   -0.7786555  
   0.864956800    -0.2800579   -0.7461735  
   0.866956700    -0.3925620   -0.6960963  
   0.868956600    -0.4953112   -0.6294395  
   0.870956500    -0.5862944   -0.5484302  
   0.872956400    -0.6635202   -0.4542715  
   0.874956300    -0.7252679   -0.3498624  
   0.876956200    -0.7702863   -0.2373798  
   0.878956100    -0.7974176   -0.1196308  
   0.880956000    -0.8064609    0.0007139  
   0.882955900    -0.7970651    0.1206074  
   0.884955800    -0.7699238    0.2377051  
   0.886955700    -0.7253581    0.3488867  
   0.888955600    -0.6648327    0.4520877  
   0.890955500    -0.5895833    0.5453310  
   0.892955400    -0.5009561    0.6259080  
   0.894955300    -0.4015514    0.6926194  
