! MS46122B
! 2250307/22442219
! 6/16/2025 7:50:28 AM
! C:\USERS\SPARKY\DOCUMENTS\VNA_DATA\JUNE16_2025\3.1K\PORT3_MOS6.S1P
! CHANNEL.1
! TR.MEASUREMENT
! RAW.DATA
# GHZ S RI R 50.0
! FREQ.GHZ         S11RE         S11IM         
!; PortSelection: Port_1
   0.001000000     1.0235650   -0.0589460  
   0.002999900     0.9331931   -0.2183770  
   0.004999800     0.8660960   -0.3630086  
   0.006999700     0.7860262   -0.4965190  
   0.008999600     0.6902776   -0.6107439  
   0.010999500     0.5826512   -0.7112870  
   0.012999400     0.4646831   -0.7972502  
   0.014999300     0.3371961   -0.8666109  
   0.016999200     0.2014058   -0.9164647  
   0.018999100     0.0600705   -0.9453519  
   0.020999000    -0.0844902   -0.9513569  
   0.022998900    -0.2282251   -0.9337314  
   0.024998800    -0.3422009   -0.8692566  
   0.026998700    -0.4996591   -0.8265696  
   0.028998600    -0.6192644   -0.7396734  
   0.030998500    -0.7236052   -0.6332870  
   0.032998400    -0.7763370   -0.5089834  
   0.034998300    -0.8749517   -0.3765684  
   0.036998200    -0.9182782   -0.2335761  
   0.038998100    -0.9385617   -0.0857942  
   0.040998000    -0.9363865    0.0624692  
   0.042997900    -0.9112799    0.2080322  
   0.044997800    -0.8443512    0.3210770  
   0.046997700    -0.7973937    0.4786201  
   0.048997600    -0.7112170    0.5975982  
   0.050997500    -0.6071905    0.7018618  
   0.052997400    -0.4901863    0.7873844  
   0.054997300    -0.3564759    0.8553767  
   0.056997200    -0.2153633    0.9002668  
   0.058997100    -0.0688779    0.9218026  
   0.060997000     0.0791328    0.9192420  
   0.062996900     0.2251223    0.8930523  
   0.064996800     0.3649391    0.8437335  
   0.066996700     0.4952815    0.7730317  
   0.068996600     0.6124886    0.6823727  
   0.070996500     0.7136660    0.5741567  
   0.072996400     0.7968701    0.4517805  
   0.074996300     0.8592450    0.3178963  
   0.076996200     0.8996034    0.1757972  
   0.078996100     0.9168579    0.0293511  
   0.080996000     0.9107023   -0.1175017  
   0.082995900     0.8811360   -0.2613072  
   0.084995800     0.8296863   -0.3981990  
   0.086995700     0.7571799   -0.5244955  
   0.088995600     0.6662498   -0.6375529  
   0.090995500     0.5590067   -0.7343476  
   0.092995400     0.4385399   -0.8129514  
   0.094995300     0.3079920   -0.8718290  
   0.096995200     0.1703203   -0.9097365  
   0.098995100     0.0292779   -0.9256662  
   0.100995000    -0.1121697   -0.9201568  
   0.102994900    -0.2507093   -0.8932045  
   0.104994800    -0.3829446   -0.8457587  
   0.106994700    -0.5063707   -0.7792208  
   0.108994600    -0.6180282   -0.6949577  
   0.110994500    -0.7153479   -0.5952346  
   0.112994400    -0.7965352   -0.4819645  
   0.114994300    -0.8597522   -0.3577133  
   0.116994200    -0.9033228   -0.2256774  
   0.118994100    -0.9264904   -0.0885650  
   0.120994000    -0.9290732    0.0504478  
   0.122993900    -0.9102605    0.1886811  
   0.124993800    -0.8710657    0.3226506  
   0.126993700    -0.8119966    0.4491914  
   0.128993600    -0.7339914    0.5658673  
   0.130993500    -0.6391345    0.6696966  
   0.132993400    -0.5289290    0.7581121  
   0.134993300    -0.4060645    0.8289919  
   0.136993200    -0.2731052    0.8798402  
   0.138993100    -0.1331636    0.9095826  
   0.140993000     0.0101336    0.9173380  
   0.142992900     0.1538337    0.9026968  
   0.144992800     0.2939194    0.8653647  
   0.146992700     0.4266795    0.8058332  
   0.148992600     0.5487556    0.7255844  
   0.150992500     0.6566662    0.6269571  
   0.152992400     0.7475498    0.5113681  
   0.154992300     0.8186579    0.3828460  
   0.156992200     0.8684067    0.2440751  
   0.158992100     0.8948674    0.0991541  
   0.160992000     0.8973710   -0.0480866  
   0.162991900     0.8759610   -0.1937685  
   0.164991800     0.8312057   -0.3339010  
   0.166991700     0.7644411   -0.4645779  
   0.168991600     0.6778599   -0.5817890  
   0.170991500     0.5733650   -0.6837718  
   0.172991400     0.4543299   -0.7670425  
   0.174991300     0.3244895   -0.8295324  
   0.176991200     0.1864573   -0.8704618  
   0.178991100     0.0447780   -0.8884841  
   0.180991000    -0.0972486   -0.8838309  
   0.182990900    -0.2356592   -0.8572174  
   0.184990800    -0.3678608   -0.8091809  
   0.186990700    -0.4900054   -0.7412102  
   0.188990600    -0.5803062   -0.6727223  
   0.190990500    -0.6906988   -0.5580648  
   0.192990400    -0.7698717   -0.4416955  
   0.194990300    -0.8283587   -0.3182583  
   0.196990200    -0.8668950   -0.1886389  
   0.198990100    -0.8851717   -0.0551330  
   0.200990000    -0.8831815    0.0794874  
   0.202989900    -0.8610125    0.2119261  
   0.204989800    -0.8190462    0.3392945  
   0.206989700    -0.7589718    0.4580756  
   0.208989600    -0.6819395    0.5663965  
   0.210989500    -0.5892357    0.6622920  
   0.212989400    -0.4829811    0.7436635  
   0.214989300    -0.3658611    0.8080624  
   0.216989200    -0.2404748    0.8538910  
   0.218989100    -0.1101466    0.8806191  
   0.220989000     0.0237061    0.8876793  
   0.222988900     0.1579317    0.8742990  
   0.224988800     0.2890107    0.8408905  
   0.226988700     0.4134711    0.7878056  
   0.228988600     0.5283847    0.7165733  
   0.230988500     0.6317450    0.6285094  
   0.232988400     0.7209440    0.5253646  
   0.234988300     0.7932375    0.4089431  
   0.236988200     0.8475967    0.2822823  
   0.238988100     0.8816603    0.1485507  
   0.240988000     0.8945851    0.0115640  
   0.242987900     0.8862171   -0.1261754  
   0.244987800     0.8565297   -0.2612039  
   0.246987700     0.8062391   -0.3903030  
   0.248987600     0.7362239   -0.5108948  
   0.250987500     0.6480918   -0.6189261  
   0.252987400     0.5442517   -0.7117490  
   0.254987300     0.4280504   -0.7869180  
   0.256987200     0.3016540   -0.8427554  
   0.258987100     0.1684204   -0.8786049  
   0.260987000     0.0310358   -0.8931295  
   0.262986900    -0.1071770   -0.8861893  
   0.264986800    -0.2422917   -0.8574366  
   0.266986700    -0.3712917   -0.8085665  
   0.268986600    -0.4901573   -0.7401853  
   0.270986500    -0.5963368   -0.6551821  
   0.272986400    -0.6878340   -0.5550572  
   0.274986300    -0.7626087   -0.4426863  
   0.276986200    -0.8192907   -0.3200681  
   0.278986100    -0.8561071   -0.1902154  
   0.280986000    -0.8726243   -0.0559749  
   0.282985900    -0.8680753    0.0790047  
   0.284985800    -0.8431673    0.2112989  
   0.286985700    -0.7980557    0.3379665  
   0.288985600    -0.7347073    0.4548492  
   0.290985500    -0.6542622    0.5604793  
   0.292985400    -0.5592656    0.6524667  
   0.294985300    -0.4510847    0.7286326  
   0.296985200    -0.3320982    0.7880982  
   0.298985100    -0.2044563    0.8286251  
   0.300985000    -0.0718202    0.8486988  
   0.302984900     0.0621620    0.8479014  
   0.304984800     0.1946928    0.8262953  
   0.306984700     0.3218442    0.7844967  
   0.308984600     0.4409034    0.7236657  
   0.310984500     0.5486108    0.6453204  
   0.312984400     0.6431415    0.5508668  
   0.314984300     0.7218729    0.4430193  
   0.316984200     0.7830736    0.3240702  
   0.318984100     0.8254800    0.1958508  
   0.320984000     0.8470066    0.0622295  
   0.322983900     0.8473858   -0.0740604  
   0.324983800     0.8259860   -0.2087243  
   0.326983700     0.7836434   -0.3382261  
   0.328983600     0.7215247   -0.4591788  
   0.330983500     0.6412194   -0.5685780  
   0.332983400     0.5453640   -0.6632815  
   0.334983300     0.4362280   -0.7419405  
   0.336983200     0.3162071   -0.8024379  
   0.338983100     0.1887837   -0.8434489  
   0.340983000     0.0568159   -0.8639750  
   0.342982900    -0.0763950   -0.8641930  
   0.344982800    -0.2082535   -0.8436065  
   0.346982700    -0.3354406   -0.8028560  
   0.348982600    -0.4549421   -0.7428772  
   0.350982500    -0.5633696   -0.6653745  
   0.352982400    -0.6588346   -0.5723507  
   0.354982300    -0.7414111   -0.4608499  
   0.356982200    -0.8101475   -0.3233515  
   0.358982100    -0.8532035   -0.1770511  
   0.360982000    -0.8696271   -0.0270450  
   0.362981900    -0.8596030    0.1228097  
   0.364981800    -0.8236234    0.2676990  
   0.366981700    -0.7636079    0.4040743  
   0.368981600    -0.6813216    0.5272830  
   0.370981500    -0.5795305    0.6343545  
   0.372981400    -0.4613638    0.7219076  
   0.374981300    -0.3291112    0.7884119  
   0.376981200    -0.4503595    0.7358600  
   0.378981100    -0.3135901    0.8007594  
   0.380981000    -0.1676624    0.8404517  
   0.382980900    -0.0306976    0.8542790  
   0.384980800     0.1009484    0.8465471  
   0.386980700     0.2302897    0.8187360  
   0.388980600     0.3537499    0.7707347  
   0.390980500     0.4685592    0.7044238  
   0.392980400     0.5712045    0.6207420  
   0.394980300     0.6596156    0.5225655  
   0.396980200     0.7318233    0.4113176  
   0.398980100     0.7856534    0.2896640  
   0.400980000     0.8198130    0.1608600  
   0.402979900     0.8331910    0.0279661  
   0.404979800     0.8254709   -0.1055526  
   0.406979700     0.7964207   -0.2360139  
   0.408979600     0.7470744   -0.3601544  
   0.410979500     0.6781021   -0.4755798  
   0.412979400     0.5913106   -0.5787721  
   0.414979300     0.4890814   -0.6666222  
   0.416979200     0.3740883   -0.7367878  
   0.418979100     0.2498412   -0.7871647  
   0.420979000     0.1194947   -0.8171851  
   0.422978900    -0.0140706   -0.8258430  
   0.424978800    -0.1466186   -0.8131240  
   0.426978700    -0.2751256   -0.7793719  
   0.428978600    -0.3958406   -0.7260876  
   0.430978500    -0.5057225   -0.6551535  
   0.432978400    -0.6021756   -0.5690572  
   0.434978300    -0.6837737   -0.4692307  
   0.436978200    -0.7483147   -0.3594954  
   0.438978100    -0.7955402   -0.2413949  
   0.440978000    -0.8239423   -0.1185155  
   0.442977900    -0.8332898    0.0063723  
   0.444977800    -0.8241832    0.1309451  
   0.446977700    -0.7967523    0.2519612  
   0.448977600    -0.7519672    0.3673055  
   0.450977500    -0.6907606    0.4739541  
   0.452977400    -0.6146272    0.5706199  
   0.454977300    -0.5248477    0.6557034  
   0.456977200    -0.4228196    0.7266569  
   0.458977100    -0.3119978    0.7815179  
   0.460977000    -0.1939098    0.8196101  
   0.462976900    -0.0719277    0.8396358  
   0.464976800     0.0518993    0.8417024  
   0.466976700     0.1748873    0.8252133  
   0.468976600     0.2944639    0.7907562  
   0.470976500     0.4078260    0.7387087  
   0.472976400     0.5126863    0.6700693  
   0.474976300     0.6064140    0.5863060  
   0.476976200     0.6867053    0.4891475  
   0.478976100     0.7515432    0.3808286  
   0.480976000     0.7993942    0.2644072  
   0.482975900     0.8292579    0.1415481  
   0.484975800     0.8402321    0.0153153  
   0.486975700     0.8321857   -0.1120251  
   0.488975600     0.8041316   -0.2368224  
   0.490975500     0.7572270   -0.3564113  
   0.492975400     0.6924255   -0.4683547  
   0.494975300     0.6105158   -0.5689970  
   0.496975200     0.5133125   -0.6559788  
   0.498975100     0.4041943   -0.7264691  
   0.500975000     0.2848770   -0.7791406  
   0.502974900     0.1592412   -0.8128552  
   0.504974800     0.0289762   -0.8258153  
   0.506974700    -0.1016729   -0.8184194  
   0.508974600    -0.2303565   -0.7902613  
   0.510974500    -0.3529653   -0.7418910  
   0.512974400    -0.4662667   -0.6750583  
   0.514974300    -0.5661201   -0.5913830  
   0.516974200    -0.6516247   -0.4933737  
   0.518974100    -0.7198920   -0.3840785  
   0.520974000    -0.7703415   -0.2658094  
   0.522973900    -0.8010246   -0.1414934  
   0.524973800    -0.8118830   -0.0149645  
   0.526973700    -0.8032774    0.1118342  
   0.528973600    -0.7754346    0.2347947  
   0.530973500    -0.7286554    0.3518549  
   0.532973400    -0.6647184    0.4599258  
   0.534973300    -0.5853550    0.5565169  
   0.536973200    -0.4920302    0.6394266  
   0.538973100    -0.3880681    0.7068058  
   0.540973000    -0.2755989    0.7570886  
   0.542972900    -0.1570919    0.7900316  
   0.544972800    -0.0350886    0.8042290  
   0.546972700     0.0876621    0.8000075  
   0.548972600     0.2087508    0.7772386  
   0.550972500     0.3247775    0.7364373  
   0.552972400     0.4336761    0.6780919  
   0.554972300     0.5326610    0.6036777  
   0.556972200     0.6189888    0.5149155  
   0.558972100     0.6908684    0.4138353  
   0.560972000     0.7466965    0.3028946  
   0.562971900     0.7847145    0.1850814  
   0.564971800     0.8044294    0.0627762  
   0.566971700     0.8051630   -0.0608386  
   0.568971600     0.7870950   -0.1827144  
   0.570971500     0.7507743   -0.3010837  
   0.572971400     0.6967157   -0.4125184  
   0.574971300     0.6258202   -0.5147273  
   0.576971200     0.5399507   -0.6056107  
   0.578971100     0.4408346   -0.6823169  
   0.580971000     0.3310466   -0.7432205  
   0.582970900     0.2134201   -0.7863075  
   0.584970800     0.0913954   -0.8105432  
   0.586970700    -0.0324668   -0.8161795  
   0.588970600    -0.1555391   -0.8029048  
   0.590970500    -0.2745739   -0.7711561  
   0.592970400    -0.3875730   -0.7220924  
   0.594970300    -0.4918253   -0.6567567  
   0.596970200    -0.5845721   -0.5766528  
   0.598970100    -0.6644380   -0.4837213  
   0.600970000    -0.7292437   -0.3801833  
   0.602969900    -0.7776738   -0.2681951  
   0.604969800    -0.8090665   -0.1504501  
   0.606969700    -0.8225732   -0.0292664  
   0.608969600    -0.8177233    0.0925957  
   0.610969500    -0.7946193    0.2120357  
   0.612969400    -0.7540354    0.3267684  
   0.614969300    -0.6969492    0.4336439  
   0.616969200    -0.6251947    0.5309973  
   0.618969100    -0.5397877    0.6156839  
   0.620969000    -0.4434553    0.6866280  
   0.622968900    -0.3371863    0.7428839  
   0.624968800    -0.2239017    0.7827678  
   0.626968700    -0.1053662    0.8053034  
   0.628968600     0.0159291    0.8098701  
   0.630968500     0.1366814    0.7959403  
   0.632968400     0.2541758    0.7641874  
   0.634968300     0.3660322    0.7141209  
   0.636968200     0.4688637    0.6474402  
   0.638968100     0.5610340    0.5655582  
   0.640968000     0.6393859    0.4702387  
   0.642967900     0.7019977    0.3638250  
   0.644967800     0.7478022    0.2482152  
   0.646967700     0.7747258    0.1270575  
   0.648967600     0.7824796    0.0029886  
   0.650967500     0.7703840   -0.1204322  
   0.652967400     0.7392760   -0.2400922  
   0.654967300     0.6894558   -0.3535296  
   0.656967200     0.6225774   -0.4574756  
   0.658967100     0.5403879   -0.5496020  
   0.660967000     0.4441582   -0.6281950  
   0.662966900     0.3366456   -0.6905104  
   0.664966800     0.2199473   -0.7354453  
   0.666966700     0.0975929   -0.7610050  
   0.668966600    -0.0270241   -0.7666411  
   0.670966500    -0.1506917   -0.7523261  
   0.672966400    -0.2700492   -0.7188990  
   0.674966300    -0.3817349   -0.6671525  
   0.676966200    -0.4833175   -0.5990247  
   0.678966100    -0.5724417   -0.5163057  
   0.680966000    -0.6475405   -0.4210864  
   0.682965900    -0.7063650   -0.3159656  
   0.684965800    -0.7481211   -0.2037391  
   0.686965700    -0.7722021   -0.0867611  
   0.688965600    -0.7777901    0.0320864  
   0.690965500    -0.7658197    0.1499909  
   0.692965400    -0.7359660    0.2641790  
   0.694965300    -0.6896390    0.3721206  
   0.696965200    -0.6277006    0.4712447  
   0.698965100    -0.5516888    0.5603417  
   0.700965000    -0.4632528    0.6368510  
   0.702964900    -0.3649030    0.6992877  
   0.704964800    -0.2574052    0.7463893  
   0.706964700    -0.1442752    0.7772793  
   0.708964600    -0.0275103    0.7906961  
   0.710964500     0.0909436    0.7864179  
   0.712964400     0.2076132    0.7647235  
   0.714964300     0.3199108    0.7248812  
   0.716964200     0.4248411    0.6691779  
   0.718964100     0.5198705    0.5982372  
   0.720964000     0.6032850    0.5135481  
   0.722963900     0.6731597    0.4175950  
   0.724963800     0.7270817    0.3117384  
   0.726963700     0.7651819    0.1983463  
   0.728963600     0.7857791    0.0802492  
   0.730963500     0.7881989   -0.0400662  
   0.732963400     0.7719361   -0.1600323  
   0.734963300     0.7374128   -0.2767536  
   0.736963200     0.6764081   -0.4033121  
   0.738963100     0.5927401   -0.5177926  
   0.740963000     0.4897617   -0.6153997  
   0.742962900     0.3710612   -0.6923401  
   0.744962800     0.2404769   -0.7461539  
   0.746962700     0.1023223   -0.7753468  
   0.748962600    -0.0384034   -0.7785936  
   0.750962500     0.0626575   -0.7737844  
   0.752962400    -0.0786428   -0.7719553  
   0.754962300    -0.2163649   -0.7437738  
   0.756962200    -0.3459852   -0.6915371  
   0.758962100    -0.4632176   -0.6166402  
   0.760962000    -0.5642147   -0.5220737  
   0.762961900    -0.6429052   -0.4168387  
   0.764961800    -0.6984621   -0.3104769  
   0.766961700    -0.7362815   -0.1975233  
   0.768961600    -0.7559955   -0.0808946  
   0.770961500    -0.7576277    0.0367807  
   0.772961400    -0.7410915    0.1522777  
   0.774961300    -0.7075108    0.2632164  
   0.776961200    -0.6574376    0.3669765  
   0.778961100    -0.5926303    0.4615916  
   0.780961000    -0.5142125    0.5451507  
   0.782960900    -0.4241060    0.6159596  
   0.784960800    -0.3240884    0.6720410  
   0.786960700    -0.2168825    0.7125298  
   0.788960600    -0.1048295    0.7362412  
   0.790960500     0.0094929    0.7431837  
   0.792960400     0.1238278    0.7322702  
   0.794960300     0.2346020    0.7044083  
   0.796960200     0.3401846    0.6598192  
   0.798960100     0.4374745    0.5999126  
   0.800960000     0.5247062    0.5257797  
   0.802959900     0.5999488    0.4393078  
   0.804959800     0.6610587    0.3418648  
   0.806959700     0.7070872    0.2363101  
   0.808959600     0.7362405    0.1248279  
   0.810959500     0.7481962    0.0094952  
   0.812959400     0.7421522   -0.1068073  
   0.814959300     0.7187772   -0.2212888  
   0.816959200     0.6773502   -0.3310402  
   0.818959100     0.6191380   -0.4336534  
   0.820959000     0.5454640   -0.5261993  
   0.822958900     0.4582129   -0.6064883  
   0.824958800     0.3590708   -0.6721424  
   0.826958700     0.2507310   -0.7217371  
   0.828958600     0.1359640   -0.7536073  
   0.830958500     0.0175337   -0.7671466  
   0.832958400    -0.1015204   -0.7621374  
   0.834958300    -0.2178845   -0.7386642  
   0.836958200    -0.3286879   -0.6974233  
   0.838958100    -0.4318303   -0.6397064  
   0.840958000    -0.5244248   -0.5670654  
   0.842957900    -0.6044438   -0.4810080  
   0.844957800    -0.6702339   -0.3837865  
   0.846957700    -0.7202865   -0.2780239  
   0.848957600    -0.7531160   -0.1663367  
   0.850957500    -0.7685522   -0.0511888  
   0.852957400    -0.7665223    0.0648954  
   0.854957300    -0.7463905    0.1784896  
   0.856957200    -0.7097088    0.2878028  
   0.858957100    -0.6568066    0.3897747  
   0.860957000    -0.5898486    0.4822086  
   0.862956900    -0.5099899    0.5626720  
   0.864956800    -0.4197504    0.6293804  
   0.866956700    -0.3209548    0.6820181  
   0.868956600    -0.2158649    0.7191875  
   0.870956500    -0.1060529    0.7406767  
   0.872956400     0.0058379    0.7451676  
   0.874956300     0.1174019    0.7330371  
   0.876956200     0.2271003    0.7038199  
   0.878956100     0.3309320    0.6582490  
   0.880956000     0.4274690    0.5966938  
   0.882955900     0.5135913    0.5210313  
   0.884955800     0.5880610    0.4322172  
   0.886955700     0.6473266    0.3323801  
   0.888955600     0.6901708    0.2238958  
   0.890955500     0.7157089    0.1098908  
   0.892955400     0.7225531   -0.0072487  
   0.894955300     0.7106898   -0.1243840  
