! MS46122B
! 2250307/22442219
! 6/18/2025 7:51:07 AM
! C:\USERS\SPARKY\DOCUMENTS\VNA_DATA\JUNE18_2025\3.0K\PORT2_MOS4.S1P
! CHANNEL.1
! TR.MEASUREMENT
! RAW.DATA
# GHZ S RI R 50.0
! FREQ.GHZ         S11RE         S11IM         
!; PortSelection: Port_1
   0.001000000    -0.8701700    0.0507713  
   0.002999900    -0.8445903    0.2461009  
   0.004999800    -0.8085710    0.3847554  
   0.006999700    -0.7472810    0.5084755  
   0.008999600    -0.6635310    0.6160883  
   0.010999500    -0.5610011    0.7053804  
   0.012999400    -0.4436405    0.7748776  
   0.014999300    -0.3157987    0.8234333  
   0.016999200    -0.1818996    0.8511701  
   0.018999100    -0.0450663    0.8578326  
   0.020999000     0.0906599    0.8445969  
   0.022998900     0.2224315    0.8124428  
   0.024998800     0.3201787    0.7435382  
   0.026998700     0.4627145    0.6948801  
   0.028998600     0.5667265    0.6124372  
   0.030998500     0.6568507    0.5167738  
   0.032998400     0.6983427    0.4088944  
   0.034998300     0.7889324    0.2913954  
   0.036998200     0.8273242    0.1663545  
   0.038998100     0.8460110    0.0364746  
   0.040998000     0.8437771   -0.0946694  
   0.042997900     0.8202962   -0.2239028  
   0.044997800     0.7560529   -0.3228437  
   0.046997700     0.7135214   -0.4634330  
   0.048997600     0.6332913   -0.5676130  
   0.050997500     0.5378128   -0.6575890  
   0.052997400     0.4319205   -0.7301587  
   0.054997300     0.3128508   -0.7882049  
   0.056997200     0.1884453   -0.8258889  
   0.058997100     0.0606754   -0.8448188  
   0.060997000    -0.0681716   -0.8440025  
   0.062996900    -0.1949198   -0.8239111  
   0.064996800    -0.3169519   -0.7850540  
   0.066996700    -0.4315304   -0.7284824  
   0.068996600    -0.5358965   -0.6548207  
   0.070996500    -0.6273745   -0.5663185  
   0.072996400    -0.7044709   -0.4652514  
   0.074996300    -0.7650207   -0.3536635  
   0.076996200    -0.8076528   -0.2339929  
   0.078996100    -0.8313888   -0.1096170  
   0.080996000    -0.8361678    0.0171957  
   0.082995900    -0.8216400    0.1433074  
   0.084995800    -0.7876483    0.2655182  
   0.086995700    -0.7356211    0.3815868  
   0.088995600    -0.6664125    0.4885540  
   0.090995500    -0.5814938    0.5837667  
   0.092995400    -0.4825369    0.6645977  
   0.094995300    -0.3718084    0.7296170  
   0.096995200    -0.2522732    0.7766156  
   0.098995100    -0.1260377    0.8045278  
   0.100995000     0.0024690    0.8118188  
   0.102994900     0.1315747    0.7990540  
   0.104994800     0.2566742    0.7655084  
   0.106994700     0.3754964    0.7122754  
   0.108994600     0.4843705    0.6408130  
   0.110994500     0.5800356    0.5530965  
   0.112994400     0.6606624    0.4507786  
   0.114994300     0.7237790    0.3368510  
   0.116994200     0.7680070    0.2145873  
   0.118994100     0.7920649    0.0868675  
   0.120994000     0.7950287   -0.0428758  
   0.122993900     0.7771862   -0.1710904  
   0.124993800     0.7399787   -0.2944028  
   0.126993700     0.6829379   -0.4099215  
   0.128993600     0.6090173   -0.5147178  
   0.130993500     0.5195199   -0.6059189  
   0.132993400     0.4172264   -0.6815676  
   0.134993300     0.3049983   -0.7399956  
   0.136993200     0.1854310   -0.7795525  
   0.138993100     0.0617649   -0.8003701  
   0.140993000    -0.0628514   -0.8016197  
   0.142992900    -0.1858592   -0.7839329  
   0.144992800    -0.3038113   -0.7475232  
   0.146992700    -0.4146692   -0.6940781  
   0.148992600    -0.5158523   -0.6241709  
   0.150992500    -0.6046063   -0.5406651  
   0.152992400    -0.6795684   -0.4445528  
   0.154992300    -0.7392350   -0.3387643  
   0.156992200    -0.7819647   -0.2254077  
   0.158992100    -0.8077205   -0.1071242  
   0.160992000    -0.8154931    0.0134970  
   0.162991900    -0.8051782    0.1339862  
   0.164991800    -0.7766750    0.2515556  
   0.166991700    -0.7311966    0.3636209  
   0.168991600    -0.6696841    0.4678628  
   0.170991500    -0.5928802    0.5618180  
   0.172991400    -0.5024685    0.6431499  
   0.174991300    -0.4011273    0.7103885  
   0.176991200    -0.2900153    0.7619644  
   0.178991100    -0.1717653    0.7962518  
   0.180991000    -0.0498760    0.8121587  
   0.182990900     0.0734252    0.8096068  
   0.184990800     0.1961072    0.7877940  
   0.186990700     0.3145796    0.7475622  
   0.188990600     0.4046705    0.7009049  
   0.190990500     0.5229844    0.6161577  
   0.192990400     0.6136000    0.5238553  
   0.194990300     0.6869572    0.4203282  
   0.196990200     0.7431376    0.3068282  
   0.198990100     0.7808884    0.1856321  
   0.200990000     0.7990072    0.0593712  
   0.202989900     0.7967398   -0.0687189  
   0.204989800     0.7740626   -0.1949220  
   0.206989700     0.7317986   -0.3155669  
   0.208989600     0.6706309   -0.4278292  
   0.210989500     0.5923212   -0.5289000  
   0.212989400     0.4987589   -0.6168277  
   0.214989300     0.3921237   -0.6880388  
   0.216989200     0.2760933   -0.7407399  
   0.218989100     0.1537551   -0.7744693  
   0.220989000     0.0277920   -0.7880918  
   0.222988900    -0.0988642   -0.7812131  
   0.224988800    -0.2225696   -0.7543262  
   0.226988700    -0.3395918   -0.7083007  
   0.228988600    -0.4472012   -0.6445319  
   0.230988500    -0.5429998   -0.5647373  
   0.232988400    -0.6247293   -0.4713210  
   0.234988300    -0.6907463   -0.3659832  
   0.236988200    -0.7388816   -0.2519048  
   0.238988100    -0.7684591   -0.1319475  
   0.240988000    -0.7786825   -0.0097411  
   0.242987900    -0.7699010    0.1120080  
   0.244987800    -0.7420477    0.2304075  
   0.246987700    -0.6962999    0.3430377  
   0.248987600    -0.6333594    0.4475518  
   0.250987500    -0.5545959    0.5411365  
   0.252987400    -0.4626960    0.6207949  
   0.254987300    -0.3599095    0.6847674  
   0.256987200    -0.2489349    0.7324954  
   0.258987100    -0.1316646    0.7618985  
   0.260987000    -0.0108580    0.7730465  
   0.262986900     0.1106945    0.7653095  
   0.264986800     0.2297893    0.7389314  
   0.266986700     0.3436905    0.6936283  
   0.268986600     0.4490921    0.6316855  
   0.270986500     0.5433123    0.5540687  
   0.272986400     0.6245260    0.4624607  
   0.274986300     0.6904399    0.3593821  
   0.276986200     0.7398846    0.2469331  
   0.278986100     0.7712502    0.1275519  
   0.280986000     0.7835196    0.0041756  
   0.282985900     0.7760234   -0.1199146  
   0.284985800     0.7493888   -0.2416314  
   0.286985700     0.7036285   -0.3576821  
   0.288985600     0.6405606   -0.4643037  
   0.290985500     0.5619070   -0.5596895  
   0.292985400     0.4693661   -0.6414812  
   0.294985300     0.3651943   -0.7078692  
   0.296985200     0.2516188   -0.7573183  
   0.298985100     0.1308486   -0.7883005  
   0.300985000     0.0067363   -0.8003677  
   0.302984900    -0.1173725   -0.7925445  
   0.304984800    -0.2384986   -0.7653269  
   0.306984700    -0.3531957   -0.7198166  
   0.308984600    -0.4587361   -0.6576544  
   0.310984500    -0.5530059   -0.5805337  
   0.312984400    -0.6337827   -0.4899512  
   0.314984300    -0.6997770   -0.3887219  
   0.316984200    -0.7493691   -0.2786137  
   0.318984100    -0.7813849   -0.1616674  
   0.320984000    -0.7955234   -0.0406055  
   0.322983900    -0.7906932    0.0812541  
   0.324983800    -0.7670922    0.2007774  
   0.326983700    -0.7255256    0.3147118  
   0.328983600    -0.6667997    0.4209258  
   0.330983500    -0.5926983    0.5166554  
   0.332983400    -0.5055354    0.5989844  
   0.334983300    -0.4064965    0.6673661  
   0.336983200    -0.2983581    0.7196916  
   0.338983100    -0.1831242    0.7546957  
   0.340983000    -0.0640002    0.7715450  
   0.342982900     0.0567963    0.7697933  
   0.344982800     0.1767318    0.7495587  
   0.346982700     0.2925933    0.7100703  
   0.348982600     0.4013120    0.6527821  
   0.350982500     0.4999899    0.5786142  
   0.352982400     0.5863388    0.4897505  
   0.354982300     0.6592867    0.3830703  
   0.356982200     0.7185041    0.2533150  
   0.358982100     0.7530398    0.1149810  
   0.360982000     0.7617627   -0.0270927  
   0.362981900     0.7440365   -0.1682792  
   0.364981800     0.7007111   -0.3041824  
   0.366981700     0.6332104   -0.4301831  
   0.368981600     0.5433943   -0.5415508  
   0.370981500     0.4342343   -0.6342348  
   0.372981400     0.3099775   -0.7054750  
   0.374981300     0.1741325   -0.7526816  
   0.376981200     0.2785921   -0.7151301  
   0.378981100     0.1419097   -0.7566664  
   0.380981000    -0.0002724   -0.7723151  
   0.382980900    -0.1296557   -0.7634593  
   0.384980800    -0.2506761   -0.7352263  
   0.386980700    -0.3647013   -0.6879506  
   0.388980600    -0.4696464   -0.6234457  
   0.390980500    -0.5624991   -0.5441093  
   0.392980400    -0.6409783   -0.4518508  
   0.394980300    -0.7037925   -0.3502360  
   0.396980200    -0.7502787   -0.2400216  
   0.398980100    -0.7794040   -0.1249980  
   0.400980000    -0.7904416   -0.0074738  
   0.402979900    -0.7838549    0.1104622  
   0.404979800    -0.7601023    0.2254998  
   0.406979700    -0.7189427    0.3351021  
   0.408979600    -0.6624408    0.4371571  
   0.410979500    -0.5908685    0.5304848  
   0.412979400    -0.5060543    0.6122520  
   0.414979300    -0.4094199    0.6805524  
   0.416979200    -0.3033413    0.7337181  
   0.418979100    -0.1908254    0.7700332  
   0.420979000    -0.0733916    0.7892506  
   0.422978900     0.0462662    0.7903162  
   0.424978800     0.1653237    0.7732524  
   0.426978700     0.2810225    0.7378922  
   0.428978600     0.3904646    0.6845554  
   0.430978500     0.4902060    0.6149611  
   0.432978400     0.5784724    0.5307508  
   0.434978300     0.6523123    0.4330817  
   0.436978200     0.7104600    0.3247836  
   0.438978100     0.7507494    0.2077924  
   0.440978000     0.7726589    0.0853471  
   0.442977900     0.7740944   -0.0394380  
   0.444977800     0.7557226   -0.1633520  
   0.446977700     0.7171860   -0.2831350  
   0.448977600     0.6598417   -0.3950101  
   0.450977500     0.5848204   -0.4964621  
   0.452977400     0.4937899   -0.5847457  
   0.454977300     0.3890418   -0.6579744  
   0.456977200     0.2729509   -0.7122848  
   0.458977100     0.1493167   -0.7467596  
   0.460977000     0.0220340   -0.7603701  
   0.462976900    -0.1052461   -0.7527354  
   0.464976800    -0.2291508   -0.7238516  
   0.466976700    -0.3464083   -0.6758201  
   0.468976600    -0.4536356   -0.6093423  
   0.470976500    -0.5482107   -0.5262561  
   0.472976400    -0.6271829   -0.4294540  
   0.474976300    -0.6897495   -0.3217336  
   0.476976200    -0.7333701   -0.2064650  
   0.478976100    -0.7579567   -0.0862842  
   0.480976000    -0.7630886    0.0350399  
   0.482975900    -0.7493651    0.1546513  
   0.484975800    -0.7173448    0.2700872  
   0.486975700    -0.6678227    0.3785284  
   0.488975600    -0.6024133    0.4781392  
   0.490975500    -0.5229045    0.5665248  
   0.492975400    -0.4306578    0.6413257  
   0.494975300    -0.3284295    0.7009441  
   0.496975200    -0.2178653    0.7444381  
   0.498975100    -0.1024653    0.7706378  
   0.500975000     0.0153703    0.7788530  
   0.502974900     0.1332400    0.7688777  
   0.504974800     0.2486805    0.7412125  
   0.506974700     0.3589354    0.6962755  
   0.508974600     0.4619728    0.6337667  
   0.510974500     0.5547420    0.5559913  
   0.512974400     0.6348150    0.4646943  
   0.514974300     0.6996408    0.3621532  
   0.516974200     0.7478833    0.2502344  
   0.518974100     0.7782407    0.1321223  
   0.520974000     0.7899646    0.0105455  
   0.522973900     0.7825893   -0.1125008  
   0.524973800     0.7560842   -0.2327621  
   0.526973700     0.7104554   -0.3480608  
   0.528973600     0.6474875   -0.4551930  
   0.530973500     0.5676197   -0.5517500  
   0.532973400     0.4738367   -0.6341165  
   0.534973300     0.3675918   -0.7011296  
   0.536973200     0.2514955   -0.7501873  
   0.538973100     0.1297199   -0.7802859  
   0.540973000     0.0047916   -0.7904924  
   0.542972900    -0.1199982   -0.7811518  
   0.544972800    -0.2420058   -0.7517266  
   0.546972700    -0.3578431   -0.7034938  
   0.548972600    -0.4646401   -0.6371885  
   0.550972500    -0.5592786   -0.5550738  
   0.552972400    -0.6399233   -0.4586500  
   0.554972300    -0.7041590   -0.3505074  
   0.556972200    -0.7501330   -0.2337952  
   0.558972100    -0.7770736   -0.1113148  
   0.560972000    -0.7838071    0.0133478  
   0.562971900    -0.7707444    0.1369907  
   0.564971800    -0.7384522    0.2564742  
   0.566971700    -0.6879153    0.3691286  
   0.568971600    -0.6203297    0.4718836  
   0.570971500    -0.5374765    0.5626449  
   0.572971400    -0.4416265    0.6391304  
   0.574971300    -0.3343017    0.6998631  
   0.576971200    -0.2185052    0.7428882  
   0.578971100    -0.0968276    0.7667477  
   0.580971000     0.0269311    0.7712690  
   0.582970900     0.1500631    0.7557167  
   0.584970800     0.2686656    0.7207742  
   0.586970700     0.3802126    0.6675692  
   0.588970600     0.4817705    0.5971257  
   0.590970500     0.5710033    0.5111834  
   0.592970400     0.6457065    0.4118700  
   0.594970300     0.7031266    0.3020365  
   0.596970200     0.7426285    0.1837476  
   0.598970100     0.7625178    0.0606870  
   0.600970000     0.7625304   -0.0641283  
   0.602969900     0.7422448   -0.1879526  
   0.604969800     0.7020327   -0.3072510  
   0.606969700     0.6433466   -0.4184096  
   0.608969600     0.5669787   -0.5192097  
   0.610969500     0.4752092   -0.6065845  
   0.612969400     0.3706236   -0.6773831  
   0.614969300     0.2560428   -0.7305806  
   0.616969200     0.1353223   -0.7643167  
   0.618969100     0.0114764   -0.7782953  
   0.620969000    -0.1121381   -0.7723334  
   0.622968900    -0.2333616   -0.7470743  
   0.624968800    -0.3490156   -0.7035189  
   0.626968700    -0.4564352   -0.6423771  
   0.628968600    -0.5526831   -0.5652434  
   0.630968500    -0.6357052   -0.4744028  
   0.632968400    -0.7036180   -0.3721459  
   0.634968300    -0.7546259   -0.2606808  
   0.636968200    -0.7878711   -0.1429485  
   0.638968100    -0.8023100   -0.0222452  
   0.640968000    -0.7986207    0.0994688  
   0.642967900    -0.7760331    0.2187685  
   0.644967800    -0.7357358    0.3331473  
   0.646967700    -0.6789371    0.4395050  
   0.648967600    -0.6067982    0.5360429  
   0.650967500    -0.5212600    0.6202051  
   0.652967400    -0.4244586    0.6907092  
   0.654967300    -0.3182189    0.7453662  
   0.656967200    -0.2047696    0.7839488  
   0.658967100    -0.0870243    0.8048432  
   0.660967000     0.0329353    0.8081911  
   0.662966900     0.1531323    0.7927299  
   0.664966800     0.2704809    0.7595665  
   0.666966700     0.3819938    0.7078077  
   0.668966600     0.4847301    0.6394824  
   0.670966500     0.5762082    0.5554149  
   0.672966400     0.6535000    0.4579295  
   0.674966300     0.7152281    0.3494548  
   0.676966200     0.7589275    0.2326164  
   0.678966100     0.7840058    0.1100250  
   0.680966000     0.7893233   -0.0154649  
   0.682965900     0.7748249   -0.1403105  
   0.684965800     0.7402933   -0.2615183  
   0.686965700     0.6864678   -0.3762041  
   0.688965600     0.6152902   -0.4814670  
   0.690965500     0.5281737   -0.5736265  
   0.692965400     0.4273459   -0.6504901  
   0.694965300     0.3153135   -0.7101468  
   0.696965200     0.1951448   -0.7510716  
   0.698965100     0.0704083   -0.7720935  
   0.700965000    -0.0564203   -0.7724899  
   0.702964900    -0.1812763   -0.7527273  
   0.704964800    -0.3011788   -0.7130548  
   0.706964700    -0.4126334   -0.6545883  
   0.708964600    -0.5131658   -0.5795411  
   0.710964500    -0.6001809   -0.4890512  
   0.712964400    -0.6713390   -0.3867330  
   0.714964300    -0.7248877   -0.2743427  
   0.716964200    -0.7596294   -0.1560211  
   0.718964100    -0.7754478   -0.0345780  
   0.720964000    -0.7721205    0.0869367  
   0.722963900    -0.7501284    0.2056984  
   0.724963800    -0.7107776    0.3191258  
   0.726963700    -0.6542413    0.4250120  
   0.728963600    -0.5829028    0.5204101  
   0.730963500    -0.4975624    0.6038302  
   0.732963400    -0.4007958    0.6729749  
   0.734963300    -0.2948830    0.7267764  
   0.736963200    -0.1630171    0.7680559  
   0.738963100    -0.0254087    0.7857438  
   0.740963000     0.1145398    0.7792553  
   0.742962900     0.2513229    0.7483700  
   0.744962800     0.3813649    0.6934884  
   0.746962700     0.5002538    0.6166869  
   0.748962600     0.6043375    0.5196614  
   0.750962500     0.4990317    0.6111690  
   0.752962400     0.6016159    0.5124335  
   0.754962300     0.6854032    0.3968804  
   0.756962200     0.7474215    0.2678210  
   0.758962100     0.7858201    0.1295585  
   0.760962000     0.7984491   -0.0141934  
   0.762961900     0.7862437   -0.1509667  
   0.764961800     0.7541682   -0.2725885  
   0.766961700     0.7035061   -0.3878619  
   0.768961600     0.6347569   -0.4941305  
   0.770961500     0.5498866   -0.5881150  
   0.772961400     0.4513712   -0.6678903  
   0.774961300     0.3413815   -0.7309196  
   0.776961200     0.2224024   -0.7755880  
   0.778961100     0.0975454   -0.8014482  
   0.780961000    -0.0299622   -0.8069302  
   0.782960900    -0.1570522   -0.7915492  
   0.784960800    -0.2799751   -0.7562128  
   0.786960700    -0.3955967   -0.7014959  
   0.788960600    -0.5008702   -0.6291274  
   0.790960500    -0.5928183   -0.5414168  
   0.792960400    -0.6691240   -0.4403485  
   0.794960300    -0.7280793   -0.3290886  
   0.796960200    -0.7684151   -0.2109660  
   0.798960100    -0.7896816   -0.0883840  
   0.800960000    -0.7918335    0.0350115  
   0.802959900    -0.7741504    0.1567959  
   0.804959800    -0.7384315    0.2732643  
   0.806959700    -0.6854206    0.3823807  
   0.808959600    -0.6167402    0.4818427  
   0.810959500    -0.5338196    0.5686640  
   0.812959400    -0.4386234    0.6419411  
   0.814959300    -0.3339042    0.6995935  
   0.816959200    -0.2218024    0.7406284  
   0.818959100    -0.1049352    0.7638953  
   0.820959000     0.0143811    0.7691778  
   0.822958900     0.1334807    0.7558891  
   0.824958800     0.2490969    0.7247239  
   0.826958700     0.3587756    0.6760113  
   0.828958600     0.4602065    0.6108364  
   0.830958500     0.5502403    0.5306765  
   0.832958400     0.6274470    0.4369802  
   0.834958300     0.6888347    0.3325665  
   0.836958200     0.7335029    0.2191994  
   0.838958100     0.7601502    0.0998214  
   0.840958000     0.7679837   -0.0223944  
   0.842957900     0.7561793   -0.1456601  
   0.844957800     0.7246836   -0.2654951  
   0.846957700     0.6746415   -0.3792593  
   0.848957600     0.6068345   -0.4841008  
   0.850957500     0.5228804   -0.5768597  
   0.852957400     0.4251158   -0.6554585  
   0.854957300     0.3159617   -0.7170149  
   0.856957200     0.1980696   -0.7606604  
   0.858957100     0.0753515   -0.7847025  
   0.860957000    -0.0496644   -0.7891799  
   0.862956900    -0.1729651   -0.7739437  
   0.864956800    -0.2915617   -0.7395259  
   0.866956700    -0.4029478   -0.6877570  
   0.868956600    -0.5042502   -0.6196347  
   0.870956500    -0.5935881   -0.5372905  
   0.872956400    -0.6691684   -0.4421374  
   0.874956300    -0.7288742   -0.3370166  
   0.876956200    -0.7718890   -0.2242669  
   0.878956100    -0.7971578   -0.1062588  
   0.880956000    -0.8041229    0.0138849  
   0.882955900    -0.7928244    0.1332460  
   0.884955800    -0.7637259    0.2495563  
   0.886955700    -0.7174992    0.3601788  
   0.888955600    -0.6552938    0.4619752  
   0.890955500    -0.5787377    0.5536249  
   0.892955400    -0.4889381    0.6325685  
   0.894955300    -0.3885513    0.6973153  
