! MS46122B
! 2250307/22442219
! 6/18/2025 7:55:03 AM
! C:\USERS\SPARKY\DOCUMENTS\VNA_DATA\JUNE18_2025\3.0K\PORT6_MOS2.S1P
! CHANNEL.1
! TR.MEASUREMENT
! RAW.DATA
# GHZ S RI R 50.0
! FREQ.GHZ         S11RE         S11IM         
!; PortSelection: Port_1
   0.001000000    -0.8867176    0.0505461  
   0.002999900    -0.8609908    0.2474545  
   0.004999800    -0.8252485    0.3879253  
   0.006999700    -0.7638996    0.5135500  
   0.008999600    -0.6794711    0.6231779  
   0.010999500    -0.5762003    0.7142953  
   0.012999400    -0.4580907    0.7857711  
   0.014999300    -0.3288717    0.8361341  
   0.016999200    -0.1935122    0.8653982  
   0.018999100    -0.0552203    0.8736120  
   0.020999000     0.0823811    0.8619527  
   0.022998900     0.2160978    0.8306158  
   0.024998800     0.3158835    0.7620524  
   0.026998700     0.4606368    0.7149897  
   0.028998600     0.5671341    0.6332931  
   0.030998500     0.6598784    0.5376706  
   0.032998400     0.7034565    0.4292316  
   0.034998300     0.7975474    0.3120628  
   0.036998200     0.8387582    0.1863003  
   0.038998100     0.8601797    0.0552057  
   0.040998000     0.8607959   -0.0773731  
   0.042997900     0.8402038   -0.2088418  
   0.044997800     0.7771744   -0.3102716  
   0.046997700     0.7377345   -0.4537719  
   0.048997600     0.6592227   -0.5611500  
   0.050997500     0.5650536   -0.6546554  
   0.052997400     0.4602236   -0.7309073  
   0.054997300     0.3412182   -0.7928191  
   0.056997200     0.2162877   -0.8348284  
   0.058997100     0.0876519   -0.8575791  
   0.060997000    -0.0426839   -0.8607483  
   0.062996900    -0.1713486   -0.8444850  
   0.064996800    -0.2961308   -0.8094386  
   0.066996700    -0.4138613   -0.7558972  
   0.068996600    -0.5219104   -0.6851498  
   0.070996500    -0.6175998   -0.5992437  
   0.072996400    -0.6994672   -0.4998884  
   0.074996300    -0.7647868   -0.3892691  
   0.076996200    -0.8124900   -0.2702218  
   0.078996100    -0.8418426   -0.1455146  
   0.080996000    -0.8518433   -0.0176113  
   0.082995900    -0.8425997    0.1103200  
   0.084995800    -0.8136933    0.2353677  
   0.086995700    -0.7666575    0.3548431  
   0.088995600    -0.7015707    0.4660434  
   0.090995500    -0.6203662    0.5661251  
   0.092995400    -0.5246125    0.6528675  
   0.094995300    -0.4164600    0.7240478  
   0.096995200    -0.2981327    0.7779064  
   0.098995100    -0.1724951    0.8128353  
   0.100995000    -0.0423537    0.8274189  
   0.102994900     0.0882047    0.8213042  
   0.104994800     0.2166612    0.7947123  
   0.106994700     0.3395133    0.7480496  
   0.108994600     0.4536282    0.6826547  
   0.110994500     0.5558425    0.5995622  
   0.112994400     0.6435987    0.5011307  
   0.114994300     0.7145962    0.3903374  
   0.116994200     0.7670785    0.2695757  
   0.118994100     0.7996987    0.1420570  
   0.120994000     0.8113618    0.0111667  
   0.122993900     0.8023116   -0.1195025  
   0.124993800     0.7726436   -0.2467923  
   0.126993700     0.7232737   -0.3673565  
   0.128993600     0.6556949   -0.4785412  
   0.130993500     0.5717494   -0.5771354  
   0.132993400     0.4739409   -0.6606039  
   0.134993300     0.3645487   -0.7277543  
   0.136993200     0.2467924   -0.7767122  
   0.138993100     0.1234196   -0.8068045  
   0.140993000    -0.0023879   -0.8172235  
   0.142992900    -0.1281036   -0.8083726  
   0.144992800    -0.2500781   -0.7808093  
   0.146992700    -0.3661589   -0.7351462  
   0.148992600    -0.4731457   -0.6726846  
   0.150992500    -0.5694494   -0.5951962  
   0.152992400    -0.6525137   -0.5042255  
   0.154992300    -0.7209324   -0.4025046  
   0.156992200    -0.7732130   -0.2915490  
   0.158992100    -0.8088309   -0.1747355  
   0.160992000    -0.8263129   -0.0537458  
   0.162991900    -0.8259066    0.0679742  
   0.164991800    -0.8073043    0.1887562  
   0.166991700    -0.7713387    0.3050368  
   0.168991600    -0.7183890    0.4147746  
   0.170991500    -0.6494535    0.5161106  
   0.172991400    -0.5664035    0.6057195  
   0.174991300    -0.4707607    0.6824393  
   0.176991200    -0.3642575    0.7440792  
   0.178991100    -0.2491264    0.7895232  
   0.180991000    -0.1285398    0.8172206  
   0.182990900    -0.0049379    0.8265615  
   0.184990800     0.1198297    0.8168170  
   0.186990700     0.2425874    0.7884479  
   0.188990600     0.3371723    0.7515737  
   0.190990500     0.4641735    0.6788210  
   0.192990400     0.5648214    0.5958665  
   0.194990300     0.6492355    0.5005016  
   0.196990200     0.7178673    0.3932995  
   0.198990100     0.7689404    0.2762464  
   0.200990000     0.8016387    0.1520491  
   0.202989900     0.8139126    0.0237796  
   0.204989800     0.8065239   -0.1051109  
   0.206989700     0.7781227   -0.2307660  
   0.208989600     0.7305173   -0.3501729  
   0.210989500     0.6645483   -0.4612933  
   0.212989400     0.5816810   -0.5606514  
   0.214989300     0.4838419   -0.6452778  
   0.216989200     0.3745084   -0.7127211  
   0.218989100     0.2563510   -0.7623439  
   0.220989000     0.1318279   -0.7921490  
   0.222988900     0.0039302   -0.8017601  
   0.224988800    -0.1234437   -0.7912973  
   0.226988700    -0.2467506   -0.7605648  
   0.228988600    -0.3631511   -0.7110434  
   0.230988500    -0.4698606   -0.6442694  
   0.232988400    -0.5645568   -0.5616153  
   0.234988300    -0.6447606   -0.4652313  
   0.236988200    -0.7086869   -0.3576902  
   0.238988100    -0.7549654   -0.2419357  
   0.240988000    -0.7824725   -0.1211605  
   0.242987900    -0.7905060    0.0018492  
   0.244987800    -0.7796234    0.1239101  
   0.246987700    -0.7498206    0.2430815  
   0.248987600    -0.7020210    0.3566152  
   0.250987500    -0.6372562    0.4609406  
   0.252987400    -0.5571718    0.5535633  
   0.254987300    -0.4644580    0.6325225  
   0.256987200    -0.3608466    0.6960671  
   0.258987100    -0.2487239    0.7430702  
   0.260987000    -0.1302935    0.7721983  
   0.262986900    -0.0084360    0.7830082  
   0.264986800     0.1137938    0.7747839  
   0.266986700     0.2336541    0.7474678  
   0.268986600     0.3478111    0.7023917  
   0.270986500     0.4531306    0.6402794  
   0.272986400     0.5479015    0.5625280  
   0.274986300     0.6296512    0.4706830  
   0.276986200     0.6963423    0.3673790  
   0.278986100     0.7468217    0.2543980  
   0.280986000     0.7788585    0.1343428  
   0.282985900     0.7920876    0.0102543  
   0.284985800     0.7857902   -0.1143396  
   0.286985700     0.7600251   -0.2364975  
   0.288985600     0.7153592   -0.3527321  
   0.290985500     0.6537073   -0.4601349  
   0.292985400     0.5764364   -0.5569065  
   0.294985300     0.4847008   -0.6403405  
   0.296985200     0.3808272   -0.7087905  
   0.298985100     0.2672053   -0.7606116  
   0.300985000     0.1463398   -0.7939576  
   0.302984900     0.0222504   -0.8082216  
   0.304984800    -0.1020107   -0.8027804  
   0.306984700    -0.2238077   -0.7783188  
   0.308984600    -0.3390876   -0.7356355  
   0.310984500    -0.4460974   -0.6761428  
   0.312984400    -0.5422283   -0.6016269  
   0.314984300    -0.6256844   -0.5134497  
   0.316984200    -0.6948184   -0.4141008  
   0.318984100    -0.7480012   -0.3044522  
   0.320984000    -0.7839780   -0.1879150  
   0.322983900    -0.8022764   -0.0669706  
   0.324983800    -0.8011284    0.0550414  
   0.326983700    -0.7817827    0.1753357  
   0.328983600    -0.7444907    0.2907237  
   0.330983500    -0.6899900    0.3987572  
   0.332983400    -0.6201607    0.4966234  
   0.334983300    -0.5366350    0.5824455  
   0.336983200    -0.4408258    0.6553690  
   0.338983100    -0.3350497    0.7124944  
   0.340983000    -0.2219430    0.7525403  
   0.342982900    -0.1039771    0.7752810  
   0.344982800     0.0171569    0.7797022  
   0.346982700     0.1380452    0.7654133  
   0.348982600     0.2560895    0.7319925  
   0.350982500     0.3676803    0.6808597  
   0.352982400     0.4702896    0.6122105  
   0.354982300     0.5644702    0.5246812  
   0.356982200     0.6501557    0.4108828  
   0.358982100     0.7137969    0.2840958  
   0.360982000     0.7533012    0.1480177  
   0.362981900     0.7678881    0.0068573  
   0.364981800     0.7564026   -0.1348402  
   0.366981700     0.7193221   -0.2724347  
   0.368981600     0.6575275   -0.4013171  
   0.370981500     0.5732455   -0.5165294  
   0.372981400     0.4690330   -0.6146138  
   0.374981300     0.3479637   -0.6921484  
   0.376981200     0.4398531   -0.6302703  
   0.378981100     0.3166007   -0.7023619  
   0.380981000     0.1822052   -0.7508973  
   0.382980900     0.0541201   -0.7725871  
   0.384980800    -0.0700061   -0.7730595  
   0.386980700    -0.1924731   -0.7542424  
   0.388980600    -0.3097892   -0.7161347  
   0.390980500    -0.4184839   -0.6604779  
   0.392980400    -0.5163807   -0.5895771  
   0.394980300    -0.6016138   -0.5049971  
   0.396980200    -0.6725866   -0.4094144  
   0.398980100    -0.7280362   -0.3041887  
   0.400980000    -0.7663088   -0.1927646  
   0.402979900    -0.7880045   -0.0769669  
   0.404979800    -0.7917653    0.0399634  
   0.406979700    -0.7783827    0.1556151  
   0.408979600    -0.7480120    0.2678662  
   0.410979500    -0.7014772    0.3745467  
   0.412979400    -0.6391958    0.4736488  
   0.414979300    -0.5628340    0.5623732  
   0.416979200    -0.4743632    0.6393362  
   0.418979100    -0.3753044    0.7016836  
   0.420979000    -0.2679180    0.7490724  
   0.422978900    -0.1539978    0.7796291  
   0.424978800    -0.0365354    0.7934466  
   0.426978700     0.0823958    0.7889231  
   0.428978600     0.1997694    0.7665923  
   0.430978500     0.3123638    0.7267073  
   0.432978400     0.4177101    0.6698871  
   0.434978300     0.5133958    0.5976974  
   0.436978200     0.5973250    0.5111722  
   0.438978100     0.6672593    0.4123661  
   0.440978000     0.7212273    0.3031436  
   0.442977900     0.7577442    0.1862027  
   0.444977800     0.7754876    0.0648679  
   0.446977700     0.7738821   -0.0585314  
   0.448977600     0.7523373   -0.1805332  
   0.450977500     0.7118899   -0.2976188  
   0.452977400     0.6529064   -0.4075001  
   0.454977300     0.5762456   -0.5074373  
   0.456977200     0.4834814   -0.5938025  
   0.458977100     0.3780380   -0.6640594  
   0.460977000     0.2621589   -0.7159855  
   0.462976900     0.1399463   -0.7482328  
   0.464976800     0.0143226   -0.7596405  
   0.466976700    -0.1113636   -0.7506379  
   0.468976600    -0.2336385   -0.7214586  
   0.470976500    -0.3487472   -0.6727080  
   0.472976400    -0.4543563   -0.6062790  
   0.474976300    -0.5471413   -0.5239758  
   0.476976200    -0.6247834   -0.4281504  
   0.478976100    -0.6859949   -0.3224957  
   0.480976000    -0.7288809   -0.2092377  
   0.482975900    -0.7535626   -0.0917300  
   0.484975800    -0.7592842    0.0272097  
   0.486975700    -0.7467541    0.1457288  
   0.488975600    -0.7161066    0.2600171  
   0.490975500    -0.6683502    0.3678932  
   0.492975400    -0.6050583    0.4670722  
   0.494975300    -0.5271817    0.5551810  
   0.496975200    -0.4368455    0.6304561  
   0.498975100    -0.3368790    0.6905988  
   0.500975000    -0.2289471    0.7350286  
   0.502974900    -0.1157241    0.7624804  
   0.504974800     0.0002735    0.7727852  
   0.506974700     0.1172540    0.7648304  
   0.508974600     0.2326157    0.7392783  
   0.510974500     0.3428524    0.6964112  
   0.512974400     0.4453748    0.6369707  
   0.514974300     0.5376421    0.5626222  
   0.516974200     0.6181851    0.4748877  
   0.518974100     0.6836693    0.3761207  
   0.520974000     0.7338911    0.2677647  
   0.522973900     0.7667335    0.1526684  
   0.524973800     0.7815316    0.0336931  
   0.526973700     0.7780223   -0.0867732  
   0.528973600     0.7558837   -0.2056341  
   0.530973500     0.7148653   -0.3203280  
   0.532973400     0.6566823   -0.4274398  
   0.534973300     0.5823256   -0.5245078  
   0.536973200     0.4932741   -0.6091053  
   0.538973100     0.3923486   -0.6784697  
   0.540973000     0.2818391   -0.7310830  
   0.542972900     0.1646121   -0.7656226  
   0.544972800     0.0434759   -0.7815623  
   0.546972700    -0.0793063   -0.7785883  
   0.548972600    -0.2005598   -0.7561074  
   0.550972500    -0.3162267   -0.7149018  
   0.552972400    -0.4244658   -0.6559661  
   0.554972300    -0.5217894   -0.5803483  
   0.556972200    -0.6063918   -0.4908320  
   0.558972100    -0.6751738   -0.3889277  
   0.560972000    -0.7271483   -0.2776997  
   0.562971900    -0.7607483   -0.1603184  
   0.564971800    -0.7755342   -0.0395350  
   0.566971700    -0.7709210    0.0813012  
   0.568971600    -0.7479030    0.1997844  
   0.570971500    -0.7067724    0.3130162  
   0.572971400    -0.6483422    0.4182881  
   0.574971300    -0.5740204    0.5133154  
   0.576971200    -0.4854805    0.5956209  
   0.578971100    -0.3850048    0.6633615  
   0.580971000    -0.2752022    0.7140891  
   0.582970900    -0.1587392    0.7468883  
   0.584970800    -0.0388542    0.7611458  
   0.586970700     0.0816428    0.7562218  
   0.588970600     0.1998302    0.7322342  
   0.590970500     0.3126085    0.6897303  
   0.592970400     0.4176325    0.6301392  
   0.594970300     0.5120795    0.5544295  
   0.596970200     0.5935197    0.4646654  
   0.598970100     0.6592823    0.3626949  
   0.600970000     0.7085956    0.2513137  
   0.602969900     0.7393233    0.1329623  
   0.604969800     0.7507530    0.0109195  
   0.606969700     0.7424332   -0.1117440  
   0.608969600     0.7144749   -0.2318046  
   0.610969500     0.6672935   -0.3460734  
   0.612969400     0.6020733   -0.4515366  
   0.614969300     0.5210418   -0.5442931  
   0.616969200     0.4261154   -0.6232168  
   0.618969100     0.3204781   -0.6850523  
   0.620969000     0.2073603   -0.7291333  
   0.622968900     0.0882512   -0.7546954  
   0.624968800    -0.0332665   -0.7616818  
   0.626968700    -0.1541345   -0.7486889  
   0.628968600    -0.2715494   -0.7172924  
   0.630968500    -0.3824231   -0.6680335  
   0.632968400    -0.4840594   -0.6021105  
   0.634968300    -0.5736930   -0.5212949  
   0.636968200    -0.6496297   -0.4279557  
   0.638968100    -0.7098885   -0.3241729  
   0.640968000    -0.7529965   -0.2125737  
   0.642967900    -0.7792541   -0.0962057  
   0.644967800    -0.7870771    0.0224583  
   0.646967700    -0.7765688    0.1405257  
   0.648967600    -0.7482291    0.2549649  
   0.650967500    -0.7037930    0.3637578  
   0.652967400    -0.6436579    0.4639633  
   0.654967300    -0.5693461    0.5540342  
   0.656967200    -0.4827285    0.6317099  
   0.658967100    -0.3853648    0.6958184  
   0.660967000    -0.2792947    0.7448494  
   0.662966900    -0.1664563    0.7773900  
   0.664966800    -0.0495105    0.7926891  
   0.666966700     0.0695844    0.7905401  
   0.668966600     0.1866832    0.7702163  
   0.670966500     0.3001330    0.7320027  
   0.672966400     0.4066452    0.6760655  
   0.674966300     0.5036941    0.6054632  
   0.676966200     0.5890062    0.5200650  
   0.678966100     0.6600922    0.4224714  
   0.680966000     0.7154971    0.3148181  
   0.682965900     0.7535746    0.1994626  
   0.684965800     0.7735780    0.0796564  
   0.686965700     0.7740769   -0.0429321  
   0.688965600     0.7554195   -0.1642846  
   0.690965500     0.7179431   -0.2814675  
   0.692965400     0.6621378   -0.3914894  
   0.694965300     0.5897477   -0.4912723  
   0.696965200     0.5022871   -0.5784234  
   0.698965100     0.4016363   -0.6505163  
   0.700965000     0.2908706   -0.7055286  
   0.702964900     0.1723754   -0.7421325  
   0.704964800     0.0495013   -0.7595831  
   0.706964700    -0.0743399   -0.7566811  
   0.708964600    -0.1957425   -0.7341412  
   0.710964500    -0.3122206   -0.6923390  
   0.712964400    -0.4199447   -0.6323946  
   0.714964300    -0.5162467   -0.5560137  
   0.716964200    -0.5986434   -0.4660976  
   0.718964100    -0.6650841   -0.3652829  
   0.720964000    -0.7144954   -0.2557888  
   0.722963900    -0.7459863   -0.1408245  
   0.724963800    -0.7595392   -0.0229226  
   0.726963700    -0.7547043    0.0949932  
   0.728963600    -0.7318433    0.2103399  
   0.730963500    -0.6915833    0.3204009  
   0.732963400    -0.6354851    0.4227251  
   0.734963300    -0.5642812    0.5151030  
   0.736963200    -0.4655130    0.6057457  
   0.738963100    -0.3513995    0.6787476  
   0.740963000    -0.2259773    0.7307903  
   0.742962900    -0.0933796    0.7600904  
   0.744962800     0.0429808    0.7660947  
   0.746962700     0.1786915    0.7484376  
   0.748962600     0.3097829    0.7068682  
   0.750962500     0.1802252    0.7483908  
   0.752962400     0.3101084    0.7051000  
   0.754962300     0.4308569    0.6397908  
   0.756962200     0.5385676    0.5538667  
   0.758962100     0.6298822    0.4501281  
   0.760962000     0.7019720    0.3315468  
   0.762961900     0.7501401    0.2081648  
   0.764961800     0.7750111    0.0904588  
   0.766961700     0.7812348   -0.0299614  
   0.768961600     0.7685699   -0.1510630  
   0.770961500     0.7373460   -0.2685891  
   0.772961400     0.6881127   -0.3804564  
   0.774961300     0.6220766   -0.4830647  
   0.776961200     0.5399916   -0.5746166  
   0.778961100     0.4444555   -0.6527104  
   0.780961000     0.3373179   -0.7151099  
   0.782960900     0.2209995   -0.7596412  
   0.784960800     0.0988064   -0.7856122  
   0.786960700    -0.0263968   -0.7915420  
   0.788960600    -0.1505888   -0.7774214  
   0.790960500    -0.2710697   -0.7438980  
   0.792960400    -0.3841923   -0.6912747  
   0.794960300    -0.4868344   -0.6219147  
   0.796960200    -0.5771815   -0.5374307  
   0.798960100    -0.6524492   -0.4404739  
   0.800960000    -0.7112352   -0.3333764  
   0.802959900    -0.7524787   -0.2186926  
   0.804959800    -0.7751019   -0.1002280  
   0.806959700    -0.7794051    0.0197851  
   0.808959600    -0.7649907    0.1385096  
   0.810959500    -0.7324712    0.2529954  
   0.812959400    -0.6830589    0.3604753  
   0.814959300    -0.6181722    0.4588788  
   0.816959200    -0.5392085    0.5462552  
   0.818959100    -0.4482568    0.6197866  
   0.820959000    -0.3467632    0.6788692  
   0.822958900    -0.2381592    0.7219847  
   0.824958800    -0.1239761    0.7478649  
   0.826958700    -0.0071771    0.7556058  
   0.828958600     0.1097638    0.7459684  
   0.830958500     0.2238546    0.7186086  
   0.832958400     0.3324104    0.6738554  
   0.834958300     0.4330545    0.6130577  
   0.836958200     0.5230338    0.5372871  
   0.838958100     0.6008326    0.4483559  
   0.840958000     0.6642174    0.3477499  
   0.842957900     0.7113296    0.2383897  
   0.844957800     0.7412863    0.1220101  
   0.846957700     0.7526261    0.0020482  
   0.848957600     0.7444555   -0.1187399  
   0.850957500     0.7174277   -0.2368947  
   0.852957400     0.6717172   -0.3498560  
   0.854957300     0.6084340   -0.4546741  
   0.856957200     0.5291107   -0.5477046  
   0.858957100     0.4359294   -0.6272969  
   0.860957000     0.3318386   -0.6905637  
   0.862956900     0.2189313   -0.7366664  
   0.864956800     0.1009883   -0.7642703  
   0.866956700    -0.0195183   -0.7732572  
   0.868956600    -0.1394122   -0.7634648  
   0.870956500    -0.2562820   -0.7348553  
   0.872956400    -0.3671174   -0.6889134  
   0.874956300    -0.4692347   -0.6266141  
   0.876956200    -0.5601981   -0.5493522  
   0.878956100    -0.6383629   -0.4592628  
   0.880956000    -0.7014001   -0.3585027  
   0.882955900    -0.7482887   -0.2494722  
   0.884955800    -0.7776931   -0.1347343  
   0.886955700    -0.7897353   -0.0172179  
   0.888955600    -0.7837213    0.1000495  
   0.890955500    -0.7603190    0.2152692  
   0.892955400    -0.7199016    0.3247421  
   0.894955300    -0.6636403    0.4272843  
