# GHZ S RI R 50.0
0.3 -0.8359681 0.2247559
0.3011484375 -0.6697021 0.4760218
0.302296875 -0.443329 0.6368088
0.3034453125 -0.196883 0.7037675
0.30459375 0.03637018 0.6871989
0.3057421875 0.2351133 0.6056425
0.306890625 0.3858408 0.4784573
0.3080390625 0.4849316 0.32542
0.3091875 0.5341804 0.1624421
0.3103359375 0.5366403 0.001253362
0.311484375 0.497889 -0.1465116
0.3126328125 0.4241634 -0.2745751
0.31378125 0.3223161 -0.3759227
0.3149296875 0.1988052 -0.4458999
0.316078125 0.06199722 -0.479707
0.3172265625 -0.08007939 -0.4748023
0.318375 -0.2160662 -0.4297937
0.3195234375 -0.3358995 -0.345509
0.320671875 -0.4259572 -0.226709
0.3218203125 -0.475394 -0.08280806
0.32296875 -0.4756434 0.07177868
0.3241171875 -0.4243511 0.2175836
0.325265625 -0.3279448 0.3362204
0.3264140625 -0.1989506 0.4148441
0.3275625 -0.05678268 0.444364
0.3287109375 0.08209255 0.4264853
0.329859375 0.2014229 0.3686097
0.3310078125 0.2928057 0.281535
0.33215625 0.3504328 0.1766461
0.3333046875 0.3747172 0.06618228
0.334453125 0.3678347 -0.04179119
0.3356015625 0.33393 -0.1395574
0.33675 0.2772182 -0.2227191
0.3378984375 0.2028763 -0.2869612
0.339046875 0.1149419 -0.3296694
0.3401953125 0.02000063 -0.3486646
0.34134375 -0.07808621 -0.342316
0.3424921875 -0.1726741 -0.309935
0.343640625 -0.2573578 -0.2517511
0.3447890625 -0.3252776 -0.1693512
0.3459375 -0.3682711 -0.06745841
0.3470859375 -0.379286 0.04674263
0.348234375 -0.3535634 0.1637487
0.3493828125 -0.290209 0.2703858
0.35053125 -0.1924706 0.3528924
0.3516796875 -0.07070466 0.3991089
0.352828125 0.06078083 0.4018689
0.3539765625 0.1851567 0.3602453
0.355125 0.2873066 0.280949
0.3562734375 0.3563562 0.174891
0.357421875 0.3881308 0.05521132
0.3585703125 0.3814369 -0.06469812
0.35971875 0.3403803 -0.1743533
0.3608671875 0.2707899 -0.2650674
0.362015625 0.1797778 -0.3306856
0.3631640625 0.07517356 -0.3678662
0.3643125 -0.03486198 -0.3745876
0.3654609375 -0.1430353 -0.3505514
0.366609375 -0.241766 -0.2969134
0.3677578125 -0.323351 -0.2164066
0.36890625 -0.3804739 -0.1128881
0.3700546875 -0.4063123 0.00604973
0.371203125 -0.3954659 0.133125
0.3723515625 -0.3443019 0.2563668
0.3735 -0.2529914 0.3621281
0.3746484375 -0.125679 0.4364263
0.375796875 0.02460247 0.4654005
0.3769453125 0.18215 0.4399157
0.37809375 0.3255351 0.3582391
0.3792421875 0.432166 0.2279461
0.380390625 0.4856635 0.0661568
0.3815390625 0.4768027 -0.1033503
0.3826875 0.4087281 -0.2564124
0.3838359375 0.2935649 -0.3731202
0.384984375 0.1492726 -0.4406458
0.3861328125 -0.003562667 -0.4545475
0.38728125 -0.1465599 -0.4185289
0.3884296875 -0.2659225 -0.3409584
0.389578125 -0.3510385 -0.2342574
0.3907265625 -0.3973386 -0.110673
0.391875 -0.4039176 0.01777088
0.3930234375 -0.3721307 0.1376597
0.394171875 -0.3075569 0.2411199
0.3953203125 -0.2164711 0.3195785
0.39646875 -0.1077134 0.3669041
0.3976171875 0.009556706 0.3799238
0.398765625 0.1258181 0.3568659
0.3999140625 0.2296426 0.2996086
0.4010625 0.311355 0.2116791
0.4022109375 0.3617207 0.1024862
0.403359375 0.3740932 -0.01827587
0.4045078125 0.3459961 -0.1369839
0.40565625 0.2801964 -0.2394078
0.4068046875 0.1843179 -0.3129147
0.407953125 0.07118387 -0.349013
0.4091015625 -0.04430262 -0.3451702
0.41025 -0.148348 -0.3041478
0.4113984375 -0.229745 -0.2340375
0.412546875 -0.2816798 -0.1457797
0.4136953125 -0.3022666 -0.05053598
0.41484375 -0.2933923 0.04163155
0.4159921875 -0.2592556 0.1229444
0.417140625 -0.2054813 0.1879023
0.4182890625 -0.1382153 0.2332397
0.4194375 -0.06418028 0.2570762
0.4205859375 0.01158998 0.2597667
0.421734375 0.08394851 0.2420564
0.4228828125 0.1476252 0.2062453
0.42403125 0.1988684 0.1547097
0.4251796875 0.23424 0.09101405
0.426328125 0.2506547 0.01962156
0.4274765625 0.2465208 -0.05432329
0.428625 0.2206821 -0.1250398
0.4297734375 0.1745416 -0.1863866
0.430921875 0.1110196 -0.2316616
0.4320703125 0.03534997 -0.2557055
0.43321875 -0.04517401 -0.2550587
0.4343671875 -0.1217227 -0.2286414
0.435515625 -0.1860559 -0.1789357
0.4366640625 -0.2309888 -0.1117812
0.4378125 -0.2516687 -0.03466632
0.4389609375 -0.2471043 0.04367179
0.440109375 -0.219236 0.1149562
0.4412578125 -0.1719063 0.1729289
0.44240625 -0.1111542 0.2131804
0.4435546875 -0.04292842 0.2333018
0.444703125 0.02644049 0.2330461
0.4458515625 0.09185625 0.2134176
0.447 0.1484613 0.1771333
0.4481484375 0.1925102 0.1269877
0.449296875 0.2213564 0.06683525
0.4504453125 0.2323317 0.000585737
0.45159375 0.224479 -0.06685939
0.4527421875 0.1980451 -0.1308261
0.453890625 0.1533257 -0.1856954
0.4550390625 0.09335016 -0.2265244
0.4561875 0.02172209 -0.2487706
0.4573359375 -0.05556113 -0.2483674
0.458484375 -0.1314772 -0.2235271
0.4596328125 -0.1978402 -0.1747298
0.46078125 -0.2462587 -0.1055055
0.4619296875 -0.2702364 -0.02267844
0.463078125 -0.2659019 0.06475679
0.4642265625 -0.2328985 0.1465769
0.465375 -0.1748226 0.2133716
0.4665234375 -0.09851447 0.2574586
0.467671875 -0.01273176 0.2745906
0.4688203125 0.0731573 0.2638572
0.46996875 0.1506045 0.2274342
0.4711171875 0.212204 0.1693562
0.472265625 0.2526756 0.09658061
0.4734140625 0.269831 0.01552643
0.4745625 0.2621649 -0.06697267
0.4757109375 0.2303867 -0.143398
0.476859375 0.1773194 -0.2076792
0.4780078125 0.1071667 -0.2534555
0.47915625 0.02525101 -0.2769125
0.4803046875 -0.06148963 -0.274654
0.481453125 -0.1451008 -0.2455706
0.4826015625 -0.2174293 -0.1907481
0.48375 -0.2702938 -0.1144755
0.4848984375 -0.2968533 -0.02314597
0.486046875 -0.2922413 0.07411542
0.4871953125 -0.2552177 0.166335
0.48834375 -0.1888269 0.2420769
0.4894921875 -0.09967736 0.2916216
0.490640625 0.001379544 0.3083704
0.4917890625 0.1021621 0.289827
0.4929375 0.1901557 0.2387475
0.4940859375 0.2549124 0.1621044
0.495234375 0.2896902 0.06998996
0.4963828125 0.2924058 -0.0261441
0.49753125 0.2644568 -0.115883
0.4986796875 0.2109822 -0.190139
0.499828125 0.1386326 -0.2422739
0.5009765625 0.05580252 -0.2690296
0.502125 -0.02915678 -0.2689164
0.5032734375 -0.1085434 -0.2437472
0.504421875 -0.1755423 -0.1966142
0.5055703125 -0.2247279 -0.1326475
0.50671875 -0.2525668 -0.05764714
0.5078671875 -0.2563996 0.02188767
0.509015625 -0.2364323 0.09866503
0.5101640625 -0.1940494 0.1656258
0.5113125 -0.1332262 0.2165709
0.5124609375 -0.05957749 0.2464801
0.513609375 0.0201185 0.2517115
0.5147578125 0.09713137 0.231869
0.51590625 0.1638193 0.1886723
0.5170546875 0.212919 0.1266007
0.518203125 0.2393344 0.05277896
0.5193515625 0.240858 -0.02435071
0.5205 0.2180227 -0.09675304
0.5216484375 0.1744602 -0.156771
0.522796875 0.1157467 -0.1992358
0.5239453125 0.04854522 -0.2210168
0.52509375 -0.01981826 -0.2213977
0.5262421875 -0.08367745 -0.2015781
0.527390625 -0.1374243 -0.165113
0.5285390625 -0.1773539 -0.1155394
0.5296875 -0.2009644 -0.05774476
0.5308359375 -0.2068594 0.003293126
0.531984375 -0.1955184 0.06296261
0.5331328125 -0.1680842 0.116401
0.53428125 -0.1266788 0.1599145
0.5354296875 -0.07444957 0.1900523
0.536578125 -0.01575226 0.203946
0.5377265625 0.04518462 0.2003075
0.538875 0.1029138 0.1789296
0.5400234375 0.1525921 0.1409569
0.541171875 0.1889178 0.08943917
0.5423203125 0.2084539 0.02859227
0.54346875 0.208349 -0.03607196
0.5446171875 0.1882835 -0.09800687
0.545765625 0.1499705 -0.1511875
0.5469140625 0.09700634 -0.1899355
0.5480625 0.03467912 -0.2105339
0.5492109375 -0.03078046 -0.2110191
0.550359375 -0.09296286 -0.191768
0.5515078125 -0.1462249 -0.1546598
0.55265625 -0.1855291 -0.1037406
0.5538046875 -0.2081304 -0.04378851
0.554953125 -0.2119273 0.02003584
0.5561015625 -0.1971805 0.08205496
0.55725 -0.1649844 0.1373822
0.5583984375 -0.1179829 0.181312
0.559546875 -0.0597626 0.2101017
0.5606953125 0.005354234 0.220832
0.56184375 0.07178064 0.2123112
0.5629921875 0.1341529 0.1840081
0.564140625 0.186479 0.1373027
0.5652890625 0.2234203 0.07559346
0.5664375 0.2403958 0.003669371
0.5675859375 0.2341735 -0.0721385
0.568734375 0.203829 -0.144166
0.5698828125 0.150985 -0.2043729
0.57103125 0.0799006 -0.2455939
0.5721796875 -0.002233051 -0.2618866
0.573328125 -0.08683994 -0.2504447
0.5744765625 -0.1637543 -0.2119067
0.575625 -0.2246201 -0.1496683
0.5767734375 -0.2623852 -0.07074565
0.577921875 -0.2725103 0.016708
0.5790703125 -0.2541702 0.1023303
0.58021875 -0.2091972 0.1784701
0.5813671875 -0.142508 0.2361237
0.582515625 -0.0610047 0.2698489
0.5836640625 0.02702593 0.276478
0.5848125 0.1132435 0.2550048
0.5859609375 0.1886975 0.2073588
0.587109375 0.2459322 0.1380845
0.5882578125 0.2786638 0.05360759
0.58940625 0.2831116 -0.03790268
0.5905546875 0.2580649 -0.1269283
0.591703125 0.205073 -0.2043342
0.5928515625 0.1292204 -0.2609532
0.594 0.03781911 -0.2901973
0.5951484375 -0.05876941 -0.2878636
0.596296875 -0.1500641 -0.2531101
0.5974453125 -0.2244838 -0.1899411
0.59859375 -0.2734689 -0.1053993
0.5997421875 -0.2909663 -0.009436786
0.600890625 -0.2754863 0.08600208
0.6020390625 -0.2294028 0.1693374
0.6031875 -0.1593098 0.2315192
0.6043359375 -0.07458849 0.2660342
0.605484375 0.01507413 0.2707433
0.6066328125 0.09868026 0.2468733
0.60778125 0.1683329 0.1986418
0.6089296875 0.2175831 0.1328851
0.610078125 0.2430934 0.05721106
0.6112265625 0.244014 -0.02047195
0.612375 0.2216454 -0.09276707
0.6135234375 0.1795439 -0.1533926
0.614671875 0.1221219 -0.1975928
0.6158203125 0.05549246 -0.2221204
0.61696875 -0.0142979 -0.2258323
0.6181171875 -0.08135258 -0.2084107
0.619265625 -0.1394124 -0.1721663
0.6204140625 -0.1837265 -0.1204191
0.6215625 -0.2100077 -0.05816634
0.6227109375 -0.2161036 0.008885938
0.623859375 -0.2013619 0.07433998
0.6250078125 -0.1672164 0.131727
0.62615625 -0.1173167 0.1753344
0.6273046875 -0.05678299 0.2009015
0.628453125 0.007968159 0.2062216
0.6296015625 0.0703915 0.1911969
0.63075 0.1240569 0.1581476
0.6318984375 0.1640246 0.1107206
0.633046875 0.1870412 0.05467514
0.6341953125 0.1917901 -0.004534467
0.63534375 0.1787115 -0.06112141
0.6364921875 0.1499133 -0.1100851
0.637640625 0.1086858 -0.1475771
0.6387890625 0.05937498 -0.1709158
0.6399375 0.006215835 -0.178833
0.6410859375 -0.04609997 -0.1711065
0.642234375 -0.09363876 -0.1490115
0.6433828125 -0.1325689 -0.1143351
0.64453125 -0.1596841 -0.07011996
0.6456796875 -0.1729403 -0.01998773
0.646828125 -0.171191 0.03188704
0.6479765625 -0.1543544 0.08123089
0.649125 -0.1234642 0.1238528
0.6502734375 -0.08112913 0.1555409
0.651421875 -0.0307461 0.1733964
0.6525703125 0.02308756 0.1751446
0.65371875 0.07530584 0.1604429
0.6548671875 0.1208534 0.1302405
0.656015625 0.1551088 0.08741882
0.6571640625 0.1744594 0.03586055
0.6583125 0.1769542 -0.01916635
0.6594609375 0.1623728 -0.07228602
0.660609375 0.1324961 -0.1179371
0.6617578125 0.09009283 -0.1521938
0.66290625 0.03971516 -0.1718696
0.6640546875 -0.01411944 -0.175393
0.665203125 -0.06616188 -0.162685
0.6663515625 -0.1118576 -0.1351205
0.6675 -0.1473007 -0.0953071
0.6686484375 -0.1692075 -0.04674832
0.669796875 -0.1757389 0.006152242
0.6709453125 -0.1663314 0.05913754
0.67209375 -0.1415115 0.1068665
0.6732421875 -0.1031997 0.1454029
0.674390625 -0.05446304 0.1709693
0.6755390625 0.0002765256 0.1806984
0.6766875 0.05600437 0.1730671
0.6778359375 0.1072075 0.1485424
0.678984375 0.1488207 0.1086957
0.6801328125 0.1760513 0.05736425
0.68128125 0.1859181 -0.0002748951
0.6824296875 0.176977 -0.05850266
0.683578125 0.1499048 -0.1109822
0.6847265625 0.1077004 -0.1522009
0.685875 0.0547294 -0.1778559
0.6870234375 -0.003488762 -0.1855568
0.688171875 -0.06071086 -0.1745355
0.6893203125 -0.111226 -0.1463165
0.69046875 -0.150109 -0.1042253
0.6916171875 -0.1738101 -0.05268517
0.692765625 -0.180611 0.003141074
0.6939140625 -0.1701144 0.05781028
0.6950625 -0.1437706 0.1062967
0.6962109375 -0.1042428 0.1443527
0.697359375 -0.05531411 0.1686928
0.6985078125 -0.001438151 0.1772256
0.69965625 0.05238313 0.1691749
0.7008046875 0.101225 0.1451831
0.701953125 0.1407763 0.1075271
0.7031015625 0.1670143 0.05956722
0.70425 0.1775467 0.005495795
0.7053984375 0.170817 -0.04936425
0.706546875 0.1474784 -0.09954599
0.7076953125 0.1093976 -0.1405166
0.70884375 0.06064163 -0.1672964
0.7099921875 0.005706441 -0.1776511
0.711140625 -0.04945434 -0.1702089
0.7122890625 -0.09944136 -0.1459896
0.7134375 -0.1389786 -0.1075052
0.7145859375 -0.1644871 -0.05911478
0.715734375 -0.173769 -0.005536729
0.7168828125 -0.1659623 0.0477199
0.71803125 -0.1424996 0.09537327
0.7191796875 -0.1059713 0.133415
0.720328125 -0.06026375 0.1582616
0.7214765625 -0.009463492 0.1681728
0.722625 0.04145073 0.1623733
0.7237734375 0.08811912 0.1419627
0.724921875 0.1264139 0.1085947
0.7260703125 0.1531505 0.06539423
0.72721875 0.1656925 0.01643001
0.7283671875 0.1631635 -0.03439818
0.729515625 0.1454703 -0.08210032
0.7306640625 0.1139976 -0.1227504
0.7318125 0.07142109 -0.1519914
0.7329609375 0.02192901 -0.1670344
0.734109375 -0.03039098 -0.1660798
0.7352578125 -0.08006626 -0.1491666
0.73640625 -0.1221917 -0.1174387
0.7375546875 -0.1524275 -0.07430012
0.738703125 -0.1678958 -0.02382368
0.7398515625 -0.1668635 0.02892427
0.741 -0.1495601 0.07860737
0.7421484375 -0.1180321 0.1202857
0.743296875 -0.07529476 0.150123
0.7444453125 -0.02609577 0.1653249
0.74559375 0.02521946 0.1648415
0.7467421875 0.073659 0.149153
0.747890625 0.1149812 0.1197525
0.7490390625 0.1398233 0.07651989
0.7501875 0.1563398 0.03093526
0.7513359375 0.1586484 -0.01731558
0.752484375 0.1467409 -0.06433104
0.7536328125 0.1212666 -0.1057536
0.75478125 0.08442057 -0.1381368
0.7559296875 0.03925928 -0.1583073
0.757078125 -0.01050348 -0.1642058
0.7582265625 -0.06040336 -0.1546794
0.759375 -0.1055641 -0.1302336
0.7605234375 -0.1418019 -0.09277403
0.761671875 -0.165246 -0.04510824
0.7628203125 -0.1728218 0.00809761
0.76396875 -0.1635333 0.06173208
0.7651171875 -0.1373921 0.1106004
0.766265625 -0.09696931 0.1491003
0.7674140625 -0.04597402 0.1730924
0.7685625 0.01041626 0.1799094
0.7697109375 0.06649093 0.1688947
0.770859375 0.1165567 0.1403949
0.7720078125 0.155364 0.09756944
0.77315625 0.1789529 0.04450081
0.7743046875 0.1847692 -0.01350407
0.775453125 0.1723853 -0.07074287
0.7766015625 0.1427326 -0.1216476
0.77775 0.09844393 -0.1611985
0.7788984375 0.04349815 -0.185234
0.780046875 -0.01665583 -0.1911913
0.7811953125 -0.07636174 -0.1778461
0.78234375 -0.129821 -0.1460886
0.7834921875 -0.1711421 -0.09853696
0.784640625 -0.1954989 -0.03953031
0.7857890625 -0.1997452 0.02522416
0.7869375 -0.1827115 0.08905041
0.7880859375 -0.145272 0.1444394
0.789234375 -0.09100568 0.1849788
0.7903828125 -0.02578388 0.2055157
0.79153125 0.04314643 0.2033322
0.7926796875 0.1075875 0.1779594
0.793828125 0.1597879 0.1324468
0.7949765625 0.1936463 0.07214233
0.796125 0.205314 0.004451905
0.7972734375 0.193661 -0.06259287
0.798421875 0.1608751 -0.1211828
0.7995703125 0.1111591 -0.1647631
0.80071875 0.05093363 -0.1893092
0.8018671875 -0.01257311 -0.1926688
0.803015625 -0.07253665 -0.175525
0.8041640625 -0.1229241 -0.140829
0.8053125 -0.1586884 -0.09293755
0.8064609375 -0.1768368 -0.03721365
0.807609375 -0.1767497 0.02014298
0.8087578125 -0.1588292 0.07367747
0.80990625 -0.1257156 0.118081
0.8110546875 -0.08108624 0.1492937
0.812203125 -0.02976106 0.1648722
0.8133515625 0.02315316 0.1635316
0.8145 0.07226608 0.1459356
0.8156484375 0.1128028 0.1142095
0.816796875 0.1409414 0.07196245
0.8179453125 0.1541464 0.02367064
0.81909375 0.1512755 -0.02557932
0.8202421875 0.1332823 -0.07064991
0.821390625 0.1026024 -0.1069635
0.8225390625 0.0628935 -0.1313087
0.8236875 0.01835015 -0.1414255
0.8248359375 -0.02590954 -0.1373158
0.825984375 -0.06564982 -0.1199717
0.8271328125 -0.09738529 -0.0918791
0.82828125 -0.118303 -0.05634733
0.8294296875 -0.1271328 -0.01738833
0.830578125 -0.1238503 0.02162233
0.8317265625 -0.1093261 0.05683773
0.832875 -0.08564872 0.08553512
0.8340234375 -0.05528202 0.1055779
0.835171875 -0.02074891 0.115188
0.8363203125 0.01442873 0.1144766
0.83746875 0.04729043 0.1036338
0.8386171875 0.07522115 0.08389083
0.839765625 0.09602169 0.05695646
0.8409140625 0.1075533 0.02522774
0.8420625 0.1092444 -0.008129559
0.8432109375 0.1008556 -0.04047128
0.844359375 0.08328427 -0.06857742
0.8455078125 0.05805714 -0.08987074
0.84665625 0.02763831 -0.1023992
0.8478046875 -0.004811409 -0.1050833
0.848953125 -0.03641215 -0.0976099
0.8501015625 -0.06380109 -0.08088227
0.85125 -0.08445329 -0.05679665
0.8523984375 -0.09641853 -0.02802124
0.853546875 -0.09895769 0.002592971
0.8546953125 -0.09223177 0.03206813
0.85584375 -0.07713596 0.05760798
0.8569921875 -0.05539704 0.07706083
0.858140625 -0.02929298 0.08882824
0.8592890625 -0.001370549 0.09222713
0.8604375 0.02571476 0.08733669
0.8615859375 0.04986634 0.07479916
0.862734375 0.06896099 0.05607457
0.8638828125 0.08171537 0.0327903
0.86503125 0.08706127 0.007007399
0.8661796875 0.08460744 -0.01897156
0.867328125 0.07470738 -0.04283557
0.8684765625 0.05825336 -0.06284048
0.869625 0.03679999 -0.07685643
0.8707734375 0.01201355 -0.08398613
0.871921875 -0.01360449 -0.08329934
0.8730703125 -0.03776392 -0.07511683
0.87421875 -0.05839727 -0.05996419
0.8753671875 -0.07341706 -0.03925724
0.876515625 -0.08130306 -0.01522525
0.8776640625 -0.0815915 0.009843683
0.8788125 -0.07412858 0.03384094
0.8799609375 -0.06002964 0.05412409
0.881109375 -0.0405638 0.06897096
0.8822578125 -0.01797224 0.07710949
0.88340625 0.005888549 0.07809305
0.8845546875 0.02847257 0.07227691
0.885703125 0.04818802 0.06001152
0.8868515625 0.06306868 0.04279808
0.888 0.0723374 0.02230147
0.8891484375 0.07512351 0.0002122561
0.890296875 0.07163538 -0.0216089
0.8914453125 0.06201834 -0.04138709
0.89259375 0.04726681 -0.05757963
0.8937421875 0.02839717 -0.06884815
0.894890625 0.007148795 -0.07427969
0.8960390625 -0.01496702 -0.07341137
0.8971875 -0.03590181 -0.06618079
0.8983359375 -0.05413165 -0.05285519
0.899484375 -0.06779851 -0.03480352
0.9006328125 -0.07557669 -0.01323586
0.90178125 -0.0766087 0.01005514
0.9029296875 -0.07056986 0.03280515
0.904078125 -0.05795977 0.05284041
0.9052265625 -0.03958523 0.06841405
0.906375 -0.01711241 0.07764932
0.9075234375 0.007250786 0.07960471
0.908671875 0.03121711 0.07411319
0.9098203125 0.0524452 0.06137538
0.91096875 0.06883762 0.04285565
0.9121171875 0.07888984 0.02000981
0.913265625 0.08164197 -0.004760727
0.9144140625 0.0766606 -0.02935707
0.9155625 0.06450243 -0.05136602
0.9167109375 0.04630131 -0.06886626
0.917859375 0.02347123 -0.08000046
0.9190078125 -0.001707399 -0.08408076
0.92015625 -0.02728315 -0.08008303
0.9213046875 -0.05053911 -0.06849345
0.922453125 -0.06972752 -0.0504572
0.9236015625 -0.08258259 -0.02702145
0.92475 -0.08777168 -0.0004424159
0.9258984375 -0.08449375 0.02689596
0.927046875 -0.07273212 0.05207139
0.9281953125 -0.05360129 0.07282045
0.92934375 -0.02855949 0.08656071
0.9304921875 -7.08255E-05 0.09185762
0.931640625 0.02881542 0.08791736
0.9327890625 0.0552518 0.07489979
0.9339375 0.07634652 0.05405467
0.9350859375 0.08969966 0.02746312
0.936234375 0.09405353 -0.002094915
0.9373828125 0.08873329 -0.03149733
0.93853125 0.0743689 -0.0576426
0.9396796875 0.05269317 -0.07788964
0.940828125 0.02587384 -0.090325
0.9419765625 -0.0034232 -0.09366192
0.943125 -0.0323076 -0.08811133
0.9442734375 -0.05787234 -0.07375671
0.945421875 -0.07763869 -0.05248061
0.9465703125 -0.09011927 -0.02610574
0.94771875 -0.09392835 0.00282119
0.9488671875 -0.0887378 0.03155735
0.950015625 -0.0750429 0.05750979
0.9511640625 -0.05398722 0.0780609
0.9523125 -0.02734954 0.09138688
0.9534609375 0.002091168 0.09584735
0.954609375 0.03186179 0.09104995
0.9557578125 0.05884231 0.0771566
0.95690625 0.08042189 0.05532308
0.9580546875 0.09427046 0.02766096
0.959203125 0.09874891 -0.003178544
0.9603515625 0.09312217 -0.03419892
0.9615 0.07808682 -0.06180669
0.9626484375 0.05497354 -0.08350892
0.963796875 0.02601954 -0.09686986
0.9649453125 -0.005562698 -0.1003352
0.96609375 -0.03677609 -0.09371033
0.9672421875 -0.06424633 -0.07771821
0.968390625 -0.08542327 -0.05382968
0.9695390625 -0.09819783 -0.02462669
0.9706875 -0.1012882 0.006972179
0.9718359375 -0.09428165 0.03824173
0.972984375 -0.07815729 0.06590563
0.9741328125 -0.0541673 0.08720865
0.97528125 -0.02457064 0.1004011
0.9764296875 0.00781857 0.1037895
0.977578125 0.04000455 0.09704875
0.9787265625 0.06898656 0.08044396
