# GHZ S RI R 50.0
0.3 -0.6073434 1.428192
0.3011484375 -0.0766386 1.422063
0.302296875 0.3648555 1.255031
0.3034453125 0.689715 0.9851016
0.30459375 0.8901787 0.6646709
0.3057421875 0.9760963 0.3360904
0.306890625 0.9653614 0.0277428
0.3080390625 0.8776876 -0.2414213
0.3091875 0.7323685 -0.460596
0.3103359375 0.5462177 -0.6237425
0.311484375 0.3348059 -0.7289313
0.3126328125 0.1104436 -0.7743779
0.31378125 -0.1145272 -0.7611971
0.3149296875 -0.326245 -0.6901708
0.316078125 -0.51431 -0.5639168
0.3172265625 -0.6623258 -0.388075
0.318375 -0.7589083 -0.1703685
0.3195234375 -0.7871294 0.07530071
0.320671875 -0.7360103 0.3281246
0.3218203125 -0.6013434 0.5610788
0.32296875 -0.3878114 0.7436039
0.3241171875 -0.1164975 0.8450174
0.325265625 0.1811611 0.845571
0.3264140625 0.4660387 0.7398822
0.3275625 0.697395 0.5399986
0.3287109375 0.8475807 0.2705401
0.329859375 0.8978599 -0.03401859
0.3310078125 0.8454682 -0.3411796
0.33215625 0.6947487 -0.6198138
0.3333046875 0.4572324 -0.8427618
0.334453125 0.1479921 -0.9868071
0.3356015625 -0.2130734 -1.028964
0.33675 -0.6029584 -0.9461088
0.3378984375 -0.9830495 -0.7119441
0.339046875 -1.295547 -0.3030532
0.3401953125 -1.445818 0.281958
0.34134375 -1.303887 0.988318
0.3424921875 -0.7438523 1.639843
0.343640625 0.2088274 1.916904
0.3447890625 1.223026 1.551281
0.3459375 1.810136 0.6479823
0.3470859375 1.762662 -0.3497404
0.348234375 1.249854 -1.061885
0.3493828125 0.5600601 -1.372848
0.35053125 -0.09208892 -1.334439
0.3516796875 -0.5862502 -1.057445
0.352828125 -0.8762992 -0.6589031
0.3539765625 -0.9706896 -0.2353669
0.355125 -0.9021405 0.1412756
0.3562734375 -0.7221898 0.4284945
0.357421875 -0.48033 0.611776
0.3585703125 -0.2189599 0.6915618
0.35971875 0.0297699 0.6814961
0.3608671875 0.2423466 0.5995046
0.362015625 0.4066738 0.4662488
0.3631640625 0.5162154 0.3012135
0.3643125 0.5702386 0.1195232
0.3654609375 0.5703126 -0.0635278
0.366609375 0.5190798 -0.235748
0.3677578125 0.4220085 -0.3855281
0.36890625 0.2854058 -0.5025803
0.3700546875 0.1177573 -0.57725
0.371203125 -0.07011009 -0.600423
0.3723515625 -0.2641776 -0.5657241
0.3735 -0.4470777 -0.4690054
0.3746484375 -0.5987284 -0.3116361
0.375796875 -0.6970247 -0.1029138
0.3769453125 -0.7224133 0.1402253
0.37809375 -0.661786 0.3908632
0.3792421875 -0.5114625 0.6168246
0.380390625 -0.2826548 0.7851648
0.3815390625 0.0003977933 0.8673021
0.3826875 0.3062955 0.8468991
0.3838359375 0.5969406 0.7202964
0.384984375 0.8371503 0.4977618
0.3861328125 0.9975957 0.1963284
0.38728125 1.055578 -0.1572973
0.3884296875 0.9926253 -0.5324956
0.389578125 0.7979358 -0.8916513
0.3907265625 0.4684824 -1.190314
0.391875 0.01209553 -1.375656
0.3930234375 -0.5347943 -1.384933
0.394171875 -1.108327 -1.158694
0.3953203125 -1.590852 -0.6624104
0.39646875 -1.829874 0.06806556
0.3976171875 -1.690289 0.8889514
0.398765625 -1.146506 1.571709
0.3999140625 -0.3360465 1.901492
0.4010625 0.5025202 1.805276
0.4022109375 1.160495 1.360709
0.403359375 1.523561 0.7249785
0.4045078125 1.578573 0.05909777
0.40565625 1.379974 -0.5141853
0.4068046875 1.011292 -0.9221756
0.407953125 0.5622028 -1.138201
0.4091015625 0.1116444 -1.171626
0.41025 -0.2777383 -1.053794
0.4113984375 -0.5713197 -0.8327681
0.412546875 -0.7547991 -0.5554275
0.4136953125 -0.8307775 -0.264429
0.41484375 -0.8139148 0.008332488
0.4159921875 -0.7244753 0.2418083
0.417140625 -0.5831493 0.4221002
0.4182890625 -0.4098952 0.5455557
0.4194375 -0.2223287 0.6117355
0.4205859375 -0.03473589 0.6239116
0.421734375 0.1406043 0.5869796
0.4228828125 0.2939635 0.5074257
0.42403125 0.4172932 0.3934162
0.4251796875 0.5038995 0.2525865
0.426328125 0.5484734 0.09568134
0.4274765625 0.5479407 -0.06749918
0.428625 0.5013404 -0.2241111
0.4297734375 0.4111629 -0.3616154
0.430921875 0.2831529 -0.4674951
0.4320703125 0.1279944 -0.5303221
0.43321875 -0.04007714 -0.5426888
0.4343671875 -0.2040468 -0.5018368
0.435515625 -0.346301 -0.4117317
0.4366640625 -0.4523509 -0.2827241
0.4378125 -0.5113457 -0.1290515
0.4389609375 -0.5199124 0.03203559
0.440109375 -0.4795372 0.1847472
0.4412578125 -0.3975638 0.3151122
0.44240625 -0.2836574 0.4133116
0.4435546875 -0.1496962 0.4731151
0.444703125 -0.006933337 0.49295
0.4458515625 0.133958 0.4727851
0.447 0.2637146 0.4156486
0.4481484375 0.3724071 0.3260151
0.449296875 0.4542482 0.209531
0.4504453125 0.5027741 0.07325006
0.45159375 0.5132985 -0.07460929
0.4527421875 0.4820564 -0.2242061
0.453890625 0.4081471 -0.364689
0.4550390625 0.2928793 -0.4838928
0.4561875 0.1412114 -0.5694045
0.4573359375 -0.0381396 -0.6084726
0.458484375 -0.2309802 -0.5910241
0.4596328125 -0.4192806 -0.5101578
0.46078125 -0.5806093 -0.3685283
0.4619296875 -0.6938741 -0.1728733
0.463078125 -0.7414142 0.05924371
0.4642265625 -0.7094535 0.3051059
0.465375 -0.596722 0.5357646
0.4665234375 -0.4080131 0.7260909
0.467671875 -0.1590782 0.8512518
0.4688203125 0.1283683 0.8931918
0.46996875 0.4281984 0.8405905
0.4711171875 0.7122782 0.6885778
0.472265625 0.9480022 0.4419038
0.4734140625 1.105505 0.1081673
0.4745625 1.150216 -0.2924857
0.4757109375 1.049351 -0.723035
0.476859375 0.7756597 -1.134799
0.4780078125 0.3176962 -1.450191
0.47915625 -0.2939176 -1.572574
0.4803046875 -0.9731849 -1.406739
0.481453125 -1.557689 -0.9066998
0.4826015625 -1.854227 -0.1394668
0.48375 -1.733534 0.6989602
0.4848984375 -1.224803 1.364348
0.486046875 -0.4942377 1.687919
0.4871953125 0.2422067 1.641697
0.48834375 0.8275871 1.310608
0.4894921875 1.182765 0.8187418
0.490640625 1.300216 0.2865898
0.4917890625 1.215688 -0.1956653
0.4929375 0.9855908 -0.5721706
0.4940859375 0.671289 -0.8152963
0.495234375 0.3279278 -0.9250354
0.4963828125 -0.0004878935 -0.9146852
0.49753125 -0.2801815 -0.8086867
0.4986796875 -0.4940929 -0.6350493
0.499828125 -0.6328606 -0.4204683
0.5009765625 -0.6957868 -0.1908801
0.502125 -0.6877292 0.03277915
0.5032734375 -0.6187019 0.2332425
0.504421875 -0.4995827 0.3975729
0.5055703125 -0.3437313 0.5158752
0.50671875 -0.1654561 0.5822217
0.5078671875 0.02125673 0.5936028
0.509015625 0.1997898 0.5505642
0.5101640625 0.3574476 0.4572689
0.5113125 0.4795212 0.3207437
0.5124609375 0.554598 0.1529948
0.513609375 0.5747597 -0.03136272
0.5147578125 0.5352305 -0.2145153
0.51590625 0.4392097 -0.377161
0.5170546875 0.2943467 -0.5018416
0.518203125 0.11496 -0.5735506
0.5193515625 -0.07972688 -0.5836586
0.5205 -0.2687207 -0.5292733
0.5216484375 -0.4318335 -0.4160131
0.522796875 -0.5513359 -0.2539082
0.5239453125 -0.6138632 -0.06047186
0.52509375 -0.611747 0.1472706
0.5262421875 -0.5437095 0.34804
0.527390625 -0.4117191 0.5238153
0.5285390625 -0.2235161 0.6554976
0.5296875 0.008551179 0.7254042
0.5308359375 0.2676742 0.7179511
0.531984375 0.531319 0.6204962
0.5331328125 0.7702285 0.4234909
0.53428125 0.9466339 0.1250862
0.5354296875 1.01271 -0.2632781
0.536578125 0.9127995 -0.7070166
0.5377265625 0.5947353 -1.132286
0.538875 0.03784044 -1.412235
0.5400234375 -0.6833092 -1.379919
0.541171875 -1.353435 -0.9180216
0.5423203125 -1.666205 -0.1064574
0.54346875 -1.45776 0.7359838
0.5446171875 -0.8553793 1.279941
0.545765625 -0.1439942 1.407536
0.5469140625 0.4484852 1.203493
0.5480625 0.824798 0.8183401
0.5492109375 0.9810746 0.3810775
0.550359375 0.9576284 -0.02157844
0.5515078125 0.8082088 -0.3424432
0.55265625 0.5827967 -0.5624475
0.5538046875 0.3257937 -0.6788371
0.554953125 0.06999954 -0.7018567
0.5561015625 -0.159524 -0.6461577
0.55725 -0.3456526 -0.5303381
0.5583984375 -0.4784923 -0.3724642
0.559546875 -0.5525936 -0.1913931
0.5606953125 -0.567856 -0.003567805
0.56184375 -0.5271047 0.1728121
0.5629921875 -0.4370853 0.3257099
0.564140625 -0.3072662 0.4419396
0.5652890625 -0.1498245 0.5126052
0.5664375 0.02093428 0.5315933
0.5675859375 0.1891706 0.4969113
0.568734375 0.3384967 0.4110688
0.5698828125 0.4542453 0.2822004
0.57103125 0.523386 0.1221121
0.5721796875 0.5384614 -0.05268117
0.573328125 0.4969458 -0.224148
0.5744765625 0.4025639 -0.3744146
0.575625 0.26475 -0.4876347
0.5767734375 0.0972905 -0.5524389
0.577921875 -0.08296558 -0.5618956
0.5790703125 -0.2595342 -0.5148209
0.58021875 -0.414463 -0.4158253
0.5813671875 -0.5345709 -0.272311
0.582515625 -0.6080536 -0.09534042
0.5836640625 -0.6262977 0.1005823
0.5848125 -0.584637 0.3001608
0.5859609375 -0.4813728 0.4864852
0.587109375 -0.3196687 0.6411493
0.5882578125 -0.1058026 0.7471983
0.58940625 0.1457039 0.7858007
0.5905546875 0.4178335 0.7416217
0.591703125 0.6843686 0.6018644
0.5928515625 0.9124728 0.3618293
0.594 1.060882 0.02550549
0.5951484375 1.085544 -0.3842109
0.596296875 0.9428466 -0.8234156
0.5974453125 0.6039576 -1.21795
0.59859375 0.07558002 -1.468001
0.5997421875 -0.5793939 -1.465629
0.600890625 -1.216515 -1.136297
0.6020390625 -1.648777 -0.4993264
0.6031875 -1.711202 0.2934546
0.6043359375 -1.374808 1.007094
0.605484375 -0.7628799 1.442363
0.6066328125 -0.07767941 1.531172
0.60778125 0.5098873 1.328067
0.6089296875 0.9079991 0.9461547
0.610078125 1.099524 0.4972191
0.6112265625 1.11035 0.06494084
0.612375 0.9841205 -0.2992261
0.6135234375 0.7671808 -0.5697588
0.614671875 0.5015028 -0.7386596
0.6158203125 0.2215412 -0.808641
0.61696875 -0.04502824 -0.7909307
0.6181171875 -0.2770278 -0.6990325
0.619265625 -0.4595366 -0.5510595
0.6204140625 -0.5826107 -0.3647689
0.6215625 -0.6416812 -0.159779
0.6227109375 -0.6368104 0.04576698
0.623859375 -0.571973 0.2320823
0.6250078125 -0.4575321 0.3853478
0.62615625 -0.306589 0.4927973
0.6273046875 -0.1355773 0.5473272
0.628453125 0.03857004 0.5468738
0.6296015625 0.1991085 0.4946575
0.63075 0.3317401 0.3990021
0.6318984375 0.4261725 0.2720002
0.633046875 0.4761502 0.1268554
0.6341953125 0.4803667 -0.02169804
0.63534375 0.4417564 -0.1604869
0.6364921875 0.3664439 -0.2789154
0.637640625 0.2630481 -0.3675733
0.6387890625 0.141465 -0.4218586
0.6399375 0.01199103 -0.4389144
0.6410859375 -0.1151767 -0.4192665
0.642234375 -0.2307304 -0.3654083
0.6433828125 -0.3261898 -0.2814211
0.64453125 -0.3937624 -0.1745463
0.6456796875 -0.4288282 -0.05234431
0.646828125 -0.4279169 0.07578481
0.6479765625 -0.3899637 0.2000378
0.649125 -0.3170576 0.3097317
0.6502734375 -0.2134786 0.3948927
0.651421875 -0.08711323 0.4473577
0.6525703125 0.05217057 0.4603449
0.65371875 0.1925056 0.4304431
0.6548671875 0.319464 0.3583449
0.656015625 0.4213054 0.2487287
0.6571640625 0.4864455 0.1101474
0.6583125 0.5071304 -0.04506059
0.6594609375 0.4791121 -0.2026684
0.660609375 0.4029015 -0.3475474
0.6617578125 0.2833392 -0.4654511
0.66290625 0.1300883 -0.5441762
0.6640546875 -0.04508308 -0.57409
0.665203125 -0.226904 -0.5495654
0.6663515625 -0.3997682 -0.468778
0.6675 -0.5467644 -0.3341903
0.6686484375 -0.6516074 -0.152703
0.669796875 -0.6991021 0.06413852
0.6709453125 -0.6757407 0.2999935
0.67209375 -0.5742021 0.5323134
0.6732421875 -0.3896604 0.7361635
0.674390625 -0.1263932 0.8803302
0.6755390625 0.198735 0.9314625
0.6766875 0.5553318 0.8599436
0.6778359375 0.8948201 0.6413801
0.678984375 1.151133 0.273212
0.6801328125 1.247569 -0.2150846
0.68128125 1.117126 -0.7474262
0.6824296875 0.7347625 -1.204163
0.683578125 0.1490726 -1.447826
0.6847265625 -0.5048853 -1.382174
0.685875 -1.047835 -1.009264
0.6870234375 -1.337259 -0.4401474
0.688171875 -1.329077 0.1597309
0.6893203125 -1.075243 0.6488488
0.69046875 -0.678886 0.9525734
0.6916171875 -0.2421781 1.057541
0.692765625 0.1556046 0.9937968
0.6939140625 0.4677894 0.8088242
0.6950625 0.6731321 0.5517569
0.6962109375 0.7691799 0.2676835
0.697359375 0.7652664 -0.008104837
0.6985078125 0.6790498 -0.2488564
0.69965625 0.5303462 -0.4360982
0.7008046875 0.3412102 -0.5595598
0.701953125 0.134483 -0.6137379
0.7031015625 -0.07004102 -0.6012958
0.70425 -0.2529988 -0.5279024
0.7053984375 -0.3987689 -0.4046622
0.706546875 -0.4952871 -0.2464465
0.7076953125 -0.5359125 -0.07015942
0.70884375 -0.5184118 0.1069413
0.7099921875 -0.447185 0.2650207
0.711140625 -0.3308078 0.3902177
0.7122890625 -0.1826412 0.4705569
0.7134375 -0.01832099 0.4987223
0.7145859375 0.1445003 0.4734234
0.715734375 0.2898239 0.398013
0.7168828125 0.4028692 0.2807922
0.71803125 0.4730696 0.1338906
0.7191796875 0.493257 -0.02815864
0.720328125 0.4612271 -0.1899158
0.7214765625 0.3786429 -0.3353393
0.722625 0.2516566 -0.4497572
0.7237734375 0.09100167 -0.5202734
0.724921875 -0.09028764 -0.5365376
0.7260703125 -0.2750127 -0.4920354
0.72721875 -0.4439514 -0.3849128
0.7283671875 -0.5756485 -0.2183813
0.729515625 -0.6488459 -0.003189004
0.7306640625 -0.6432647 0.2414398
0.7318125 -0.5440853 0.4886345
0.7329609375 -0.3449435 0.7009366
0.734109375 -0.05376638 0.8353585
0.7352578125 0.300156 0.8456178
0.73640625 0.6618302 0.6959198
0.7375546875 0.9507135 0.3758966
0.738703125 1.074947 -0.07751992
0.7398515625 0.9645603 -0.5686597
0.741 0.6154647 -0.9612232
0.7421484375 0.1122822 -1.133679
0.743296875 -0.3993883 -1.038746
0.7444453125 -0.7832723 -0.7265478
0.74559375 -0.9641191 -0.3059276
0.7467421875 -0.9435949 0.1112624
0.747890625 -0.7685701 0.4462998
0.7490390625 -0.4832526 0.6361179
0.7501875 -0.1982974 0.7219952
0.7513359375 0.07209437 0.7005633
0.752484375 0.2982016 0.5948249
0.7536328125 0.4620893 0.4316372
0.75478125 0.5550646 0.236608
0.7559296875 0.5781515 0.03413752
0.757078125 0.5365914 -0.1549244
0.7582265625 0.4407916 -0.3136535
0.759375 0.3045462 -0.429144
0.7605234375 0.1438691 -0.4932065
0.761671875 -0.02414062 -0.5026717
0.7628203125 -0.1827118 -0.4594508
0.76396875 -0.3168123 -0.3698249
0.7651171875 -0.413873 -0.2445704
0.766265625 -0.4651534 -0.09718812
0.7674140625 -0.4675089 0.05667211
0.7685625 -0.4216542 0.2014209
0.7697109375 -0.3337732 0.3235357
0.770859375 -0.2135321 0.4112667
0.7720078125 -0.0728154 0.4571601
0.77315625 0.07441077 0.457365
0.7743046875 0.2147715 0.4129124
0.775453125 0.335146 0.3272987
0.7766015625 0.4248678 0.2087125
0.77775 0.4752241 0.06728638
0.7788984375 0.4807342 -0.08552125
0.780046875 0.4391819 -0.2360381
0.7811953125 0.3520718 -0.3706247
0.78234375 0.2238538 -0.4757415
0.7834921875 0.06396969 -0.5391293
0.784640625 -0.1151587 -0.5504786
0.7857890625 -0.2972616 -0.5031009
0.7869375 -0.4634184 -0.395145
0.7880859375 -0.5931757 -0.2306443
0.789234375 -0.6661645 -0.02060741
0.7903828125 -0.6649297 0.2157118
0.79153125 -0.5780315 0.4523995
0.7926796875 -0.4030727 0.6575271
0.793828125 -0.1505707 0.7962047
0.7949765625 0.1548251 0.8357089
0.796125 0.4733343 0.7536845
0.7972734375 0.7535092 0.5431193
0.798421875 0.9378431 0.2215328
0.7995703125 0.9785161 -0.167005
0.80071875 0.8503662 -0.5511731
0.8018671875 0.56503 -0.8523144
0.803015625 0.1755702 -1.00449
0.8041640625 -0.2362663 -0.9765338
0.8053125 -0.5872426 -0.7825044
0.8064609375 -0.8149852 -0.4747033
0.807609375 -0.8938856 -0.1222333
0.8087578125 -0.8328553 0.2101018
0.80990625 -0.6627557 0.4744508
0.8110546875 -0.4256895 0.6444457
0.812203125 -0.1633791 0.7134578
0.8133515625 0.0878651 0.6887369
0.8145 0.3011081 0.5867776
0.8156484375 0.4572684 0.4296018
0.816796875 0.5465918 0.2415971
0.8179453125 0.5687451 0.04632498
0.81909375 0.5284893 -0.1356043
0.8202421875 0.4366938 -0.2863188
0.821390625 0.3082298 -0.3946813
0.8225390625 0.1596675 -0.4530746
0.8236875 0.007556483 -0.4618206
0.8248359375 -0.1326842 -0.4240233
0.825984375 -0.2490467 -0.348155
0.8271328125 -0.3326527 -0.2452264
0.82828125 -0.3789718 -0.1267082
0.8294296875 -0.3872356 -0.00479951
0.830578125 -0.3597772 0.109662
0.8317265625 -0.3017678 0.2074082
0.832875 -0.2200879 0.2815733
0.8340234375 -0.1232751 0.3275332
0.835171875 -0.01959297 0.3431537
0.8363203125 0.08228367 0.3285036
0.83746875 0.1742422 0.2856146
0.8386171875 0.2491612 0.2187135
0.839765625 0.3011684 0.1334564
0.8409140625 0.325964 0.03705576
0.8420625 0.3214993 -0.06255414
0.8432109375 0.2876749 -0.1565593
0.844359375 0.2272673 -0.2366673
0.8455078125 0.1450233 -0.2955706
0.84665625 0.04809627 -0.3272077
0.8478046875 -0.05466066 -0.3278092
0.848953125 -0.1536174 -0.2968647
0.8501015625 -0.2391595 -0.2368542
0.85125 -0.3027242 -0.1527506
0.8523984375 -0.3377207 -0.05245119
0.853546875 -0.3405124 0.05445629
0.8546953125 -0.3104844 0.1583651
0.85584375 -0.2497875 0.2492989
0.8569921875 -0.1631743 0.3185499
0.858140625 -0.0583915 0.3593741
0.8592890625 0.05616161 0.3670246
0.8604375 0.1703878 0.3395143
0.8615859375 0.2743242 0.2774556
0.862734375 0.3576175 0.1839232
0.8638828125 0.4109019 0.06493499
0.86503125 0.4264518 -0.07049598
0.8661796875 0.3982278 -0.2115131
0.867328125 0.3235202 -0.3445442
0.8684765625 0.2029168 -0.4536446
0.869625 0.04256327 -0.5234582
0.8707734375 -0.146097 -0.5372633
0.871921875 -0.3439663 -0.4816145
0.8730703125 -0.5253122 -0.3491453
0.87421875 -0.6580606 -0.1416003
0.8753671875 -0.7065295 0.1247461
0.876515625 -0.6405905 0.4145913
0.8776640625 -0.4438894 0.6734298
0.8788125 -0.1308714 0.8343015
0.8799609375 0.2437486 0.8371949
0.881109375 0.5900455 0.6587135
0.8822578125 0.8133761 0.3340477
0.88340625 0.8556513 -0.04968651
0.8845546875 0.7213011 -0.3920687
0.885703125 0.4667412 -0.6198054
0.8868515625 0.1662809 -0.7068253
0.888 -0.1139549 -0.6666653
0.8891484375 -0.3325178 -0.5340262
0.890296875 -0.4705954 -0.3483626
0.8914453125 -0.5265545 -0.1460493
0.89259375 -0.5098962 0.04523846
0.8937421875 -0.4355997 0.2055563
0.894890625 -0.3206818 0.3228791
0.8960390625 -0.1833114 0.3913046
0.8971875 -0.04002782 0.4100443
0.8983359375 0.09450549 0.3832437
0.899484375 0.2076713 0.317386
0.9006328125 0.2904845 0.2230558
0.90178125 0.3364178 0.1111071
0.9029296875 0.3438452 -0.005780858
0.904078125 0.314049 -0.1153337
0.9052265625 0.2525073 -0.2070206
0.906375 0.1669336 -0.2721119
0.9075234375 0.0671033 -0.3055794
0.908671875 -0.03580012 -0.3052084
0.9098203125 -0.1312677 -0.2725379
0.91096875 -0.2099179 -0.2121469
0.9121171875 -0.2646637 -0.1311977
0.913265625 -0.290648 -0.03823788
0.9144140625 -0.2862525 0.05744866
0.9155625 -0.2521599 0.1464773
0.9167109375 -0.1922324 0.2205526
0.917859375 -0.1117931 0.2724672
0.9190078125 -0.01818244 0.2973211
0.92015625 0.0800382 0.2917605
0.9213046875 0.1735985 0.2550327
0.922453125 0.2531448 0.1892603
0.9236015625 0.3097453 0.09895954
0.92475 0.3357396 -0.008945017
0.9258984375 0.3252559 -0.1243181
0.927046875 0.2759098 -0.235561
0.9281953125 0.1880065 -0.3292811
0.92934375 0.06711402 -0.3919151
0.9304921875 -0.07662701 -0.4110835
0.931640625 -0.2281465 -0.3777442
0.9327890625 -0.3677842 -0.2870413
0.9339375 -0.4736611 -0.1420958
0.9350859375 -0.5226799 0.04531954
0.936234375 -0.4957899 0.2536983
0.9373828125 -0.3815871 0.4507792
0.93853125 -0.1830442 0.5971394
0.9396796875 0.07726874 0.6527955
0.940828125 0.3543387 0.5875295
0.9419765625 0.5869688 0.3967637
0.943125 0.7126048 0.1114628
0.9442734375 0.6937023 -0.2033101
0.945421875 0.5347865 -0.4721115
0.9465703125 0.2811771 -0.6349236
0.94771875 -0.002866407 -0.6682681
0.9488671875 -0.2571028 -0.5838809
0.950015625 -0.4403483 -0.4167835
0.9511640625 -0.5363792 -0.2081275
0.9523125 -0.5456933 0.004171339
0.9534609375 -0.4819735 0.190969
0.954609375 -0.3645181 0.332588
0.9557578125 -0.2153194 0.418458
0.95690625 -0.05596998 0.4471351
0.9580546875 0.09542722 0.4213946
0.959203125 0.2224469 0.3507568
0.9603515625 0.3148401 0.2473355
0.9615 0.3660991 0.125191
0.9626484375 0.3745 -0.001570317
0.963796875 0.3431174 -0.119529
0.9649453125 0.2780974 -0.2177474
0.96609375 0.1888022 -0.2875029
0.9672421875 0.08544833 -0.3248278
0.968390625 -0.0208957 -0.3280528
0.9695390625 -0.1204387 -0.2991606
0.9706875 -0.20438 -0.2427038
0.9718359375 -0.2660369 -0.1651386
0.972984375 -0.3007712 -0.07418222
0.9741328125 -0.3067122 0.02176986
0.97528125 -0.2840321 0.1142347
0.9764296875 -0.2352183 0.1956781
0.977578125 -0.164312 0.2587885
0.9787265625 -0.07773428 0.2983963
0.979875 0.0177435 0.3103348
0.9810234375 0.1134992 0.2932419
0.982171875 0.2011082 0.2473226
0.9833203125 0.2721603 0.175824
0.98446875 0.3192855 0.08411305
0.9856171875 0.3365628 -0.0202095
0.986765625 0.320312 -0.1273405
0.9879140625 0.2704629 -0.2271287
0.9890625 0.1895478 -0.3087364
0.9902109375 0.08429679 -0.3629541
0.991359375 -0.0368884 -0.3817901
0.9925078125 -0.1616732 -0.3608307
0.99365625 -0.2778449 -0.2993571
0.9948046875 -0.3721315 -0.20081
0.995953125 -0.4327056 -0.07188375
