# GHZ S RI R 50.0
0.3 -1.295617 -2.468973
0.3011484375 -2.352988 -1.629967
0.302296875 -2.823719 -0.3427564
0.3034453125 -2.564268 0.9548452
0.30459375 -1.753884 1.865091
0.3057421875 -0.7370209 2.230819
0.306890625 0.1931568 2.125192
0.3080390625 0.8852399 1.717511
0.3091875 1.306492 1.17112
0.3103359375 1.48753 0.6001754
0.311484375 1.47672 0.07534027
0.3126328125 1.325173 -0.3711812
0.31378125 1.075445 -0.7179234
0.3149296875 0.7618546 -0.9613595
0.316078125 0.4139186 -1.098363
0.3172265625 0.05653159 -1.130496
0.318375 -0.2854438 -1.061975
0.3195234375 -0.5861899 -0.8993331
0.320671875 -0.8198607 -0.6566892
0.3218203125 -0.9657379 -0.3549986
0.32296875 -1.006729 -0.02580452
0.3241171875 -0.9372442 0.2920403
0.325265625 -0.7697082 0.5623243
0.3264140625 -0.529999 0.7540485
0.3275625 -0.2529556 0.8506867
0.3287109375 0.0253855 0.8517438
0.329859375 0.2729582 0.7700072
0.3310078125 0.4723614 0.6258712
0.33215625 0.6108091 0.4403147
0.3333046875 0.6867581 0.2375867
0.334453125 0.7037969 0.0317146
0.3356015625 0.6677378 -0.1614134
0.33675 0.5853958 -0.3337325
0.3378984375 0.465696 -0.4757487
0.339046875 0.3157873 -0.5820356
0.3401953125 0.1431832 -0.6474768
0.34134375 -0.04094604 -0.6667511
0.3424921875 -0.2288782 -0.637573
0.343640625 -0.407727 -0.5575211
0.3447890625 -0.5642522 -0.4264722
0.3459375 -0.6826406 -0.2490376
0.3470859375 -0.7471997 -0.03453617
0.348234375 -0.7437689 0.2010822
0.3493828125 -0.6632215 0.4331065
0.35053125 -0.5054522 0.6365018
0.3516796875 -0.2831551 0.780479
0.352828125 -0.01929486 0.8447269
0.3539765625 0.2537175 0.8174455
0.355125 0.5049225 0.7017947
0.3562734375 0.705404 0.5120657
0.357421875 0.837548 0.2691563
0.3585703125 0.8894343 -0.00129901
0.35971875 0.858436 -0.2766634
0.3608671875 0.7491469 -0.5325512
0.362015625 0.5680712 -0.7512348
0.3631640625 0.3248399 -0.9160873
0.3643125 0.03354117 -1.009615
0.3654609375 -0.2889312 -1.017825
0.366609375 -0.6241837 -0.9258927
0.3677578125 -0.941156 -0.7233483
0.36890625 -1.204483 -0.4029129
0.3700546875 -1.365835 0.02927776
0.371203125 -1.370426 0.5466791
0.3723515625 -1.161995 1.091534
0.3735 -0.7072126 1.564217
0.3746484375 -0.02548359 1.834252
0.375796875 0.7771517 1.769185
0.3769453125 1.508021 1.309496
0.37809375 1.94821 0.5291254
0.3792421875 1.956393 -0.3676735
0.380390625 1.547291 -1.130866
0.3815390625 0.8762332 -1.583237
0.3826875 0.1455775 -1.676123
0.3838359375 -0.4817056 -1.471934
0.384984375 -0.9148862 -1.082756
0.3861328125 -1.136527 -0.6204906
0.38728125 -1.171692 -0.1699833
0.3884296875 -1.064951 0.2151209
0.389578125 -0.8637072 0.508501
0.3907265625 -0.6099116 0.7018355
0.391875 -0.3370134 0.8000129
0.3930234375 -0.07127732 0.8134685
0.394171875 0.169067 0.7548357
0.3953203125 0.3706233 0.6385121
0.39646875 0.5235668 0.4784114
0.3976171875 0.6220634 0.2890563
0.398765625 0.6618132 0.08557492
0.3999140625 0.6421512 -0.1169185
0.4010625 0.5640217 -0.3033682
0.4022109375 0.4348861 -0.4557992
0.403359375 0.265503 -0.5611158
0.4045078125 0.0716775 -0.6074587
0.40565625 -0.1245935 -0.5890086
0.4068046875 -0.3026052 -0.5080439
0.407953125 -0.4415484 -0.3745927
0.4091015625 -0.5266424 -0.2069064
0.41025 -0.5508984 -0.02536323
0.4113984375 -0.5162337 0.1475823
0.412546875 -0.4315451 0.2943442
0.4136953125 -0.3103863 0.4035932
0.41484375 -0.1667216 0.4683089
0.4159921875 -0.01574981 0.4869598
0.417140625 0.1301611 0.4616267
0.4182890625 0.2601787 0.3970358
0.4194375 0.3653093 0.2996112
0.4205859375 0.4392334 0.1769856
0.421734375 0.4763311 0.03744837
0.4228828125 0.472756 -0.1096769
0.42403125 0.4267206 -0.253967
0.4251796875 0.3375284 -0.3841547
0.426328125 0.2079273 -0.487858
0.4274765625 0.04385384 -0.5519019
0.428625 -0.1437737 -0.5627244
0.4297734375 -0.3395658 -0.5102709
0.430921875 -0.5216579 -0.387529
0.4320703125 -0.6636516 -0.1952021
0.43321875 -0.7368754 0.05565028
0.4343671875 -0.7146195 0.3415416
0.435515625 -0.5776689 0.6260191
0.4366640625 -0.3201925 0.8619852
0.4378125 0.04514759 0.995038
0.4389609375 0.4817986 0.9703239
0.440109375 0.9202634 0.7396431
0.4412578125 1.253772 0.2819729
0.44240625 1.339544 -0.3570836
0.4435546875 1.052235 -1.019381
0.444703125 0.4037224 -1.442293
0.4458515625 -0.3756607 -1.418462
0.447 -0.9689695 -0.9875577
0.4481484375 -1.210937 -0.3823585
0.449296875 -1.138036 0.1744668
0.4504453125 -0.8705611 0.5745011
0.45159375 -0.5211196 0.7940746
0.4527421875 -0.1648582 0.8571625
0.453890625 0.1518637 0.7954754
0.4550390625 0.4019122 0.6433055
0.4561875 0.5716959 0.432823
0.4573359375 0.655427 0.1940458
0.458484375 0.6536261 -0.04598014
0.4596328125 0.5745906 -0.2613924
0.46078125 0.4330684 -0.4298851
0.4619296875 0.2495858 -0.5360208
0.463078125 0.04814615 -0.5718334
0.4642265625 -0.1452239 -0.5382124
0.465375 -0.3099828 -0.4450922
0.4665234375 -0.4294674 -0.3079563
0.467671875 -0.4948213 -0.1453574
0.4688203125 -0.5039984 0.02285446
0.46996875 -0.4611206 0.1798867
0.4711171875 -0.3749362 0.3117854
0.472265625 -0.2559345 0.4089347
0.4734140625 -0.1165864 0.4655775
0.4745625 0.03185554 0.4790586
0.4757109375 0.1773466 0.4493225
0.476859375 0.3088937 0.3786433
0.4780078125 0.4162395 0.2720093
0.47915625 0.4902658 0.1359736
0.4803046875 0.5231916 -0.02082951
0.481453125 0.5087646 -0.1855725
0.4826015625 0.4432642 -0.3463076
0.48375 0.3270341 -0.4872059
0.4848984375 0.1648917 -0.5919171
0.486046875 -0.0335876 -0.6441407
0.4871953125 -0.2514299 -0.6299616
0.48834375 -0.4659103 -0.5422157
0.4894921875 -0.6519678 -0.3791521
0.490640625 -0.7824839 -0.14981
0.4917890625 -0.8324342 0.1269689
0.4929375 -0.7842644 0.4235338
0.4940859375 -0.6300256 0.7048962
0.495234375 -0.3726602 0.9329405
0.4963828125 -0.02782276 1.070373
0.49753125 0.3751294 1.081272
0.4986796875 0.7911948 0.936985
0.499828125 1.160276 0.6227672
0.5009765625 1.406788 0.1456406
0.502125 1.4464 -0.4488602
0.5032734375 1.210814 -1.060044
0.504421875 0.6861506 -1.542189
0.5055703125 -0.04082425 -1.737326
0.50671875 -0.7952282 -1.561154
0.5078671875 -1.369645 -1.05126
0.509015625 -1.628584 -0.3622366
0.5101640625 -1.556216 0.3213069
0.5113125 -1.228393 0.8607801
0.5124609375 -0.7555732 1.190214
0.513609375 -0.2414021 1.299987
0.5147578125 0.2317596 1.218609
0.51590625 0.6097096 0.9919662
0.5170546875 0.8618878 0.6744069
0.518203125 0.9789721 0.3186103
0.5193515625 0.9697612 -0.02690404
0.5205 0.8552043 -0.3264674
0.5216484375 0.663808 -0.5547351
0.522796875 0.427163 -0.698753
0.5239453125 0.1756691 -0.7572324
0.52509375 -0.06525577 -0.7372403
0.5262421875 -0.2751502 -0.6511232
0.527390625 -0.4404601 -0.5152863
0.5285390625 -0.5531411 -0.3462997
0.5296875 -0.6099473 -0.1608293
0.5308359375 -0.6121572 0.02530037
0.531984375 -0.5637415 0.1987481
0.5331328125 -0.4712096 0.3477637
0.53428125 -0.343418 0.4628625
0.5354296875 -0.1907409 0.5367119
0.536578125 -0.02471857 0.5643899
0.5377265625 0.1418763 0.5437773
0.538875 0.2961023 0.4760344
0.5400234375 0.4240464 0.3668789
0.541171875 0.5153206 0.223577
0.5423203125 0.5603518 0.05814059
0.54346875 0.5537323 -0.1144144
0.5446171875 0.4949638 -0.2781864
0.545765625 0.3880642 -0.4176776
0.5469140625 0.2441067 -0.5176376
0.5480625 0.07548806 -0.5697449
0.5492109375 -0.1014211 -0.5684925
0.550359375 -0.2705673 -0.5139927
0.5515078125 -0.415102 -0.4118176
0.55265625 -0.5242643 -0.2705127
0.5538046875 -0.5878977 -0.1025704
0.554953125 -0.600732 0.0787269
0.5561015625 -0.5599406 0.2589698
0.55725 -0.4677446 0.4234708
0.5583984375 -0.328402 0.5583026
0.559546875 -0.1500462 0.6508237
0.5606953125 0.05555703 0.6894075
0.56184375 0.2738127 0.6658423
0.5629921875 0.4867818 0.5738842
0.564140625 0.6733662 0.412668
0.5652890625 0.8109814 0.1873549
0.5664375 0.8760028 -0.0890448
0.5675859375 0.8468915 -0.3950229
0.568734375 0.7066916 -0.6988302
0.5698828125 0.4524747 -0.9581014
0.57103125 0.09209161 -1.126815
0.5721796875 -0.3438587 -1.156248
0.573328125 -0.7975265 -1.008098
0.5744765625 -1.192443 -0.6647664
0.575625 -1.433689 -0.1473829
0.5767734375 -1.434108 0.4677751
0.577921875 -1.145094 1.056223
0.5790703125 -0.5969161 1.463566
0.58021875 0.08604461 1.570627
0.5813671875 0.7287597 1.348965
0.582515625 1.172722 0.8815711
0.5836640625 1.348979 0.3085054
0.5848125 1.271332 -0.2317594
0.5859609375 1.010655 -0.6486844
0.587109375 0.6496264 -0.9053097
0.5882578125 0.2636055 -1.000979
0.58940625 -0.09473093 -0.9596362
0.5905546875 -0.3896634 -0.8132912
0.591703125 -0.6013342 -0.5966478
0.5928515625 -0.7216434 -0.3425319
0.594 -0.7521857 -0.08162976
0.5951484375 -0.7008194 0.1603284
0.596296875 -0.5818914 0.3615624
0.5974453125 -0.4140643 0.5070625
0.59859375 -0.2185864 0.5879733
0.5997421875 -0.01680333 0.6015065
0.600890625 0.170281 0.5525759
0.6020390625 0.3252662 0.4511858
0.6031875 0.4353324 0.3122313
0.6043359375 0.4936574 0.1525621
0.605484375 0.4993246 -0.01049335
0.6066328125 0.4558942 -0.1611474
0.60778125 0.3718825 -0.2866484
0.6089296875 0.2577573 -0.377523
0.610078125 0.1256106 -0.4285668
0.6112265625 -0.01199769 -0.437835
0.612375 -0.1434357 -0.4064643
0.6135234375 -0.2583822 -0.3390792
0.614671875 -0.3475415 -0.2412481
0.6158203125 -0.4038108 -0.1225542
0.61696875 -0.4225109 0.008190649
0.6181171875 -0.4016614 0.1398826
0.619265625 -0.3412539 0.261209
0.6204140625 -0.2448941 0.3607558
0.6215625 -0.1196705 0.4274276
0.6227109375 0.02467133 0.453044
0.623859375 0.174352 0.4311458
0.6250078125 0.3142551 0.3599664
0.62615625 0.4285504 0.2432093
0.6273046875 0.5013648 0.08879799
0.628453125 0.5206763 -0.08779712
0.6296015625 0.4783832 -0.2695291
0.63075 0.3729862 -0.4351146
0.6318984375 0.2093686 -0.562696
0.633046875 -0.0001127949 -0.6322269
0.6341953125 -0.2365744 -0.6260851
0.63534375 -0.4746478 -0.5322638
0.6364921875 -0.682606 -0.3448778
0.637640625 -0.8225285 -0.06854911
0.6387890625 -0.8520097 0.2781237
0.6399375 -0.7275595 0.6522956
0.6410859375 -0.4181826 0.9798707
0.642234375 0.0671026 1.151547
0.6433828125 0.6335111 1.05199
0.64453125 1.10086 0.6379511
0.6456796875 1.273665 0.01968884
0.646828125 1.089594 -0.5766363
0.6479765625 0.6557519 -0.9597071
0.649125 0.1507731 -1.067067
0.6502734375 -0.2899727 -0.9499295
0.651421875 -0.5984274 -0.6919139
0.6525703125 -0.7574311 -0.3728172
0.65371875 -0.7810911 -0.05502844
0.6548671875 -0.6958133 0.2201256
0.656015625 -0.5341809 0.4269673
0.6571640625 -0.3287593 0.5536345
0.6583125 -0.1101316 0.5990267
0.6594609375 0.09615172 0.5703705
0.660609375 0.2697237 0.4815211
0.6617578125 0.3973761 0.3493119
0.66290625 0.4717704 0.1918219
0.6640546875 0.4914685 0.02716372
0.665203125 0.460245 -0.1286044
0.6663515625 0.3853905 -0.2619784
0.6675 0.2769042 -0.362929
0.6686484375 0.1461461 -0.424675
0.669796875 0.005517648 -0.4437394
0.6709453125 -0.1319268 -0.4202035
0.67209375 -0.2557283 -0.3569273
0.6732421875 -0.354174 -0.260166
0.674390625 -0.4191783 -0.1374213
0.6755390625 -0.4441634 0.0004137435
0.6766875 -0.4262884 0.140446
0.6778359375 -0.3653125 0.2707563
0.678984375 -0.2658014 0.3770863
0.6801328125 -0.1355974 0.4489647
0.68128125 0.01343854 0.477336
0.6824296875 0.167001 0.4572072
0.683578125 0.3094528 0.3887344
0.6847265625 0.425697 0.2764127
0.685875 0.5026853 0.1300127
0.6870234375 0.5306852 -0.0369554
0.688171875 0.5046047 -0.2083819
0.6893203125 0.4243857 -0.3676785
0.69046875 0.2947705 -0.4982319
0.6916171875 0.1257757 -0.5851943
0.692765625 -0.06891478 -0.6166111
0.6939140625 -0.2731576 -0.585417
0.6950625 -0.4661168 -0.4879864
0.6962109375 -0.6278285 -0.3263765
0.697359375 -0.7372369 -0.1088231
0.6985078125 -0.7734253 0.1490692
0.69965625 -0.7194374 0.4245755
0.7008046875 -0.5641506 0.686424
0.701953125 -0.3075335 0.8959855
0.7031015625 0.03676999 1.0097
0.70425 0.432585 0.9858819
0.7053984375 0.822131 0.7960386
0.706546875 1.126782 0.4370654
0.7076953125 1.264049 -0.05063334
0.70884375 1.173198 -0.579895
0.7099921875 0.8457989 -1.031433
0.711140625 0.3435568 -1.292789
0.7122890625 -0.2164085 -1.301895
0.7134375 -0.7068257 -1.071329
0.7145859375 -1.032985 -0.6743602
0.715734375 -1.156168 -0.2101537
0.7168828125 -1.088349 0.2290429
0.71803125 -0.8761482 0.5781758
0.7191796875 -0.5765433 0.8042427
0.720328125 -0.2453294 0.9005464
0.7214765625 0.07243032 0.8794184
0.722625 0.3431591 0.762419
0.7237734375 0.5463484 0.5775449
0.724921875 0.6717581 0.3524105
0.7260703125 0.7178625 0.1137294
0.72721875 0.6891355 -0.1151198
0.7283671875 0.5958681 -0.3153614
0.729515625 0.4524813 -0.4705591
0.7306640625 0.2749178 -0.5714881
0.7318125 0.08083073 -0.612532
0.7329609375 -0.1111398 -0.5930808
0.734109375 -0.2840492 -0.5176193
0.7352578125 -0.4221358 -0.3958657
0.73640625 -0.514536 -0.2407501
0.7375546875 -0.5541099 -0.06796239
0.738703125 -0.5391202 0.1052761
0.7398515625 -0.4729623 0.2627505
0.741 -0.3636413 0.390186
0.7421484375 -0.223007 0.4769833
0.743296875 -0.06533423 0.5162298
0.7444453125 0.09446625 0.5063653
0.74559375 0.2420379 0.4497904
0.7467421875 0.3649502 0.3532501
0.747890625 0.4527877 0.2255264
0.7490390625 0.4798445 0.07496742
0.7501875 0.4814007 -0.07371783
0.7513359375 0.4388994 -0.2166762
0.752484375 0.3557886 -0.3422734
0.7536328125 0.2379862 -0.4392611
0.75478125 0.09476506 -0.4983797
0.7559296875 -0.06342351 -0.5129102
0.757078125 -0.2229993 -0.4782033
0.7582265625 -0.369127 -0.3949441
0.759375 -0.4872292 -0.2666957
0.7605234375 -0.5625937 -0.1019778
0.761671875 -0.5836986 0.08508787
0.7628203125 -0.5430013 0.2781234
0.76396875 -0.4376854 0.4549745
0.7651171875 -0.2730704 0.595414
0.766265625 -0.060958 0.6771393
0.7674140625 0.1781569 0.683674
0.7685625 0.4176857 0.6050792
0.7697109375 0.6264358 0.4395046
0.770859375 0.7716486 0.1982697
0.7720078125 0.8230926 -0.09576992
0.77315625 0.7596641 -0.404959
0.7743046875 0.574379 -0.6824499
0.775453125 0.2808317 -0.8758599
0.7766015625 -0.08144004 -0.9396212
0.77775 -0.4512341 -0.8471385
0.7788984375 -0.7554227 -0.6028521
0.780046875 -0.929585 -0.2500047
0.7811953125 -0.9384415 0.138986
0.78234375 -0.7862555 0.4872767
0.7834921875 -0.5140505 0.7305101
0.784640625 -0.1843815 0.8368531
0.7857890625 0.1405825 0.8052631
0.7869375 0.4098444 0.6602439
0.7880859375 0.5915129 0.4396512
0.789234375 0.6732342 0.1859126
0.7903828125 0.6589285 -0.06289244
0.79153125 0.5638762 -0.2755278
0.7926796875 0.4104097 -0.4312715
0.793828125 0.2250551 -0.5184973
0.7949765625 0.03332163 -0.5362892
0.796125 -0.1423062 -0.4912878
0.7972734375 -0.284676 -0.3962456
0.798421875 -0.3823216 -0.2670336
0.7995703125 -0.4300343 -0.1211456
0.80071875 -0.4282238 0.0248783
0.8018671875 -0.3823539 0.1562845
0.803015625 -0.3011428 0.2620067
0.8041640625 -0.1949038 0.3341859
0.8053125 -0.07591086 0.368573
0.8064609375 0.04447488 0.3650088
0.807609375 0.1552826 0.3252709
0.8087578125 0.2469047 0.2550293
0.80990625 0.3117068 0.1612746
0.8110546875 0.3442546 0.05287381
0.812203125 0.3417701 -0.06007144
0.8133515625 0.3041066 -0.1669114
0.8145 0.2346406 -0.2572328
0.8156484375 0.1389443 -0.3217931
0.816796875 0.0261846 -0.3528509
0.8179453125 -0.09271993 -0.3462159
0.81909375 -0.2053029 -0.3005469
0.8202421875 -0.2990751 -0.2187741
0.821390625 -0.3624951 -0.1080387
0.8225390625 -0.3868368 0.02093548
0.8236875 -0.3664711 0.1550602
0.8248359375 -0.3003547 0.2790251
0.825984375 -0.1925009 0.3774596
0.8271328125 -0.05226516 0.4367506
0.82828125 0.1079238 0.4453293
0.8294296875 0.270133 0.3963164
0.830578125 0.4147168 0.2877099
0.8317265625 0.5186006 0.1241861
0.832875 0.5600944 -0.08163998
0.8340234375 0.5182259 -0.3069998
0.835171875 0.3806613 -0.5169765
0.8363203125 0.1488808 -0.6668553
0.83746875 -0.1506057 -0.7080333
0.8386171875 -0.4613731 -0.6033623
0.839765625 -0.7023401 -0.3507648
0.8409140625 -0.7968692 -0.0007413761
0.8420625 -0.7090915 0.3531685
0.8432109375 -0.4684908 0.6144819
0.844359375 -0.1499604 0.726498
0.8455078125 0.1609875 0.6852661
0.84665625 0.4018893 0.5273803
0.8478046875 0.5420008 0.3049284
0.848953125 0.5785646 0.06839007
0.8501015625 0.52702 -0.1436203
0.85125 0.4112431 -0.3063797
0.8523984375 0.2581951 -0.4072553
0.853546875 0.09349015 -0.4452285
0.8546953125 -0.06192276 -0.4262656
0.85584375 -0.1923304 -0.3609279
0.8569921875 -0.2873737 -0.2633089
0.858140625 -0.3425345 -0.1474478
0.8592890625 -0.3571988 -0.02735944
0.8604375 -0.334653 0.08563475
0.8615859375 -0.2809315 0.1816849
0.862734375 -0.2033671 0.2537897
0.8638828125 -0.1107729 0.2976355
0.86503125 -0.01203469 0.3109699
0.8661796875 0.08404286 0.2944281
0.867328125 0.1689816 0.2506863
0.8684765625 0.2362133 0.1841354
0.869625 0.2799225 0.1011477
0.8707734375 0.296372 0.009383719
0.871921875 0.284208 -0.08313692
0.8730703125 0.2443937 -0.1673792
0.87421875 0.1804896 -0.2358851
0.8753671875 0.09832425 -0.2814133
0.876515625 0.005547321 -0.2996857
0.8776640625 -0.08868283 -0.2880378
0.8788125 -0.1754367 -0.2476186
0.8799609375 -0.2458753 -0.1819973
0.881109375 -0.292986 -0.09735984
0.8822578125 -0.3119109 -0.001585748
0.88340625 -0.3008049 0.09637856
0.8845546875 -0.2596621 0.1871626
0.885703125 -0.1921877 0.2623699
0.8868515625 -0.1039842 0.3144305
0.888 -0.00223826 0.3381907
0.8891484375 0.1045243 0.3304337
0.890296875 0.2068008 0.2897256
0.8914453125 0.2954465 0.2182942
0.89259375 0.3605154 0.1195992
0.8937421875 0.3945163 0.001072288
0.894890625 0.3904668 -0.1282748
0.8960390625 0.3443436 -0.256763
0.8971875 0.2558149 -0.3710352
0.8983359375 0.1275644 -0.4564958
0.899484375 -0.03161 -0.4989317
0.9006328125 -0.2079354 -0.4855708
0.90178125 -0.381933 -0.4085358
0.9029296875 -0.5296258 -0.2659435
0.904078125 -0.6250576 -0.06507303
0.9052265625 -0.6422533 0.1746498
0.906375 -0.5629223 0.4217336
0.9075234375 -0.3815047 0.6349851
0.908671875 -0.1126488 0.7673754
0.9098203125 0.2058052 0.778945
0.91096875 0.5135472 0.6497054
0.9121171875 0.7435344 0.3930762
0.913265625 0.8409972 0.05817209
0.9144140625 0.7841946 -0.2833948
0.9155625 0.5910554 -0.5596194
0.9167109375 0.3127154 -0.721261
0.917859375 0.01071351 -0.7531551
0.9190078125 -0.2604678 -0.6693069
0.92015625 -0.4633916 -0.5007152
0.9213046875 -0.5812413 -0.2857927
0.922453125 -0.6119531 -0.0601849
0.9236015625 -0.565658 0.147279
0.92475 -0.4588937 0.3147453
0.9258984375 -0.3121386 0.4299951
0.927046875 -0.1451759 0.487113
0.9281953125 0.02187936 0.4872482
0.92934375 0.1724988 0.4358772
0.9304921875 0.2931452 0.3433516
0.931640625 0.3744405 0.2227864
0.9327890625 0.4117696 0.0877981
0.9339375 0.4049756 -0.04635419
0.9350859375 0.358312 -0.1671222
0.936234375 0.2789311 -0.2636023
0.9373828125 0.1772907 -0.3283655
0.93853125 0.06422403 -0.3577587
0.9396796875 -0.04868468 -0.3512896
0.940828125 -0.1510342 -0.312045
0.9419765625 -0.2348316 -0.2453537
0.943125 -0.2932975 -0.1589371
0.9442734375 -0.3227071 -0.06109999
0.945421875 -0.3218698 0.03926165
0.9465703125 -0.2918071 0.1336653
0.94771875 -0.2361372 0.2143324
0.9488671875 -0.1595546 0.2745558
0.950015625 -0.06869747 0.3096181
0.9511640625 0.02860489 0.3163808
0.9523125 0.1239552 0.293854
0.9534609375 0.2093409 0.2437774
0.954609375 0.2763991 0.169259
0.9557578125 0.3187163 0.07681416
0.95690625 0.3314485 -0.02592139
0.9580546875 0.3115662 -0.1295312
0.959203125 0.2598808 -0.224063
0.9603515625 0.1797321 -0.2995399
0.9615 0.07784048 -0.3477104
0.9626484375 -0.03677916 -0.3621984
0.963796875 -0.1533144 -0.3394722
0.9649453125 -0.2596334 -0.2799469
0.96609375 -0.3448315 -0.1873329
0.9672421875 -0.3980651 -0.06874974
0.968390625 -0.411938 0.06532467
0.9695390625 -0.381471 0.2022382
0.9706875 -0.3059167 0.3281107
0.9718359375 -0.1883174 0.4280675
0.972984375 -0.03646671 0.4880762
0.9741328125 0.137254 0.4952596
0.97528125 0.3157129 0.4403372
0.9764296875 0.475599 0.3186666
0.977578125 0.5914648 0.1341467
0.9787265625 0.6351417 -0.0990944
0.979875 0.5825941 -0.3521215
0.9810234375 0.4205111 -0.5820329
0.982171875 0.1582997 -0.735113
0.9833203125 -0.1645274 -0.7616684
0.98446875 -0.4794979 -0.6354976
0.9856171875 -0.7078441 -0.37388
0.986765625 -0.7902814 -0.03716137
0.9879140625 -0.7126167 0.2907194
0.9890625 -0.5069797 0.5368499
0.9902109375 -0.2340921 0.66057
0.991359375 0.04289316 0.6593798
0.9925078125 0.2747667 0.5560744
0.99365625 0.4337215 0.3864124
0.9948046875 0.510748 0.188585
0.995953125 0.5106916 -0.005971605
0.9971015625 0.4477024 -0.1737147
