# GHZ S RI R 50.0
0.3 -2.737497 -0.07761102
0.3011484375 -2.300878 1.004352
0.302296875 -1.539065 1.673068
0.3034453125 -0.7044327 1.921898
0.30459375 0.03405573 1.841464
0.3057421875 0.6011671 1.550119
0.306890625 0.9796153 1.149803
0.3080390625 1.184343 0.7126445
0.3091875 1.242421 0.2911076
0.3103359375 1.18583 -0.0887448
0.311484375 1.041035 -0.4089613
0.3126328125 0.8329725 -0.6592226
0.31378125 0.5814472 -0.8352235
0.3149296875 0.3048112 -0.9346283
0.316078125 0.02076143 -0.9568938
0.3172265625 -0.2557094 -0.9025398
0.318375 -0.5041705 -0.7750377
0.3195234375 -0.7071956 -0.5808566
0.320671875 -0.8437873 -0.333948
0.3218203125 -0.8983452 -0.05411171
0.32296875 -0.8606648 0.2298527
0.3241171875 -0.7320015 0.484913
0.325265625 -0.52863 0.6806357
0.3264140625 -0.2764643 0.7946401
0.3275625 -0.01158259 0.8175195
0.3287109375 0.2363908 0.7559915
0.329859375 0.441523 0.6262212
0.3310078125 0.5897549 0.4494907
0.33215625 0.6745589 0.2478659
0.3333046875 0.6976905 0.04104093
0.334453125 0.6651756 -0.1555015
0.3356015625 0.5841794 -0.3308218
0.33675 0.4638344 -0.4754192
0.3378984375 0.3123928 -0.5831431
0.339046875 0.1386895 -0.648616
0.3401953125 -0.04825741 -0.6683813
0.34134375 -0.2378461 -0.6384882
0.3424921875 -0.4189904 -0.5570524
0.343640625 -0.5782683 -0.424163
0.3447890625 -0.7007849 -0.243386
0.3459375 -0.7695653 -0.02251632
0.3470859375 -0.7689044 0.2235292
0.348234375 -0.6867656 0.4728201
0.3493828125 -0.519796 0.6946653
0.35053125 -0.2747158 0.8581358
0.3516796875 0.02538019 0.9322993
0.352828125 0.3459447 0.8978698
0.3539765625 0.6445794 0.7499027
0.355125 0.8816224 0.501915
0.3562734375 1.023215 0.1812809
0.357421875 1.051322 -0.1786455
0.3585703125 0.9559168 -0.5373577
0.35971875 0.7420371 -0.8548283
0.3608671875 0.419875 -1.09512
0.362015625 0.01490909 -1.220982
0.3631640625 -0.4374263 -1.19852
0.3643125 -0.8827096 -1.002363
0.3654609375 -1.250866 -0.624505
0.366609375 -1.454043 -0.09504116
0.3677578125 -1.416706 0.5117741
0.36890625 -1.10357 1.069995
0.3700546875 -0.5586491 1.439646
0.371203125 0.09470695 1.521617
0.3723515625 0.7015007 1.305971
0.3735 1.128046 0.8656501
0.3746484375 1.312338 0.318505
0.375796875 1.254446 -0.2159646
0.3769453125 1.003483 -0.6465783
0.37809375 0.6337297 -0.9171137
0.3792421875 0.2231378 -1.012756
0.380390625 -0.1578281 -0.949166
0.3815390625 -0.4562356 -0.7646559
0.3826875 -0.6476391 -0.5082819
0.3838359375 -0.7254668 -0.229982
0.384984375 -0.7040356 0.03136621
0.3861328125 -0.6053827 0.2483151
0.38728125 -0.4555315 0.4060123
0.3884296875 -0.2791139 0.4994683
0.389578125 -0.09660067 0.5305575
0.3907265625 0.07409754 0.507204
0.391875 0.2214766 0.4377489
0.3930234375 0.3366234 0.3325922
0.394171875 0.413251 0.2026005
0.3953203125 0.4473735 0.05867342
0.39646875 0.4377467 -0.08720785
0.3976171875 0.3843427 -0.2242043
0.398765625 0.2904785 -0.3399774
0.3999140625 0.1619396 -0.4224607
0.4010625 0.008493095 -0.4605272
0.4022109375 -0.1552324 -0.445215
0.403359375 -0.3110591 -0.3720399
0.4045078125 -0.4374419 -0.2428443
0.40565625 -0.5130574 -0.06879741
0.4068046875 -0.5200442 0.1307922
0.407953125 -0.4509404 0.3272273
0.4091015625 -0.3067795 0.4917212
0.41025 -0.1026297 0.5960377
0.4113984375 0.1373407 0.6180107
0.412546875 0.3815071 0.5462545
0.4136953125 0.5946605 0.3785523
0.41484375 0.7406825 0.1253289
0.4159921875 0.7831339 -0.190503
0.417140625 0.6889417 -0.5301645
0.4182890625 0.4366032 -0.8330083
0.4194375 0.03523737 -1.014084
0.4205859375 -0.4543365 -0.9851323
0.421734375 -0.9023165 -0.694296
0.4228828125 -1.149302 -0.1908777
0.42403125 -1.099322 0.3696657
0.4251796875 -0.7841556 0.8087972
0.426328125 -0.3300896 1.023818
0.4274765625 0.1283122 1.009753
0.428625 0.4994784 0.819921
0.4297734375 0.7369684 0.5258983
0.430921875 0.8339587 0.1926794
0.4320703125 0.8009389 -0.1263037
0.43321875 0.6635504 -0.3911052
0.4343671875 0.4550295 -0.5738643
0.435515625 0.2112038 -0.6645869
0.4366640625 -0.03221 -0.6637409
0.4378125 -0.2455853 -0.5841165
0.4389609375 -0.4086631 -0.4460761
0.440109375 -0.5094479 -0.2735505
0.4412578125 -0.5466679 -0.08987578
0.44240625 -0.5255629 0.08517627
0.4435546875 -0.4559339 0.2365577
0.444703125 -0.3497719 0.3538898
0.4458515625 -0.2201401 0.4317099
0.447 -0.07883038 0.46766
0.4481484375 0.06335092 0.4626293
0.449296875 0.1947835 0.4187711
0.4504453125 0.3080353 0.3411343
0.45159375 0.3949475 0.2352378
0.4527421875 0.4492834 0.1085427
0.453890625 0.4654815 -0.02999395
0.4550390625 0.4410374 -0.1701482
0.4561875 0.3752589 -0.3000323
0.4573359375 0.2711158 -0.4078307
0.458484375 0.1351883 -0.4806827
0.4596328125 -0.02099543 -0.5088926
0.46078125 -0.1824914 -0.4858896
0.4619296875 -0.3319411 -0.4111103
0.463078125 -0.4521262 -0.2901625
0.4642265625 -0.5279734 -0.1352541
0.465375 -0.5508249 0.03818316
0.4665234375 -0.5173027 0.2112378
0.467671875 -0.4321276 0.3652027
0.4688203125 -0.3023835 0.486755
0.46996875 -0.1418637 0.563465
0.4711171875 0.03585498 0.5901087
0.472265625 0.2160517 0.5639406
0.4734140625 0.3846894 0.4856878
0.4745625 0.5280232 0.3593795
0.4757109375 0.6337113 0.1917399
0.476859375 0.6901432 -0.007699914
0.4780078125 0.6872691 -0.2268917
0.47915625 0.6172073 -0.449643
0.4803046875 0.4746615 -0.6566702
0.481453125 0.2587981 -0.8247024
0.4826015625 -0.02156249 -0.926134
0.48375 -0.3508979 -0.9335805
0.4848984375 -0.6983702 -0.8205417
0.486046875 -1.018796 -0.5683438
0.4871953125 -1.251286 -0.176113
0.48834375 -1.327541 0.32805
0.4894921875 -1.182285 0.8783304
0.490640625 -0.7826392 1.366379
0.4917890625 -0.1580519 1.655575
0.4929375 0.5803594 1.628845
0.4940859375 1.248394 1.242933
0.495234375 1.656704 0.578606
0.4963828125 1.700143 -0.181551
0.49753125 1.403378 -0.8371955
0.4986796875 0.8894764 -1.257159
0.499828125 0.3065223 -1.404872
0.5009765625 -0.2265858 -1.317951
0.502125 -0.6398179 -1.065183
0.5032734375 -0.905227 -0.7200555
0.504421875 -1.024763 -0.3443267
0.5055703125 -1.015449 0.01641826
0.50671875 -0.9014285 0.3274471
0.5078671875 -0.7086244 0.5706697
0.509015625 -0.4663873 0.7315596
0.5101640625 -0.200789 0.8064278
0.5113125 0.06314961 0.797076
0.5124609375 0.3009264 0.7108613
0.513609375 0.4938463 0.5605975
0.5147578125 0.6266713 0.3638336
0.51590625 0.6890184 0.1419374
0.5170546875 0.678379 -0.08119723
0.518203125 0.6001942 -0.2831504
0.5193515625 0.4666398 -0.4449901
0.5205 0.2948109 -0.5527144
0.5216484375 0.104197 -0.6000472
0.522796875 -0.08380538 -0.5864613
0.5239453125 -0.2532455 -0.5184931
0.52509375 -0.3895121 -0.4067499
0.5262421875 -0.4835875 -0.2640434
0.527390625 -0.5303512 -0.1047152
0.5285390625 -0.5295039 0.05818516
0.5296875 -0.4827923 0.2102258
0.5308359375 -0.3957953 0.341935
0.531984375 -0.2756887 0.4428495
0.5331328125 -0.1318403 0.5055664
0.53428125 0.02537543 0.5251055
0.5354296875 0.1835988 0.4986062
0.536578125 0.3306718 0.4258329
0.5377265625 0.4530331 0.3102628
0.538875 0.5379985 0.1589887
0.5400234375 0.574764 -0.01687378
0.541171875 0.5553182 -0.2024319
0.5423203125 0.4758952 -0.3800839
0.54346875 0.3385023 -0.5295666
0.5446171875 0.1527031 -0.6316292
0.545765625 -0.06624876 -0.6695926
0.5469140625 -0.2958767 -0.6326768
0.5480625 -0.5108725 -0.5159161
0.5492109375 -0.6836073 -0.3247191
0.550359375 -0.7880102 -0.0724685
0.5515078125 -0.801168 0.2177029
0.55265625 -0.7063447 0.5152692
0.5538046875 -0.4978795 0.778755
0.554953125 -0.1804356 0.9628255
0.5561015625 0.2182143 1.017122
0.55725 0.6440842 0.8952551
0.5583984375 1.010527 0.5755225
0.559546875 1.209704 0.08588903
0.5606953125 1.15014 -0.4728478
0.56184375 0.8134072 -0.9445776
0.5629921875 0.2903195 -1.185634
0.564140625 -0.2600346 -1.141461
0.5652890625 -0.6913256 -0.8609459
0.5664375 -0.9250516 -0.4536292
0.5675859375 -0.9558567 -0.02976136
0.568734375 -0.821887 0.3292241
0.5698828125 -0.5820304 0.5781747
0.57103125 -0.2935613 0.7024605
0.5721796875 -0.007850483 0.7082068
0.573328125 0.2369997 0.6172274
0.5744765625 0.4170707 0.45746
0.575625 0.5201499 0.260576
0.5767734375 0.5461847 0.05561968
0.577921875 0.5033461 -0.131345
0.5790703125 0.4065645 -0.2830777
0.58021875 0.2729021 -0.3877171
0.5813671875 0.1206248 -0.4401527
0.582515625 -0.03307709 -0.4406615
0.5836640625 -0.1733981 -0.3939044
0.5848125 -0.2884046 -0.3081178
0.5859609375 -0.3689709 -0.1932788
0.587109375 -0.40927 -0.06069341
0.5882578125 -0.406569 0.07698268
0.58940625 -0.3611586 0.2075609
0.5905546875 -0.2762626 0.3189067
0.591703125 -0.1583873 0.3992909
0.5928515625 -0.01752624 0.4396268
0.594 0.1336733 0.4326868
0.5951484375 0.2799991 0.3753051
0.596296875 0.4048451 0.2687355
0.5974453125 0.4920467 0.1206172
0.59859375 0.526695 -0.05667584
0.5997421875 0.4984108 -0.2455422
0.600890625 0.4031253 -0.4235761
0.6020390625 0.2434212 -0.567055
0.6031875 0.03115234 -0.6527755
0.6043359375 -0.2139518 -0.6609771
0.605484375 -0.4650359 -0.5773909
0.6066328125 -0.6879972 -0.3961329
0.60778125 -0.8449193 -0.1235565
0.6089296875 -0.8944234 0.2197538
0.610078125 -0.7995359 0.5932522
0.6112265625 -0.5346962 0.9327968
0.612375 -0.1088474 1.150555
0.6135234375 0.4205139 1.155116
0.614671875 0.9275925 0.8889952
0.6158203125 1.255459 0.3851064
0.61696875 1.290275 -0.2189959
0.6181171875 1.032388 -0.7468241
0.619265625 0.5839456 -1.068135
0.6204140625 0.08345539 -1.146181
0.6215625 -0.3580967 -1.016673
0.6227109375 -0.67514 -0.7490879
0.623859375 -0.8480765 -0.4140058
0.6250078125 -0.8810691 -0.07245747
0.62615625 -0.7976697 0.2302939
0.6273046875 -0.627982 0.4650795
0.628453125 -0.4069956 0.6147414
0.6296015625 -0.1667471 0.6770358
0.63075 0.06420543 0.6579916
0.6318984375 0.2614883 0.5713471
0.633046875 0.4119445 0.4344136
0.6341953125 0.504885 0.2683346
0.63534375 0.5398667 0.09183853
0.6364921875 0.5204818 -0.07725524
0.637640625 0.4546594 -0.2253547
0.6387890625 0.3526546 -0.3415939
0.6399375 0.226121 -0.419749
0.6410859375 0.08746332 -0.4565169
0.642234375 -0.05223481 -0.4518235
0.6433828125 -0.1809415 -0.4087826
0.64453125 -0.2901521 -0.3318077
0.6456796875 -0.3720592 -0.2281032
0.646828125 -0.4199167 -0.1063461
0.6479765625 -0.430846 0.02355361
0.649125 -0.4031816 0.1510118
0.6502734375 -0.3394893 0.2653858
0.651421875 -0.2445457 0.3560826
0.6525703125 -0.1260144 0.4149289
0.65371875 0.005879215 0.435603
0.6548671875 0.1388023 0.4156392
0.656015625 0.2605985 0.3555786
0.6571640625 0.3589356 0.2610016
0.6583125 0.4242935 0.1399507
0.6594609375 0.4502304 0.004160909
0.660609375 0.4339035 -0.1341728
0.6617578125 0.3764372 -0.2621959
0.66290625 0.2824385 -0.3680332
0.6640546875 0.1602868 -0.4419478
0.665203125 0.01991302 -0.4770765
0.6663515625 -0.127135 -0.4694974
0.6675 -0.2684187 -0.4177626
0.6686484375 -0.391316 -0.3251255
0.669796875 -0.4845722 -0.1966471
0.6709453125 -0.5380878 -0.04062694
0.67209375 -0.5434238 0.1298295
0.6732421875 -0.4955245 0.3022356
0.674390625 -0.3926195 0.4606143
0.6755390625 -0.2385266 0.5860664
0.6766875 -0.04143772 0.6623361
0.6778359375 0.1833509 0.673399
0.678984375 0.4146902 0.6070799
0.6801328125 0.6259381 0.4590811
0.68128125 0.7871625 0.2335424
0.6824296875 0.8670971 -0.05426132
0.683578125 0.8406212 -0.37552
0.6847265625 0.6892005 -0.6895407
0.685875 0.4127202 -0.9460722
0.6870234375 0.03046759 -1.088795
0.688171875 -0.4096275 -1.069835
0.6893203125 -0.8307687 -0.860456
0.69046875 -1.144585 -0.4716603
0.6916171875 -1.265167 0.03629186
0.692765625 -1.146815 0.5582624
0.6939140625 -0.8088207 0.9741715
0.6950625 -0.3317841 1.193274
0.6962109375 0.1712714 1.183418
0.697359375 0.5969656 0.9746737
0.6985078125 0.8796698 0.6358274
0.69965625 0.9962229 0.2446284
0.7008046875 0.960243 -0.1304068
0.701953125 0.8016357 -0.4403491
0.7031015625 0.5628009 -0.656669
0.70425 0.2841917 -0.7683134
0.7053984375 0.003652619 -0.7779112
0.706546875 -0.2475599 -0.6977338
0.7076953125 -0.4461118 -0.5476775
0.70884375 -0.5765761 -0.3514966
0.7099921875 -0.6331624 -0.1346635
0.711140625 -0.616625 0.07803416
0.7122890625 -0.5358853 0.2656004
0.7134375 -0.4053862 0.410087
0.7145859375 -0.24194 0.5016481
0.715734375 -0.06458057 0.5353819
0.7168828125 0.1068835 0.5120581
0.71803125 0.2577495 0.4388806
0.7191796875 0.3750047 0.3260923
0.720328125 0.4495459 0.1861217
0.7214765625 0.476891 0.03346115
0.722625 0.4567496 -0.1176751
0.7237734375 0.3918197 -0.2540605
0.724921875 0.2893392 -0.3633486
0.7260703125 0.1581029 -0.4355851
0.72721875 0.01019364 -0.4643046
0.7283671875 -0.1409015 -0.4458729
0.729515625 -0.2810965 -0.3800035
0.7306640625 -0.39574 -0.2708289
0.7318125 -0.4714829 -0.1266547
0.7329609375 -0.4974383 0.03878466
0.734109375 -0.4665597 0.2096217
0.7352578125 -0.3771065 0.3669923
0.73640625 -0.2338934 0.4898984
0.7375546875 -0.04848797 0.559583
0.738703125 0.1598596 0.5602856
0.7398515625 0.3659109 0.4834539
0.741 0.5402697 0.3287472
0.7421484375 0.6525062 0.1072854
0.743296875 0.6745443 -0.1570197
0.7444453125 0.5869467 -0.4277883
0.74559375 0.3842353 -0.6568766
0.7467421875 0.08442567 -0.7906392
0.747890625 -0.2662475 -0.7819321
0.7490390625 -0.5711661 -0.5846797
0.7501875 -0.7826903 -0.2799971
0.7513359375 -0.8274079 0.09470931
0.752484375 -0.6913899 0.4444523
0.7536328125 -0.4163955 0.6820099
0.75478125 -0.08073962 0.7641224
0.7559296875 0.2350807 0.6938774
0.757078125 0.4726232 0.5103531
0.7582265625 0.6032894 0.2656448
0.759375 0.6249686 0.009725548
0.7605234375 0.5528811 -0.2173853
0.761671875 0.4109817 -0.3887312
0.7628203125 0.2290725 -0.4897536
0.76396875 0.03464088 -0.5170478
0.7651171875 -0.1466502 -0.4764024
0.766265625 -0.2948036 -0.3801773
0.7674140625 -0.3959326 -0.2455749
0.7685625 -0.4428507 -0.09093762
0.7697109375 -0.435964 0.06421555
0.770859375 -0.3796892 0.2033332
0.7720078125 -0.2837673 0.3126153
0.77315625 -0.1611617 0.3831498
0.7743046875 -0.02578738 0.4099009
0.775453125 0.1089818 0.3923481
0.7766015625 0.2296045 0.3340807
0.77775 0.3250804 0.2417269
0.7788984375 0.3871149 0.1245207
0.780046875 0.4099314 -0.006654177
0.7811953125 0.3907443 -0.1395521
0.78234375 0.3307518 -0.2617222
0.7834921875 0.2333917 -0.3614317
0.784640625 0.1070139 -0.4273883
0.7857890625 -0.03852328 -0.451178
0.7869375 -0.1890949 -0.4266684
0.7880859375 -0.3293143 -0.3527364
0.789234375 -0.4425285 -0.2324931
0.7903828125 -0.5139757 -0.07491605
0.79153125 -0.5303401 0.1060791
0.7926796875 -0.4828821 0.2909209
0.793828125 -0.3703001 0.4578654
0.7949765625 -0.1983541 0.583086
0.796125 0.01806355 0.6443675
0.7972734375 0.2559447 0.6253604
0.798421875 0.484906 0.5160987
0.7995703125 0.669735 0.3194077
0.80071875 0.7754157 0.05209968
0.8018671875 0.7710583 -0.2539785
0.803015625 0.6406054 -0.5516955
0.8041640625 0.3881214 -0.7834157
0.8053125 0.04721649 -0.8964627
0.8064609375 -0.3204687 -0.8536916
0.807609375 -0.6395981 -0.6547993
0.8087578125 -0.8424535 -0.3390503
0.80990625 -0.8901255 0.02538691
0.8110546875 -0.7837728 0.3635254
0.812203125 -0.5597594 0.6151619
0.8133515625 -0.2713751 0.7475776
0.8145 0.02542792 0.7573072
0.8156484375 0.2854812 0.6614388
0.816796875 0.4777988 0.4891935
0.8179453125 0.5879169 0.2747266
0.81909375 0.6142583 0.05117001
0.8202421875 0.5648071 -0.1536905
0.821390625 0.4564639 -0.3186336
0.8225390625 0.3088853 -0.4306236
0.8236875 0.1429149 -0.484519
0.8248359375 -0.02136788 -0.4817162
0.825984375 -0.1675214 -0.4293814
0.8271328125 -0.2831131 -0.3386839
0.82828125 -0.3602992 -0.222975
0.8294296875 -0.3964249 -0.0956468
0.830578125 -0.3921473 0.03076703
0.8317265625 -0.3517409 0.1448
0.832875 -0.2822136 0.2381455
0.8340234375 -0.191227 0.3039796
0.835171875 -0.08830234 0.3395552
0.8363203125 0.017847 0.3430944
0.83746875 0.1182379 0.3161732
0.8386171875 0.2048664 0.2619519
0.839765625 0.2711025 0.1857919
0.8409140625 0.3115344 0.09451374
0.8420625 0.3232982 -0.004247501
0.8432109375 0.3052381 -0.1014503
0.844359375 0.2590513 -0.1889218
0.8455078125 0.1885517 -0.2583969
0.84665625 0.1001465 -0.3033843
0.8478046875 0.002086554 -0.3195141
0.848953125 -0.09636766 -0.3049811
0.8501015625 -0.1858375 -0.2606239
0.85125 -0.2575718 -0.1911076
0.8523984375 -0.3046446 -0.1026687
0.853546875 -0.3225292 -0.003911336
0.8546953125 -0.3094912 0.09595183
0.85584375 -0.2668171 0.187473
0.8569921875 -0.1980458 0.2622289
0.858140625 -0.1093361 0.3133678
0.8592890625 -0.00811679 0.336068
0.8604375 0.09661081 0.3275964
0.8615859375 0.1960781 0.2875922
0.862734375 0.2812343 0.2180014
0.8638828125 0.3435561 0.1238074
0.86503125 0.376086 0.01119193
0.8661796875 0.3726056 -0.1106672
0.867328125 0.3307638 -0.2314725
0.8684765625 0.2494722 -0.3383264
0.869625 0.1322931 -0.4190969
0.8707734375 -0.01332187 -0.4607016
0.871921875 -0.1749111 -0.4521331
0.8730703125 -0.3355315 -0.3860581
0.87421875 -0.4741211 -0.2597325
0.8753671875 -0.5668728 -0.07957102
0.876515625 -0.590368 0.1392029
0.8776640625 -0.525326 0.3691948
0.8788125 -0.3642276 0.5727572
0.8799609375 -0.1158323 0.7047761
0.881109375 0.1858815 0.7223304
0.8822578125 0.483499 0.600604
0.88340625 0.7051998 0.347992
0.8845546875 0.7886519 0.01470155
0.885703125 0.7096127 -0.3181964
0.8868515625 0.4935163 -0.5702118
0.888 0.2028825 -0.6920465
0.8891484375 -0.08953191 -0.6766156
0.890296875 -0.3282692 -0.551329
0.8914453125 -0.4821849 -0.3591496
0.89259375 -0.544368 -0.142883
0.8937421875 -0.5239412 0.06185776
0.894890625 -0.4388313 0.2306205
0.8960390625 -0.3105045 0.3492672
0.8971875 -0.1603987 0.411726
0.8983359375 -0.008315332 0.4194811
0.899484375 0.1291779 0.3785056
0.9006328125 0.238908 0.2983071
0.90178125 0.3125365 0.1917637
0.9029296875 0.3453887 0.07255804
0.904078125 0.3375095 -0.04586949
0.9052265625 0.2926052 -0.1511628
0.906375 0.218456 -0.2330076
0.9075234375 0.1247386 -0.2842821
0.908671875 0.02269327 -0.3014871
0.9098203125 -0.07662109 -0.285254
0.91096875 -0.1631937 -0.2387578
0.9121171875 -0.2285435 -0.1687097
0.913265625 -0.2672236 -0.08305822
0.9144140625 -0.2764937 0.008919209
0.9155625 -0.2564543 0.09828486
0.9167109375 -0.2096097 0.1758696
0.917859375 -0.1406448 0.2347552
0.9190078125 -0.05646491 0.2690877
0.92015625 0.03514576 0.2752931
0.9213046875 0.1252592 0.252014
0.922453125 0.2051571 0.2002796
0.9236015625 0.2658016 0.1237831
0.92475 0.2998583 0.02880813
0.9258984375 0.3012707 -0.07577647
0.927046875 0.2670135 -0.1795388
0.9281953125 0.1970321 -0.2705031
0.92934375 0.09534506 -0.336061
0.9304921875 -0.02926835 -0.3643844
0.931640625 -0.1641983 -0.347064
0.9327890625 -0.2922271 -0.2791744
0.9339375 -0.3945329 -0.1624479
0.9350859375 -0.450807 -0.005599197
0.936234375 -0.4442149 0.173763
0.9373828125 -0.3641166 0.3500254
0.93853125 -0.2095259 0.4912321
0.9396796875 0.00442019 0.5625604
0.940828125 0.2445121 0.5363725
0.9419765625 0.4627246 0.4011898
0.943125 0.6051831 0.173161
0.9442734375 0.6300114 -0.1020793
0.945421875 0.5262488 -0.3603018
0.9465703125 0.320263 -0.5407345
0.94771875 0.06477035 -0.608623
0.9488671875 -0.1818323 -0.5612854
0.950015625 -0.3732416 -0.4244084
0.9511640625 -0.4851509 -0.2354769
0.9523125 -0.5128629 -0.03296522
0.9534609375 -0.4656775 0.1516227
0.954609375 -0.3617778 0.2959923
0.9557578125 -0.222363 0.3874653
0.95690625 -0.06933451 0.4223253
0.9580546875 0.07795615 0.4034887
0.959203125 0.2033899 0.3394059
0.9603515625 0.2952966 0.2415079
0.9615 0.3475106 0.1243102
0.9626484375 0.3576091 0.001785071
0.963796875 0.3283081 -0.1127409
0.9649453125 0.2661002 -0.2080487
0.96609375 0.1796617 -0.2760217
0.9672421875 0.07961253 -0.3119277
0.968390625 -0.02356394 -0.3143732
0.9695390625 -0.1198439 -0.2854788
0.9706875 -0.2006111 -0.2298003
0.9718359375 -0.2593636 -0.1534336
0.972984375 -0.2916808 -0.06440957
0.9741328125 -0.295356 0.02904693
0.97528125 -0.270986 0.1186877
0.9764296875 -0.2212129 0.1968758
0.977578125 -0.1502706 0.2564124
0.9787265625 -0.06405468 0.2924303
0.979875 0.0297992 0.3009422
0.9810234375 0.1231169 0.2805095
0.982171875 0.2076239 0.2319214
0.9833203125 0.2745642 0.1582724
0.98446875 0.3168664 0.0656633
0.9856171875 0.3287738 -0.03827914
0.986765625 0.307365 -0.1437616
0.9879140625 0.2522949 -0.2402954
0.9890625 0.167093 -0.3169909
0.9902109375 0.05840597 -0.3648142
0.991359375 -0.06416542 -0.3755431
0.9925078125 -0.1882917 -0.3460201
0.99365625 -0.3011129 -0.2754859
0.9948046875 -0.3888554 -0.1679643
0.995953125 -0.4395458 -0.03186978
