# GHZ S RI R 50.0
0.3 -2.42029 0.6774076
0.3011484375 -1.761371 1.436125
0.302296875 -0.9763668 1.796116
0.3034453125 -0.2365346 1.823338
0.30459375 0.3639663 1.616658
0.3057421875 0.793685 1.274879
0.306890625 1.056251 0.8742239
0.3080390625 1.171857 0.4673066
0.3091875 1.168167 0.08871882
0.3103359375 1.070717 -0.2410777
0.311484375 0.9036324 -0.5111575
0.3126328125 0.6869025 -0.7136116
0.31378125 0.4375783 -0.8477516
0.3149296875 0.1726667 -0.9096726
0.316078125 -0.09497528 -0.9006175
0.3172265625 -0.347203 -0.8208463
0.318375 -0.5678338 -0.6758434
0.3195234375 -0.7397534 -0.4713368
0.320671875 -0.844668 -0.2215844
0.3218203125 -0.8676561 0.05247428
0.32296875 -0.8013752 0.3212957
0.3241171875 -0.6505067 0.5537446
0.325265625 -0.4321682 0.7219154
0.3264140625 -0.1749776 0.8059935
0.3275625 0.08841585 0.799912
0.3287109375 0.324858 0.7119363
0.329859375 0.5124135 0.5606546
0.3310078125 0.6396279 0.3682106
0.33215625 0.7004681 0.158034
0.3333046875 0.69951 -0.05190049
0.334453125 0.6425827 -0.2464181
0.3356015625 0.5395109 -0.4133799
0.33675 0.3978758 -0.5457028
0.3378984375 0.2290962 -0.6359658
0.339046875 0.04099326 -0.6800461
0.3401953125 -0.1563426 -0.6737992
0.34134375 -0.350162 -0.6147388
0.3424921875 -0.5291097 -0.5007748
0.343640625 -0.6766737 -0.3347093
0.3447890625 -0.7770821 -0.1195044
0.3459375 -0.8119113 0.1314154
0.3470859375 -0.7650489 0.400515
0.348234375 -0.6239181 0.6587285
0.3493828125 -0.387547 0.8714429
0.35053125 -0.07266632 0.9986594
0.3516796875 0.2918528 1.007235
0.352828125 0.6550213 0.8772366
0.3539765625 0.9633227 0.6102531
0.355125 1.163006 0.2303177
0.3562734375 1.211837 -0.2194037
0.357421875 1.084336 -0.6777836
0.3585703125 0.7770129 -1.078063
0.35971875 0.311579 -1.34439
0.3608671875 -0.2566468 -1.405365
0.362015625 -0.8319595 -1.21019
0.3631640625 -1.284173 -0.7620907
0.3643125 -1.487959 -0.1375255
0.3654609375 -1.376383 0.5079894
0.366609375 -0.9867787 1.011486
0.3677578125 -0.4436563 1.264211
0.36890625 0.1073282 1.251966
0.3700546875 0.5585669 1.030065
0.371203125 0.8531117 0.680601
0.3723515625 0.9786745 0.2813577
0.3735 0.9470705 -0.09994397
0.3746484375 0.7889838 -0.4191947
0.375796875 0.5431501 -0.6418688
0.3769453125 0.2503604 -0.7519184
0.37809375 -0.04334058 -0.7465093
0.3792421875 -0.2979182 -0.6393347
0.380390625 -0.4834335 -0.457264
0.3815390625 -0.5826395 -0.2344888
0.3826875 -0.5931013 -0.006728379
0.3838359375 -0.5258055 0.1959457
0.384984375 -0.4008814 0.3512105
0.3861328125 -0.2411483 0.447334
0.38728125 -0.06840538 0.482998
0.3884296875 0.09776884 0.4616397
0.389578125 0.2427166 0.3911782
0.3907265625 0.3549667 0.282086
0.391875 0.4268851 0.1456335
0.3930234375 0.4533689 -0.005920168
0.394171875 0.4320919 -0.1603293
0.3953203125 0.3621986 -0.3046881
0.39646875 0.2466741 -0.4252516
0.3976171875 0.09030964 -0.5079279
0.398765625 -0.09725855 -0.5383895
0.3999140625 -0.2996686 -0.5029026
0.4010625 -0.4963884 -0.3905493
0.4022109375 -0.6572622 -0.1976563
0.403359375 -0.7472236 0.06870756
0.4045078125 -0.7286853 0.3843209
0.40565625 -0.5709485 0.7055594
0.4068046875 -0.2595307 0.966563
0.407953125 0.1859065 1.086709
0.4091015625 0.7002275 0.9860832
0.41025 1.161679 0.6160739
0.4113984375 1.408513 0.00620993
0.412546875 1.297292 -0.6990081
0.4136953125 0.8077902 -1.258286
0.41484375 0.1010559 -1.462736
0.4159921875 -0.5650051 -1.275646
0.417140625 -0.999421 -0.829326
0.4182890625 -1.155735 -0.3050689
0.4194375 -1.083603 0.1649111
0.4205859375 -0.8650877 0.5165481
0.421734375 -0.5733533 0.7344808
0.4228828125 -0.2617862 0.8274533
0.42403125 0.03298128 0.8146979
0.4251796875 0.2851799 0.7173676
0.426328125 0.482205 0.557062
0.4274765625 0.6117086 0.356322
0.428625 0.6707764 0.1345776
0.4297734375 0.6582925 -0.08696695
0.430921875 0.5795774 -0.2873189
0.4320703125 0.4442036 -0.4485122
0.43321875 0.268099 -0.5550943
0.4343671875 0.07240045 -0.5972888
0.435515625 -0.1215694 -0.5742412
0.4366640625 -0.292091 -0.4919111
0.4378125 -0.4219816 -0.3631657
0.4389609375 -0.5009364 -0.2057219
0.440109375 -0.525269 -0.03843062
0.4412578125 -0.4983432 0.1215886
0.44240625 -0.4270419 0.2602325
0.4435546875 -0.3225239 0.3676733
0.444703125 -0.1955425 0.4380674
0.4458515625 -0.05833647 0.4690143
0.447 0.07930502 0.4611455
0.4481484375 0.2076717 0.4162407
0.449296875 0.3183435 0.3386984
0.4504453125 0.4039152 0.2340695
0.45159375 0.4583985 0.108703
0.4527421875 0.4770723 -0.02912808
0.453890625 0.4559665 -0.169921
0.4550390625 0.3942652 -0.3028964
0.4561875 0.2929035 -0.416918
0.4573359375 0.1585567 -0.4986483
0.458484375 -0.0008547415 -0.5379454
0.4596328125 -0.1711064 -0.5259576
0.46078125 -0.3347678 -0.4589454
0.4619296875 -0.4737579 -0.3397602
0.463078125 -0.5704808 -0.1781066
0.4642265625 -0.6112083 0.01061725
0.465375 -0.5895651 0.2064103
0.4665234375 -0.5055814 0.3889069
0.467671875 -0.3671631 0.5380214
0.4688203125 -0.186546 0.6395862
0.46996875 0.01972969 0.6822329
0.4711171875 0.2343571 0.6614473
0.472265625 0.4394869 0.5759479
0.4734140625 0.616658 0.4301607
0.4745625 0.7502707 0.2301768
0.4757109375 0.824239 -0.01322026
0.476859375 0.8229696 -0.2851449
0.4780078125 0.7343704 -0.5649138
0.47915625 0.548586 -0.8262535
0.4803046875 0.2626482 -1.034667
0.481453125 -0.1144273 -1.149771
0.4826015625 -0.5569458 -1.124233
0.48375 -1.012185 -0.9158934
0.4848984375 -1.395761 -0.4987726
0.486046875 -1.596161 0.1067744
0.4871953125 -1.501199 0.8126443
0.48834375 -1.05551 1.446311
0.4894921875 -0.3203426 1.807543
0.490640625 0.5136351 1.761204
0.4917890625 1.203472 1.321818
0.4929375 1.576999 0.6458871
0.4940859375 1.597419 -0.06373653
0.495234375 1.334845 -0.6465515
0.4963828125 0.9077197 -1.024391
0.49753125 0.4294289 -1.185308
0.4986796875 -0.01964331 -1.1625
0.499828125 -0.3881543 -1.003189
0.5009765625 -0.6529289 -0.7566943
0.502125 -0.808054 -0.4676153
0.5032734375 -0.860153 -0.1714508
0.504421875 -0.8224799 0.1053435
0.5055703125 -0.7115167 0.3398053
0.50671875 -0.5450434 0.5211599
0.5078671875 -0.3428316 0.6394792
0.509015625 -0.1231363 0.690203
0.5101640625 0.094661 0.6737722
0.5113125 0.2923721 0.595324
0.5124609375 0.4532481 0.4636076
0.513609375 0.5645913 0.2913743
0.5147578125 0.6162189 0.09607701
0.51590625 0.6042824 -0.1026819
0.5170546875 0.5309876 -0.2848384
0.518203125 0.4057029 -0.4321984
0.5193515625 0.2424789 -0.5300248
0.5205 0.06008289 -0.5703484
0.5216484375 -0.1221538 -0.5509531
0.522796875 -0.2859137 -0.4772393
0.5239453125 -0.4161458 -0.358291
0.52509375 -0.5019794 -0.2078951
0.5262421875 -0.5380371 -0.04072553
0.527390625 -0.5223991 0.1281162
0.5285390625 -0.4572849 0.2842479
0.5296875 -0.3484404 0.4146605
0.5308359375 -0.204245 0.5086103
0.531984375 -0.03579217 0.556538
0.5331328125 0.1447244 0.5521199
0.53428125 0.3222343 0.4917393
0.5354296875 0.4804244 0.3750949
0.536578125 0.6011488 0.2058635
0.5377265625 0.6669515 -0.005822445
0.538875 0.6603978 -0.2447945
0.5400234375 0.5677273 -0.4875104
0.541171875 0.3812644 -0.7026502
0.5423203125 0.1040984 -0.8524051
0.54346875 -0.2446038 -0.8936116
0.5446171875 -0.6237596 -0.7852781
0.545765625 -0.9652703 -0.4987957
0.5469140625 -1.173506 -0.03954096
0.5480625 -1.142817 0.5280337
0.5492109375 -0.8014677 1.058254
0.550359375 -0.1903818 1.350381
0.5515078125 0.4982328 1.260383
0.55265625 1.010765 0.8219439
0.5538046875 1.19557 0.2279339
0.554953125 1.073084 -0.311364
0.5561015625 0.7590179 -0.6778744
0.55725 0.3754178 -0.8470463
0.5583984375 0.009178326 -0.8466806
0.559546875 -0.2893482 -0.7233299
0.5606953125 -0.4985253 -0.5238307
0.56184375 -0.6126798 -0.2874915
0.5629921875 -0.6370234 -0.04708661
0.564140625 -0.5831425 0.171585
0.5652890625 -0.4662789 0.3494816
0.5664375 -0.3051237 0.4724589
0.5675859375 -0.1189267 0.5326687
0.568734375 0.06939267 0.5280175
0.5698828125 0.2412956 0.4624028
0.57103125 0.3783589 0.3460579
0.5721796875 0.4670093 0.1938862
0.573328125 0.4991741 0.02370002
0.5744765625 0.4733053 -0.1447312
0.575625 0.3947259 -0.2927125
0.5767734375 0.2734998 -0.4055013
0.577921875 0.124642 -0.4721177
0.5790703125 -0.03636622 -0.4876986
0.58021875 -0.1935309 -0.4519731
0.5813671875 -0.3314916 -0.3689792
0.582515625 -0.4382046 -0.2470719
0.5836640625 -0.5033592 -0.09694541
0.5848125 -0.5206022 0.06937626
0.5859609375 -0.4861087 0.2375124
0.587109375 -0.399623 0.3929104
0.5882578125 -0.2644683 0.5205324
0.58940625 -0.08871129 0.6051651
0.5905546875 0.117122 0.633649
0.591703125 0.3357244 0.5944074
0.5928515625 0.5467614 0.4798151
0.594 0.7236038 0.2877381
0.5951484375 0.8365619 0.02506831
0.596296875 0.8560117 -0.2892763
0.5974453125 0.7538951 -0.6238769
0.59859375 0.5130324 -0.9307346
0.5997421875 0.1328679 -1.147264
0.600890625 -0.3548231 -1.20196
0.6020390625 -0.8777657 -1.030736
0.6031875 -1.316073 -0.6039795
0.6043359375 -1.525316 0.03253791
0.605484375 -1.391694 0.7330268
0.6066328125 -0.9144132 1.288043
0.60778125 -0.2349671 1.526499
0.6089296875 0.4354219 1.40805
0.610078125 0.926849 1.026078
0.6112265625 1.171548 0.5241007
0.612375 1.185544 0.02875948
0.6135234375 1.026595 -0.3813073
0.614671875 0.7617987 -0.6701916
0.6158203125 0.4480706 -0.8303394
0.61696875 0.1308905 -0.872852
0.6181171875 -0.1557345 -0.8145703
0.619265625 -0.3910376 -0.6794231
0.6204140625 -0.559975 -0.4904139
0.6215625 -0.656038 -0.2718432
0.6227109375 -0.678651 -0.04586792
0.623859375 -0.6318223 0.1650621
0.6250078125 -0.5267608 0.3431503
0.62615625 -0.3777328 0.4744742
0.6273046875 -0.2022119 0.5499982
0.628453125 -0.01895524 0.5665664
0.6296015625 0.1536792 0.5268785
0.63075 0.2999855 0.4391105
0.6318984375 0.4081573 0.3154137
0.633046875 0.471249 0.1699845
0.6341953125 0.4869106 0.01806124
0.63534375 0.457327 -0.1266608
0.6364921875 0.3890421 -0.2520075
0.637640625 0.2900837 -0.3489216
0.6387890625 0.1704848 -0.4115612
0.6399375 0.04096811 -0.4365176
0.6410859375 -0.08798456 -0.4241545
0.642234375 -0.2067688 -0.3765106
0.6433828125 -0.3061758 -0.297707
0.64453125 -0.379374 -0.1944102
0.6456796875 -0.4202387 -0.07459643
0.646828125 -0.4250947 0.05343
0.6479765625 -0.3932974 0.1775756
0.649125 -0.3258643 0.289169
0.6502734375 -0.2270603 0.3778043
0.651421875 -0.1043367 0.4343498
0.6525703125 0.03240341 0.4520533
0.65371875 0.1710613 0.4276543
0.6548671875 0.2984054 0.361131
0.656015625 0.401832 0.2566735
0.6571640625 0.4698954 0.1227254
0.6583125 0.4942892 -0.02833343
0.6594609375 0.4708866 -0.1830806
0.660609375 0.3999856 -0.3267107
0.6617578125 0.2860853 -0.4443019
0.66290625 0.1381735 -0.5241787
0.6640546875 -0.03203943 -0.5568227
0.665203125 -0.2098188 -0.5358357
0.6663515625 -0.3792942 -0.4592245
0.6675 -0.5239083 -0.3297351
0.6686484375 -0.6273912 -0.1538409
0.669796875 -0.6746407 0.05669225
0.6709453125 -0.6535195 0.285945
0.67209375 -0.5541454 0.5124912
0.6732421875 -0.3733637 0.7099825
0.674390625 -0.1160925 0.8485199
0.6755390625 0.2016044 0.8946794
0.6766875 0.5476295 0.8178488
0.6778359375 0.8724785 0.5967625
0.678984375 1.109662 0.2306076
0.6801328125 1.184252 -0.246436
0.68128125 1.033438 -0.7546821
0.6824296875 0.6408498 -1.171971
0.683578125 0.0679462 -1.368203
0.6847265625 -0.544691 -1.262758
0.685875 -1.026647 -0.8771871
0.6870234375 -1.25609 -0.3314127
0.688171875 -1.208698 0.2198734
0.6893203125 -0.9454457 0.6517973
0.69046875 -0.5663021 0.9044189
0.6916171875 -0.1626316 0.9749637
0.692765625 0.1966546 0.8940942
0.6939140625 0.4709329 0.7076165
0.6950625 0.6440533 0.4612792
0.6962109375 0.715309 0.1955259
0.697359375 0.6954352 -0.05730756
0.6985078125 0.6002833 -0.2731657
0.69965625 0.4508984 -0.435859
0.7008046875 0.2676268 -0.5361049
0.701953125 0.07158592 -0.5711641
0.7031015625 -0.1170731 -0.542768
0.70425 -0.2810986 -0.4588738
0.7053984375 -0.4061992 -0.330664
0.706546875 -0.4811863 -0.172793
0.7076953125 -0.5009244 -0.002833922
0.70884375 -0.4650269 0.1615611
0.7099921875 -0.3788125 0.3035336
0.711140625 -0.2523596 0.4083885
0.7122890625 -0.09977132 0.4654257
0.7134375 0.06209997 0.4692719
0.7145859375 0.2160149 0.4199893
0.715734375 0.3456112 0.3232844
0.7168828125 0.4367318 0.1887396
0.71803125 0.4793183 0.03015717
0.7191796875 0.4680942 -0.1358926
0.720328125 0.4015982 -0.2926521
0.7214765625 0.2847361 -0.4228441
0.722625 0.1259365 -0.5108605
0.7237734375 -0.06110873 -0.542528
0.724921875 -0.2583185 -0.5085774
0.7260703125 -0.4437355 -0.4033644
0.72721875 -0.5916638 -0.2287495
0.7283671875 -0.675124 0.005225763
0.729515625 -0.6663507 0.2764633
0.7306640625 -0.5449634 0.5498183
0.7318125 -0.3025798 0.7755033
0.7329609375 0.04563805 0.8929395
0.734109375 0.4491639 0.8438184
0.7352578125 0.8190767 0.5948376
0.73640625 1.042168 0.1706287
0.7375546875 1.028077 -0.3315698
0.738703125 0.7634646 -0.7661634
0.7398515625 0.3267726 -1.008612
0.741 -0.1484127 -1.009446
0.7421484375 -0.5394242 -0.8050225
0.743296875 -0.7769809 -0.4786734
0.7444453125 -0.8473551 -0.1195381
0.74559375 -0.7753804 0.204029
0.7467421875 -0.6027929 0.4503999
0.747890625 -0.3738451 0.6015618
0.7490390625 -0.1228216 0.6315315
0.7501875 0.09919144 0.6032478
0.7513359375 0.2857701 0.5085537
0.752484375 0.4222212 0.367648
0.7536328125 0.5018144 0.1991867
0.75478125 0.5231448 0.02265145
0.7559296875 0.4884573 -0.1454401
0.757078125 0.4059431 -0.2894638
0.7582265625 0.2854109 -0.3977177
0.759375 0.1403319 -0.4614426
0.7605234375 -0.01504952 -0.4766473
0.761671875 -0.1655744 -0.4428174
0.7628203125 -0.2968381 -0.3641692
0.76396875 -0.3960599 -0.2492464
0.7651171875 -0.4538245 -0.1092357
0.766265625 -0.4645595 0.04117301
0.7674140625 -0.427915 0.1872001
0.7685625 -0.3471042 0.3143263
0.7697109375 -0.2305483 0.4098632
0.770859375 -0.08983477 0.4644046
0.7720078125 0.06153487 0.4729944
0.77315625 0.2095767 0.4341494
0.7743046875 0.3395207 0.35077
0.775453125 0.4396229 0.2304501
0.7766015625 0.4992325 0.08240581
0.77775 0.5117019 -0.08018173
0.7788984375 0.4724934 -0.2436161
0.780046875 0.3826601 -0.3922971
0.7811953125 0.2457847 -0.5106314
0.78234375 0.0717103 -0.5840574
0.7834921875 -0.1268394 -0.5999625
0.784640625 -0.3308792 -0.548748
0.7857890625 -0.5187201 -0.4269492
0.7869375 -0.6650134 -0.237912
0.7880859375 -0.7432699 0.006090022
0.789234375 -0.7310744 0.2807471
0.7903828125 -0.6124669 0.5520709
0.79153125 -0.3868493 0.7759811
0.7926796875 -0.07134965 0.905567
0.793828125 0.2927407 0.9014802
0.7949765625 0.6435779 0.7407709
0.796125 0.9074047 0.4355985
0.7972734375 1.019872 0.03450954
0.798421875 0.9475653 -0.3808313
0.7995703125 0.7040541 -0.7222083
0.80071875 0.3472376 -0.9199993
0.8018671875 -0.04250757 -0.947526
0.803015625 -0.388106 -0.8193272
0.8041640625 -0.6355319 -0.580649
0.8053125 -0.7616242 -0.2884929
0.8064609375 -0.7690336 0.005430869
0.807609375 -0.6773927 0.260979
0.8087578125 -0.5152062 0.4532003
0.80990625 -0.3125254 0.5691059
0.8110546875 -0.09860465 0.6083604
0.812203125 0.1031268 0.5773399
0.8133515625 0.2735853 0.4880782
0.8145 0.3993563 0.356453
0.8156484375 0.4729476 0.1997615
0.816796875 0.4920457 0.03558864
0.8179453125 0.4598078 -0.1190144
0.81909375 0.3837959 -0.2505486
0.8202421875 0.2745239 -0.3471047
0.821390625 0.1455614 -0.4025019
0.8225390625 0.01079656 -0.4142225
0.8236875 -0.1160364 -0.3844727
0.8248359375 -0.2233737 -0.3192645
0.825984375 -0.3027883 -0.2272197
0.8271328125 -0.3484671 -0.1191698
0.82828125 -0.3589644 -0.006040858
0.8294296875 -0.3356625 0.1018422
0.830578125 -0.2825899 0.19505
0.8317265625 -0.2062458 0.2667425
0.832875 -0.1140338 0.3116239
0.8340234375 -0.01441805 0.3273825
0.835171875 0.08442826 0.3134614
0.8363203125 0.1740331 0.2717433
0.83746875 0.247348 0.2056924
0.8386171875 0.2979697 0.1211435
0.839765625 0.3214965 0.02471815
0.8409140625 0.3155685 -0.07510856
0.8420625 0.2796272 -0.1699503
0.8432109375 0.2156234 -0.2507116
0.844359375 0.1286265 -0.3091342
0.8455078125 0.02581347 -0.3391625
0.84665625 -0.08365589 -0.3354684
0.8478046875 -0.1892019 -0.2969597
0.848953125 -0.2794798 -0.2256983
0.8501015625 -0.3442323 -0.1267433
0.85125 -0.3753897 -0.009287422
0.8523984375 -0.3671542 0.115375
0.853546875 -0.3180873 0.2350052
0.8546953125 -0.2305721 0.3361465
0.85584375 -0.1107884 0.4062839
0.8569921875 0.03158782 0.4357105
0.858140625 0.1828575 0.4163609
0.8592890625 0.327613 0.3449502
0.8604375 0.4478127 0.2218005
0.8615859375 0.5247291 0.05362813
0.862734375 0.5397698 -0.1462661
0.8638828125 0.4761807 -0.3559861
0.86503125 0.3256375 -0.543603
0.8661796875 0.09146975 -0.6691932
0.867328125 -0.2011551 -0.6877753
0.8684765625 -0.4984989 -0.5664465
0.869625 -0.722236 -0.3031021
0.8707734375 -0.7961324 0.05243959
0.871921875 -0.6841757 0.4047584
0.8730703125 -0.4183119 0.6523727
0.87421875 -0.08322763 0.7363634
0.8753671875 0.2278778 0.6599627
0.876515625 0.4506876 0.4708307
0.8776640625 0.5598937 0.2300509
0.8788125 0.561001 -0.008008945
0.8799609375 0.4780901 -0.2059048
0.881109375 0.3408164 -0.3430755
0.8822578125 0.1791023 -0.4139218
0.88340625 0.01767161 -0.4217489
0.8845546875 -0.1240555 -0.376926
0.885703125 -0.2332111 -0.2931601
0.8868515625 -0.3033139 -0.1854499
0.888 -0.332417 -0.0686018
0.8891484375 -0.322348 0.04495499
0.890296875 -0.2787158 0.1444502
0.8914453125 -0.2086378 0.2216927
0.89259375 -0.1207314 0.2708314
0.8937421875 -0.02449314 0.2893592
0.894890625 0.07065256 0.2770725
0.8960390625 0.1556854 0.2360912
0.8971875 0.2229816 0.1707871
0.8983359375 0.2659306 0.08807627
0.899484375 0.2804231 -0.004347357
0.9006328125 0.2646403 -0.09685636
0.90178125 0.2196165 -0.1800236
0.9029296875 0.1492697 -0.2450065
0.904078125 0.06036761 -0.2842446
0.9052265625 -0.0378513 -0.2925957
0.906375 -0.1353455 -0.2681523
0.9075234375 -0.2211727 -0.2121903
0.908671875 -0.2853581 -0.129387
0.9098203125 -0.3199896 -0.02780745
0.91096875 -0.3197724 0.08259186
0.9121171875 -0.2825185 0.1901166
0.913265625 -0.2097761 0.2826722
0.9144140625 -0.1070181 0.3495302
0.9155625 0.01725894 0.3804929
0.9167109375 0.151624 0.3684507
0.917859375 0.2813685 0.3096004
0.9190078125 0.3909566 0.2045051
0.92015625 0.4634825 0.058658
0.9213046875 0.4821439 -0.1162556
0.922453125 0.4341847 -0.3010823
0.9236015625 0.3117503 -0.4691627
0.92475 0.118687 -0.5887821
0.9258984375 -0.1265302 -0.6261565
0.927046875 -0.3868131 -0.5544735
0.9281953125 -0.6083386 -0.3656984
0.92934375 -0.7317295 -0.08232833
0.9304921875 -0.7142183 0.2392855
0.931640625 -0.5493648 0.5228257
0.9327890625 -0.2749054 0.6991553
0.9339375 0.04037738 0.7322527
0.9350859375 0.3235567 0.6283737
0.936234375 0.5228112 0.4277779
0.9373828125 0.6150689 0.1816674
0.93853125 0.6037584 -0.06072626
0.9396796875 0.5094148 -0.2629281
0.940828125 0.3605896 -0.4049642
0.9419765625 0.1852685 -0.4783897
0.943125 0.009116143 -0.4866712
0.9442734375 -0.1481028 -0.4387217
0.945421875 -0.2725013 -0.3483762
0.9465703125 -0.356342 -0.2299455
0.94771875 -0.3956698 -0.09817927
0.9488671875 -0.3923734 0.03300897
0.950015625 -0.3501983 0.1514687
0.9511640625 -0.2762734 0.2476187
0.9523125 -0.1796173 0.3143249
0.9534609375 -0.07010814 0.347513
0.954609375 0.04170833 0.3454203
0.9557578125 0.1456713 0.3099169
0.95690625 0.2320969 0.2452177
0.9580546875 0.2936157 0.1580732
0.959203125 0.3250755 0.05775244
0.9603515625 0.3239203 -0.0465087
0.9615 0.2908689 -0.1441825
0.9626484375 0.2298523 -0.22631
0.963796875 0.1471076 -0.285216
0.9649453125 0.05091282 -0.3157291
0.96609375 -0.04930446 -0.3151773
0.9672421875 -0.144082 -0.284089
0.968390625 -0.2251137 -0.2260366
0.9695390625 -0.2848774 -0.1463497
0.9706875 -0.3179035 -0.05220487
0.9718359375 -0.3213015 0.04807638
0.972984375 -0.2944359 0.1457961
0.9741328125 -0.2389611 0.2323111
0.97528125 -0.1590498 0.299876
0.9764296875 -0.06034002 0.3413803
0.977578125 0.04921477 0.3519078
0.9787265625 0.1601554 0.3283277
0.979875 0.2627333 0.2701498
0.9810234375 0.3464207 0.1801848
0.982171875 0.400376 0.06337301
0.9833203125 0.4164385 -0.07109872
0.98446875 0.3875704 -0.2110238
0.9856171875 0.311054 -0.3417063
0.986765625 0.1892184 -0.4471436
0.9879140625 0.0289632 -0.5102206
0.9890625 -0.1552764 -0.5160257
0.9902109375 -0.3434413 -0.4539897
0.991359375 -0.5096287 -0.3203947
0.9925078125 -0.6252232 -0.1208183
0.99365625 -0.6611937 0.1259211
0.9948046875 -0.5952553 0.3868485
0.995953125 -0.4179087 0.6172873
