# GHZ S RI R 50.0
0.3 -2.728334 0.05200665
0.3011484375 -2.238417 1.096071
0.302296875 -1.457503 1.717254
0.3034453125 -0.6290029 1.925343
0.30459375 0.09394625 1.818853
0.3057421875 0.6413503 1.514447
0.306890625 1.001676 1.108444
0.3080390625 1.190314 0.6749507
0.3091875 1.237751 0.2570827
0.3103359375 1.172881 -0.1164564
0.311484375 1.022933 -0.4278565
0.3126328125 0.8122441 -0.670798
0.31378125 0.5600963 -0.840212
0.3149296875 0.2838203 -0.9341649
0.316078125 0.001946046 -0.9509576
0.3172265625 -0.2706923 -0.8920746
0.318375 -0.515852 -0.7613197
0.3195234375 -0.713849 -0.5654081
0.320671875 -0.8459875 -0.3171241
0.3218203125 -0.8956439 -0.03786907
0.32296875 -0.8527673 0.244633
0.3241171875 -0.7208497 0.4970715
0.325265625 -0.51491 0.6881988
0.3264140625 -0.2622935 0.7975295
0.3275625 0.003215241 0.8162279
0.3287109375 0.2499392 0.7502301
0.329859375 0.4522905 0.6175405
0.3310078125 0.5976528 0.4387462
0.33215625 0.679359 0.235504
0.3333046875 0.6988012 0.0280463
0.334453125 0.6626569 -0.1683124
0.3356015625 0.5789367 -0.3429237
0.33675 0.4557678 -0.4855041
0.3378984375 0.3012856 -0.5910948
0.339046875 0.1259245 -0.6536515
0.3401953125 -0.06217619 -0.6698161
0.34134375 -0.252843 -0.6359485
0.3424921875 -0.4336557 -0.5504619
0.343640625 -0.5914267 -0.413844
0.3447890625 -0.7113354 -0.2287875
0.3459375 -0.7761786 -0.004027109
0.3470859375 -0.7704712 0.2456768
0.348234375 -0.6814178 0.495052
0.3493828125 -0.5053887 0.7167467
0.35053125 -0.2532067 0.8761245
0.3516796875 0.05505287 0.9436082
0.352828125 0.3800152 0.8993113
0.3539765625 0.6810628 0.7391725
0.355125 0.9153144 0.4779118
0.3562734375 1.050366 0.14367
0.357421875 1.065375 -0.2286751
0.3585703125 0.9522199 -0.5941807
0.35971875 0.7138363 -0.9142024
0.3608671875 0.3660913 -1.146785
0.362015625 -0.06469636 -1.252007
0.3631640625 -0.5354199 -1.195321
0.3643125 -0.984047 -0.9517252
0.3654609375 -1.328766 -0.5226709
0.366609375 -1.478937 0.04873975
0.3677578125 -1.364451 0.6642128
0.36890625 -0.9739681 1.18296
0.3700546875 -0.3845199 1.471255
0.371203125 0.2618527 1.461614
0.3723515625 0.8111078 1.177298
0.3735 1.161502 0.7089325
0.3746484375 1.273417 0.1753235
0.375796875 1.165307 -0.3182828
0.3769453125 0.8905625 -0.6970469
0.37809375 0.521381 -0.9180096
0.3792421875 0.1278862 -0.9740946
0.380390625 -0.2242551 -0.8845609
0.3815390625 -0.4918269 -0.6881878
0.3826875 -0.6532587 -0.4319138
0.3838359375 -0.7070014 -0.1619893
0.384984375 -0.6675033 0.08534032
0.3861328125 -0.5576044 0.2853886
0.38728125 -0.4024476 0.4251946
0.3884296875 -0.2257585 0.5017669
0.389578125 -0.04755788 0.5183594
0.3907265625 0.1162306 0.4820276
0.391875 0.2540953 0.4026011
0.3930234375 0.3579749 0.2905182
0.394171875 0.4220922 0.15644
0.3953203125 0.4434428 0.01186917
0.39646875 0.4205477 -0.1324422
0.3976171875 0.3544326 -0.2635438
0.398765625 0.2490672 -0.3705651
0.3999140625 0.1108297 -0.440753
0.4010625 -0.04900745 -0.4633834
0.4022109375 -0.2146799 -0.4298459
0.403359375 -0.3669747 -0.3367224
0.4045078125 -0.4829621 -0.1878123
0.40565625 -0.5409827 0.003782846
0.4068046875 -0.5235614 0.2151114
0.407953125 -0.4233958 0.4156817
0.4091015625 -0.2449015 0.5734643
0.41025 -0.006871687 0.6574922
0.4113984375 0.2616777 0.644123
0.412546875 0.5226623 0.5224826
0.4136953125 0.733115 0.2930002
0.41484375 0.8477489 -0.02714631
0.4159921875 0.821278 -0.401909
0.417140625 0.6194576 -0.7685143
0.4182890625 0.2354838 -1.034741
0.4194375 -0.2752025 -1.093351
0.4205859375 -0.7858731 -0.8730016
0.421734375 -1.119657 -0.4049329
0.4228828125 -1.163749 0.1612365
0.42403125 -0.9292328 0.6465568
0.4251796875 -0.5269663 0.937328
0.426328125 -0.08320564 1.009946
0.4274765625 0.3082844 0.9022349
0.428625 0.5972483 0.6720701
0.4297734375 0.7620419 0.3767364
0.430921875 0.8042305 0.06750516
0.4320703125 0.7372381 -0.2167666
0.43321875 0.5840898 -0.4440636
0.4343671875 0.3731993 -0.5936974
0.435515625 0.138246 -0.6568077
0.4366640625 -0.09087528 -0.635913
0.4378125 -0.2869993 -0.5440687
0.4389609375 -0.4326191 -0.4004635
0.440109375 -0.5174406 -0.2280625
0.4412578125 -0.5415484 -0.04826048
0.44240625 -0.5100926 0.1199021
0.4435546875 -0.4332115 0.2634784
0.444703125 -0.3230946 0.3714887
0.4458515625 -0.1915959 0.440642
0.447 -0.05081258 0.4686359
0.4481484375 0.08857182 0.4564117
0.449296875 0.2168188 0.4065072
0.4504453125 0.3251885 0.324119
0.45159375 0.4067386 0.2149222
0.4527421875 0.4549836 0.08634257
0.453890625 0.4651638 -0.05260667
0.4550390625 0.4348181 -0.1915828
0.4561875 0.3634656 -0.3189927
0.4573359375 0.2542052 -0.4227021
0.458484375 0.114854 -0.4905363
0.4596328125 -0.04375576 -0.5124552
0.46078125 -0.2053988 -0.4831216
0.4619296875 -0.3532484 -0.4019721
0.463078125 -0.469922 -0.2753263
0.4642265625 -0.5410057 -0.1153871
0.465375 -0.5577208 0.06095969
0.4665234375 -0.5177096 0.2351066
0.467671875 -0.4248382 0.38896
0.4688203125 -0.2886583 0.5077763
0.46996875 -0.1220944 0.5808575
0.4711171875 0.0608772 0.6015882
0.472265625 0.2439272 0.5685265
0.4734140625 0.4139119 0.4820975
0.4745625 0.5569471 0.347036
0.4757109375 0.6596984 0.1703235
0.476859375 0.7108825 -0.0377497
0.4780078125 0.6994032 -0.2646771
0.47915625 0.6174543 -0.4935756
0.4803046875 0.4597878 -0.7034619
0.481453125 0.2277181 -0.8690428
0.4826015625 -0.07189112 -0.9624369
0.48375 -0.4192562 -0.953495
0.4848984375 -0.7803946 -0.8143052
0.486046875 -1.104432 -0.5261514
0.4871953125 -1.32413 -0.09209157
0.48834375 -1.36279 0.4516723
0.4894921875 -1.155764 1.024033
0.490640625 -0.6788754 1.498031
0.4917890625 0.0164461 1.726288
0.4929375 0.780176 1.597794
0.4940859375 1.407322 1.106935
0.495234375 1.718835 0.3810406
0.4963828125 1.652948 -0.3739929
0.49753125 1.27811 -0.9674996
0.4986796875 0.7353352 -1.306851
0.499828125 0.1655683 -1.383352
0.5009765625 -0.3303894 -1.248554
0.502125 -0.6988919 -0.9737778
0.5032734375 -0.9240324 -0.6256099
0.504421875 -1.009998 -0.2613534
0.5055703125 -0.9773993 0.0802113
0.50671875 -0.849578 0.3711945
0.5078671875 -0.6518736 0.5926789
0.509015625 -0.4105551 0.7348201
0.5101640625 -0.1510018 0.7934265
0.5113125 0.1028336 0.7715681
0.5124609375 0.3295872 0.6764215
0.513609375 0.5101174 0.5214009
0.5147578125 0.6299334 0.3237973
0.51590625 0.6806317 0.1048931
0.5170546875 0.6600134 -0.1127621
0.518203125 0.5746158 -0.3072635
0.5193515625 0.4363558 -0.4599529
0.5205 0.2622896 -0.558243
0.5216484375 0.07342262 -0.5960658
0.522796875 -0.1118464 -0.574151
0.5239453125 -0.2761367 -0.4994776
0.52509375 -0.4060429 -0.3825045
0.5262421875 -0.4927585 -0.2364532
0.527390625 -0.5321639 -0.07534988
0.5285390625 -0.5232028 0.08582677
0.5296875 -0.469141 0.2357635
0.5308359375 -0.3756058 0.3630188
0.531984375 -0.2500195 0.4584597
0.5331328125 -0.1021205 0.5138139
0.53428125 0.05715765 0.5252528
0.5354296875 0.2157955 0.4895972
0.536578125 0.3610092 0.407277
0.5377265625 0.4781045 0.2830049
0.538875 0.5557132 0.1234099
0.5400234375 0.5825009 -0.05889551
0.541171875 0.5503879 -0.2487729
0.5423203125 0.4559662 -0.4265195
0.54346875 0.3027376 -0.5718447
0.5446171875 0.1006173 -0.6646479
0.545765625 -0.1323544 -0.6866584
0.5469140625 -0.3725314 -0.6273274
0.5480625 -0.5908822 -0.4827592
0.5492109375 -0.7567812 -0.2586956
0.550359375 -0.8407837 0.02723453
0.5515078125 -0.8176388 0.3469735
0.55265625 -0.6687869 0.6615674
0.5538046875 -0.3896767 0.9198804
0.554953125 0.003740851 1.062069
0.5561015625 0.4634377 1.026654
0.55725 0.9017619 0.7713088
0.5583984375 1.194246 0.3067225
0.559546875 1.22714 -0.2741027
0.5606953125 0.9600263 -0.8019105
0.56184375 0.4727187 -1.118644
0.5629921875 -0.07560438 -1.152003
0.564140625 -0.5343546 -0.9403235
0.5652890625 -0.819356 -0.5815392
0.5664375 -0.9115207 -0.1814364
0.5675859375 -0.840692 0.1809078
0.568734375 -0.6535313 0.4572299
0.5698828125 -0.400503 0.6241975
0.57103125 -0.1290285 0.6802916
0.5721796875 0.1223831 0.6370146
0.573328125 0.3248839 0.5161369
0.5744765625 0.4612646 0.3443412
0.575625 0.5245935 0.1498326
0.5767734375 0.5172523 -0.04198727
0.577921875 0.4498607 -0.2093112
0.5790703125 0.3366048 -0.3373432
0.58021875 0.1948881 -0.4166799
0.5813671875 0.04175017 -0.4446368
0.582515625 -0.106521 -0.4226675
0.5836640625 -0.2363323 -0.3569371
0.5848125 -0.3368686 -0.2562459
0.5859609375 -0.4003051 -0.1305772
0.587109375 -0.4216948 0.007286745
0.5882578125 -0.3992122 0.1458136
0.58940625 -0.3345076 0.2719649
0.5905546875 -0.2317527 0.3739101
0.591703125 -0.09828407 0.4407929
0.5928515625 0.05385562 0.4625483
0.594 0.2115244 0.4339363
0.5951484375 0.3584343 0.3522972
0.596296875 0.4767511 0.220894
0.5974453125 0.5495661 0.04867916
0.59859375 0.5613937 -0.1489932
0.5997421875 0.5027608 -0.3518155
0.600890625 0.370545 -0.5344927
0.6020390625 0.1699232 -0.6702846
0.6031875 -0.0841089 -0.7327792
0.6043359375 -0.3645001 -0.7000419
0.605484375 -0.6384647 -0.5575805
0.6066328125 -0.8617758 -0.3022889
0.60778125 -0.9849144 0.05208856
0.6089296875 -0.9567438 0.4693048
0.610078125 -0.7386767 0.8793736
0.6112265625 -0.3230362 1.186092
0.612375 0.2363785 1.276908
0.6135234375 0.8077326 1.075633
0.614671875 1.218942 0.6035055
0.6158203125 1.340054 -0.005244952
0.61696875 1.159382 -0.5707234
0.6181171875 0.7683061 -0.9549133
0.619265625 0.2942311 -1.113026
0.6204140625 -0.1545794 -1.065229
0.6215625 -0.5102122 -0.8666692
0.6227109375 -0.7416273 -0.5790316
0.623859375 -0.8436369 -0.2573163
0.6250078125 -0.8282525 0.05079519
0.62615625 -0.7168913 0.3138753
0.6273046875 -0.5372416 0.5090651
0.628453125 -0.3186335 0.6248163
0.6296015625 -0.08983602 0.6601897
0.63075 0.1239056 0.6222714
0.6318984375 0.3031265 0.5239012
0.633046875 0.4343033 0.382737
0.6341953125 0.5103966 0.2170067
0.63534375 0.531085 0.04567595
0.6364921875 0.5005261 -0.1158517
0.637640625 0.4267871 -0.2543686
0.6387890625 0.320084 -0.3603071
0.6399375 0.1919346 -0.4281578
0.6410859375 0.05414437 -0.4552388
0.642234375 -0.0820538 -0.4421405
0.6433828125 -0.2062099 -0.391974
0.64453125 -0.3094304 -0.3097161
0.6456796875 -0.3840333 -0.2024339
0.646828125 -0.4244651 -0.0790662
0.6479765625 -0.427813 0.0505281
0.649125 -0.3933361 0.1759966
0.6502734375 -0.3234583 0.2862412
0.651421875 -0.2233935 0.3717683
0.6525703125 -0.1009223 0.4239474
0.65371875 0.03211194 0.4375262
0.6548671875 0.1646752 0.4100434
0.656015625 0.2841288 0.3429628
0.6571640625 0.3781385 0.2421385
0.6583125 0.4376766 0.1162866
0.6594609375 0.4566354 -0.0228236
0.660609375 0.4325177 -0.162405
0.6617578125 0.3668614 -0.2892679
0.66290625 0.265425 -0.3919254
0.6640546875 0.136341 -0.4608969
0.665203125 -0.00951736 -0.4888082
0.6663515625 -0.1600693 -0.4726662
0.6675 -0.3021907 -0.411461
0.6686484375 -0.4237949 -0.3086297
0.669796875 -0.5126464 -0.1702689
0.6709453125 -0.5583627 -0.005643762
0.67209375 -0.5533379 0.1728487
0.6732421875 -0.491894 0.350059
0.674390625 -0.3737412 0.5088841
0.6755390625 -0.202542 0.6302536
0.6766875 0.01179389 0.6963858
0.6778359375 0.2511065 0.6900596
0.678984375 0.4927211 0.6002577
0.6801328125 0.7057696 0.4217808
0.68128125 0.8562863 0.1629143
0.6824296875 0.9127756 -0.1570903
0.683578125 0.8440842 -0.5024906
0.6847265625 0.6372701 -0.8239612
0.685875 0.2966366 -1.061407
0.6870234375 -0.1439632 -1.150976
0.688171875 -0.6130037 -1.046027
0.6893203125 -1.018463 -0.7339069
0.69046875 -1.25628 -0.2554594
0.6916171875 -1.25649 0.2915938
0.692765625 -1.012028 0.7800872
0.6939140625 -0.5855328 1.099676
0.6950625 -0.08619107 1.195481
0.6962109375 0.3754301 1.078119
0.697359375 0.7212582 0.8035514
0.6985078125 0.9149257 0.4460249
0.69965625 0.9554266 0.07518307
0.7008046875 0.8654504 -0.2566179
0.701953125 0.6793166 -0.5147564
0.7031015625 0.4348832 -0.6790874
0.70425 0.1676334 -0.746739
0.7053984375 -0.0901232 -0.7225916
0.706546875 -0.3129571 -0.6201232
0.7076953125 -0.4797441 -0.4603431
0.70884375 -0.5800927 -0.263822
0.7099921875 -0.6102637 -0.05539025
0.711140625 -0.5727828 0.1426106
0.7122890625 -0.4772476 0.3115871
0.7134375 -0.3384519 0.4350088
0.7145859375 -0.173376 0.5052468
0.715734375 -0.0006572954 0.5188776
0.7168828125 0.1621614 0.4786124
0.71803125 0.3001444 0.3918883
0.7191796875 0.4018493 0.2690936
0.720328125 0.4586832 0.1248085
0.7214765625 0.4683419 -0.02789957
0.722625 0.4307477 -0.1744566
0.7237734375 0.3502598 -0.3015772
0.724921875 0.234658 -0.3977429
0.7260703125 0.09422442 -0.4536329
0.72721875 -0.05868241 -0.4634738
0.7283671875 -0.2099734 -0.4238239
0.729515625 -0.343202 -0.3367898
0.7306640625 -0.4449675 -0.2075656
0.7318125 -0.5016028 -0.04664417
0.7329609375 -0.5017468 0.1311902
0.734109375 -0.439658 0.3062023
0.7352578125 -0.3157957 0.4575262
0.73640625 -0.1379985 0.5618396
0.7375546875 0.07796199 0.5988914
0.738703125 0.306897 0.5531567
0.7398515625 0.5163944 0.4170866
0.741 0.6697125 0.1969485
0.7421484375 0.7297624 -0.08625063
0.743296875 0.6667518 -0.3913696
0.7444453125 0.4677127 -0.6628121
0.74559375 0.1488647 -0.8327169
0.7467421875 -0.234335 -0.84275
0.747890625 -0.5941866 -0.6655877
0.7490390625 -0.8001267 -0.3194036
0.7501875 -0.8478372 0.06972679
0.7513359375 -0.7106004 0.424009
0.752484375 -0.4401179 0.6622722
0.7536328125 -0.1150145 0.748096
0.75478125 0.190509 0.6914915
0.7559296875 0.4255292 0.5287082
0.757078125 0.5653055 0.3053392
0.7582265625 0.60638 0.06492325
0.759375 0.559065 -0.1566468
0.7605234375 0.44278 -0.3343893
0.761671875 0.2811192 -0.4519795
0.7628203125 0.09853184 -0.503053
0.76396875 -0.08138508 -0.4885799
0.7651171875 -0.2386885 -0.4167484
0.766265625 -0.357265 -0.3007273
0.7674140625 -0.4275764 -0.1568057
0.7685625 -0.4455727 -0.002891375
0.7697109375 -0.4126904 0.1437485
0.770859375 -0.3358658 0.2684972
0.7720078125 -0.2257129 0.3594726
0.77315625 -0.09460131 0.4093638
0.7743046875 0.04329056 0.4151244
0.775453125 0.1747044 0.3777072
0.7766015625 0.2867454 0.3020619
0.77775 0.3700492 0.1951602
0.7788984375 0.4163787 0.06747251
0.780046875 0.4214985 -0.06940336
0.7811953125 0.3837511 -0.2035189
0.78234375 0.3048561 -0.3218223
0.7834921875 0.1904509 -0.4125239
0.784640625 0.04928298 -0.4645173
0.7857890625 -0.1067212 -0.4700027
0.7869375 -0.2626386 -0.4237897
0.7880859375 -0.4018899 -0.3264237
0.789234375 -0.5068272 -0.1820509
0.7903828125 -0.5617716 -0.002757719
0.79153125 -0.5533505 0.1948528
0.7926796875 -0.4748319 0.3892395
0.793828125 -0.3265521 0.5542126
0.7949765625 -0.1181417 0.6643769
0.796125 0.1308526 0.6957469
0.7972734375 0.3904369 0.6317874
0.798421875 0.6229457 0.4672545
0.7995703125 0.7874951 0.2118918
0.80071875 0.8446231 -0.1065894
0.8018671875 0.7667976 -0.440148
0.803015625 0.5493374 -0.7284614
0.8041640625 0.2185516 -0.9061581
0.8053125 -0.1656953 -0.927759
0.8064609375 -0.5249215 -0.7807612
0.807609375 -0.7839694 -0.497221
0.8087578125 -0.8945985 -0.1407702
0.80990625 -0.8476003 0.2137536
0.8110546875 -0.6717236 0.5015156
0.812203125 -0.4135708 0.6842474
0.8133515625 -0.1256525 0.7496618
0.8145 0.1457883 0.7063698
0.8156484375 0.3670203 0.5775896
0.816796875 0.517704 0.3923493
0.8179453125 0.5896425 0.1807138
0.81909375 0.5857671 -0.02846691
0.8202421875 0.5163038 -0.2124019
0.821390625 0.3973732 -0.3541228
0.8225390625 0.2474493 -0.4434815
0.8236875 0.0860199 -0.4776712
0.8248359375 -0.06905918 -0.4591312
0.825984375 -0.2028379 -0.3961602
0.8271328125 -0.3050143 -0.2996478
0.82828125 -0.3689393 -0.182112
0.8294296875 -0.3926238 -0.05673668
0.830578125 -0.3781551 0.06462722
0.8317265625 -0.3300992 0.1717555
0.832875 -0.2550676 0.2566892
0.8340234375 -0.1614822 0.3138667
0.835171875 -0.05812722 0.3403133
0.8363203125 0.04612226 0.3355832
0.83746875 0.1425513 0.3015131
0.8386171875 0.2237653 0.2417823
0.839765625 0.2832659 0.1617387
0.8409140625 0.3165227 0.06817157
0.8420625 0.3207598 -0.03039524
0.8432109375 0.2954509 -0.1260441
0.844359375 0.2428078 -0.2097941
0.8455078125 0.1671374 -0.2738366
0.84665625 0.07513659 -0.3123882
0.8478046875 -0.02459394 -0.3210133
0.848953125 -0.1227029 -0.2986797
0.8501015625 -0.209615 -0.2471129
0.85125 -0.2769878 -0.1709517
0.8523984375 -0.3178233 -0.07722247
0.853546875 -0.3280942 0.02486756
0.8546953125 -0.3065943 0.1258906
0.85584375 -0.2551751 0.2162907
0.8569921875 -0.177949 0.2874928
0.858140625 -0.08173795 0.3328597
0.8592890625 0.02511199 0.3474951
0.8604375 0.1337155 0.328953
0.8615859375 0.2342032 0.2776245
0.862734375 0.3173244 0.196103
0.8638828125 0.3737421 0.08982497
0.86503125 0.3963391 -0.03356725
0.8661796875 0.3792674 -0.1639869
0.867328125 0.3197075 -0.2890259
0.8684765625 0.2178888 -0.3952495
0.869625 0.07860544 -0.4679695
0.8707734375 -0.08821283 -0.4927061
0.871921875 -0.2667963 -0.4574309
0.8730703125 -0.435156 -0.3546247
0.87421875 -0.5672879 -0.1850931
0.8753671875 -0.6327965 0.04044772
0.876515625 -0.6045908 0.2952116
0.8776640625 -0.4652746 0.5379914
0.8788125 -0.2186459 0.7143953
0.8799609375 0.1021477 0.7702192
0.881109375 0.4303662 0.6703228
0.8822578125 0.6829425 0.4224443
0.88340625 0.7900416 0.08441919
0.8845546875 0.727878 -0.2557903
0.885703125 0.5275807 -0.5158471
0.8868515625 0.2530299 -0.6492614
0.888 -0.02607439 -0.652617
0.8891484375 -0.2591552 -0.5517287
0.890296875 -0.4180664 -0.3845878
0.8914453125 -0.4950272 -0.189827
0.89259375 -0.4961813 0.00107428
0.8937421875 -0.4353244 0.1658576
0.894890625 -0.3302315 0.2894705
0.8960390625 -0.1992727 0.3652634
0.8971875 -0.05939259 0.3914312
0.8983359375 0.07326177 0.3708459
0.899484375 0.1864217 0.3112626
0.9006328125 0.2697117 0.221704
0.90178125 0.3173425 0.1144139
0.9029296875 0.3268037 0.001371226
0.904078125 0.2996765 -0.1049763
0.9052265625 0.2410149 -0.1940685
0.906375 0.1584919 -0.2572965
0.9075234375 0.06238217 -0.2891498
0.908671875 -0.03664691 -0.2879882
0.9098203125 -0.1280709 -0.2553137
0.91096875 -0.2027275 -0.1960221
0.9121171875 -0.2535468 -0.1168984
0.913265625 -0.2759154 -0.02660382
0.9144140625 -0.2684494 0.06531245
0.9155625 -0.2320891 0.149937
0.9167109375 -0.170897 0.2187581
0.917859375 -0.09029845 0.2650924
0.9190078125 0.001927286 0.2838464
0.92015625 0.09700817 0.2721869
0.9213046875 0.1855791 0.2299162
0.922453125 0.2584769 0.1595594
0.9236015625 0.3065879 0.06604913
0.92475 0.3224815 -0.04266108
0.9258984375 0.3006983 -0.155972
0.927046875 0.2392972 -0.261008
0.9281953125 0.1404462 -0.3441644
0.92934375 0.01100905 -0.3914993
0.9304921875 -0.1367819 -0.390587
0.931640625 -0.284943 -0.3331188
0.9327890625 -0.4111566 -0.2169629
0.9339375 -0.491344 -0.04940425
0.9350859375 -0.5018926 0.151566
0.936234375 -0.4265487 0.3565091
0.9373828125 -0.2617903 0.5255926
0.93853125 -0.02455202 0.6155034
0.9396796875 0.2439116 0.5921384
0.940828125 0.4845611 0.4446119
0.9419765625 0.6359715 0.197308
0.943125 0.6573625 -0.09233901
0.9442734375 0.5469251 -0.3553935
0.945421875 0.3398287 -0.5341197
0.9465703125 0.09051106 -0.601798
0.94771875 -0.1478437 -0.5620705
0.9488671875 -0.3357258 -0.4394371
0.950015625 -0.4524906 -0.267581
0.9511640625 -0.4939228 -0.07876947
0.9523125 -0.4661556 0.09859425
0.9534609375 -0.3832989 0.24535
0.954609375 -0.2627855 0.3477597
0.9557578125 -0.1226473 0.4001423
0.95690625 0.01956647 0.4026417
0.9580546875 0.1484215 0.3599654
0.959203125 0.2513074 0.2806595
0.9603515625 0.3202844 0.1763944
0.9615 0.3505122 0.05990866
0.9626484375 0.3417451 -0.05605086
0.963796875 0.2979202 -0.1597968
0.9649453125 0.2254041 -0.241614
0.96609375 0.1336686 -0.2948796
0.9672421875 0.03259724 -0.3161257
0.968390625 -0.06776316 -0.3054415
0.9695390625 -0.1579484 -0.2649911
0.9706875 -0.230063 -0.200281
0.9718359375 -0.2786185 -0.118053
0.972984375 -0.2998413 -0.02600894
0.9741328125 -0.2926432 0.06758642
0.97528125 -0.2580413 0.1544948
0.9764296875 -0.1986733 0.2272534
0.977578125 -0.1202502 0.2794388
0.9787265625 -0.02870848 0.3061403
0.979875 0.06800975 0.3043428
0.9810234375 0.1613728 0.2728201
0.982171875 0.24283 0.2133205
0.9833203125 0.3037031 0.1297265
0.98446875 0.3372342 0.02879914
0.9856171875 0.3379586 -0.08098973
0.986765625 0.3036574 -0.189123
0.9879140625 0.2346358 -0.2846254
0.9890625 0.1353825 -0.3559589
0.9902109375 0.01402149 -0.3936788
0.991359375 -0.1186445 -0.3907605
0.9925078125 -0.248814 -0.343476
0.99365625 -0.3616944 -0.2525484
0.9948046875 -0.4432073 -0.1237544
0.995953125 -0.4799665 0.03264587
