# GHZ S RI R 50.0
0.3 -2.617774 0.2149587
0.3011484375 -2.0905 1.169368
0.302296875 -1.319525 1.714408
0.3034453125 -0.5261974 1.874678
0.30459375 0.1559514 1.748011
0.3057421875 0.6672193 1.44073
0.306890625 1.000314 1.043769
0.3080390625 1.172071 0.6218942
0.3091875 1.20859 0.2184871
0.3103359375 1.13867 -0.1419887
0.311484375 0.9876183 -0.4408091
0.3126328125 0.7777715 -0.6737115
0.31378125 0.5298646 -0.8343512
0.3149296875 0.2589059 -0.9206675
0.316078125 -0.01793864 -0.9325167
0.3172265625 -0.2841164 -0.8705987
0.318375 -0.523007 -0.7375949
0.3195234375 -0.7141677 -0.5418687
0.320671875 -0.840099 -0.2955199
0.3218203125 -0.8840287 -0.01895706
0.32296875 -0.8375198 0.2585787
0.3241171875 -0.7021974 0.5051714
0.325265625 -0.4946243 0.6913562
0.3264140625 -0.2424832 0.7948761
0.3275625 0.02157666 0.8084429
0.3287109375 0.2639038 0.7388587
0.329859375 0.4630711 0.6028402
0.3310078125 0.6036848 0.4219271
0.33215625 0.6808626 0.2173873
0.3333046875 0.695751 0.01108445
0.334453125 0.6558427 -0.1846116
0.3356015625 0.5678862 -0.3559207
0.33675 0.4414845 -0.4960708
0.3378984375 0.2850336 -0.5977223
0.339046875 0.1073405 -0.6563904
0.3401953125 -0.08173435 -0.6680776
0.34134375 -0.2724785 -0.6287419
0.3424921875 -0.452013 -0.5377176
0.343640625 -0.6067359 -0.3951663
0.3447890625 -0.7220047 -0.2049627
0.3459375 -0.7803398 0.02423979
0.3470859375 -0.7658768 0.2759555
0.348234375 -0.6664897 0.5275002
0.3493828125 -0.4796306 0.7455134
0.35053125 -0.2156876 0.8979246
0.3516796875 0.1025449 0.9533232
0.352828125 0.4328877 0.8925149
0.3539765625 0.7338603 0.7126228
0.355125 0.9610447 0.4301898
0.3562734375 1.079858 0.07590736
0.357421875 1.070386 -0.3114493
0.3585703125 0.9242051 -0.6836773
0.35971875 0.6474522 -0.9976048
0.3608671875 0.2596675 -1.206406
0.362015625 -0.2035318 -1.267131
0.3631640625 -0.6874909 -1.144753
0.3643125 -1.115367 -0.8243632
0.3654609375 -1.395441 -0.3255839
0.366609375 -1.439137 0.275515
0.3677578125 -1.206129 0.8526769
0.36890625 -0.7329595 1.268576
0.3700546875 -0.13229 1.424523
0.371203125 0.449568 1.301889
0.3723515625 0.8957467 0.9583451
0.3735 1.137432 0.4940141
0.3746484375 1.167281 0.008255406
0.375796875 1.01381 -0.4160039
0.3769453125 0.7296656 -0.7220079
0.37809375 0.3767181 -0.8821769
0.3792421875 0.01991032 -0.894626
0.380390625 -0.2902706 -0.781169
0.3815390625 -0.5149189 -0.5788318
0.3826875 -0.6392838 -0.3308073
0.3838359375 -0.6643543 -0.07798389
0.384984375 -0.6053219 0.1468185
0.3861328125 -0.484926 0.3218983
0.38728125 -0.3272653 0.43723
0.3884296875 -0.1542799 0.4919576
0.389578125 0.01529504 0.4896753
0.3907265625 0.1668904 0.4385075
0.391875 0.2903191 0.3476641
0.3930234375 0.3771878 0.2286242
0.394171875 0.4238713 0.09157201
0.3953203125 0.426976 -0.05194661
0.39646875 0.3863862 -0.1903294
0.3976171875 0.3035673 -0.3120526
0.398765625 0.1835811 -0.4041464
0.3999140625 0.03407289 -0.4551274
0.4010625 -0.1313401 -0.4541565
0.4022109375 -0.2966161 -0.3936601
0.403359375 -0.4392241 -0.2718654
0.4045078125 -0.5356482 -0.09539301
0.40565625 -0.5627064 0.1187638
0.4068046875 -0.503094 0.3429283
0.407953125 -0.3536316 0.5414957
0.4091015625 -0.1220018 0.6774486
0.41025 0.1637448 0.7165056
0.4113984375 0.4658217 0.6336344
0.412546875 0.7321005 0.4204184
0.4136953125 0.9038981 0.08815268
0.41484375 0.9223255 -0.3253444
0.4159921875 0.7403323 -0.744734
0.417140625 0.347937 -1.060528
0.4182890625 -0.1883407 -1.152062
0.4194375 -0.7201622 -0.9495232
0.4205859375 -1.072808 -0.5001913
0.421734375 -1.147097 0.04101888
0.4228828125 -0.9640991 0.514291
0.42403125 -0.6214155 0.8216047
0.4251796875 -0.2240636 0.9414594
0.426328125 0.1467919 0.8986797
0.4274765625 0.4455464 0.7350628
0.428625 0.6480131 0.4956318
0.4297734375 0.7456981 0.220124
0.430921875 0.7422187 -0.05429026
0.4320703125 0.6496543 -0.2975433
0.43321875 0.4874911 -0.4845085
0.4343671875 0.2809412 -0.5988934
0.435515625 0.05856379 -0.6345038
0.4366640625 -0.1527449 -0.5943522
0.4378125 -0.3279277 -0.4915296
0.4389609375 -0.4532599 -0.3440121
0.440109375 -0.5200434 -0.1734813
0.4412578125 -0.5291061 -0.0001038063
0.44240625 -0.4866864 0.1593137
0.4435546875 -0.4020875 0.2923271
0.444703125 -0.2876378 0.3894135
0.4458515625 -0.1552504 0.4479123
0.447 -0.0154817 0.4659966
0.4481484375 0.1206222 0.445042
0.449296875 0.2440628 0.3878305
0.4504453125 0.3459142 0.2996309
0.45159375 0.4199879 0.1864925
0.4527421875 0.4599647 0.05565707
0.453890625 0.4620042 -0.08335565
0.4550390625 0.4235811 -0.2205414
0.4561875 0.3446784 -0.3438348
0.4573359375 0.2292067 -0.4417045
0.458484375 0.08448724 -0.501783
0.4596328125 -0.07617944 -0.5151793
0.46078125 -0.238104 -0.4762518
0.4619296875 -0.3833071 -0.3854439
0.463078125 -0.4943984 -0.2500423
0.4642265625 -0.5575354 -0.08326204
0.465375 -0.5645333 0.09734343
0.4665234375 -0.513706 0.2729415
0.467671875 -0.4098161 0.4252372
0.4688203125 -0.2631732 0.53915
0.46996875 -0.08725077 0.6042651
0.4711171875 0.1025464 0.6149783
0.472265625 0.2905416 0.5692721
0.4734140625 0.4611678 0.4686585
0.4745625 0.6013129 0.3188199
0.4757109375 0.6966681 0.1273992
0.476859375 0.7354572 -0.09447093
0.4780078125 0.7067122 -0.3323221
0.47915625 0.6024655 -0.5670777
0.4803046875 0.4183764 -0.7763816
0.481453125 0.1559196 -0.9319592
0.4826015625 -0.1733444 -1.002467
0.48375 -0.5442812 -0.9554951
0.4848984375 -0.9160557 -0.761752
0.486046875 -1.225245 -0.4095399
0.4871953125 -1.395093 0.09021284
0.48834375 -1.344504 0.6763594
0.4894921875 -1.019827 1.240119
0.490640625 -0.4280424 1.633777
0.4917890625 0.3239636 1.714307
0.4929375 1.04663 1.417932
0.4940859375 1.538804 0.8127221
0.495234375 1.678634 0.07667813
0.4963828125 1.479584 -0.5960014
0.49753125 1.046206 -1.067352
0.4986796875 0.5140432 -1.291684
0.499828125 -0.002787392 -1.288727
0.5009765625 -0.4307311 -1.114731
0.502125 -0.7355534 -0.8326678
0.5032734375 -0.9091105 -0.4997671
0.504421875 -0.9599668 -0.1608839
0.5055703125 -0.9057799 0.1500121
0.50671875 -0.7687448 0.4103176
0.5078671875 -0.5711617 0.6037911
0.509015625 -0.337063 0.7219577
0.5101640625 -0.08956887 0.7618854
0.5113125 0.1491554 0.7265644
0.5124609375 0.35854 0.6231148
0.513609375 0.5218801 0.465141
0.5147578125 0.6252847 0.2691667
0.51590625 0.6613011 0.05616464
0.5170546875 0.6291365 -0.1525671
0.518203125 0.5350921 -0.3354424
0.5193515625 0.3919452 -0.4754259
0.5205 0.217098 -0.5604885
0.5216484375 0.02983918 -0.5857172
0.522796875 -0.1502604 -0.5526159
0.5239453125 -0.3067608 -0.4685745
0.52509375 -0.4269816 -0.3450059
0.5262421875 -0.5027345 -0.1948663
0.527390625 -0.5305795 -0.032842
0.5285390625 -0.5100867 0.1273819
0.5296875 -0.4453327 0.273163
0.5308359375 -0.3417279 0.3936163
0.531984375 -0.2077018 0.4794299
0.5331328125 -0.05387296 0.523477
0.53428125 0.1087565 0.5211708
0.5354296875 0.2673748 0.470599
0.536578125 0.4080049 0.3729308
0.5377265625 0.5168018 0.2330258
0.538875 0.5804048 0.05951742
0.5400234375 0.5882881 -0.1331484
0.541171875 0.5319205 -0.3290024
0.5423203125 0.4101262 -0.5044366
0.54346875 0.2271666 -0.6387307
0.5446171875 -0.003787995 -0.708703
0.545765625 -0.2595859 -0.6959646
0.5469140625 -0.512205 -0.589127
0.5480625 -0.7257387 -0.3867766
0.5492109375 -0.8627719 -0.1004046
0.550359375 -0.886363 0.2440784
0.5515078125 -0.7686681 0.5999193
0.55265625 -0.4953937 0.9079276
0.5538046875 -0.08231846 1.091117
0.554953125 0.4122306 1.07328
0.5561015625 0.8754712 0.8084092
0.55725 1.16643 0.3275299
0.5583984375 1.178865 -0.2443416
0.559546875 0.9073293 -0.7342629
0.5606953125 0.4568696 -1.011029
0.56184375 -0.02917043 -1.038101
0.5629921875 -0.4311226 -0.8629205
0.564140625 -0.6908616 -0.5666959
0.5652890625 -0.7965157 -0.2279614
0.5664375 -0.7649574 0.09119175
0.5675859375 -0.6283662 0.3499474
0.568734375 -0.4240421 0.5245247
0.5698828125 -0.1891482 0.6065673
0.57103125 0.04284693 0.5994998
0.5721796875 0.2436105 0.5162898
0.573328125 0.3931544 0.3765331
0.5744765625 0.4793411 0.2034373
0.575625 0.4997758 0.02127213
0.5767734375 0.4590043 -0.148424
0.577921875 0.3676293 -0.2880374
0.5790703125 0.2406911 -0.3852642
0.58021875 0.09426095 -0.4339186
0.5813671875 -0.05544638 -0.4327691
0.582515625 -0.1933341 -0.3853213
0.5836640625 -0.3074512 -0.2983994
0.5848125 -0.3882441 -0.1811783
0.5859609375 -0.4283932 -0.04523083
0.587109375 -0.4247344 0.09759369
0.5882578125 -0.3765222 0.2346924
0.58940625 -0.2871453 0.3524835
0.5905546875 -0.1615668 0.4397749
0.591703125 -0.009073508 0.4853981
0.5928515625 0.1572114 0.480367
0.594 0.3217345 0.4198442
0.5951484375 0.4659591 0.3030241
0.596296875 0.5707828 0.135306
0.5974453125 0.6172603 -0.071089
0.59859375 0.5899419 -0.296387
0.5997421875 0.4793837 -0.5153023
0.600890625 0.2851719 -0.695773
0.6020390625 0.01847419 -0.8061
0.6031875 -0.2970411 -0.8141088
0.6043359375 -0.623128 -0.6952655
0.605484375 -0.9068925 -0.437522
0.6066328125 -1.084339 -0.05126124
0.60778125 -1.088259 0.4205251
0.6089296875 -0.8675557 0.8928304
0.610078125 -0.4195778 1.24294
0.6112265625 0.17782 1.34462
0.612375 0.7669766 1.134946
0.6135234375 1.174156 0.6661978
0.614671875 1.299329 0.08567641
0.6158203125 1.152851 -0.4439681
0.61696875 0.820914 -0.819756
0.6181171875 0.4080344 -1.005033
0.619265625 0.0003730015 -1.013038
0.6204140625 -0.3452533 -0.8830096
0.6215625 -0.5978524 -0.6586539
0.6227109375 -0.743099 -0.3861527
0.623859375 -0.7847518 -0.1027413
0.6250078125 -0.7329915 0.1592417
0.62615625 -0.6062253 0.3750042
0.6273046875 -0.4272628 0.527544
0.628453125 -0.2210732 0.6090195
0.6296015625 -0.01163893 0.6194739
0.63075 0.1792926 0.5657221
0.6318984375 0.3354118 0.460143
0.633046875 0.4450259 0.3186102
0.6341953125 0.5027171 0.1580581
0.63534375 0.5086997 -0.004132736
0.6364921875 0.4675472 -0.1541676
0.637640625 0.3873778 -0.279971
0.6387890625 0.277936 -0.3732263
0.6399375 0.1504815 -0.4291166
0.6410859375 0.01599744 -0.4455466
0.642234375 -0.1146545 -0.4233781
0.6433828125 -0.2315983 -0.3663052
0.64453125 -0.3264787 -0.2791082
0.6456796875 -0.3920207 -0.1693889
0.646828125 -0.4235949 -0.04550983
0.6479765625 -0.4180817 0.08187534
0.649125 -0.3756457 0.2035015
0.6502734375 -0.2993357 0.307817
0.651421875 -0.1943119 0.3860075
0.6525703125 -0.06933441 0.4299287
0.65371875 0.06476427 0.4344464
0.6548671875 0.1956749 0.3980981
0.656015625 0.3108547 0.3227512
0.6571640625 0.3986347 0.2150008
0.6583125 0.4503826 0.08386669
0.6594609375 0.4597262 -0.05820957
0.660609375 0.4254327 -0.198285
0.6617578125 0.3497696 -0.3230436
0.66290625 0.2387093 -0.4206853
0.6640546875 0.1014974 -0.4819713
0.665203125 -0.0506612 -0.5000468
0.6663515625 -0.2047347 -0.4716829
0.6675 -0.3475384 -0.3972275
0.6686484375 -0.4659183 -0.280627
0.669796875 -0.5473499 -0.1281647
0.6709453125 -0.5817111 0.04833132
0.67209375 -0.5599076 0.2367492
0.6732421875 -0.4786999 0.4186008
0.674390625 -0.3368546 0.5764918
0.6755390625 -0.1401019 0.6892666
0.6766875 0.09909578 0.7361626
0.6778359375 0.3582778 0.7009689
0.678984375 0.6103575 0.5710759
0.6801328125 0.8195723 0.3440225
0.68128125 0.9454154 0.03276452
0.6824296875 0.9498535 -0.3325628
0.683578125 0.8039506 -0.7050056
0.6847265625 0.5011709 -1.014828
0.685875 0.06428466 -1.189649
0.6870234375 -0.4399081 -1.162283
0.688171875 -0.9072934 -0.9034142
0.6893203125 -1.220593 -0.4463256
0.69046875 -1.29199 0.108928
0.6916171875 -1.104928 0.6280609
0.692765625 -0.7202675 0.9937375
0.6939140625 -0.2444143 1.144269
0.6950625 0.2140194 1.085117
0.6962109375 0.5765542 0.8652628
0.697359375 0.8049894 0.5517431
0.6985078125 0.8918278 0.2078668
0.69965625 0.853075 -0.1156063
0.7008046875 0.715332 -0.3826992
0.701953125 0.5109814 -0.5723989
0.7031015625 0.2715235 -0.6757783
0.70425 0.02679534 -0.6929911
0.7053984375 -0.1972603 -0.6328918
0.706546875 -0.3799924 -0.5090183
0.7076953125 -0.5066473 -0.3405651
0.70884375 -0.5693672 -0.14856
0.7099921875 -0.5664995 0.04585821
0.711140625 -0.5031826 0.2223338
0.7122890625 -0.39046 0.3640552
0.7134375 -0.2428098 0.4584557
0.7145859375 -0.07772216 0.4996897
0.715734375 0.0871921 0.4862382
0.7168828125 0.2356242 0.4226295
0.71803125 0.3537343 0.3174451
0.7191796875 0.4314052 0.1831784
0.720328125 0.462588 0.03306396
0.7214765625 0.4455338 -0.1178715
0.722625 0.3822924 -0.2553919
0.7237734375 0.2786996 -0.3670644
0.724921875 0.1442057 -0.4411462
0.7260703125 -0.009135421 -0.4697337
0.72721875 -0.1673452 -0.4477053
0.7283671875 -0.3146366 -0.3740236
0.729515625 -0.4340009 -0.251918
0.7306640625 -0.5101473 -0.09111062
0.7318125 -0.5289226 0.09553196
0.7329609375 -0.4806226 0.2876339
0.734109375 -0.3613055 0.4610951
0.7352578125 -0.1760139 0.5895143
0.73640625 0.05937622 0.6455171
0.7375546875 0.3182195 0.6067968
0.738703125 0.5604075 0.4593739
0.7398515625 0.7376834 0.2079918
0.741 0.800455 -0.1200229
0.7421484375 0.7089355 -0.4693336
0.743296875 0.4541047 -0.7607161
0.7444453125 0.07304879 -0.9089943
0.74559375 -0.3465965 -0.8571588
0.7467421875 -0.6924725 -0.606545
0.747890625 -0.8708932 -0.2301396
0.7490390625 -0.8189976 0.1614776
0.7501875 -0.6410369 0.4731176
0.7513359375 -0.3673737 0.6591476
0.752484375 -0.06761479 0.7098187
0.7536328125 0.2025981 0.6422364
0.75478125 0.4082358 0.489661
0.7559296875 0.5327202 0.2880901
0.757078125 0.573308 0.07123485
0.7582265625 0.5370185 -0.1326029
0.759375 0.4388194 -0.3016579
0.7605234375 0.2955645 -0.4205757
0.761671875 0.1283587 -0.4819243
0.7628203125 -0.0432415 -0.4837354
0.76396875 -0.2001967 -0.4298499
0.7651171875 -0.3266493 -0.3303378
0.766265625 -0.4106767 -0.1980926
0.7674140625 -0.4460406 -0.04920664
0.7685625 -0.4314294 0.09982191
0.7697109375 -0.3707373 0.2334238
0.770859375 -0.2718621 0.3387337
0.7720078125 -0.1463681 0.4061384
0.77315625 -0.007613671 0.4303938
0.7743046875 0.1309 0.4099662
0.775453125 0.255596 0.3480072
0.7766015625 0.355394 0.2504961
0.77775 0.4209111 0.1261031
0.7788984375 0.44537 -0.01388367
0.780046875 0.4255623 -0.1569685
0.7811953125 0.3616352 -0.2903768
0.78234375 0.256912 -0.4003858
0.7834921875 0.1188357 -0.4753823
0.784640625 -0.04153923 -0.5045912
0.7857890625 -0.2104538 -0.4808674
0.7869375 -0.370094 -0.4009406
0.7880859375 -0.5026269 -0.2671467
0.789234375 -0.5883428 -0.08783092
0.7903828125 -0.6102381 0.1217171
0.79153125 -0.5575355 0.3392017
0.7926796875 -0.4249805 0.5372343
0.793828125 -0.2185409 0.6853048
0.7949765625 0.04343554 0.7534201
0.796125 0.3307314 0.7191091
0.7972734375 0.6004364 0.5700529
0.798421875 0.8045245 0.3131951
0.7995703125 0.8946487 -0.02145539
0.80071875 0.8396734 -0.38089
0.8018671875 0.6318979 -0.696255
0.803015625 0.3034451 -0.8996893
0.8041640625 -0.08297731 -0.9430811
0.8053125 -0.4468176 -0.8194547
0.8064609375 -0.7159353 -0.5609587
0.807609375 -0.8477507 -0.2289598
0.8087578125 -0.8346035 0.1077692
0.80990625 -0.6994089 0.3932494
0.8110546875 -0.4813237 0.5917377
0.812203125 -0.2241686 0.6887087
0.8133515625 0.03142449 0.6868994
0.8145 0.254567 0.601619
0.8156484375 0.4231665 0.4545538
0.816796875 0.5253438 0.2712774
0.8179453125 0.5587041 0.07631391
0.81909375 0.5276445 -0.1080801
0.8202421875 0.4428722 -0.2631456
0.821390625 0.3190115 -0.3763445
0.8225390625 0.1730375 -0.440442
0.8236875 0.02209655 -0.4536198
0.8248359375 -0.1185203 -0.4201231
0.825984375 -0.2358503 -0.3478196
0.8271328125 -0.320802 -0.2476328
0.82828125 -0.3688771 -0.1311397
0.8294296875 -0.378872 -0.01067855
0.830578125 -0.3533353 0.1026009
0.8317265625 -0.2971833 0.1997823
0.832875 -0.2172873 0.2736206
0.8340234375 -0.1220458 0.3195578
0.835171875 -0.01983022 0.3352072
0.8363203125 0.08045729 0.3207457
0.83746875 0.1708789 0.2785245
0.8386171875 0.2443937 0.2121494
0.839765625 0.2950721 0.1278824
0.8409140625 0.3185585 0.03277715
0.8420625 0.3132015 -0.06519261
0.8432109375 0.2784129 -0.1573774
0.844359375 0.2173877 -0.235401
0.8455078125 0.1353265 -0.2919422
0.84665625 0.0390084 -0.3208793
0.8478046875 -0.06232465 -0.3190635
0.848953125 -0.1591966 -0.2858393
0.8501015625 -0.2419567 -0.223905
0.85125 -0.3020982 -0.1385542
0.8523984375 -0.3333749 -0.03788299
0.853546875 -0.3318414 0.06854407
0.8546953125 -0.2974595 0.1707691
0.85584375 -0.2325224 0.2586253
0.8569921875 -0.1424573 0.3233162
0.858140625 -0.03510436 0.3584333
0.8592890625 0.08053803 0.3589548
0.8604375 0.1941029 0.3235156
0.8615859375 0.2945608 0.2530353
0.862734375 0.3716412 0.1512019
0.8638828125 0.4159556 0.02503783
0.86503125 0.4184355 -0.1155245
0.8661796875 0.3743194 -0.2578554
0.867328125 0.2805492 -0.3867481
0.8684765625 0.1401061 -0.4845449
0.869625 -0.03864404 -0.5330715
0.8707734375 -0.2396649 -0.5145035
0.871921875 -0.43729 -0.4168974
0.8730703125 -0.5981637 -0.2360591
0.87421875 -0.6832874 0.01576454
0.8753671875 -0.6550168 0.304824
0.876515625 -0.4928936 0.5755264
0.8776640625 -0.2081818 0.755992
0.8788125 0.1430228 0.785096
0.8799609375 0.472276 0.6422827
0.881109375 0.6908326 0.3630482
0.8822578125 0.7496247 0.02813208
0.88340625 0.6546941 -0.2758209
0.8845546875 0.4536282 -0.4875282
0.885703125 0.2069993 -0.5850257
0.8868515625 -0.03261046 -0.5753929
0.888 -0.2289461 -0.484495
0.8891484375 -0.3635969 -0.3417782
0.890296875 -0.4317246 -0.1763336
0.8914453125 -0.4376622 -0.01234561
0.89259375 -0.3912549 0.1321321
0.8937421875 -0.305391 0.2447752
0.894890625 -0.1944706 0.3180158
0.8960390625 -0.07260604 0.3492603
0.8971875 0.04699972 0.3398077
0.8983359375 0.1526163 0.2939891
0.899484375 0.2348417 0.2190685
0.9006328125 0.2869003 0.1246716
0.90178125 0.3046341 0.02121515
0.9029296875 0.2882563 -0.08024474
0.904078125 0.2406444 -0.168954
0.9052265625 0.1678252 -0.23609
0.906375 0.07837459 -0.2752542
0.9075234375 -0.01780299 -0.282746
0.908671875 -0.1103065 -0.2588152
0.9098203125 -0.1893235 -0.2061301
0.91096875 -0.2465346 -0.1313567
0.9121171875 -0.2765369 -0.04213985
0.913265625 -0.2761241 0.05204711
0.9144140625 -0.2455496 0.1415575
0.9155625 -0.1874644 0.2174706
0.9167109375 -0.1067179 0.2714764
0.917859375 -0.01102166 0.2976261
0.9190078125 0.09048553 0.2918357
0.92015625 0.1879967 0.2523943
0.9213046875 0.2708651 0.1810876
0.922453125 0.3288593 0.08257449
0.9236015625 0.3523972 -0.03553412
0.92475 0.3347004 -0.1621263
0.9258984375 0.2712165 -0.2825956
0.927046875 0.1633257 -0.3807348
0.9281953125 0.01707033 -0.4393511
0.92934375 -0.1537119 -0.4416739
0.9304921875 -0.3269739 -0.3758556
0.931640625 -0.4741007 -0.2379487
0.9327890625 -0.5627995 -0.03687871
0.9339375 -0.562839 0.2015102
0.9350859375 -0.4543984 0.4352908
0.936234375 -0.2422385 0.6100675
0.9373828125 0.03942239 0.6758176
0.93853125 0.3287127 0.603507
0.9396796875 0.5546799 0.4054478
0.940828125 0.6638879 0.1305383
0.9419765625 0.6396645 -0.1532222
0.943125 0.5016381 -0.3848597
0.9442734375 0.2939584 -0.5269768
0.945421875 0.06473683 -0.5699053
0.9465703125 -0.1461132 -0.5241394
0.94771875 -0.3109259 -0.4120948
0.9488671875 -0.416181 -0.2600623
0.950015625 -0.458392 -0.09299145
0.9511640625 -0.4420364 0.06776283
0.9523125 -0.3764411 0.2051943
0.9534609375 -0.2747012 0.3078869
0.954609375 -0.1512284 0.3685072
0.9557578125 -0.020399 0.3851961
0.95690625 0.1040865 0.3597391
0.9580546875 0.2098639 0.2977254
0.959203125 0.2880704 0.2082794
0.9603515625 0.332181 0.1017546
0.9615 0.3398064 -0.01019544
0.9626484375 0.3125825 -0.116203
0.963796875 0.2545698 -0.2061167
0.9649453125 0.1733299 -0.2718411
0.96609375 0.07769182 -0.3081775
0.9672421875 -0.02285108 -0.3129296
0.968390625 -0.1180597 -0.2872028
0.9695390625 -0.1998038 -0.2342881
0.9706875 -0.2609046 -0.1599485
0.9718359375 -0.29655 -0.07142092
0.972984375 -0.3041905 0.02315888
0.9741328125 -0.283363 0.1156696
0.97528125 -0.2355344 0.1980462
0.9764296875 -0.1648716 0.263111
0.977578125 -0.07726502 0.3047376
0.9787265625 0.02053149 0.3187433
0.979875 0.1200661 0.3025047
0.9810234375 0.2121023 0.2558679
0.982171875 0.288074 0.1814531
0.9833203125 0.3395153 0.0843695
0.98446875 0.359336 -0.02754202
0.9856171875 0.342869 -0.1444091
0.986765625 0.2885205 -0.2549118
0.9879140625 0.1981734 -0.346286
0.9890625 0.07824983 -0.4068312
0.9902109375 -0.06118052 -0.4266405
0.991359375 -0.206781 -0.3991272
0.9925078125 -0.3420832 -0.3213855
0.99365625 -0.4500235 -0.1965905
0.9948046875 -0.5138738 -0.0338115
0.995953125 -0.5192168 0.1522046
