# GHZ S RI R 50.0
0.3 -0.1325762 1.266614
0.3011484375 0.2837867 1.144927
0.302296875 0.6014544 0.9125442
0.3034453125 0.8045815 0.6193583
0.30459375 0.8945841 0.3090498
0.3057421875 0.887648 0.01378289
0.306890625 0.8021243 -0.2450326
0.3080390625 0.6575181 -0.4539669
0.3091875 0.4715246 -0.6057007
0.3103359375 0.2608238 -0.6972648
0.311484375 0.039317 -0.727725
0.3126328125 -0.1801674 -0.6982514
0.31378125 -0.3834999 -0.6100539
0.3149296875 -0.5578035 -0.4657028
0.316078125 -0.688564 -0.2724954
0.3172265625 -0.7600515 -0.03747375
0.318375 -0.7568741 0.2233704
0.3195234375 -0.6645628 0.4882711
0.320671875 -0.4747049 0.7256811
0.3218203125 -0.1909854 0.8959845
0.32296875 0.1644773 0.9578118
0.3241171875 0.5506947 0.8747423
0.325265625 0.907078 0.6282956
0.3264140625 1.159355 0.2262002
0.3275625 1.236679 -0.2901834
0.3287109375 1.077922 -0.8522213
0.329859375 0.6456077 -1.346784
0.3310078125 -0.05030011 -1.630119
0.33215625 -0.9170964 -1.515113
0.3333046875 -1.668063 -0.8682261
0.334453125 -1.905552 0.1755823
0.3356015625 -1.455907 1.137673
0.33675 -0.6040774 1.591453
0.3378984375 0.2154642 1.513664
0.339046875 0.7742071 1.123262
0.3401953125 1.052442 0.6275275
0.34134375 1.103965 0.147896
0.3424921875 0.9942999 -0.2578222
0.343640625 0.776505 -0.5645623
0.3447890625 0.4943243 -0.7632273
0.3459375 0.1819937 -0.8510855
0.3470859375 -0.1246582 -0.8304937
0.348234375 -0.3972064 -0.7115679
0.3493828125 -0.6057788 -0.5126695
0.35053125 -0.7292463 -0.2605791
0.3516796875 -0.755416 0.01084098
0.352828125 -0.6862466 0.2662611
0.3539765625 -0.5382509 0.4717648
0.355125 -0.3370567 0.6082686
0.3562734375 -0.1133374 0.6657991
0.357421875 0.1067237 0.6485101
0.3585703125 0.3009711 0.5664933
0.35971875 0.4528742 0.4354139
0.3608671875 0.5557731 0.271444
0.362015625 0.606062 0.09040447
0.3631640625 0.6035367 -0.09378053
0.3643125 0.5511922 -0.2684464
0.3654609375 0.4536454 -0.422883
0.366609375 0.3155246 -0.5473981
0.3677578125 0.1455878 -0.6318914
0.36890625 -0.0484887 -0.6682904
0.3700546875 -0.2550126 -0.6490595
0.371203125 -0.4594136 -0.5675865
0.3723515625 -0.6433514 -0.4202487
0.3735 -0.7849599 -0.2111557
0.3746484375 -0.8606931 0.05238856
0.375796875 -0.8473691 0.3494297
0.3769453125 -0.7273144 0.6488385
0.37809375 -0.4946826 0.9105931
0.3792421875 -0.1629269 1.087561
0.380390625 0.2387158 1.140665
0.3815390625 0.6610927 1.040365
0.3826875 1.042099 0.7797474
0.3838359375 1.321767 0.372914
0.384984375 1.44206 -0.1412678
0.3861328125 1.358705 -0.7006656
0.38728125 1.04659 -1.22432
0.3884296875 0.51522 -1.610905
0.389578125 -0.1754995 -1.755663
0.3907265625 -0.9031815 -1.579625
0.391875 -1.500104 -1.078856
0.3930234375 -1.807195 -0.3524685
0.394171875 -1.751194 0.418238
0.3953203125 -1.376481 1.051802
0.39646875 -0.8083732 1.437209
0.3976171875 -0.1863995 1.547355
0.398765625 0.3786125 1.42006
0.3999140625 0.8184175 1.118759
0.4010625 1.097008 0.714826
0.4022109375 1.208777 0.2717879
0.403359375 1.164821 -0.1535152
0.4045078125 0.9879239 -0.5152423
0.40565625 0.7158867 -0.7785416
0.4068046875 0.3904445 -0.9235779
0.407953125 0.05646181 -0.9471892
0.4091015625 -0.2453635 -0.8626351
0.41025 -0.4840238 -0.6941563
0.4113984375 -0.6419379 -0.4747018
0.412546875 -0.7157903 -0.2353799
0.4136953125 -0.7120562 -0.002999201
0.41484375 -0.6440753 0.2012903
0.4159921875 -0.5276059 0.3646492
0.417140625 -0.3798844 0.4803903
0.4182890625 -0.2155051 0.5466807
0.4194375 -0.04880197 0.5647988
0.4205859375 0.1099936 0.5387862
0.421734375 0.2513589 0.4740216
0.4228828125 0.3682656 0.37614
0.42403125 0.4531764 0.2534964
0.4251796875 0.5020843 0.1134194
0.426328125 0.5113549 -0.03498094
0.4274765625 0.4794042 -0.1812593
0.428625 0.4061986 -0.3147016
0.4297734375 0.2967107 -0.4224667
0.430921875 0.1571256 -0.4948271
0.4320703125 0.0002214465 -0.5219792
0.43321875 -0.1598962 -0.4993354
0.4343671875 -0.3066925 -0.4270772
0.435515625 -0.4237219 -0.3117364
0.4366640625 -0.4983834 -0.1653167
0.4378125 -0.5231601 -0.004080341
0.4389609375 -0.4963655 0.15556
0.440109375 -0.4236782 0.2967057
0.4412578125 -0.3133213 0.407537
0.44240625 -0.1773692 0.480326
0.4435546875 -0.02825124 0.5100696
0.444703125 0.1217032 0.4968276
0.4458515625 0.2618505 0.4428127
0.447 0.3821159 0.3519952
0.4481484375 0.4744092 0.2305657
0.449296875 0.5310925 0.08546203
0.4504453125 0.5471485 -0.07320379
0.45159375 0.5181019 -0.2366509
0.4527421875 0.4416722 -0.3923773
0.453890625 0.3179557 -0.5274352
0.4550390625 0.1510465 -0.6271673
0.4561875 -0.05070041 -0.6759369
0.4573359375 -0.2732748 -0.6608464
0.458484375 -0.4954838 -0.5709893
0.4596328125 -0.6924492 -0.4029014
0.46078125 -0.8341948 -0.1619857
0.4619296875 -0.8922641 0.133973
0.463078125 -0.8433813 0.4563059
0.4642265625 -0.674461 0.7647803
0.465375 -0.3867856 1.014292
0.4665234375 0.0007037249 1.1578
0.467671875 0.4512793 1.151323
0.4688203125 0.9088604 0.9623078
0.46996875 1.294374 0.5769365
0.4711171875 1.514878 0.01248564
0.472265625 1.469037 -0.6571029
0.4734140625 1.090361 -1.287149
0.4745625 0.4118462 -1.682096
0.4757109375 -0.3948981 -1.685835
0.476859375 -1.081274 -1.288824
0.4780078125 -1.459181 -0.6469098
0.47915625 -1.488968 0.03064697
0.4803046875 -1.246547 0.5854861
0.481453125 -0.8473845 0.9463358
0.4826015625 -0.3946106 1.105482
0.48375 0.03593884 1.087485
0.4848984375 0.3952974 0.9329382
0.486046875 0.6550186 0.685267
0.4871953125 0.8021649 0.3877447
0.48834375 0.8360268 0.08039903
0.4894921875 0.7680215 -0.2012368
0.490640625 0.6187011 -0.4286152
0.4917890625 0.4142703 -0.5827379
0.4929375 0.1837304 -0.6551882
0.4940859375 -0.04433689 -0.6479087
0.495234375 -0.2459137 -0.5704426
0.4963828125 -0.4032963 -0.4392268
0.49753125 -0.5055897 -0.2730367
0.4986796875 -0.5488496 -0.09138599
0.499828125 -0.5339304 0.08806155
0.5009765625 -0.4673983 0.249066
0.502125 -0.3577442 0.3794917
0.5032734375 -0.21582 0.469591
0.504421875 -0.05440021 0.5126497
0.5055703125 0.1132593 0.5051692
0.50671875 0.2728041 0.44687
0.5078671875 0.4100369 0.3405399
0.509015625 0.510968 0.1920801
0.5101640625 0.5631696 0.01306384
0.5113125 0.5553296 -0.182444
0.5124609375 0.4807722 -0.3751288
0.513609375 0.3391586 -0.5425003
0.5147578125 0.1362235 -0.6607522
0.51590625 -0.1115359 -0.7059472
0.5170546875 -0.3796076 -0.6590323
0.518203125 -0.6342689 -0.5091523
0.5193515625 -0.8347923 -0.2568652
0.5205 -0.9393704 0.08205444
0.5216484375 -0.9059953 0.4749401
0.522796875 -0.7033554 0.8658487
0.5239453125 -0.3125265 1.179904
0.52509375 0.2412985 1.313346
0.5262421875 0.8745617 1.158574
0.527390625 1.407916 0.6548193
0.5285390625 1.610431 -0.119423
0.5296875 1.345121 -0.901449
0.5308359375 0.7125872 -1.390463
0.531984375 -0.01521853 -1.46467
0.5331328125 -0.6085483 -1.205235
0.53428125 -0.9670417 -0.7709354
0.5354296875 -1.093709 -0.297648
0.536578125 -1.036528 0.1283761
0.5377265625 -0.850489 0.4625039
0.538875 -0.5886413 0.6871155
0.5400234375 -0.2931865 0.798318
0.541171875 -0.0001383985 0.8043427
0.5423203125 0.25836 0.7198836
0.54346875 0.4630167 0.5647748
0.5446171875 0.5983954 0.3629484
0.545765625 0.6582333 0.1398417
0.5469140625 0.6431156 -0.07970603
0.5480625 0.5628789 -0.2740324
0.5492109375 0.4312069 -0.4258794
0.550359375 0.2658722 -0.5250106
0.5515078125 0.08515549 -0.5664803
0.55265625 -0.09301066 -0.5513967
0.5538046875 -0.2530909 -0.485546
0.554953125 -0.382816 -0.3786964
0.5561015625 -0.4736422 -0.2415358
0.55725 -0.5199509 -0.08662096
0.5583984375 -0.5195171 0.07313778
0.559546875 -0.473812 0.2255917
0.5606953125 -0.3858643 0.3585157
0.56184375 -0.262931 0.4614488
0.5629921875 -0.1133332 0.5253857
0.564140625 0.0513178 0.5438026
0.5652890625 0.2180853 0.5118597
0.5664375 0.3722712 0.4301938
0.5675859375 0.4978488 0.3019848
0.568734375 0.5815589 0.1363716
0.5698828125 0.6113616 -0.05291096
0.57103125 0.5798577 -0.2491313
0.5721796875 0.4859492 -0.4306056
0.573328125 0.3347124 -0.5788662
0.5744765625 0.1384707 -0.6747876
0.575625 -0.08508224 -0.7053694
0.5767734375 -0.3147852 -0.6634883
0.577921875 -0.5268678 -0.5476662
0.5790703125 -0.6992704 -0.3651056
0.58021875 -0.8116972 -0.1282046
0.5813671875 -0.8470463 0.1450774
0.582515625 -0.7931669 0.4315673
0.5836640625 -0.6430313 0.7039594
0.5848125 -0.396291 0.9307854
0.5859609375 -0.06249009 1.077198
0.587109375 0.3366868 1.105717
0.5882578125 0.7620533 0.9808688
0.58940625 1.151804 0.6778252
0.5905546875 1.421089 0.197922
0.591703125 1.474041 -0.4111951
0.5928515625 1.235585 -1.038061
0.594 0.6999196 -1.518602
0.5951484375 -0.02723146 -1.695103
0.596296875 -0.7524504 -1.501344
0.5974453125 -1.281586 -1.001716
0.59859375 -1.50644 -0.3564426
0.5997421875 -1.429554 0.2672363
0.600890625 -1.12748 0.7504541
0.6020390625 -0.7048421 1.039486
0.6031875 -0.2550788 1.13376
0.6043359375 0.1518871 1.065059
0.605484375 0.4728179 0.8777788
0.6066328125 0.6886634 0.62012
0.60778125 0.7965849 0.3346768
0.6089296875 0.8070185 0.05587332
0.610078125 0.7362422 -0.1907222
0.6112265625 0.6041263 -0.3882108
0.612375 0.4313422 -0.5272216
0.6135234375 0.2375521 -0.6042365
0.614671875 0.04177108 -0.6203459
0.6158203125 -0.1415395 -0.5808454
0.61696875 -0.2990492 -0.4941884
0.6181171875 -0.4205712 -0.3700734
0.619265625 -0.4986846 -0.220664
0.6204140625 -0.5293167 -0.059133
0.6215625 -0.5117192 0.1009228
0.6227109375 -0.4486538 0.2462801
0.623859375 -0.3468176 0.3648636
0.6250078125 -0.2157688 0.4459959
0.62615625 -0.06831378 0.4832852
0.6273046875 0.08171386 0.4741448
0.628453125 0.2196757 0.4202317
0.6296015625 0.3329856 0.3280726
0.63075 0.4113398 0.2078371
0.6318984375 0.4490689 0.07155405
0.633046875 0.4438876 -0.0670706
0.6341953125 0.3980134 -0.1956586
0.63534375 0.3174836 -0.3032043
0.6364921875 0.2103437 -0.3815055
0.637640625 0.08679953 -0.4243355
0.6387890625 -0.04311078 -0.4296285
0.6399375 -0.1684557 -0.3976415
0.6410859375 -0.2794601 -0.3309704
0.642234375 -0.367749 -0.2349212
0.6433828125 -0.425415 -0.1166421
0.64453125 -0.4471267 0.01555624
0.6456796875 -0.4296075 0.1513968
0.646828125 -0.3720655 0.2796111
0.6479765625 -0.2765034 0.3887717
0.649125 -0.1483726 0.4676149
0.6502734375 0.003637502 0.5061133
0.651421875 0.1661396 0.4964803
0.6525703125 0.3256074 0.4345957
0.65371875 0.4643787 0.320871
0.6548671875 0.5656422 0.1610487
0.656015625 0.613438 -0.03237714
0.6571640625 0.5955299 -0.2424579
0.6583125 0.5055218 -0.4474272
0.6594609375 0.3435599 -0.6225418
0.660609375 0.1176532 -0.7419565
0.6617578125 -0.1547825 -0.7814569
0.66290625 -0.4474426 -0.7206087
0.6640546875 -0.7236462 -0.5463352
0.665203125 -0.9382288 -0.2563817
0.6663515625 -1.037312 0.1318018
0.6675 -0.9658692 0.5736677
0.6686484375 -0.6848854 0.9862069
0.669796875 -0.202858 1.253736
0.6709453125 0.3946976 1.260067
0.67209375 0.9414535 0.9536504
0.6732421875 1.259444 0.4095808
0.674390625 1.260941 -0.2000609
0.6755390625 0.985604 -0.6953481
0.6766875 0.5545868 -0.979373
0.6778359375 0.09452384 -1.038654
0.678984375 -0.3024833 -0.9156966
0.6801328125 -0.5854494 -0.6731266
0.68128125 -0.738511 -0.3735662
0.6824296875 -0.7672986 -0.0694179
0.683578125 -0.6915511 0.1993499
0.6847265625 -0.5393175 0.4063028
0.685875 -0.3407086 0.5369488
0.6870234375 -0.1251999 0.5883646
0.688171875 0.08128351 0.565829
0.6893203125 0.2564894 0.4811314
0.69046875 0.3873935 0.3510265
0.6916171875 0.4649657 0.193353
0.692765625 0.4868531 0.02665966
0.6939140625 0.4558626 -0.1327921
0.6950625 0.3783563 -0.2693569
0.6962109375 0.2647217 -0.372646
0.697359375 0.1264943 -0.4343011
0.6985078125 -0.02261672 -0.4495144
0.69965625 -0.1687967 -0.4174889
0.7008046875 -0.2983255 -0.3408161
0.701953125 -0.3981482 -0.2260417
0.7031015625 -0.4575104 -0.08321569
0.70425 -0.4686369 0.07501678
0.7053984375 -0.4269105 0.2325409
0.706546875 -0.3333952 0.3726302
0.7076953125 -0.1943516 0.4784307
0.70884375 -0.02106411 0.5344617
0.7099921875 0.1691347 0.5296949
0.711140625 0.3557949 0.457801
0.7122890625 0.5151944 0.3204241
0.7134375 0.6240867 0.1264398
0.7145859375 0.6619679 -0.1066085
0.715734375 0.6134786 -0.354215
0.7168828125 0.4712314 -0.5845822
0.71803125 0.2389716 -0.7615654
0.7191796875 -0.06622183 -0.8481588
0.720328125 -0.4094746 -0.8097156
0.7214765625 -0.7385918 -0.6241859
0.722625 -0.9852182 -0.2932213
0.7237734375 -1.074894 0.1455049
0.724921875 -0.9541972 0.6101052
0.7260703125 -0.6183907 0.987318
0.72721875 -0.1334708 1.171119
0.7283671875 0.380434 1.107229
0.729515625 0.7956491 0.8229178
0.7306640625 1.028632 0.4036516
0.7318125 1.055275 -0.04344699
0.7329609375 0.9061846 -0.4321438
0.734109375 0.6369826 -0.7065833
0.7352578125 0.3106794 -0.8452464
0.73640625 -0.01703295 -0.8522145
0.7375546875 -0.3028925 -0.7491997
0.738703125 -0.5179952 -0.5663304
0.7398515625 -0.6477749 -0.3369657
0.741 -0.6901195 -0.09349868
0.7421484375 -0.6518037 0.1352702
0.743296875 -0.5471001 0.3276654
0.7444453125 -0.3954914 0.4684556
0.74559375 -0.2164087 0.5498881
0.7467421875 -0.0296809 0.5704907
0.747890625 0.1468107 0.5347066
0.7490390625 0.2864554 0.4322751
0.7501875 0.3972285 0.3150924
0.7513359375 0.4657733 0.1741347
0.752484375 0.4889983 0.02252302
0.7536328125 0.4670629 -0.1267284
0.75478125 0.4023991 -0.2608647
0.7559296875 0.302141 -0.3692671
0.757078125 0.174261 -0.442691
0.7582265625 0.03043975 -0.4753962
0.759375 -0.1171612 -0.4632277
0.7605234375 -0.2550837 -0.4070784
0.761671875 -0.3710842 -0.3106273
0.7628203125 -0.4530443 -0.1821081
0.76396875 -0.4924862 -0.03295122
0.7651171875 -0.4840314 0.1236356
0.766265625 -0.4266641 0.271876
0.7674140625 -0.3247985 0.3969963
0.7685625 -0.1872018 0.4865254
0.7697109375 -0.0257875 0.5293539
0.770859375 0.1441981 0.5201348
0.7720078125 0.306824 0.4580944
0.77315625 0.4452372 0.3461745
0.7743046875 0.5450614 0.192702
0.775453125 0.5943371 0.01046802
0.7766015625 0.5848399 -0.1845578
0.77775 0.5120786 -0.3750754
0.7788984375 0.3774601 -0.5401772
0.780046875 0.1876663 -0.6604331
0.7811953125 -0.04390027 -0.7160707
0.78234375 -0.2957015 -0.691277
0.7834921875 -0.5406856 -0.575318
0.784640625 -0.7434231 -0.3672974
0.7857890625 -0.8670239 -0.08079857
0.7869375 -0.8770534 0.2540714
0.7880859375 -0.7496116 0.5893027
0.789234375 -0.4839102 0.8634215
0.7903828125 -0.111049 1.012724
0.79153125 0.3062544 0.9914417
0.7926796875 0.6824273 0.7904702
0.793828125 0.9356906 0.4458232
0.7949765625 1.015481 0.03312634
0.796125 0.9156737 -0.3598982
0.7972734375 0.6745628 -0.6599231
0.798421875 0.3534504 -0.8251386
0.7995703125 0.01885194 -0.8486573
0.80071875 -0.2751703 -0.7513515
0.8018671875 -0.4942189 -0.5686131
0.803015625 -0.6226531 -0.3393264
0.8041640625 -0.6606438 -0.1000888
0.8053125 -0.6191566 0.1206372
0.8064609375 -0.515864 0.3016565
0.807609375 -0.3696609 0.4304004
0.8087578125 -0.2008541 0.5019502
0.80990625 -0.02834496 0.5159554
0.8110546875 0.1313331 0.4780914
0.812203125 0.2654434 0.39636
0.8133515625 0.3633718 0.2822316
0.8145 0.4194993 0.148635
0.8156484375 0.4317394 0.009047946
0.816796875 0.4011284 -0.123347
0.8179453125 0.3331761 -0.2364652
0.81909375 0.2360932 -0.320947
0.8202421875 0.1204376 -0.369575
0.821390625 -0.001426558 -0.3798998
0.8225390625 -0.1174621 -0.35238
0.8236875 -0.2169913 -0.2918967
0.8248359375 -0.2912334 -0.2055475
0.825984375 -0.3342337 -0.102948
0.8271328125 -0.3437721 0.005458691
0.82828125 -0.3202607 0.1095645
0.8294296875 -0.2674091 0.2002067
0.830578125 -0.1909898 0.269729
0.8317265625 -0.09847177 0.3126693
0.832875 0.001863287 0.3260904
0.8340234375 0.1013805 0.3092963
0.835171875 0.1915141 0.2638291
0.8363203125 0.2646824 0.1931813
0.83746875 0.3139704 0.1032522
0.8386171875 0.3346297 0.00110615
0.839765625 0.3232561 -0.1048037
0.8409140625 0.2795087 -0.2047617
0.8420625 0.2050932 -0.288985
0.8432109375 0.1048878 -0.3482808
0.844359375 -0.01326744 -0.3739814
0.8455078125 -0.1384283 -0.3604932
0.84665625 -0.2578993 -0.3054062
0.8478046875 -0.3575796 -0.2098953
0.848953125 -0.4238362 -0.08071128
0.8501015625 -0.4444276 0.07111423
0.85125 -0.4106461 0.2301986
0.8523984375 -0.3191675 0.3767359
0.853546875 -0.1730887 0.4901454
0.8546953125 0.01704121 0.5482142
0.85584375 0.2315247 0.5322508
0.8569921875 0.4412694 0.4288524
0.858140625 0.6084844 0.2357996
0.8592890625 0.6899774 -0.03165651
0.8604375 0.6458222 -0.3328128
0.8615859375 0.4574708 -0.6018433
0.862734375 0.14846 -0.7602501
0.8638828125 -0.2083967 -0.7497534
0.86503125 -0.513563 -0.5675768
0.8661796875 -0.6861505 -0.2718431
0.867328125 -0.698967 0.04885942
0.8684765625 -0.5767165 0.3171108
0.869625 -0.3720354 0.4899546
0.8707734375 -0.1383243 0.5565776
0.871921875 0.08033136 0.5290574
0.8730703125 0.2551103 0.4306247
0.87421875 0.371114 0.287462
0.8753671875 0.4234661 0.1259421
0.876515625 0.4163839 -0.03142859
0.8776640625 0.3591562 -0.1667407
0.8788125 0.2651161 -0.267602
0.8799609375 0.1500057 -0.3270719
0.881109375 0.0282464 -0.3436706
0.8822578125 -0.08570408 -0.3202229
0.88340625 -0.1811121 -0.2635788
0.8845546875 -0.2501592 -0.1825768
0.885703125 -0.2881715 -0.08777375
0.8868515625 -0.2937989 0.01069836
0.888 -0.2689801 0.1033189
0.8891484375 -0.2178544 0.1816598
0.890296875 -0.1463567 0.2390707
0.8914453125 -0.06187414 0.2713107
0.89259375 0.02799222 0.276053
0.8937421875 0.1146268 0.2530944
0.894890625 0.1901696 0.204463
0.8960390625 0.2477446 0.1342181
0.8971875 0.2811138 0.04868315
0.8983359375 0.2864289 -0.04464748
0.899484375 0.2619888 -0.13691
0.9006328125 0.2082755 -0.2186285
0.90178125 0.1293037 -0.2810427
0.9029296875 0.03181408 -0.3161038
0.904078125 -0.0750661 -0.3181526
0.9052265625 -0.1805817 -0.2843816
0.906375 -0.2726092 -0.2163323
0.9075234375 -0.3403347 -0.1183764
0.908671875 -0.3734446 0.001002539
0.9098203125 -0.3657864 0.1297843
0.91096875 -0.3142905 0.2546178
0.9121171875 -0.2199736 0.3602596
0.913265625 -0.08948355 0.4327755
0.9144140625 0.06653249 0.4594285
0.9155625 0.2320904 0.4301397
0.9167109375 0.3880285 0.3403075
0.917859375 0.5117542 0.1916128
0.9190078125 0.5793309 -0.006110479
0.92015625 0.5688361 -0.2320609
0.9213046875 0.4655056 -0.4548671
0.922453125 0.2681222 -0.6325348
0.9236015625 -0.003887336 -0.7206605
0.92475 -0.3057221 -0.6836658
0.9258984375 -0.5745292 -0.5121052
0.927046875 -0.7441458 -0.2320476
0.9281953125 -0.7722659 0.09661894
0.92934375 -0.6542422 0.3989735
0.9304921875 -0.4251229 0.6123052
0.931640625 -0.1418393 0.7039396
0.9327890625 0.1366049 0.6727781
0.9339375 0.3623793 0.5431587
0.9350859375 0.5105482 0.3513612
0.936234375 0.5713491 0.1354122
0.9373828125 0.5513845 -0.07169593
0.93853125 0.466818 -0.2452018
0.9396796875 0.3376605 -0.3698569
0.940828125 0.1847875 -0.439378
0.9419765625 0.02815171 -0.453878
0.943125 -0.1156083 -0.4193505
0.9442734375 -0.2348131 -0.3457012
0.945421875 -0.320396 -0.2437481
0.9465703125 -0.3681673 -0.125762
0.94771875 -0.377457 -0.004100964
0.9488671875 -0.3502113 0.1107628
0.950015625 -0.291713 0.2088845
0.9511640625 -0.2083004 0.2829881
0.9523125 -0.1088036 0.3275148
0.9534609375 -0.002365719 0.3402464
0.954609375 0.1014417 0.3205124
0.9557578125 0.1933245 0.2707773
0.95690625 0.2653495 0.196099
0.9580546875 0.3110904 0.1037656
0.959203125 0.3261089 0.002438512
0.9603515625 0.3096046 -0.09826333
0.9615 0.2633298 -0.1889503
0.9626484375 0.1917752 -0.2608266
0.963796875 0.1016335 -0.3069945
0.9649453125 0.001758911 -0.3237324
0.96609375 -0.09826924 -0.3093188
0.9672421875 -0.1892892 -0.2649218
0.968390625 -0.2630845 -0.1950241
0.9695390625 -0.3125695 -0.1058852
0.9706875 -0.3333003 -0.005287677
0.9718359375 -0.3230291 0.09827242
0.972984375 -0.2819691 0.1955558
0.9741328125 -0.2124795 0.2776698
0.97528125 -0.1196164 0.3368037
0.9764296875 -0.0102908 0.3665383
0.977578125 0.1066291 0.3622811
0.9787265625 0.2213312 0.3210575
0.979875 0.3225658 0.2440401
0.9810234375 0.3986858 0.1347555
0.982171875 0.4390055 -0.0001339469
0.9833203125 0.4348783 -0.1488335
0.98446875 0.3800926 -0.2976518
0.9856171875 0.272862 -0.4285887
0.986765625 0.1179174 -0.5230129
0.9879140625 -0.07346515 -0.5620679
0.9890625 -0.2818108 -0.5296544
0.9902109375 -0.4796881 -0.4166006
0.991359375 -0.634174 -0.2242195
0.9925078125 -0.7099233 0.03266028
0.99365625 -0.6761611 0.319134
0.9948046875 -0.517643 0.5861344
0.995953125 -0.2450446 0.7722702
0.9971015625 0.09656644 0.8237758
