# GHZ S RI R 50.0
0.3 -0.1310578 1.273769
0.3011484375 0.2871199 1.150118
0.302296875 0.6056763 0.9159728
0.3034453125 0.8081347 0.6210737
0.30459375 0.898559 0.3092158
0.3057421875 0.8910103 0.0124884
0.306890625 0.804503 -0.2465101
0.3080390625 0.6589997 -0.4553664
0.3091875 0.4725604 -0.606986
0.3103359375 0.2608338 -0.6987854
0.311484375 0.03936408 -0.7292092
0.3126328125 -0.1794119 -0.699672
0.31378125 -0.3827361 -0.6113858
0.3149296875 -0.5575534 -0.4678325
0.316078125 -0.6884223 -0.2737277
0.3172265625 -0.7604885 -0.03929064
0.318375 -0.7576739 0.2215217
0.3195234375 -0.6657475 0.4861666
0.320671875 -0.4767106 0.7239662
0.3218203125 -0.1943916 0.8952922
0.32296875 0.1602069 0.9584813
0.3241171875 0.5455697 0.8776287
0.325265625 0.9018645 0.634744
0.3264140625 1.156846 0.2366261
0.3275625 1.239219 -0.2784913
0.3287109375 1.08774 -0.8398923
0.329859375 0.6637838 -1.340279
0.3310078125 -0.02751917 -1.63587
0.33215625 -0.8983377 -1.539249
0.3333046875 -1.670925 -0.9038526
0.334453125 -1.937109 0.1487587
0.3356015625 -1.494471 1.140577
0.33675 -0.624724 1.617059
0.3378984375 0.2148472 1.540663
0.339046875 0.7858987 1.140965
0.3401953125 1.067305 0.6351652
0.34134375 1.117759 0.1469279
0.3424921875 1.004359 -0.2627076
0.343640625 0.7828069 -0.5719489
0.3447890625 0.4961435 -0.7712777
0.3459375 0.1823121 -0.8573949
0.3470859375 -0.127338 -0.8354883
0.348234375 -0.4009261 -0.7150569
0.3493828125 -0.6103389 -0.5146579
0.35053125 -0.7335286 -0.2602642
0.3516796875 -0.7584899 0.01259323
0.352828125 -0.6887042 0.2679391
0.3539765625 -0.5400095 0.474105
0.355125 -0.3372456 0.6106721
0.3562734375 -0.1132789 0.6680036
0.357421875 0.1075572 0.6507303
0.3585703125 0.3013221 0.5681298
0.35971875 0.4542296 0.4365237
0.3608671875 0.5570827 0.2721247
0.362015625 0.6072124 0.09069085
0.3631640625 0.6048062 -0.09357519
0.3643125 0.5522988 -0.2683485
0.3654609375 0.4547685 -0.4228872
0.366609375 0.316967 -0.5470283
0.3677578125 0.1467824 -0.6319282
0.36890625 -0.04732865 -0.6688135
0.3700546875 -0.2537119 -0.649893
0.371203125 -0.4585518 -0.5686108
0.3723515625 -0.6421501 -0.4228814
0.3735 -0.7840964 -0.2134988
0.3746484375 -0.8607907 0.04938308
0.375796875 -0.8484499 0.3460546
0.3769453125 -0.7298859 0.6454816
0.37809375 -0.4985616 0.907666
0.3792421875 -0.1685938 1.08626
0.380390625 0.2316236 1.141319
0.3815390625 0.6532395 1.044319
0.3826875 1.036118 0.7868727
0.3838359375 1.318716 0.3833272
0.384984375 1.44356 -0.1280435
0.3861328125 1.366737 -0.6881728
0.38728125 1.060503 -1.216422
0.3884296875 0.5351396 -1.610126
0.389578125 -0.1564703 -1.765405
0.3907265625 -0.8904386 -1.599872
0.391875 -1.500437 -1.102758
0.3930234375 -1.820437 -0.3743784
0.394171875 -1.77279 0.4073737
0.3953203125 -1.399049 1.053722
0.39646875 -0.8250445 1.448331
0.3976171875 -0.1943365 1.563427
0.398765625 0.3796672 1.435294
0.3999140625 0.8230922 1.131557
0.4010625 1.105256 0.7227762
0.4022109375 1.218879 0.2752623
0.403359375 1.173882 -0.1552228
0.4045078125 0.9955576 -0.5184086
0.40565625 0.7209245 -0.7832164
0.4068046875 0.3922966 -0.9292231
0.407953125 0.0559638 -0.9524862
0.4091015625 -0.2462158 -0.8670303
0.41025 -0.4857785 -0.6982667
0.4113984375 -0.6447341 -0.477464
0.412546875 -0.7189482 -0.2366933
0.4136953125 -0.714938 -0.003554108
0.41484375 -0.6462201 0.2014836
0.4159921875 -0.5294948 0.3658213
0.417140625 -0.3815071 0.4815128
0.4182890625 -0.2171747 0.5481472
0.4194375 -0.04965092 0.5660518
0.4205859375 0.109644 0.5402134
0.421734375 0.2516371 0.475485
0.4228828125 0.3682581 0.377788
0.42403125 0.4537341 0.2547114
0.4251796875 0.5028604 0.1143311
0.426328125 0.5122138 -0.03408579
0.4274765625 0.4805688 -0.1809932
0.428625 0.4077317 -0.3139785
0.4297734375 0.2980455 -0.422341
0.430921875 0.1588844 -0.4948696
0.4320703125 0.001721684 -0.5226966
0.43321875 -0.1588317 -0.5003492
0.4343671875 -0.3056456 -0.4283276
0.435515625 -0.423217 -0.3132717
0.4366640625 -0.4979081 -0.1670708
0.4378125 -0.5230438 -0.005924341
0.4389609375 -0.4974104 0.1532911
0.440109375 -0.4249129 0.2950682
0.4412578125 -0.3151336 0.4063713
0.44240625 -0.1792087 0.4794656
0.4435546875 -0.03052826 0.5099999
0.444703125 0.1197647 0.497325
0.4458515625 0.2595355 0.4437405
0.447 0.3802738 0.3538843
0.4481484375 0.4727725 0.2329481
0.449296875 0.5303957 0.08900882
0.4504453125 0.5473238 -0.06991148
0.45159375 0.5191298 -0.2330142
0.4527421875 0.444003 -0.3890243
0.453890625 0.3209451 -0.5248147
0.4550390625 0.1549991 -0.6248737
0.4561875 -0.04516182 -0.675207
0.4573359375 -0.2670089 -0.6623515
0.458484375 -0.4898775 -0.5748295
0.4596328125 -0.6875921 -0.4090044
0.46078125 -0.8314545 -0.1705769
0.4619296875 -0.8926155 0.1238163
0.463078125 -0.8478954 0.4456197
0.4642265625 -0.6830732 0.7557548
0.465375 -0.4002355 1.008803
0.4665234375 -0.01676433 1.157736
0.467671875 0.4326118 1.159868
0.4688203125 0.8935552 0.9804782
0.46996875 1.289274 0.6030989
0.4711171875 1.523658 0.04205647
0.472265625 1.494418 -0.6338444
0.4734140625 1.128435 -1.281826
0.4745625 0.4474666 -1.700468
0.4757109375 -0.3774485 -1.721181
0.476859375 -1.087315 -1.32514
0.4780078125 -1.481265 -0.6700182
0.47915625 -1.515125 0.0240744
0.4803046875 -1.266869 0.5925548
0.481453125 -0.8604316 0.9587211
0.4826015625 -0.3990155 1.119491
0.48375 0.03660702 1.099175
0.4848984375 0.3992031 0.9419287
0.486046875 0.660414 0.6906925
0.4871953125 0.8074913 0.3901775
0.48834375 0.8407635 0.08097571
0.4894921875 0.7721319 -0.2018781
0.490640625 0.6216729 -0.4296829
0.4917890625 0.4165866 -0.5844118
0.4929375 0.185268 -0.6570497
0.4940859375 -0.04314335 -0.6495106
0.495234375 -0.2450605 -0.5723515
0.4963828125 -0.4025894 -0.4412712
0.49753125 -0.5053338 -0.275231
0.4986796875 -0.5488194 -0.09358972
0.499828125 -0.5348071 0.0857657
0.5009765625 -0.4686727 0.2469238
0.502125 -0.3595247 0.3774928
0.5032734375 -0.2185271 0.4678847
0.504421875 -0.0578886 0.5116311
0.5055703125 0.109318 0.5053785
0.50671875 0.2686841 0.4483386
0.5078671875 0.4064088 0.3433003
0.509015625 0.5084296 0.1964254
0.5101640625 0.5618227 0.01899995
0.5113125 0.5560592 -0.1755557
0.5124609375 0.4843897 -0.367968
0.513609375 0.3454791 -0.536145
0.5147578125 0.145936 -0.6566585
0.51590625 -0.09941658 -0.7055962
0.5170546875 -0.3662365 -0.6637392
0.518203125 -0.6219053 -0.5205511
0.5193515625 -0.8268001 -0.2751409
0.5205 -0.9394723 0.0582009
0.5216484375 -0.9195886 0.448529
0.522796875 -0.7311643 0.8447918
0.5239453125 -0.3563331 1.173755
0.52509375 0.1929547 1.334955
0.5262421875 0.8417758 1.212943
0.527390625 1.416108 0.7281721
0.5285390625 1.669409 -0.06235905
0.5296875 1.427281 -0.8963053
0.5308359375 0.7739913 -1.436548
0.531984375 0.0006826549 -1.528667
0.5331328125 -0.6282441 -1.256708
0.53428125 -1.002846 -0.7983373
0.5354296875 -1.130272 -0.3033726
0.536578125 -1.065301 0.1376259
0.5377265625 -0.8692671 0.4795631
0.538875 -0.5970025 0.7061048
0.5400234375 -0.2933934 0.8159783
0.541171875 0.005165992 0.8185871
0.5423203125 0.2670346 0.7293296
0.54346875 0.4733997 0.569933
0.5446171875 0.6081586 0.3641641
0.545765625 0.6663981 0.1382055
0.5469140625 0.6496813 -0.08363871
0.5480625 0.5673909 -0.278959
0.5492109375 0.4334432 -0.4312993
0.550359375 0.2660602 -0.5299245
0.5515078125 0.08366133 -0.5706582
0.55265625 -0.09487901 -0.5545681
0.5538046875 -0.2553654 -0.4881012
0.554953125 -0.3853859 -0.3801225
0.5561015625 -0.4757839 -0.2422238
0.55725 -0.5218131 -0.08639771
0.5583984375 -0.5211977 0.07376668
0.559546875 -0.4752523 0.2259431
0.5606953125 -0.3874475 0.3589518
0.56184375 -0.2640741 0.4622548
0.5629921875 -0.1146006 0.5265149
0.564140625 0.05021218 0.5448235
0.5652890625 0.2169269 0.5134993
0.5664375 0.370848 0.4316993
0.5675859375 0.4969577 0.304134
0.568734375 0.5814359 0.1386399
0.5698828125 0.6114783 -0.04982986
0.57103125 0.5812739 -0.2450114
0.5721796875 0.4882908 -0.4276032
0.573328125 0.3388191 -0.5756497
0.5744765625 0.143277 -0.6730809
0.575625 -0.078454 -0.7052296
0.5767734375 -0.3073362 -0.6653324
0.577921875 -0.5195097 -0.5524155
0.5790703125 -0.6932262 -0.3731969
0.58021875 -0.808026 -0.1392137
0.5813671875 -0.847284 0.1315563
0.582515625 -0.7990543 0.4168579
0.5836640625 -0.6552438 0.6903742
0.5848125 -0.4158512 0.9215425
0.5859609375 -0.08784746 1.075758
0.587109375 0.3086692 1.115728
0.5882578125 0.737298 1.00506
0.58940625 1.137109 0.7179583
0.5905546875 1.428105 0.2478782
0.591703125 1.510743 -0.3652916
0.5928515625 1.298326 -1.015968
0.594 0.7697188 -1.536569
0.5951484375 0.02354562 -1.752171
0.596296875 -0.743221 -1.575735
0.5974453125 -1.313941 -1.065735
0.59859375 -1.562982 -0.3897478
0.5997421875 -1.48786 0.2672794
0.600890625 -1.172341 0.7746688
0.6020390625 -0.729355 1.075808
0.6031875 -0.2606169 1.171426
0.6043359375 0.1610686 1.096804
0.605484375 0.4908166 0.8996282
0.6066328125 0.7103325 0.6320312
0.60778125 0.818308 0.337365
0.6089296875 0.825523 0.0512728
0.610078125 0.7500013 -0.2009115
0.6112265625 0.6131032 -0.4003807
0.612375 0.4352764 -0.5401626
0.6135234375 0.2374848 -0.6161368
0.614671875 0.03787375 -0.6306136
0.6158203125 -0.1480702 -0.5886562
0.61696875 -0.3069419 -0.4990538
0.6181171875 -0.4289639 -0.3723291
0.619265625 -0.5068569 -0.2201724
0.6204140625 -0.5364789 -0.05647419
0.6215625 -0.5176582 0.1055552
0.6227109375 -0.452485 0.2521842
0.623859375 -0.3485637 0.3709703
0.6250078125 -0.2155617 0.4521782
0.62615625 -0.06633394 0.4889427
0.6273046875 0.08518662 0.4785585
0.628453125 0.2240568 0.4231003
0.6296015625 0.3377008 0.3295078
0.63075 0.4159311 0.2075123
0.6318984375 0.4533651 0.07013364
0.633046875 0.4473256 -0.0700598
0.6341953125 0.4005765 -0.19911
0.63534375 0.3189099 -0.3070748
0.6364921875 0.2107455 -0.3851767
0.637640625 0.08551481 -0.427831
0.6387890625 -0.044822 -0.4324015
0.6399375 -0.1708676 -0.3996689
0.6410859375 -0.282369 -0.3323565
0.642234375 -0.3706444 -0.2354485
0.6433828125 -0.4283003 -0.1160374
0.64453125 -0.4496556 0.01689258
0.6456796875 -0.4314744 0.1531551
0.646828125 -0.3735337 0.2821071
0.6479765625 -0.2770972 0.3916682
0.649125 -0.1483662 0.4704523
0.6502734375 0.004119897 0.508878
0.651421875 0.1677729 0.4988113
0.6525703125 0.3277355 0.4363641
0.65371875 0.4670645 0.321653
0.6548671875 0.5685526 0.1615526
0.656015625 0.6162902 -0.03282493
0.6571640625 0.5983198 -0.2439205
0.6583125 0.5078351 -0.4493877
0.6594609375 0.3445454 -0.6252874
0.660609375 0.1186702 -0.744767
0.6617578125 -0.1544583 -0.7846791
0.66290625 -0.4479972 -0.7245386
0.6640546875 -0.7256397 -0.5502086
0.665203125 -0.9414459 -0.2601979
0.6663515625 -1.042363 0.1291435
0.6675 -0.9728011 0.5725921
0.6686484375 -0.6932046 0.988792
0.669796875 -0.2100303 1.261034
0.6709453125 0.3920642 1.2714
0.67209375 0.9451029 0.9656746
0.6732421875 1.269213 0.4174404
0.674390625 1.273178 -0.1979082
0.6755390625 0.9964046 -0.700547
0.6766875 0.5607042 -0.9878205
0.6778359375 0.0956276 -1.047636
0.678984375 -0.3049232 -0.9233923
0.6801328125 -0.5903873 -0.6785673
0.68128125 -0.744392 -0.3764393
0.6824296875 -0.7728066 -0.06985454
0.683578125 -0.6961226 0.2010021
0.6847265625 -0.5427047 0.4090688
0.685875 -0.3426587 0.5404766
0.6870234375 -0.1258459 0.5919754
0.688171875 0.08178876 0.5692365
0.6893203125 0.2578365 0.483955
0.69046875 0.3894395 0.3531848
0.6916171875 0.4673436 0.194876
0.692765625 0.4894434 0.02708682
0.6939140625 0.4581534 -0.1326227
0.6950625 0.380705 -0.2702542
0.6962109375 0.2661535 -0.3741737
0.697359375 0.1279882 -0.43622
0.6985078125 -0.02183027 -0.451627
0.69965625 -0.1686469 -0.419743
0.7008046875 -0.2987275 -0.3429637
0.701953125 -0.3991862 -0.2281714
0.7031015625 -0.4591576 -0.08480722
0.70425 -0.4705436 0.07368717
0.7053984375 -0.4293383 0.2318988
0.706546875 -0.3361783 0.3727582
0.7076953125 -0.1969775 0.4794227
0.70884375 -0.02349807 0.5362666
0.7099921875 0.1674706 0.5324097
0.711140625 0.3546086 0.4614016
0.7122890625 0.5154862 0.3245769
0.7134375 0.6259755 0.1306366
0.7145859375 0.6653669 -0.1028992
0.715734375 0.6187207 -0.3518371
0.7168828125 0.477574 -0.5840437
0.71803125 0.2456615 -0.7637144
0.7191796875 -0.06005808 -0.853298
0.720328125 -0.4059759 -0.8177693
0.7214765625 -0.7389173 -0.6341652
0.722625 -0.9903512 -0.3029563
0.7237734375 -1.08473 0.139002
0.724921875 -0.9661015 0.6099995
0.7260703125 -0.6297055 0.9934117
0.72721875 -0.1398684 1.181185
0.7283671875 0.3800578 1.119214
0.729515625 0.8010488 0.8322009
0.7306640625 1.036358 0.4092856
0.7318125 1.063532 -0.04383999
0.7329609375 0.9127322 -0.4347521
0.734109375 0.6412565 -0.7103498
0.7352578125 0.3127332 -0.8493835
0.73640625 -0.01648698 -0.8564703
0.7375546875 -0.3032729 -0.7524437
0.738703125 -0.519009 -0.5689121
0.7398515625 -0.6492683 -0.3388423
0.741 -0.6914016 -0.09486887
0.7421484375 -0.6532733 0.1346115
0.743296875 -0.5490412 0.3269332
0.7444453125 -0.397166 0.4679588
0.74559375 -0.2176267 0.5500637
0.7467421875 -0.03148028 0.5709203
0.747890625 0.1447281 0.5355214
0.7490390625 0.2850696 0.4337392
0.7501875 0.3957991 0.316862
0.7513359375 0.4650621 0.1763048
0.752484375 0.4888252 0.02497656
0.7536328125 0.4670864 -0.1239287
0.75478125 0.4036373 -0.2584775
0.7559296875 0.3039976 -0.3671118
0.757078125 0.1771389 -0.4413185
0.7582265625 0.03376482 -0.4745812
0.759375 -0.1134714 -0.463507
0.7605234375 -0.2518335 -0.4083814
0.761671875 -0.3679316 -0.3131745
0.7628203125 -0.4507385 -0.1858217
0.76396875 -0.4911394 -0.03727207
0.7651171875 -0.4840699 0.1185005
0.766265625 -0.4286577 0.2671233
0.7674140625 -0.3285456 0.3927993
0.7685625 -0.1924027 0.4831664
0.7697109375 -0.03200199 0.5278834
0.770859375 0.1374658 0.5209197
0.7720078125 0.2998333 0.4612461
0.77315625 0.4392707 0.3518182
0.7743046875 0.5411931 0.2008207
0.775453125 0.5934886 0.0203744
0.7766015625 0.5874261 -0.1744674
0.77775 0.5188745 -0.3653601
0.7788984375 0.3881194 -0.5330579
0.780046875 0.2016785 -0.6570332
0.7811953125 -0.02783189 -0.7182506
0.78234375 -0.2803069 -0.6995255
0.7834921875 -0.5279386 -0.5907478
0.784640625 -0.7375662 -0.3888868
0.7857890625 -0.8711234 -0.105141
0.7869375 -0.8926358 0.2319423
0.7880859375 -0.7762466 0.5758729
0.789234375 -0.5165246 0.8634363
0.7903828125 -0.1410298 1.029079
0.79153125 0.2874846 1.021921
0.7926796875 0.681067 0.8266705
0.793828125 0.9529657 0.4776925
0.7949765625 1.044933 0.05173935
0.796125 0.9486982 -0.3583096
0.7972734375 0.7015861 -0.6730762
0.798421875 0.3695529 -0.8467969
0.7995703125 0.02290321 -0.8726135
0.80071875 -0.2812597 -0.7724105
0.8018671875 -0.5064566 -0.5832245
0.803015625 -0.6378053 -0.3470058
0.8041640625 -0.6755387 -0.1010987
0.8053125 -0.6318876 0.1247515
0.8064609375 -0.524675 0.3089619
0.807609375 -0.3746229 0.4394762
0.8087578125 -0.2023963 0.5108232
0.80990625 -0.02699814 0.5240912
0.8110546875 0.1349876 0.4843627
0.812203125 0.2702702 0.4006297
0.8133515625 0.3689703 0.2844375
0.8145 0.425042 0.1489534
0.8156484375 0.436545 0.007751224
0.816796875 0.4049006 -0.1257497
0.8179453125 0.3355415 -0.2397465
0.81909375 0.2372568 -0.3241766
0.8202421875 0.1206741 -0.3730611
0.821390625 -0.002103619 -0.3829061
0.8225390625 -0.1189358 -0.3549032
0.8236875 -0.2190768 -0.2935074
0.8248359375 -0.2933632 -0.206579
0.825984375 -0.3363428 -0.103358
0.8271328125 -0.3457664 0.005688543
0.82828125 -0.3218918 0.1102373
0.8294296875 -0.2688076 0.2009914
0.830578125 -0.1919684 0.2707233
0.8317265625 -0.09922399 0.3139044
0.832875 0.001548293 0.3273867
0.8340234375 0.1011632 0.3107404
0.835171875 0.1915762 0.265083
0.8363203125 0.2648057 0.1945627
0.83746875 0.3144436 0.1045959
0.8386171875 0.3354604 0.002257774
0.839765625 0.3246503 -0.1037135
0.8409140625 0.2811834 -0.2040244
0.8420625 0.2069035 -0.2885347
0.8432109375 0.107075 -0.3481475
0.844359375 -0.01081994 -0.3745117
0.8455078125 -0.1358693 -0.3621084
0.84665625 -0.2557372 -0.3081042
0.8478046875 -0.3561155 -0.213546
0.848953125 -0.4236231 -0.08501763
0.8501015625 -0.4457589 0.06631768
0.85125 -0.4140928 0.2253101
0.8523984375 -0.3251321 0.3730988
0.853546875 -0.1808306 0.4887584
0.8546953125 0.008140051 0.5504462
0.85584375 0.2225392 0.5388841
0.8569921875 0.4353702 0.4404058
0.858140625 0.6082786 0.2509416
0.8592890625 0.6981179 -0.01579433
0.8604375 0.663107 -0.3222318
0.8615859375 0.4802312 -0.6023049
0.862734375 0.1686351 -0.7738937
0.8638828125 -0.1991965 -0.7732047
0.86503125 -0.5190384 -0.5917647
0.8661796875 -0.70345 -0.2877527
0.867328125 -0.7198106 0.04466278
0.8684765625 -0.5947149 0.323794
0.869625 -0.3827504 0.502642
0.8707734375 -0.1418277 0.5707805
0.871921875 0.08318655 0.5413031
0.8730703125 0.2618706 0.438982
0.87421875 0.3794408 0.2921062
0.8753671875 0.4316349 0.1267524
0.876515625 0.4231493 -0.03332702
0.8776640625 0.3642634 -0.1705709
0.8788125 0.2680914 -0.2722879
0.8799609375 0.1508415 -0.3318392
0.881109375 0.02771034 -0.3478452
0.8822578125 -0.08755788 -0.3236431
0.88340625 -0.1837602 -0.2660789
0.8845546875 -0.2530677 -0.1840385
0.885703125 -0.2910363 -0.08820824
0.8868515625 -0.2964539 0.01118564
0.888 -0.2711089 0.104376
0.8891484375 -0.2195944 0.1832242
0.890296875 -0.147333 0.240954
0.8914453125 -0.06222954 0.2733171
0.89259375 0.02793322 0.278102
0.8937421875 0.1151319 0.2548241
0.894890625 0.1911439 0.2059287
0.8960390625 0.2488789 0.135522
0.8971875 0.2824633 0.04959303
0.8983359375 0.2881092 -0.04393075
0.899484375 0.2635541 -0.1365789
0.9006328125 0.2100789 -0.2188593
0.90178125 0.1312005 -0.2816168
0.9029296875 0.0335388 -0.3172981
0.904078125 -0.0737197 -0.3197185
0.9052265625 -0.1795109 -0.2867344
0.906375 -0.2723 -0.2188925
0.9075234375 -0.3404915 -0.1211562
0.908671875 -0.3746335 -0.002074372
0.9098203125 -0.3681493 0.1269784
0.91096875 -0.3174674 0.2522789
0.9121171875 -0.2243494 0.3593657
0.913265625 -0.09461352 0.4332828
0.9144140625 0.06107913 0.4619493
0.9155625 0.227273 0.4349834
0.9167109375 0.3850073 0.3476312
0.917859375 0.5115718 0.2006752
0.9190078125 0.5833282 0.003481468
0.92015625 0.5776181 -0.2239102
0.9213046875 0.4782924 -0.4505616
0.922453125 0.282887 -0.6348531
0.9236015625 0.009819589 -0.7310352
0.92475 -0.2981962 -0.7006456
0.9258984375 -0.5763227 -0.531413
0.927046875 -0.7563586 -0.2481851
0.9281953125 -0.7911342 0.08834516
0.92934375 -0.6739923 0.4011613
0.9304921875 -0.4399332 0.6234019
0.931640625 -0.1489516 0.7188725
0.9327890625 0.1367318 0.6880765
0.9339375 0.3689217 0.5550953
0.9350859375 0.5197918 0.3586214
0.936234375 0.5815342 0.1378708
0.9373828125 0.5607164 -0.07306398
0.93853125 0.4740925 -0.2494373
0.9396796875 0.3420738 -0.3757198
0.940828125 0.1867461 -0.4455724
0.9419765625 0.02796483 -0.459667
0.943125 -0.1179958 -0.4243969
0.9442734375 -0.2379459 -0.3491873
0.945421875 -0.3240665 -0.2457712
0.9465703125 -0.3720872 -0.1268398
0.94771875 -0.3809469 -0.003788123
0.9488671875 -0.3533198 0.1119666
0.950015625 -0.2938992 0.2107546
0.9511640625 -0.2099475 0.285392
0.9523125 -0.1097403 0.33005
0.9534609375 -0.002562276 0.3426892
0.954609375 0.1019242 0.3225869
0.9557578125 0.1943989 0.2726545
0.95690625 0.2666603 0.1975548
0.9580546875 0.312651 0.1048563
0.959203125 0.3278761 0.003032621
0.9603515625 0.3115231 -0.09807459
0.9615 0.2649852 -0.189051
0.9626484375 0.19338 -0.2613284
0.963796875 0.1031123 -0.3079468
0.9649453125 0.003047028 -0.3248642
0.96609375 -0.0973082 -0.3107756
0.9672421875 -0.1887821 -0.266793
0.968390625 -0.2629012 -0.1970408
0.9695390625 -0.3128734 -0.1078788
0.9706875 -0.3342591 -0.007262387
0.9718359375 -0.3245845 0.09650347
0.972984375 -0.2839843 0.1938583
0.9741328125 -0.2151377 0.2766333
0.97528125 -0.1225826 0.336451
0.9764296875 -0.01346368 0.3672412
0.977578125 0.1035645 0.3636109
0.9787265625 0.2184258 0.3239698
0.979875 0.3202247 0.2480295
0.9810234375 0.3975978 0.1395335
0.982171875 0.4399608 0.005565959
0.9833203125 0.4378454 -0.1432138
0.98446875 0.3854863 -0.2925601
0.9856171875 0.280744 -0.4254193
0.986765625 0.1274324 -0.5227901
0.9879140625 -0.0629514 -0.5658739
0.9890625 -0.2724498 -0.538591
0.9902109375 -0.4736819 -0.43003
0.991359375 -0.6343896 -0.2408939
0.9925078125 -0.7186056 0.01532311
0.99365625 -0.693679 0.3065535
0.9948046875 -0.541348 0.5827871
0.995953125 -0.2702867 0.7820019
0.9971015625 0.07888082 0.8459417
