# GHZ S RI R 50.0
0.3 0.05020253 -0.03110704
0.3011484375 0.03586881 -0.04594702
0.302296875 0.01874803 -0.05357233
0.3034453125 0.0004161989 -0.05566602
0.30459375 -0.01695847 -0.05169734
0.3057421875 -0.0314568 -0.0429211
0.306890625 -0.04195549 -0.03047841
0.3080390625 -0.04883209 -0.01555223
0.3091875 -0.05023885 -0.0004851439
0.3103359375 -0.04793545 0.0146162
0.311484375 -0.0409011 0.0280811
0.3126328125 -0.03042236 0.03926776
0.31378125 -0.01755357 0.04652712
0.3149296875 -0.002378211 0.05018999
0.316078125 0.01307885 0.04900737
0.3172265625 0.02753706 0.04309083
0.318375 0.04032737 0.03248275
0.3195234375 0.04937973 0.01788302
0.320671875 0.05277224 0.0001353064
0.3218203125 0.05048963 -0.01724632
0.32296875 0.04219 -0.03392095
0.3241171875 0.02805021 -0.04561868
0.325265625 0.01067752 -0.05180631
0.3264140625 -0.00790029 -0.05168434
0.3275625 -0.02406695 -0.04487503
0.3287109375 -0.0363893 -0.03332461
0.329859375 -0.04399871 -0.01919726
0.3310078125 -0.0459367 -0.003444339
0.33215625 -0.04352209 0.01082536
0.3333046875 -0.03635287 0.02274521
0.334453125 -0.02640324 0.03179369
0.3356015625 -0.0153791 0.0370907
0.33675 -0.002971614 0.03920243
0.3378984375 0.008687556 0.03726567
0.339046875 0.0186981 0.03240566
0.3401953125 0.02693625 0.02477691
0.34134375 0.03301337 0.01498866
0.3424921875 0.03555682 0.004491032
0.343640625 0.03489147 -0.006261333
0.3447890625 0.03080028 -0.01688146
0.3459375 0.02407433 -0.0258523
0.3470859375 0.01447025 -0.0314474
0.348234375 0.003375726 -0.03410219
0.3493828125 -0.007550621 -0.03252899
0.35053125 -0.01766277 -0.0282209
0.3516796875 -0.02587604 -0.01990109
0.352828125 -0.02992835 -0.01044978
0.3539765625 -0.03037342 9.374405E-05
0.355125 -0.02757477 0.009298595
0.3562734375 -0.02162586 0.01696499
0.357421875 -0.01477149 0.02213151
0.3585703125 -0.006955423 0.02438648
0.35971875 0.000997529 0.02363566
0.3608671875 0.007687157 0.02096523
0.362015625 0.01290852 0.01657954
0.3631640625 0.01678281 0.01173934
0.3643125 0.01841014 0.006233364
0.3654609375 0.01860252 0.0004371272
0.366609375 0.01725006 -0.004641983
0.3677578125 0.01405459 -0.008909456
0.36890625 0.01070627 -0.01229315
0.3700546875 0.006155172 -0.01448612
0.371203125 0.001824886 -0.01469783
0.3723515625 -0.002443647 -0.01414128
0.3735 -0.006552925 -0.01217461
0.3746484375 -0.00914317 -0.009962379
0.375796875 -0.01121289 -0.006323114
0.3769453125 -0.01160092 -0.002253088
0.37809375 -0.01110813 0.001030675
0.3792421875 -0.009653522 0.004040787
0.380390625 -0.007389968 0.00579196
0.3815390625 -0.005028255 0.007400365
0.3826875 -0.002606149 0.007659199
0.3838359375 -0.0006964356 0.007046109
0.384984375 0.0008575351 0.006676661
0.3861328125 0.001780816 0.005547973
0.38728125 0.002842932 0.004632261
0.3884296875 0.003261551 0.004029632
0.389578125 0.003742435 0.003291717
0.3907265625 0.004060282 0.002841249
0.391875 0.004586626 0.002592112
0.3930234375 0.005201348 0.001666936
0.394171875 0.005795686 0.0005791786
0.3953203125 0.006207419 -0.0003147876
0.39646875 0.006461444 -0.00182431
0.3976171875 0.006419842 -0.003816421
0.398765625 0.005734224 -0.005836531
0.3999140625 0.004435311 -0.007821662
0.4010625 0.002514342 -0.009706088
0.4022109375 -0.0004542771 -0.0105653
0.403359375 -0.003623143 -0.01123484
0.4045078125 -0.007506412 -0.01038994
0.40565625 -0.01097298 -0.007936695
0.4068046875 -0.01371181 -0.004705971
0.407953125 -0.0150619 6.748787E-05
0.4091015625 -0.01494454 0.00491039
0.41025 -0.01314466 0.009633024
0.4113984375 -0.009834513 0.01380237
0.412546875 -0.005083899 0.0165432
0.4136953125 0.0002565993 0.01795215
0.41484375 0.005906434 0.01725395
0.4159921875 0.01126999 0.01499941
0.417140625 0.01528228 0.01113924
0.4182890625 0.01847071 0.006215076
0.4194375 0.020307 0.0002925603
0.4205859375 0.01990873 -0.005809748
0.421734375 0.01773701 -0.0118301
0.4228828125 0.01367583 -0.01721208
0.42403125 0.008165278 -0.02091517
0.4251796875 0.001605275 -0.02357205
0.426328125 -0.005449007 -0.02367253
0.4274765625 -0.01313296 -0.02151345
0.428625 -0.0198236 -0.01711027
0.4297734375 -0.02520774 -0.01000731
0.430921875 -0.02807711 -0.001880619
0.4320703125 -0.02814552 0.007760839
0.43321875 -0.02489431 0.01668691
0.4343671875 -0.01841595 0.02455278
0.435515625 -0.0094569 0.03007934
0.4366640625 0.0007112302 0.03217563
0.4378125 0.0112209 0.03055006
0.4389609375 0.02092591 0.02497051
0.440109375 0.02787215 0.01722609
0.4412578125 0.03222548 0.007395911
0.44240625 0.03280422 -0.003146909
0.4435546875 0.03023779 -0.01372153
0.444703125 0.024698 -0.02240961
0.4458515625 0.01665527 -0.02938337
0.447 0.006664685 -0.03321683
0.4481484375 -0.004163418 -0.03379334
0.449296875 -0.01451752 -0.03130087
0.4504453125 -0.02382818 -0.02558238
0.45159375 -0.0307634 -0.01711268
0.4527421875 -0.0355193 -0.006783219
0.453890625 -0.0363262 0.004793532
0.4550390625 -0.03345826 0.01608264
0.4561875 -0.02704525 0.02642808
0.4573359375 -0.01725841 0.03439368
0.458484375 -0.005105865 0.03897298
0.4596328125 0.007966943 0.03889718
0.46078125 0.02076106 0.03476043
0.4619296875 0.03139709 0.02586832
0.463078125 0.03810784 0.013807
0.4642265625 0.04060024 0.0004154398
0.465375 0.03834332 -0.01303235
0.4665234375 0.03152673 -0.02496146
0.467671875 0.02148681 -0.03351215
0.4688203125 0.009072268 -0.03813558
0.46996875 -0.003651374 -0.03858101
0.4711171875 -0.01580136 -0.03487731
0.472265625 -0.02528818 -0.02770586
0.4734140625 -0.03276128 -0.01797228
0.4745625 -0.03611692 -0.0066583
0.4757109375 -0.03633295 0.005108824
0.476859375 -0.03238688 0.01584317
0.4780078125 -0.02576657 0.02480262
0.47915625 -0.01656618 0.03195779
0.4803046875 -0.005908342 0.03477659
0.481453125 0.005454594 0.03503651
0.4826015625 0.01673317 0.03172222
0.48375 0.02585943 0.02482181
0.4848984375 0.0324484 0.01532179
0.486046875 0.03545003 0.003939238
0.4871953125 0.03473055 -0.007899684
0.48834375 0.03020208 -0.01842438
0.4894921875 0.02211212 -0.02747902
0.490640625 0.01175815 -0.0329522
0.4917890625 0.000395342 -0.03474768
0.4929375 -0.01134672 -0.03236138
0.4940859375 -0.02089397 -0.02634473
0.495234375 -0.02822801 -0.0176402
0.4963828125 -0.03148886 -0.007604779
0.49753125 -0.03166161 0.003090919
0.4986796875 -0.02820446 0.01269653
0.499828125 -0.02197363 0.02075012
0.5009765625 -0.01382424 0.02598805
0.502125 -0.004530615 0.02845785
0.5032734375 0.004578042 0.02775255
0.504421875 0.01284465 0.02457224
0.5055703125 0.01981724 0.01837107
0.50671875 0.02443446 0.01106486
0.5078671875 0.02609585 0.002428045
0.509015625 0.02523995 -0.006145935
0.5101640625 0.02160183 -0.01383059
0.5113125 0.01559247 -0.01943846
0.5124609375 0.007785955 -0.02316388
0.513609375 -0.0006854408 -0.02403813
0.5147578125 -0.008514937 -0.02184709
0.51590625 -0.01474391 -0.01718064
0.5170546875 -0.01959839 -0.01064
0.518203125 -0.02138385 -0.003620405
0.5193515625 -0.02028365 0.00402508
0.5205 -0.01682412 0.01041465
0.5216484375 -0.01160965 0.01471242
0.522796875 -0.005621139 0.01733276
0.5239453125 0.0007918561 0.01723425
0.52509375 0.006346985 0.01502669
0.5262421875 0.0108325 0.01106258
0.527390625 0.01273745 0.006477985
0.5285390625 0.01347006 0.001305023
0.5296875 0.01228298 -0.003003237
0.5308359375 0.009877606 -0.006872872
0.531984375 0.006110503 -0.009361777
0.5331328125 0.002419158 -0.01047715
0.53428125 -0.00153699 -0.009860571
0.5354296875 -0.004905181 -0.007825045
0.536578125 -0.006935873 -0.005153195
0.5377265625 -0.007979224 -0.001790584
0.538875 -0.007948888 0.001581766
0.5400234375 -0.006122897 0.004417159
0.541171875 -0.003804679 0.00624163
0.5423203125 -0.0003621198 0.007169301
0.54346875 0.002625766 0.006598717
0.5446171875 0.005374929 0.004726968
0.545765625 0.006963453 0.002068789
0.5469140625 0.007049007 -0.001123244
0.5480625 0.006522038 -0.004315007
0.5492109375 0.003987408 -0.006970908
0.550359375 0.001308223 -0.008449124
0.5515078125 -0.002426351 -0.008304101
0.55265625 -0.005789593 -0.007149128
0.5538046875 -0.008605598 -0.004743559
0.554953125 -0.01011701 -0.001398008
0.5561015625 -0.01044627 0.002434191
0.55725 -0.009063112 0.006248481
0.5583984375 -0.006714982 0.009578791
0.559546875 -0.003184533 0.01219055
0.5606953125 0.001107907 0.01289564
0.56184375 0.005905768 0.01242268
0.5629921875 0.01025359 0.01027325
0.564140625 0.01376876 0.006416229
0.5652890625 0.01571456 0.00165446
0.5664375 0.01614836 -0.004026224
0.5675859375 0.01440463 -0.00964925
0.568734375 0.01086149 -0.01481624
0.5698828125 0.005299856 -0.01830987
0.57103125 -0.001102394 -0.0197955
0.5721796875 -0.008024974 -0.01882605
0.573328125 -0.01415828 -0.01533304
0.5744765625 -0.01912418 -0.009910616
0.575625 -0.02191776 -0.002812768
0.5767734375 -0.02187059 0.004759405
0.577921875 -0.01956444 0.0118641
0.5790703125 -0.01465109 0.01815125
0.58021875 -0.007923977 0.02217599
0.5813671875 -0.0001041111 0.02412681
0.582515625 0.007474053 0.02319142
0.5836640625 0.01490288 0.01974724
0.5848125 0.02072961 0.01391443
0.5859609375 0.02444585 0.006619973
0.587109375 0.02562198 -0.001532378
0.5882578125 0.02434178 -0.009770671
0.58940625 0.02014435 -0.01747499
0.5905546875 0.01378113 -0.02332852
0.591703125 0.005455946 -0.02704416
0.5928515625 -0.003407918 -0.02796501
0.594 -0.01253215 -0.0258039
0.5951484375 -0.0203244 -0.02052508
0.596296875 -0.02674654 -0.01291674
0.5974453125 -0.02970397 -0.003689917
0.59859375 -0.02956061 0.006387282
0.5997421875 -0.02616041 0.01587859
0.600890625 -0.01946958 0.02383544
0.6020390625 -0.0104211 0.02894168
0.6031875 -0.0006508396 0.03120922
0.6043359375 0.009750168 0.02996426
0.605484375 0.01893698 0.02477454
0.6066328125 0.02591341 0.0172432
0.60778125 0.02978083 0.008030655
0.6089296875 0.03079864 -0.001802933
0.610078125 0.02864718 -0.01227267
0.6112265625 0.02330568 -0.02009008
0.612375 0.01561665 -0.02647996
0.6135234375 0.006646544 -0.03010138
0.614671875 -0.003348616 -0.03051318
0.6158203125 -0.01260633 -0.02806836
0.61696875 -0.02110048 -0.02318289
0.6181171875 -0.02683974 -0.01472274
0.619265625 -0.03082275 -0.005473798
0.6204140625 -0.03113658 0.00455472
0.6215625 -0.02808302 0.01417715
0.6227109375 -0.02210136 0.02298605
0.623859375 -0.01391953 0.0288742
0.6250078125 -0.003898012 0.03157423
0.62615625 0.006834557 0.03134977
0.6273046875 0.01659247 0.02745436
0.628453125 0.02477738 0.02052368
0.6296015625 0.02984784 0.0114048
0.63075 0.03189378 0.0008350714
0.6318984375 0.03028264 -0.009302003
0.633046875 0.02515741 -0.01874713
0.6341953125 0.01779101 -0.02577499
0.63534375 0.008367851 -0.02976266
0.6364921875 -0.001353704 -0.03101651
0.637640625 -0.01098336 -0.02826815
0.6387890625 -0.01939165 -0.0231259
0.6399375 -0.02527232 -0.01554344
0.6410859375 -0.02887635 -0.00633097
0.642234375 -0.02930509 0.002985636
0.6433828125 -0.02666535 0.01199737
0.64453125 -0.02109099 0.01993443
0.6456796875 -0.01380742 0.02520458
0.646828125 -0.00475572 0.02840771
0.6479765625 0.004661352 0.02811924
0.649125 0.01352509 0.02523823
0.6502734375 0.02088748 0.01926772
0.651421875 0.02581031 0.01173546
0.6525703125 0.02791624 0.002195887
0.65371875 0.02711278 -0.007022927
0.6548671875 0.02296013 -0.01565778
0.656015625 0.01656155 -0.02211492
0.6571640625 0.007985475 -0.02610753
0.6583125 -0.001092769 -0.02677099
0.6594609375 -0.009677709 -0.02441616
0.660609375 -0.0167511 -0.01959187
0.6617578125 -0.0219359 -0.01250062
0.66290625 -0.02450516 -0.004519876
0.6640546875 -0.02357963 0.004257343
0.665203125 -0.02079036 0.01137326
0.6663515625 -0.01526889 0.01723857
0.6675 -0.008401809 0.02081652
0.6686484375 -0.001207316 0.02210227
0.669796875 0.005900948 0.02053129
0.6709453125 0.01223603 0.01703699
0.67209375 0.01654196 0.0116765
0.6732421875 0.01896912 0.005369853
0.674390625 0.01921567 -0.00144881
0.6755390625 0.01695869 -0.007725491
0.6766875 0.01316812 -0.01266791
0.6778359375 0.008000667 -0.01574533
0.678984375 0.001730744 -0.01706143
0.6801328125 -0.004118027 -0.01620953
0.68128125 -0.009177975 -0.01342115
0.6824296875 -0.01266574 -0.008808641
0.683578125 -0.014358 -0.003617126
0.6847265625 -0.0144444 0.00181342
0.685875 -0.01224408 0.006306108
0.6870234375 -0.008754821 0.0099019
0.688171875 -0.004387698 0.01199195
0.6893203125 0.000170617 0.01224943
0.69046875 0.004674575 0.01081043
0.6916171875 0.007782083 0.007925617
0.692765625 0.009731974 0.004304198
0.6939140625 0.009846186 0.0003976863
0.6950625 0.009104836 -0.003564023
0.6962109375 0.006835667 -0.006240213
0.697359375 0.003674916 -0.008138368
0.6985078125 0.0003006711 -0.008711441
0.69965625 -0.003258603 -0.007902459
0.7008046875 -0.006240771 -0.006020539
0.701953125 -0.00807855 -0.002746054
0.7031015625 -0.008513162 0.0003583382
0.70425 -0.007671759 0.00395348
0.7053984375 -0.005521168 0.006866287
0.706546875 -0.00262671 0.008837222
0.7076953125 0.001320623 0.009197969
0.70884375 0.004872839 0.008535032
0.7099921875 0.00820484 0.006314141
0.711140625 0.01023849 0.002625273
0.7122890625 0.01089504 -0.001398676
0.7134375 0.01007897 -0.005759053
0.7145859375 0.007230286 -0.009255016
0.715734375 0.003371984 -0.01226662
0.7168828125 -0.001173712 -0.01297584
0.71803125 -0.006121301 -0.01231149
0.7191796875 -0.01000706 -0.009552522
0.720328125 -0.01338858 -0.00535129
0.7214765625 -0.01485714 -0.000122556
0.722625 -0.0145367 0.004993561
0.7237734375 -0.0123604 0.01034147
0.724921875 -0.008338542 0.01438769
0.7260703125 -0.003120509 0.01676778
0.72721875 0.003200009 0.0177577
0.7283671875 0.009091332 0.0161098
0.729515625 0.01452488 0.01211148
0.7306640625 0.01824015 0.006687814
0.7318125 0.01999482 -0.000455185
0.7329609375 0.01966242 -0.006976336
0.734109375 0.01617949 -0.01332646
0.7352578125 0.01126635 -0.0185238
0.73640625 0.003968339 -0.02185814
0.7375546875 -0.003428136 -0.02248949
0.738703125 -0.01150321 -0.02040623
0.7398515625 -0.01807194 -0.01567344
0.741 -0.02235491 -0.008719162
0.7421484375 -0.02465772 -0.0001381847
0.743296875 -0.02332103 0.00771417
0.7444453125 -0.0196855 0.01522671
0.74559375 -0.01348433 0.02120678
0.7467421875 -0.006225017 0.02487064
0.747890625 0.002469317 0.02526436
0.7490390625 0.01062904 0.02220942
0.7501875 0.01671639 0.01861434
0.7513359375 0.02240583 0.01152247
0.752484375 0.02504216 0.003575026
0.7536328125 0.02473425 -0.00530155
0.75478125 0.02212192 -0.01288258
0.7559296875 0.01711545 -0.01982635
0.757078125 0.009687712 -0.02477939
0.7582265625 0.001300819 -0.02652848
0.759375 -0.007827345 -0.02602892
0.7605234375 -0.01627138 -0.02235282
0.761671875 -0.02258656 -0.01561954
0.7628203125 -0.02661489 -0.007508461
0.76396875 -0.02811296 0.002168408
0.7651171875 -0.02608376 0.01139115
0.766265625 -0.02087954 0.01923137
0.7674140625 -0.01337066 0.02504812
0.7685625 -0.004033167 0.02825028
0.7697109375 0.005095832 0.02784463
0.770859375 0.01445005 0.02466032
0.7720078125 0.02168143 0.01855225
0.77315625 0.02685959 0.01046326
0.7743046875 0.02845307 0.001147768
0.775453125 0.02712509 -0.008213636
0.7766015625 0.02310372 -0.01693044
0.77775 0.01622669 -0.02334649
0.7788984375 0.007690201 -0.02759464
0.780046875 -0.001947233 -0.02835649
0.7811953125 -0.01100816 -0.02613031
0.78234375 -0.01898014 -0.02104913
0.7834921875 -0.02465933 -0.0135019
0.784640625 -0.02789297 -0.00471155
0.7857890625 -0.02814501 0.004750131
0.7869375 -0.02475371 0.01356628
0.7880859375 -0.01914931 0.02109893
0.789234375 -0.0107827 0.02609847
0.7903828125 -0.001427774 0.02826135
0.79153125 0.008044028 0.02696375
0.7926796875 0.0167309 0.02252295
0.793828125 0.0231533 0.01519921
0.7949765625 0.02670374 0.007017504
0.796125 0.0270322 -0.002264829
0.7972734375 0.02444262 -0.01138571
0.798421875 0.01888857 -0.01854134
0.7995703125 0.01141088 -0.0234252
0.80071875 0.002911329 -0.02553566
0.8018671875 -0.005855123 -0.02452376
0.803015625 -0.01327221 -0.02099174
0.8041640625 -0.01927352 -0.01542634
0.8053125 -0.02259709 -0.007811208
0.8064609375 -0.02386332 5.90742E-05
0.807609375 -0.02207599 0.007882658
0.8087578125 -0.0179703 0.01418273
0.80990625 -0.01195216 0.01900559
0.8110546875 -0.00514872 0.0216364
0.812203125 0.002527719 0.02175101
0.8133515625 0.00954927 0.0197348
0.8145 0.01508162 0.01545706
0.8156484375 0.01883176 0.009262366
0.816796875 0.02073526 0.002488524
0.8179453125 0.01991777 -0.004862654
0.81909375 0.01709676 -0.01100552
0.8202421875 0.01226791 -0.0159604
0.821390625 0.006139793 -0.01848229
0.8225390625 -0.0007055603 -0.0194738
0.8236875 -0.007231032 -0.01768575
0.8248359375 -0.01258671 -0.01359049
0.825984375 -0.01600052 -0.008767061
0.8271328125 -0.01776205 -0.002703229
0.82828125 -0.01710432 0.003418352
0.8294296875 -0.01480031 0.008713753
0.830578125 -0.01084956 0.01289267
0.8317265625 -0.005641671 0.01564071
0.832875 -0.0001496968 0.01620459
0.8340234375 0.005535669 0.01514049
0.835171875 0.009820527 0.01221001
0.8363203125 0.01319384 0.008151149
0.83746875 0.01477345 0.002998063
0.8386171875 0.01491252 -0.002092245
0.839765625 0.01357389 -0.006934449
0.8409140625 0.01008516 -0.01105321
0.8420625 0.005551693 -0.01347718
0.8432109375 0.000384164 -0.01461579
0.844359375 -0.004747397 -0.01366451
0.8455078125 -0.009175752 -0.01130435
0.84665625 -0.01242787 -0.007130797
0.8478046875 -0.01416205 -0.002053082
0.848953125 -0.01401403 0.002904861
0.8501015625 -0.01187929 0.00767559
0.85125 -0.008747127 0.01075639
0.8523984375 -0.004040572 0.0133607
0.853546875 0.001163603 0.01391934
0.8546953125 0.005771211 0.01228878
0.85584375 0.009744192 0.009315268
0.8569921875 0.01241909 0.005411551
0.858140625 0.01363528 0.0004922487
0.8592890625 0.01254138 -0.004058261
0.8604375 0.01020478 -0.008143026
0.8615859375 0.006822154 -0.01120565
0.862734375 0.002596254 -0.01296679
0.8638828125 -0.002326372 -0.01287623
0.86503125 -0.006497179 -0.01106463
0.8661796875 -0.01020038 -0.00810086
0.867328125 -0.01262846 -0.004284341
0.8684765625 -0.01311666 0.0006339772
0.869625 -0.01235916 0.005139102
0.8707734375 -0.009810569 0.009235377
0.871921875 -0.006148047 0.01222232
0.8730703125 -0.001454249 0.01368842
0.87421875 0.003386445 0.01319322
0.8753671875 0.007790958 0.01148333
0.876515625 0.01141046 0.007792034
0.8776640625 0.013758 0.00334983
0.8788125 0.01403906 -0.001672396
0.8799609375 0.01244928 -0.006395019
0.881109375 0.009464131 -0.01034106
0.8822578125 0.00551114 -0.01295258
0.88340625 0.0006767531 -0.01437378
0.8845546875 -0.004122968 -0.01326293
0.885703125 -0.008830889 -0.01149008
0.8868515625 -0.01152571 -0.00777592
0.888 -0.01385111 -0.003164487
0.8891484375 -0.01431887 0.001560042
0.890296875 -0.01288511 0.006227119
0.8914453125 -0.009856487 0.01023485
0.89259375 -0.005947146 0.01302071
0.8937421875 -0.001455602 0.01426043
0.894890625 0.003672253 0.01388228
0.8960390625 0.007930813 0.01219994
0.8971875 0.01193789 0.00869014
0.8983359375 0.01407403 0.004559572
0.899484375 0.01500286 -0.0005309501
0.9006328125 0.01386109 -0.005285561
0.90178125 0.01155411 -0.01013174
0.9029296875 0.007470792 -0.01318232
0.904078125 0.002427111 -0.01502887
0.9052265625 -0.002674019 -0.01515665
0.906375 -0.007601387 -0.01320854
0.9075234375 -0.01186442 -0.00993805
0.908671875 -0.01453363 -0.005384682
0.9098203125 -0.0153441 -0.0004474648
0.91096875 -0.01462264 0.004715481
0.9121171875 -0.01204478 0.009229804
0.913265625 -0.00810877 0.01264872
0.9144140625 -0.003488225 0.01486529
0.9155625 0.001544329 0.0150293
0.9167109375 0.006533758 0.013477
0.917859375 0.01079965 0.01060765
0.9190078125 0.01314682 0.006401571
0.92015625 0.01485765 0.001617402
0.9213046875 0.0142297 -0.003553304
0.922453125 0.01226876 -0.007948313
0.9236015625 0.00884157 -0.01136866
0.92475 0.004483057 -0.01377035
0.9258984375 -0.0007197791 -0.01438501
0.927046875 -0.005203154 -0.01348003
0.9281953125 -0.0093518 -0.01097393
0.92934375 -0.01245897 -0.006916107
0.9304921875 -0.01397035 -0.002563388
0.931640625 -0.01375038 0.00257305
0.9327890625 -0.01197648 0.007083979
0.9339375 -0.008980674 0.0107121
0.9350859375 -0.004740253 0.01268959
0.936234375 1.228806E-05 0.01328884
0.9373828125 0.004733047 0.01248257
0.93853125 0.008512543 0.01010396
0.9396796875 0.01078165 0.006244987
0.940828125 0.01240234 0.002018553
0.9419765625 0.0120229 -0.002415491
0.943125 0.01019031 -0.006351736
