# GHZ S RI R 50.0
0.3 0.4564149 0.2929117
0.3011484375 0.5212164 0.125628
0.302296875 0.5282321 -0.048659
0.3034453125 0.4796295 -0.2113235
0.30459375 0.386568 -0.3474491
0.3057421875 0.2598067 -0.4472505
0.306890625 0.1118505 -0.505385
0.3080390625 -0.04644851 -0.520079
0.3091875 -0.2036648 -0.4894428
0.3103359375 -0.3488828 -0.4147877
0.311484375 -0.4725041 -0.2993915
0.3126328125 -0.5628724 -0.1472691
0.31378125 -0.6083122 0.03480024
0.3149296875 -0.5981976 0.2384769
0.316078125 -0.5200101 0.4445559
0.3172265625 -0.3676479 0.6320303
0.318375 -0.1377848 0.773953
0.3195234375 0.1560608 0.8320509
0.320671875 0.4846268 0.7709788
0.3218203125 0.7961708 0.5665131
0.32296875 1.018089 0.2202519
0.3241171875 1.075668 -0.2253755
0.325265625 0.9194247 -0.6790805
0.3264140625 0.5565786 -1.027297
0.3275625 0.06503662 -1.171285
0.3287109375 -0.4328905 -1.070711
0.329859375 -0.8165306 -0.7633514
0.3310078125 -1.007474 -0.344468
0.33215625 -0.9991483 0.08206073
0.3333046875 -0.8330792 0.4313419
0.334453125 -0.5710993 0.6611937
0.3356015625 -0.2737598 0.7664428
0.33675 0.009897574 0.7604758
0.3378984375 0.2509759 0.6677625
0.339046875 0.4332739 0.5148861
0.3401953125 0.5484064 0.3279676
0.34134375 0.5966305 0.1276676
0.3424921875 0.5825524 -0.06758596
0.343640625 0.5130764 -0.2422863
0.3447890625 0.3968273 -0.3835996
0.3459375 0.2461162 -0.4787053
0.3470859375 0.07614631 -0.5209671
0.348234375 -0.09640637 -0.5068248
0.3493828125 -0.253021 -0.4375398
0.35053125 -0.3748445 -0.3221635
0.3516796875 -0.4492045 -0.1750519
0.352828125 -0.4689754 -0.01555643
0.3539765625 -0.4339228 0.1350948
0.355125 -0.3546138 0.260635
0.3562734375 -0.2433602 0.3486446
0.357421875 -0.1166189 0.3939929
0.3585703125 0.01246762 0.3978707
0.35971875 0.1303615 0.3636709
0.3608671875 0.2284732 0.2995985
0.362015625 0.3013251 0.2125744
0.3631640625 0.3455474 0.1120522
0.3643125 0.3600293 0.005744544
0.3654609375 0.3442992 -0.1000017
0.366609375 0.3011795 -0.1969784
0.3677578125 0.2318027 -0.2797021
0.36890625 0.1409356 -0.3411542
0.3700546875 0.03360439 -0.3759109
0.371203125 -0.08380568 -0.3787319
0.3723515625 -0.2025851 -0.3458685
0.3735 -0.3107521 -0.2749057
0.3746484375 -0.3972193 -0.1682902
0.375796875 -0.4480516 -0.03215912
0.3769453125 -0.4520351 0.1208834
0.37809375 -0.4016438 0.2752968
0.3792421875 -0.2969847 0.4103601
0.380390625 -0.14507 0.5048578
0.3815390625 0.03752385 0.5432277
0.3826875 0.229855 0.5152058
0.3838359375 0.4072724 0.419064
0.384984375 0.546219 0.2618656
0.3861328125 0.6271526 0.05867217
0.38728125 0.6338952 -0.1714037
0.3884296875 0.5567895 -0.4022579
0.389578125 0.3945384 -0.6040242
0.3907265625 0.1532986 -0.7443798
0.391875 -0.1449022 -0.7872685
0.3930234375 -0.4615429 -0.7042488
0.394171875 -0.7376489 -0.4820846
0.3953203125 -0.9018452 -0.1423682
0.39646875 -0.8982183 0.252313
0.3976171875 -0.7111483 0.611549
0.398765625 -0.3828135 0.845053
0.3999140625 0.004931563 0.9040427
0.4010625 0.3621609 0.7924784
0.4022109375 0.6202957 0.5548304
0.403359375 0.74969 0.2515893
0.4045078125 0.7450173 -0.05315543
0.40565625 0.631982 -0.3130429
0.4068046875 0.4426683 -0.4945064
0.407953125 0.2173979 -0.5847604
0.4091015625 -0.006429184 -0.5850825
0.41025 -0.1989692 -0.5117506
0.4113984375 -0.3412553 -0.385698
0.412546875 -0.4239027 -0.2328719
0.4136953125 -0.4490388 -0.07467856
0.41484375 -0.4237464 0.07148278
0.4159921875 -0.3591764 0.1920511
0.417140625 -0.2672636 0.2809734
0.4182890625 -0.1601468 0.3351788
0.4194375 -0.04777576 0.3541355
0.4205859375 0.06039859 0.3410382
0.421734375 0.1561794 0.2991432
0.4228828125 0.2346513 0.2335686
0.42403125 0.2898928 0.1501318
0.4251796875 0.3188797 0.05536371
0.426328125 0.3196421 -0.04435091
0.4274765625 0.2914009 -0.1400667
0.428625 0.2346922 -0.2239218
0.4297734375 0.154495 -0.2882817
0.430921875 0.05642239 -0.3254184
0.4320703125 -0.05034319 -0.3297284
0.43321875 -0.1551365 -0.299144
0.4343671875 -0.2453535 -0.2356261
0.435515625 -0.3108422 -0.1445066
0.4366640625 -0.3429872 -0.03630807
0.4378125 -0.3388537 0.07677098
0.4389609375 -0.2973988 0.1828915
0.440109375 -0.2245465 0.269959
0.4412578125 -0.1283842 0.3288648
0.44240625 -0.01795841 0.3555129
0.4435546875 0.09483996 0.3468268
0.444703125 0.201332 0.3048115
0.4458515625 0.2911179 0.2319659
0.447 0.357237 0.1332968
0.4481484375 0.3915818 0.01669757
0.449296875 0.3907334 -0.1101458
0.4504453125 0.3509898 -0.2359613
0.45159375 0.2700357 -0.3504653
0.4527421875 0.1505238 -0.4403509
0.453890625 -0.0008038888 -0.4924715
0.4550390625 -0.1751861 -0.4929462
0.4561875 -0.3537247 -0.4308747
0.4573359375 -0.5141518 -0.3006781
0.458484375 -0.6291859 -0.1042498
0.4596328125 -0.666661 0.1420476
0.46078125 -0.6015363 0.4082262
0.4619296875 -0.4226744 0.6463498
0.463078125 -0.1398054 0.8022329
0.4642265625 0.2053917 0.8261689
0.465375 0.5446303 0.6906217
0.4665234375 0.7974585 0.4088779
0.467671875 0.8986002 0.03802766
0.4688203125 0.8232 -0.3359618
0.46996875 0.5961205 -0.6286275
0.4711171875 0.2807455 -0.7853201
0.472265625 -0.04922197 -0.7939671
0.4734140625 -0.3315183 -0.6775007
0.4745625 -0.5299817 -0.4774206
0.4757109375 -0.6306824 -0.2387652
0.476859375 -0.638025 0.0002446425
0.4780078125 -0.568651 0.2102601
0.47915625 -0.4414493 0.3725328
0.4803046875 -0.2785086 0.4777982
0.481453125 -0.09955996 0.5217569
0.4826015625 0.07529796 0.5070895
0.48375 0.230143 0.4402454
0.4848984375 0.3512399 0.3307431
0.486046875 0.4289198 0.1926279
0.4871953125 0.4573386 0.0401918
0.48834375 0.435415 -0.1092083
0.4894921875 0.3678708 -0.2398452
0.490640625 0.2633165 -0.3394864
0.4917890625 0.1357393 -0.3982792
0.4929375 -0.0007252852 -0.4117111
0.4940859375 -0.1308951 -0.3813362
0.495234375 -0.2411916 -0.3131255
0.4963828125 -0.3220624 -0.215961
0.49753125 -0.3675593 -0.1011679
0.4986796875 -0.3754162 0.01860461
0.499828125 -0.3469993 0.1332344
0.5009765625 -0.2859634 0.2320733
0.502125 -0.1993298 0.3076033
0.5032734375 -0.09464261 0.3540775
0.504421875 0.01894807 0.3672339
0.5055703125 0.1323458 0.3464585
0.50671875 0.2360477 0.2915307
0.5078671875 0.3203621 0.2067763
0.509015625 0.376801 0.09785092
0.5101640625 0.3975265 -0.02780349
0.5113125 0.3775719 -0.1575477
0.5124609375 0.3151729 -0.2793488
0.513609375 0.2123734 -0.3788809
0.5147578125 0.0763875 -0.4416258
0.51590625 -0.07836437 -0.4561769
0.5170546875 -0.2368661 -0.4155609
0.518203125 -0.3776068 -0.3188074
0.5193515625 -0.4795681 -0.1726028
0.5205 -0.5254037 0.006984727
0.5216484375 -0.5039945 0.1982611
0.522796875 -0.4106861 0.3760974
0.5239453125 -0.2539544 0.5122955
0.52509375 -0.05098303 0.5841792
0.5262421875 0.1713951 0.5746642
0.527390625 0.380191 0.4788744
0.5285390625 0.5405839 0.3065568
0.5296875 0.623104 0.08023786
0.5308359375 0.6102175 -0.1644641
0.531984375 0.501074 -0.3840536
0.5331328125 0.3136294 -0.5430673
0.53428125 0.08173447 -0.6132936
0.5354296875 -0.1538733 -0.5876033
0.536578125 -0.3550176 -0.4746433
0.5377265625 -0.49237 -0.2993258
0.538875 -0.5506718 -0.09321848
0.5400234375 -0.5283573 0.1104651
0.541171875 -0.4366025 0.2834921
0.5423203125 -0.2949653 0.4056459
0.54346875 -0.1271664 0.4663047
0.5446171875 0.0427067 0.463039
0.545765625 0.1931896 0.4030027
0.5469140625 0.3078271 0.3000567
0.5480625 0.3764674 0.1704441
0.5492109375 0.3963741 0.03219269
0.550359375 0.3701546 -0.09835311
0.5515078125 0.305997 -0.207228
0.55265625 0.2139728 -0.2859969
0.5538046875 0.1066357 -0.3292841
0.554953125 -0.004835504 -0.3363608
0.5561015625 -0.1087586 -0.3092931
0.55725 -0.1963798 -0.2535435
0.5583984375 -0.2615399 -0.1755559
0.559546875 -0.2989806 -0.08329979
0.5606953125 -0.3068129 0.01424242
0.56184375 -0.2849583 0.1088942
0.5629921875 -0.235735 0.1924372
0.564140625 -0.1633292 0.2568164
0.5652890625 -0.07357612 0.2962607
0.5664375 0.02446618 0.3061062
0.5675859375 0.1220707 0.2847448
0.568734375 0.2089855 0.2326788
0.5698828125 0.2762743 0.154438
0.57103125 0.315091 0.05753902
0.5721796875 0.3208544 -0.049075
0.573328125 0.291026 -0.153166
0.5744765625 0.2279032 -0.2433746
0.575625 0.1373661 -0.3091868
0.5767734375 0.0288993 -0.3425406
0.577921875 -0.08628689 -0.3390265
0.5790703125 -0.1962858 -0.2973928
0.58021875 -0.2889257 -0.2209736
0.5813671875 -0.3541763 -0.116609
0.582515625 -0.3831143 0.006972056
0.5836640625 -0.3701766 0.1373812
0.5848125 -0.3138008 0.2618779
0.5859609375 -0.2152249 0.3660793
0.587109375 -0.08049506 0.434943
0.5882578125 0.07801475 0.4552088
0.58940625 0.2447822 0.4178356
0.5905546875 0.3970279 0.3170823
0.591703125 0.5092153 0.1567272
0.5928515625 0.555439 -0.04833375
0.594 0.5156862 -0.268756
0.5951484375 0.3827412 -0.4654313
0.596296875 0.170041 -0.5953975
0.5974453125 -0.08626031 -0.6233422
0.59859375 -0.3336784 -0.5370058
0.5997421875 -0.5194208 -0.3524245
0.600890625 -0.6055447 -0.1098147
0.6020390625 -0.5809206 0.1362594
0.6031875 -0.4620449 0.3400244
0.6043359375 -0.2824393 0.4699124
0.605484375 -0.08002969 0.514964
0.6066328125 0.1089413 0.4816426
0.60778125 0.2606203 0.3882016
0.6089296875 0.3603177 0.2567455
0.610078125 0.4049556 0.1100533
0.6112265625 0.3974081 -0.03260035
0.612375 0.3465306 -0.1556117
0.6135234375 0.2635992 -0.2497374
0.614671875 0.1612951 -0.309017
0.6158203125 0.05055607 -0.331906
0.61696875 -0.05683465 -0.3198129
0.6181171875 -0.1513858 -0.2763408
0.619265625 -0.2253489 -0.2082389
0.6204140625 -0.2735555 -0.1227631
0.6215625 -0.2922682 -0.02891994
0.6227109375 -0.2813023 0.06468116
0.623859375 -0.2423115 0.1475233
0.6250078125 -0.1797607 0.2143681
0.62615625 -0.1007542 0.2569813
0.6273046875 -0.01317375 0.2720573
0.628453125 0.07360695 0.2591521
0.6296015625 0.1502096 0.2195729
0.63075 0.2097766 0.15858
0.6318984375 0.2469123 0.08254964
0.633046875 0.2574271 0.0007803682
0.6341953125 0.2428281 -0.07955559
0.63534375 0.203854 -0.1504219
0.6364921875 0.1461604 -0.2054485
0.637640625 0.07502347 -0.2396306
0.6387890625 -0.002746286 -0.2509828
0.6399375 -0.0802784 -0.2383614
0.6410859375 -0.1505961 -0.2031578
0.642234375 -0.2072844 -0.148152
0.6433828125 -0.2457 -0.07809445
0.64453125 -0.2616589 0.001814148
0.6456796875 -0.2528012 0.0845057
0.646828125 -0.2188212 0.1622854
0.6479765625 -0.1606065 0.2283973
0.649125 -0.08241709 0.2750933
0.6502734375 0.009421273 0.295586
0.651421875 0.1072289 0.2858689
0.6525703125 0.2010826 0.2437229
0.65371875 0.2792091 0.1703947
0.6548671875 0.3320589 0.07098824
0.656015625 0.3497994 -0.04530433
0.6571640625 0.3260016 -0.1666045
0.6583125 0.2601569 -0.2786317
0.6594609375 0.1543441 -0.3653377
0.660609375 0.01804203 -0.4119816
0.6617578125 -0.1329706 -0.4082773
0.66290625 -0.2799887 -0.3478263
0.6640546875 -0.4020305 -0.2324197
0.665203125 -0.4770479 -0.07227398
0.6663515625 -0.4860597 0.1136042
0.6675 -0.4213429 0.2977616
0.6686484375 -0.2837794 0.4479775
0.669796875 -0.0911663 0.5338257
0.6709453125 0.1251664 0.5353319
0.67209375 0.327078 0.4464491
0.6732421875 0.4750289 0.2826155
0.674390625 0.5422301 0.07392967
0.6755390625 0.5193739 -0.1398399
0.6766875 0.415372 -0.3209895
0.6778359375 0.2544013 -0.4420655
0.678984375 0.06781847 -0.4886973
0.6801328125 -0.1136852 -0.4619824
0.68128125 -0.2644318 -0.3736667
0.6824296875 -0.36656 -0.2433177
0.683578125 -0.4119788 -0.09262533
0.6847265625 -0.4013123 0.05584628
0.685875 -0.3428776 0.1842566
0.6870234375 -0.2479468 0.2800407
0.688171875 -0.1326354 0.3340239
0.6893203125 -0.01250898 0.3458847
0.69046875 0.09984276 0.3186026
0.6916171875 0.1926208 0.2587505
0.692765625 0.2585144 0.1758896
0.6939140625 0.2933062 0.08040627
0.6950625 0.2954566 -0.01849017
0.6962109375 0.2682664 -0.1097403
0.697359375 0.2148374 -0.1860612
0.6985078125 0.1418545 -0.2412525
0.69965625 0.05696965 -0.2704426
0.7008046875 -0.03194894 -0.2718151
0.701953125 -0.1161916 -0.2460935
0.7031015625 -0.1882156 -0.1951101
0.70425 -0.2405997 -0.1245804
0.7053984375 -0.2680959 -0.04086678
0.706546875 -0.2678257 0.0483177
0.7076953125 -0.2392205 0.133313
0.70884375 -0.1838357 0.2055165
0.7099921875 -0.1078263 0.2563692
0.711140625 -0.01793003 0.2800806
0.7122890625 0.07597981 0.273053
0.7134375 0.163864 0.2356692
0.7145859375 0.2354636 0.1706074
0.715734375 0.28256 0.08381475
0.7168828125 0.2993853 -0.01485457
0.71803125 0.2817804 -0.1161071
0.7191796875 0.2311028 -0.207429
0.720328125 0.1506329 -0.2789573
0.7214765625 0.0491197 -0.3211531
0.722625 -0.06434215 -0.3266164
0.7237734375 -0.1768089 -0.2924953
0.724921875 -0.2743955 -0.218382
0.7260703125 -0.3434581 -0.1121849
0.72721875 -0.3720807 0.01680275
0.7283671875 -0.3514723 0.1534124
0.729515625 -0.2798728 0.2781833
0.7306640625 -0.1630159 0.3707502
0.7318125 -0.01307749 0.4145974
0.7329609375 0.1462528 0.397066
0.734109375 0.2896949 0.3165345
0.7352578125 0.3917135 0.1838902
0.73640625 0.4338439 0.02018261
0.7375546875 0.4069512 -0.1464619
0.738703125 0.3166818 -0.2875338
0.7398515625 0.1807257 -0.3802147
0.741 0.02370301 -0.4116243
0.7421484375 -0.1282728 -0.3810039
0.743296875 -0.2521595 -0.2978135
0.7444453125 -0.3319871 -0.1800449
0.74559375 -0.3619853 -0.04738232
0.7467421875 -0.3437482 0.08060657
0.747890625 -0.2835143 0.1891827
0.7490390625 -0.1863871 0.2559124
0.7501875 -0.08504809 0.2948725
0.7513359375 0.01877131 0.2971536
0.752484375 0.1143057 0.265819
0.7536328125 0.1911101 0.2075319
0.75478125 0.2432276 0.1300243
0.7559296875 0.2669827 0.04186576
0.757078125 0.2612318 -0.0471439
0.7582265625 0.2281235 -0.1280194
0.759375 0.1715116 -0.1928926
0.7605234375 0.09845234 -0.2357128
0.761671875 0.01618612 -0.2526357
0.7628203125 -0.06701345 -0.242181
0.76396875 -0.1411428 -0.2061979
0.7651171875 -0.199782 -0.1479877
0.766265625 -0.236353 -0.07475664
0.7674140625 -0.2469673 0.006255302
0.7685625 -0.2313482 0.08609963
0.7697109375 -0.1907171 0.1567777
0.770859375 -0.1296499 0.2101823
0.7720078125 -0.0547016 0.2417694
0.77315625 0.02653339 0.2471418
0.7743046875 0.1057635 0.2269967
0.775453125 0.1753181 0.1821013
0.7766015625 0.2272341 0.1175148
0.77775 0.2566794 0.03763057
0.7788984375 0.2595816 -0.04829687
0.780046875 0.2344087 -0.1331059
0.7811953125 0.1819213 -0.2073037
0.78234375 0.1054534 -0.2623173
0.7834921875 0.01216215 -0.290402
0.784640625 -0.08830432 -0.2862678
0.7857890625 -0.1864977 -0.2465704
0.7869375 -0.2687315 -0.1728966
0.7880859375 -0.3233403 -0.07101355
0.789234375 -0.3390447 0.04992625
0.7903828125 -0.3082584 0.1741169
0.79153125 -0.23093 0.2830794
0.7926796875 -0.1128983 0.3585134
0.793828125 0.03022747 0.3842646
0.7949765625 0.1768738 0.3510993
0.796125 0.3016244 0.2605646
0.7972734375 0.3810827 0.1253074
0.798421875 0.3999761 -0.03140663
0.7995703125 0.3535981 -0.1817124
0.80071875 0.2526722 -0.2997297
0.8018671875 0.1171478 -0.3653618
0.803015625 -0.02923175 -0.3719778
0.8041640625 -0.1606167 -0.3235973
0.8053125 -0.2589003 -0.2325027
0.8064609375 -0.3135423 -0.1176988
0.807609375 -0.3221909 0.002489825
0.8087578125 -0.2883657 0.111386
0.80990625 -0.2218582 0.196944
0.8110546875 -0.1351077 0.2513481
0.812203125 -0.03926073 0.2721129
0.8133515625 0.05326527 0.2594208
0.8145 0.1327849 0.218396
0.8156484375 0.1917773 0.1556163
0.816796875 0.2253659 0.08060616
0.8179453125 0.2322382 0.0009898522
0.81909375 0.213063 -0.07359926
0.8202421875 0.172138 -0.135465
0.821390625 0.1150984 -0.1796343
0.8225390625 0.04863936 -0.2017913
0.8236875 -0.01905962 -0.2015198
0.8248359375 -0.08115476 -0.1796878
0.825984375 -0.1316268 -0.1407213
0.8271328125 -0.1659819 -0.08915894
0.82828125 -0.1817244 -0.03077322
0.8294296875 -0.1787822 0.02796054
0.830578125 -0.1580563 0.08151115
0.8317265625 -0.1227221 0.1254092
0.832875 -0.07626711 0.1556844
0.8340234375 -0.02363237 0.1700515
0.835171875 0.03046364 0.1673658
0.8363203125 0.0808675 0.1491064
0.83746875 0.1234007 0.1163647
0.8386171875 0.1538434 0.07213327
0.839765625 0.1693958 0.02033998
0.8409140625 0.1685228 -0.03396467
0.8420625 0.1507114 -0.08629565
0.8432109375 0.1170553 -0.1314075
0.844359375 0.07025402 -0.1641176
0.8455078125 0.01428134 -0.1804866
0.84665625 -0.04543684 -0.1787666
0.8478046875 -0.1027562 -0.1574297
0.848953125 -0.1514343 -0.1177668
0.8501015625 -0.1855852 -0.06278125
0.85125 -0.2000766 0.001569992
0.8523984375 -0.1929784 0.06916071
0.853546875 -0.163063 0.1319699
0.8546953125 -0.1129669 0.1833631
0.85584375 -0.04637571 0.2165456
0.8569921875 0.02989463 0.2257097
0.858140625 0.1073888 0.2083061
0.8592890625 0.1774086 0.1649688
0.8604375 0.2309161 0.09738141
0.8615859375 0.259014 0.01187836
0.862734375 0.2560307 -0.08275611
0.8638828125 0.2181804 -0.1745239
0.86503125 0.1461616 -0.2507745
0.8661796875 0.04607274 -0.2973827
0.867328125 -0.07006553 -0.3034787
0.8684765625 -0.1849144 -0.2629517
0.869625 -0.278659 -0.1767963
0.8707734375 -0.3326325 -0.05627437
0.871921875 -0.33249 0.07908498
0.8730703125 -0.2763149 0.2039579
0.87421875 -0.1736768 0.2951621
0.8753671875 -0.04307518 0.3357564
0.876515625 0.08923935 0.3199807
0.8776640625 0.1999328 0.2542695
0.8788125 0.2734666 0.1542247
0.8799609375 0.3001612 0.03874232
0.881109375 0.2819735 -0.07203475
0.8822578125 0.2269822 -0.1624513
0.88340625 0.1474721 -0.2235866
0.8845546875 0.05620276 -0.2499996
0.885703125 -0.03262969 -0.2436931
0.8868515625 -0.1098344 -0.2090096
0.888 -0.1676841 -0.153172
0.8891484375 -0.2015335 -0.08543433
0.890296875 -0.2111848 -0.01292957
0.8914453125 -0.1976349 0.0554889
0.89259375 -0.1639261 0.1137003
0.8937421875 -0.1151856 0.1567107
0.894890625 -0.05685242 0.1816043
0.8960390625 0.004687882 0.1864001
0.8971875 0.06336884 0.1725236
0.8983359375 0.1136702 0.1406343
0.899484375 0.1511663 0.09565137
0.9006328125 0.1722721 0.04150052
0.90178125 0.1750492 -0.01617088
0.9029296875 0.1594082 -0.07125715
0.904078125 0.1271638 -0.1187117
0.9052265625 0.08180739 -0.1527688
0.906375 0.02801231 -0.170468
0.9075234375 -0.02870016 -0.1700718
0.908671875 -0.08209789 -0.1516207
0.9098203125 -0.1269524 -0.1166733
0.91096875 -0.1580305 -0.0695736
0.9121171875 -0.1721359 -0.01497437
0.913265625 -0.1685909 0.04156861
0.9144140625 -0.1470338 0.09440687
0.9155625 -0.1096684 0.1379757
0.9167109375 -0.05957842 0.1673059
0.917859375 -0.002125306 0.1796809
0.9190078125 0.05656501 0.172996
0.92015625 0.1118042 0.1475571
0.9213046875 0.1567777 0.1051835
0.922453125 0.1866215 0.04860791
0.9236015625 0.19627 -0.01596632
0.92475 0.184266 -0.08250955
0.9258984375 0.1496883 -0.1433495
0.927046875 0.09496042 -0.1908485
0.9281953125 0.02464288 -0.217705
0.92934375 -0.05355564 -0.2183122
0.9304921875 -0.1304692 -0.1913416
0.931640625 -0.1943368 -0.1362724
0.9327890625 -0.23637 -0.05919955
0.9339375 -0.2474096 0.0302563
0.9350859375 -0.2233128 0.1204026
0.936234375 -0.166581 0.1968437
0.9373828125 -0.08312572 0.2473459
0.93853125 0.01420995 0.2630824
0.9396796875 0.1110336 0.2397985
0.940828125 0.1919374 0.1812917
0.9419765625 0.2438415 0.09680117
0.943125 0.2599323 0.00029906
0.9442734375 0.2383397 -0.0938827
0.945421875 0.1844882 -0.1716832
0.9465703125 0.1078176 -0.2227305
0.94771875 0.02058182 -0.2413314
0.9488671875 -0.06523325 -0.2274475
0.950015625 -0.1381714 -0.1850286
0.9511640625 -0.18965 -0.1216948
0.9523125 -0.2148355 -0.04703943
0.9534609375 -0.2128381 0.02993535
0.954609375 -0.1851299 0.09898841
0.9557578125 -0.1367182 0.152648
0.95690625 -0.07491329 0.1860002
0.9580546875 -0.007231888 0.1958389
0.959203125 0.05830209 0.1828412
0.9603515625 0.1140294 0.1495833
0.9615 0.154378 0.1007405
0.9626484375 0.1756152 0.04260793
0.963796875 0.1764633 -0.01815591
0.9649453125 0.1577518 -0.07405116
0.96609375 0.1223033 -0.1202724
0.9672421875 0.07476617 -0.1513459
0.968390625 0.02086798 -0.1649129
0.9695390625 -0.03367274 -0.160626
0.9706875 -0.08318792 -0.1397629
0.9718359375 -0.1230513 -0.10446
0.972984375 -0.1486278 -0.0589283
0.9741328125 -0.159232 -0.007717616
0.97528125 -0.1529713 0.04397791
0.9764296875 -0.130914 0.09087145
0.977578125 -0.09487007 0.1285982
0.9787265625 -0.04860453 0.1532388
0.979875 0.003516889 0.1620818
0.9810234375 0.05694343 0.1541049
0.982171875 0.10562 0.1286521
0.9833203125 0.1442938 0.08829128
0.98446875 0.168638 0.03638219
0.9856171875 0.1742337 -0.02211473
0.986765625 0.1597779 -0.08090957
0.9879140625 0.1258731 -0.1329559
0.9890625 0.07517443 -0.17183
