# GHZ S RI R 50.0
0.3 0.05011907 -0.03114358
0.3011484375 0.03595929 -0.0458869
0.302296875 0.01895932 -0.05371976
0.3034453125 0.0005534405 -0.05543797
0.30459375 -0.01706176 -0.05167544
0.3057421875 -0.03182149 -0.04248112
0.306890625 -0.04204807 -0.03044292
0.3080390625 -0.04905491 -0.01544151
0.3091875 -0.05030593 -0.0006256672
0.3103359375 -0.04773367 0.01479383
0.311484375 -0.04064225 0.02817331
0.3126328125 -0.03064173 0.03940966
0.31378125 -0.0173862 0.04676764
0.3149296875 -0.002545384 0.05021579
0.316078125 0.01324761 0.04923159
0.3172265625 0.02794532 0.04312186
0.318375 0.04085943 0.03231324
0.3195234375 0.04989872 0.01793669
0.320671875 0.05300194 0.0002948354
0.3218203125 0.05123203 -0.01728549
0.32296875 0.04206068 -0.03386887
0.3241171875 0.02766581 -0.04585032
0.325265625 0.0105773 -0.05206047
0.3264140625 -0.007894603 -0.05169786
0.3275625 -0.02416163 -0.04478128
0.3287109375 -0.03658724 -0.03359146
0.329859375 -0.04375681 -0.01902184
0.3310078125 -0.0459525 -0.003339262
0.33215625 -0.04357725 0.01071541
0.3333046875 -0.03603943 0.02267831
0.334453125 -0.02672805 0.03222389
0.3356015625 -0.01496457 0.03724265
0.33675 -0.0030892 0.03848804
0.3378984375 0.008100631 0.03723848
0.339046875 0.01881242 0.03213362
0.3401953125 0.0270482 0.02469113
0.34134375 0.03263033 0.01507838
0.3424921875 0.03549489 0.004442668
0.343640625 0.0348369 -0.006618179
0.3447890625 0.03108598 -0.01661222
0.3459375 0.02403717 -0.02576885
0.3470859375 0.01454971 -0.03135859
0.348234375 0.003811039 -0.03414369
0.3493828125 -0.007716862 -0.03290467
0.35053125 -0.01807749 -0.0282885
0.3516796875 -0.02546609 -0.02051263
0.352828125 -0.02982906 -0.01031004
0.3539765625 -0.03033769 3.487061E-05
0.355125 -0.02751428 0.009625851
0.3562734375 -0.02193153 0.01670337
0.357421875 -0.01436058 0.02189336
0.3585703125 -0.006337531 0.02402929
0.35971875 0.001280069 0.02389491
0.3608671875 0.007666511 0.02089844
0.362015625 0.01314665 0.01690194
0.3631640625 0.016764 0.01179929
0.3643125 0.01832147 0.006136273
0.3654609375 0.01856495 0.0003854098
0.366609375 0.01708853 -0.004541717
0.3677578125 0.01447698 -0.00893839
0.36890625 0.01068123 -0.01244844
0.3700546875 0.00631063 -0.01413092
0.371203125 0.001771161 -0.01485191
0.3723515625 -0.00227121 -0.01399068
0.3735 -0.006253572 -0.01259217
0.3746484375 -0.009152669 -0.009676231
0.375796875 -0.01079224 -0.005851705
0.3769453125 -0.01184528 -0.00244614
0.37809375 -0.01103049 0.001244783
0.3792421875 -0.009397468 0.003910559
0.380390625 -0.007345533 0.006386964
0.3815390625 -0.005003127 0.007369493
0.3826875 -0.002708469 0.007552478
0.3838359375 -0.0005321928 0.007086686
0.384984375 0.0007231433 0.006320623
0.3861328125 0.002011087 0.005504062
0.38728125 0.002752302 0.004889898
0.3884296875 0.003380154 0.004243664
0.389578125 0.003760135 0.003620567
0.3907265625 0.004173596 0.002930966
0.391875 0.004584613 0.002279116
0.3930234375 0.005234479 0.001764212
0.394171875 0.005646424 0.0007898235
0.3953203125 0.006266453 -0.0006087208
0.39646875 0.006248722 -0.002048243
0.3976171875 0.006718636 -0.003922902
0.398765625 0.005906202 -0.005799632
0.3999140625 0.004867796 -0.007583647
0.4010625 0.002582056 -0.00939759
0.4022109375 -0.0003179414 -0.01089912
0.403359375 -0.003492158 -0.01119051
0.4045078125 -0.007402629 -0.009913594
0.40565625 -0.0109781 -0.008126592
0.4068046875 -0.01361331 -0.004339775
0.407953125 -0.01509474 4.999923E-05
0.4091015625 -0.01493779 0.005092655
0.41025 -0.01304211 0.009792329
0.4113984375 -0.009580504 0.01366909
0.412546875 -0.005157332 0.0166934
0.4136953125 0.0003232416 0.01783393
0.41484375 0.005907224 0.01728294
0.4159921875 0.0109948 0.01506481
0.417140625 0.01536097 0.01114321
0.4182890625 0.01848686 0.006133385
0.4194375 0.01992431 0.0005719166
0.4205859375 0.01982757 -0.005757139
0.421734375 0.01785723 -0.01168504
0.4228828125 0.01386472 -0.01713709
0.42403125 0.008452686 -0.0210861
0.4251796875 0.001899545 -0.0234613
0.426328125 -0.005320969 -0.02389285
0.4274765625 -0.0131395 -0.02134601
0.428625 -0.0198531 -0.01688828
0.4297734375 -0.02519765 -0.01021744
0.430921875 -0.0280882 -0.001740856
0.4320703125 -0.02795976 0.007600217
0.43321875 -0.02478289 0.01683579
0.4343671875 -0.01840662 0.02456128
0.435515625 -0.009497661 0.0298149
0.4366640625 0.0006510763 0.03180816
0.4378125 0.01152042 0.03025692
0.4389609375 0.0205586 0.0254607
0.440109375 0.02822773 0.01729294
0.4412578125 0.03231436 0.007002012
0.44240625 0.03311446 -0.003223182
0.4435546875 0.03054611 -0.01376259
0.444703125 0.02446502 -0.02278229
0.4458515625 0.01644302 -0.02919613
0.447 0.006531842 -0.03323099
0.4481484375 -0.004264323 -0.03363909
0.449296875 -0.01450052 -0.03121658
0.4504453125 -0.02365457 -0.0255632
0.45159375 -0.03109777 -0.01703218
0.4527421875 -0.03515564 -0.006644575
0.453890625 -0.03629275 0.004790189
0.4550390625 -0.03320835 0.01640191
0.4561875 -0.0266924 0.02654082
0.4573359375 -0.01703628 0.03434383
0.458484375 -0.004984929 0.03875385
0.4596328125 0.008178541 0.03887959
0.46078125 0.02047378 0.03453171
0.4619296875 0.03114886 0.02565556
0.463078125 0.03813893 0.01393968
0.4642265625 0.04053842 0.0005452341
0.465375 0.03807461 -0.01310758
0.4665234375 0.03151949 -0.02474437
0.467671875 0.02122212 -0.03374069
0.4688203125 0.008951963 -0.03794216
0.46996875 -0.003534434 -0.03844148
0.4711171875 -0.01551124 -0.03484866
0.472265625 -0.02548165 -0.02754678
0.4734140625 -0.03252277 -0.0182082
0.4745625 -0.03622843 -0.006818904
0.4757109375 -0.03621127 0.004818048
0.476859375 -0.03220516 0.01577345
0.4780078125 -0.02574571 0.02507424
0.47915625 -0.01673151 0.03159492
0.4803046875 -0.00601967 0.03516882
0.481453125 0.005381169 0.03529707
0.4826015625 0.01633283 0.03180623
0.48375 0.02555275 0.02457481
0.4848984375 0.0322597 0.01522099
0.486046875 0.03559179 0.004007684
0.4871953125 0.03484696 -0.007918555
0.48834375 0.03035264 -0.01868512
0.4894921875 0.02228713 -0.02761622
0.490640625 0.01175134 -0.03316122
0.4917890625 0.0002685556 -0.03451228
0.4929375 -0.01101505 -0.03227457
0.4940859375 -0.02060935 -0.02633774
0.495234375 -0.02769638 -0.01783014
0.4963828125 -0.03137357 -0.007537425
0.49753125 -0.0312908 0.003084701
0.4986796875 -0.02787877 0.01295976
0.499828125 -0.02197754 0.02042607
0.5009765625 -0.01366947 0.02594243
0.502125 -0.004671357 0.02870336
0.5032734375 0.004500065 0.02775426
0.504421875 0.01296823 0.02488025
0.5055703125 0.01970537 0.01852876
0.50671875 0.02429665 0.0110462
0.5078671875 0.02638251 0.002519567
0.509015625 0.02529916 -0.005953199
0.5101640625 0.02136723 -0.01372063
0.5113125 0.01559215 -0.01965749
0.5124609375 0.007884804 -0.02317086
0.513609375 -0.0002531087 -0.02402529
0.5147578125 -0.008078579 -0.02179398
0.51590625 -0.01505323 -0.01712741
0.5170546875 -0.01918989 -0.01055792
0.518203125 -0.0210551 -0.003402605
0.5193515625 -0.02036755 0.004198598
0.5205 -0.01687045 0.01016855
0.5216484375 -0.01136668 0.01480296
0.522796875 -0.00559515 0.01741003
0.5239453125 0.0009253618 0.01688477
0.52509375 0.006469958 0.01477951
0.5262421875 0.01043892 0.01108989
0.527390625 0.01294576 0.006348318
0.5285390625 0.0134478 0.001456319
0.5296875 0.01234597 -0.003475374
0.5308359375 0.009721341 -0.006778462
0.531984375 0.00638345 -0.009453461
0.5331328125 0.002506256 -0.01031779
0.53428125 -0.00147537 -0.0098079
0.5354296875 -0.005005088 -0.00821637
0.536578125 -0.007195386 -0.004937694
0.5377265625 -0.008204901 -0.001950059
0.538875 -0.007797548 0.001634527
0.5400234375 -0.006384992 0.004392459
0.541171875 -0.003693052 0.00624029
0.5423203125 -0.0006595781 0.007193215
0.54346875 0.002571279 0.006517218
0.5446171875 0.005239119 0.004652808
0.545765625 0.007055148 0.002321092
0.5469140625 0.007347868 -0.001071946
0.5480625 0.006373516 -0.004289589
0.5492109375 0.004137501 -0.007045558
0.550359375 0.000967732 -0.007935856
0.5515078125 -0.002437244 -0.008481089
0.55265625 -0.005557715 -0.007485312
0.5538046875 -0.008450836 -0.004821684
0.554953125 -0.01006583 -0.001581518
0.5561015625 -0.01073168 0.002530951
0.55725 -0.00942474 0.006083753
0.5583984375 -0.006772108 0.009803924
0.559546875 -0.003396643 0.01208878
0.5606953125 0.001275741 0.01309909
0.56184375 0.005945703 0.0125244
0.5629921875 0.01026694 0.01007123
0.564140625 0.01379292 0.00630011
0.5652890625 0.01562998 0.001481783
0.5664375 0.0161218 -0.004081856
0.5675859375 0.01446525 -0.009774631
0.568734375 0.01090343 -0.01477275
0.5698828125 0.005159949 -0.018216
0.57103125 -0.001084543 -0.01963793
0.5721796875 -0.008089083 -0.01871397
0.573328125 -0.01450005 -0.01534567
0.5744765625 -0.01941498 -0.009820556
0.575625 -0.02186291 -0.002918002
0.5767734375 -0.02211268 0.00471347
0.577921875 -0.01951377 0.01209398
0.5790703125 -0.01473207 0.01807213
0.58021875 -0.008066179 0.02231121
0.5813671875 -0.0003108584 0.02410645
0.582515625 0.007762461 0.02336381
0.5836640625 0.01503947 0.019769
0.5848125 0.02068874 0.01396015
0.5859609375 0.02431856 0.00664811
0.587109375 0.02560881 -0.001714961
0.5882578125 0.02428611 -0.009625104
0.58940625 0.0202674 -0.01745525
0.5905546875 0.0138452 -0.0233915
0.591703125 0.005571197 -0.02700121
0.5928515625 -0.003467545 -0.02760572
0.594 -0.01257219 -0.02552854
0.5951484375 -0.02033338 -0.02058329
0.596296875 -0.02650877 -0.01287977
0.5974453125 -0.02940872 -0.003437374
0.59859375 -0.029636 0.006571229
0.5997421875 -0.02603193 0.01596649
0.600890625 -0.01943645 0.0237441
0.6020390625 -0.01059868 0.02899385
0.6031875 -0.0003971909 0.03092011
0.6043359375 0.009548551 0.02946202
0.605484375 0.01877549 0.02472243
0.6066328125 0.02582609 0.01743773
0.60778125 0.03006151 0.00807477
0.6089296875 0.03091503 -0.001889294
0.610078125 0.02830089 -0.01188008
0.6112265625 0.02348435 -0.02027343
0.612375 0.01559015 -0.02645076
0.6135234375 0.006815113 -0.03001648
0.614671875 -0.003420146 -0.03064824
0.6158203125 -0.01279448 -0.02797333
0.61696875 -0.02105193 -0.02239353
0.6181171875 -0.02727587 -0.01496672
0.619265625 -0.03078018 -0.005622875
0.6204140625 -0.03083593 0.00428185
0.6215625 -0.02826742 0.01470315
0.6227109375 -0.02266353 0.02265462
0.623859375 -0.01362066 0.02844588
0.6250078125 -0.003572651 0.03196514
0.62615625 0.006517955 0.03129839
0.6273046875 0.01648457 0.02759925
0.628453125 0.02460802 0.02059306
0.6296015625 0.03013362 0.01145013
0.63075 0.03180574 0.0008381117
0.6318984375 0.03038616 -0.009649836
0.633046875 0.02539411 -0.01845234
0.6341953125 0.01786035 -0.02562296
0.63534375 0.00857476 -0.02989745
0.6364921875 -0.001633656 -0.03052975
0.637640625 -0.01108488 -0.02849566
0.6387890625 -0.01940372 -0.02309295
0.6399375 -0.02547041 -0.01539268
0.6410859375 -0.02888723 -0.006690715
0.642234375 -0.02922269 0.002964855
0.6433828125 -0.02660224 0.01223126
0.64453125 -0.0211748 0.01982214
0.6456796875 -0.01415124 0.02561243
0.646828125 -0.004565489 0.02833297
0.6479765625 0.004478008 0.02795138
0.649125 0.01315247 0.02527677
0.6502734375 0.0206638 0.01934792
0.651421875 0.02574681 0.01144995
0.6525703125 0.02804625 0.00222186
0.65371875 0.0269432 -0.00713386
0.6548671875 0.02301196 -0.01530645
0.656015625 0.01650773 -0.02192523
0.6571640625 0.008183648 -0.02572696
0.6583125 -0.001011234 -0.02659812
0.6594609375 -0.009630951 -0.02442431
0.660609375 -0.01699732 -0.01936747
0.6617578125 -0.02212149 -0.01229876
0.66290625 -0.02442028 -0.004416825
0.6640546875 -0.02398743 0.004023404
0.665203125 -0.02076425 0.01141901
0.6663515625 -0.01542572 0.01708928
0.6675 -0.00870032 0.02042571
0.6686484375 -0.00125292 0.02183677
0.669796875 0.006002309 0.02059968
0.6709453125 0.01201414 0.01685017
0.67209375 0.01662799 0.01170005
0.6732421875 0.01892039 0.005217135
0.674390625 0.01927346 -0.001591956
0.6755390625 0.01717037 -0.007492625
0.6766875 0.01318376 -0.01262431
0.6778359375 0.008049793 -0.01596427
0.678984375 0.00175097 -0.01711605
0.6801328125 -0.004109317 -0.01607736
0.68128125 -0.009096365 -0.01322922
0.6824296875 -0.01273217 -0.009024874
0.683578125 -0.01456343 -0.003596123
0.6847265625 -0.01427917 0.001657047
0.685875 -0.01216352 0.006385203
0.6870234375 -0.008770793 0.009833248
0.688171875 -0.004086088 0.01170066
0.6893203125 0.0001559913 0.01192282
0.69046875 0.004363973 0.01070734
0.6916171875 0.00762955 0.007713021
0.692765625 0.009583404 0.004273338
0.6939140625 0.01005702 0.0002268092
0.6950625 0.009045748 -0.003407242
0.6962109375 0.006710684 -0.006280239
0.697359375 0.003545711 -0.008232336
0.6985078125 0.000111865 -0.008921484
0.69965625 -0.003301842 -0.008058213
0.7008046875 -0.00601008 -0.006092429
0.701953125 -0.007787182 -0.002795938
0.7031015625 -0.008609291 0.0003427066
0.70425 -0.007839462 0.003969034
0.7053984375 -0.005795197 0.006885057
0.706546875 -0.002456157 0.008831159
0.7076953125 0.001243269 0.00948387
0.70884375 0.005178394 0.008388456
0.7099921875 0.008109643 0.006044263
0.711140625 0.01029569 0.00267482
0.7122890625 0.01097786 -0.001571955
0.7134375 0.01015369 -0.005932694
0.7145859375 0.007144797 -0.009538169
0.715734375 0.003485376 -0.01226664
0.7168828125 -0.001722029 -0.01299641
0.71803125 -0.005981099 -0.01181109
0.7191796875 -0.0105024 -0.009653585
0.720328125 -0.01369623 -0.00548415
0.7214765625 -0.01500933 -0.0002564384
0.722625 -0.0148232 0.005233183
0.7237734375 -0.01233103 0.01019564
0.724921875 -0.008246929 0.01439516
0.7260703125 -0.002899906 0.01689031
0.72721875 0.003079978 0.01748457
0.7283671875 0.00921391 0.01586543
0.729515625 0.01442547 0.01219798
0.7306640625 0.01847144 0.00671391
0.7318125 0.02046958 1.226329E-05
0.7329609375 0.01942571 -0.00666539
0.734109375 0.01630438 -0.01366615
0.7352578125 0.0111832 -0.01877485
0.73640625 0.00418167 -0.02227077
0.7375546875 -0.003701202 -0.02281027
0.738703125 -0.0114294 -0.02035304
0.7398515625 -0.01769696 -0.01547524
0.741 -0.02229086 -0.008707442
0.7421484375 -0.02422932 -0.0006107733
0.743296875 -0.02310385 0.007571573
0.7444453125 -0.0196359 0.01505198
0.74559375 -0.01364753 0.02133293
0.7467421875 -0.006073436 0.02464395
0.747890625 0.002923568 0.02528358
0.7490390625 0.01045174 0.02274779
0.7501875 0.01734528 0.01789877
0.7513359375 0.02231615 0.01092859
0.752484375 0.02524252 0.003175177
0.7536328125 0.02487687 -0.005191696
0.75478125 0.02250805 -0.01310925
0.7559296875 0.01706549 -0.01978946
0.757078125 0.009819767 -0.02474462
0.7582265625 0.001191342 -0.02668631
0.759375 -0.008149021 -0.02605529
0.7605234375 -0.01601132 -0.02187446
0.761671875 -0.02249302 -0.01581809
0.7628203125 -0.02705288 -0.007274781
0.76396875 -0.028177 0.001807413
0.7651171875 -0.02584538 0.01129787
0.766265625 -0.02097544 0.01940589
0.7674140625 -0.01362541 0.02536804
0.7685625 -0.004577741 0.02853561
0.7697109375 0.005586034 0.02858077
0.770859375 0.01427548 0.02508544
0.7720078125 0.02193856 0.01878514
0.77315625 0.02667223 0.01039971
0.7743046875 0.02876819 0.0007679402
0.775453125 0.0272093 -0.008278739
0.7766015625 0.02336971 -0.01709633
0.77775 0.01620336 -0.02339936
0.7788984375 0.007743109 -0.02751513
0.780046875 -0.001726085 -0.02820309
0.7811953125 -0.01088493 -0.02602123
0.78234375 -0.01909423 -0.02136596
0.7834921875 -0.02489412 -0.01379218
0.784640625 -0.02769347 -0.005019353
0.7857890625 -0.02814025 0.004646158
0.7869375 -0.02504698 0.01377732
0.7880859375 -0.01873066 0.02133583
0.789234375 -0.01066801 0.02598772
0.7903828125 -0.001373518 0.02836845
0.79153125 0.007957187 0.0267322
0.7926796875 0.01648789 0.02230191
0.793828125 0.02307803 0.01511923
0.7949765625 0.02670039 0.006960427
0.796125 0.02706593 -0.002726152
0.7972734375 0.02417012 -0.01141982
0.798421875 0.01881186 -0.01851813
0.7995703125 0.01164962 -0.02338725
0.80071875 0.003028548 -0.02534472
0.8018671875 -0.00591989 -0.02469914
0.803015625 -0.01324744 -0.02092055
0.8041640625 -0.01927905 -0.01510482
0.8053125 -0.02268167 -0.008029974
0.8064609375 -0.02365478 -0.0002014887
0.807609375 -0.0219401 0.007500399
0.8087578125 -0.01783012 0.01419631
0.80990625 -0.01201407 0.01910247
0.8110546875 -0.005036298 0.0216899
0.812203125 0.002339942 0.02165438
0.8133515625 0.009421218 0.01964739
0.8145 0.01527236 0.01499165
0.8156484375 0.01897571 0.009314827
0.816796875 0.02072954 0.002268884
0.8179453125 0.02014247 -0.004609806
0.81909375 0.01678263 -0.01062864
0.8202421875 0.0121768 -0.01577981
0.821390625 0.005885749 -0.0187117
0.8225390625 -0.0005057832 -0.01915537
0.8236875 -0.007018148 -0.01759453
0.8248359375 -0.0125188 -0.01403782
0.825984375 -0.01591163 -0.008819008
0.8271328125 -0.01746952 -0.002658387
0.82828125 -0.01738001 0.003192437
0.8294296875 -0.01439789 0.008509291
0.830578125 -0.01085551 0.01306483
0.8317265625 -0.005723495 0.01570047
0.832875 4.773358E-05 0.01624783
0.8340234375 0.005296171 0.01512448
0.835171875 0.01002326 0.01221503
0.8363203125 0.01299059 0.007891121
0.83746875 0.01486003 0.002997492
0.8386171875 0.01502646 -0.002074512
0.839765625 0.01333148 -0.007323983
0.8409140625 0.01006085 -0.01070459
0.8420625 0.00540481 -0.01390447
0.8432109375 0.0005249454 -0.01471646
0.844359375 -0.004604434 -0.0134601
0.8455078125 -0.008985339 -0.01120843
0.84665625 -0.012326 -0.007182487
0.8478046875 -0.01432071 -0.002354108
0.848953125 -0.01380502 0.0024077
0.8501015625 -0.0119858 0.007374584
0.85125 -0.008385491 0.01101177
0.8523984375 -0.003851999 0.0132137
0.853546875 0.00101463 0.01372622
0.8546953125 0.005962381 0.01226735
0.85584375 0.009555174 0.009401764
0.8569921875 0.01213382 0.005558528
0.858140625 0.01338707 0.000500167
0.8592890625 0.01280995 -0.004082466
0.8604375 0.01041692 -0.008344646
0.8615859375 0.006797028 -0.011485
0.862734375 0.002483717 -0.01283782
0.8638828125 -0.002266945 -0.01287405
0.86503125 -0.006815586 -0.01136428
0.8661796875 -0.01040651 -0.008120957
0.867328125 -0.01250217 -0.004333335
0.8684765625 -0.01308169 0.0006354685
0.869625 -0.01248012 0.005151365
0.8707734375 -0.009779008 0.009142382
0.871921875 -0.006031102 0.01205936
0.8730703125 -0.001511086 0.01350839
0.87421875 0.003216403 0.01326094
0.8753671875 0.007809153 0.01127636
0.876515625 0.0116211 0.007942516
0.8776640625 0.01367749 0.003317338
0.8788125 0.01377939 -0.001476027
0.8799609375 0.01266684 -0.006419805
0.881109375 0.009553287 -0.0103061
0.8822578125 0.005455801 -0.01300389
0.88340625 0.0007384852 -0.01417372
0.8845546875 -0.004529917 -0.01337008
0.885703125 -0.008698961 -0.01126476
0.8868515625 -0.01213944 -0.007723087
0.888 -0.01392843 -0.00321871
0.8891484375 -0.01401153 0.001450873
0.890296875 -0.01290596 0.006176155
0.8914453125 -0.01010395 0.01026057
0.89259375 -0.006309629 0.01299473
0.8937421875 -0.001361113 0.01430038
0.894890625 0.003341052 0.01412621
0.8960390625 0.008217704 0.01225552
0.8971875 0.01155676 0.008783034
0.8983359375 0.01400695 0.004516482
0.899484375 0.01487793 -0.0004219615
0.9006328125 0.01371366 -0.005591392
0.90178125 0.01139077 -0.009646057
0.9029296875 0.0075353 -0.01361348
0.904078125 0.002452121 -0.01509309
0.9052265625 -0.00264379 -0.01507086
0.906375 -0.007717234 -0.01335461
0.9075234375 -0.01137578 -0.009821159
0.908671875 -0.0143766 -0.005540361
0.9098203125 -0.01534751 -0.0001315948
0.91096875 -0.01458673 0.004903507
0.9121171875 -0.01191462 0.009317884
0.913265625 -0.00798364 0.01257212
0.9144140625 -0.003439759 0.01476204
0.9155625 0.001657774 0.01516093
0.9167109375 0.006799477 0.01360476
0.917859375 0.01060353 0.01054068
0.9190078125 0.01329823 0.006160897
0.92015625 0.01496654 0.001666033
0.9213046875 0.01421788 -0.00365485
0.922453125 0.01229719 -0.008086837
0.9236015625 0.008913905 -0.01183407
0.92475 0.004588905 -0.01391795
0.9258984375 -0.000518328 -0.01430823
0.927046875 -0.005233303 -0.01341903
0.9281953125 -0.009436432 -0.01059556
0.92934375 -0.01249313 -0.006982559
0.9304921875 -0.01403052 -0.002311724
0.931640625 -0.01387883 0.002634625
0.9327890625 -0.01205485 0.007060725
0.9339375 -0.008938822 0.0105739
0.9350859375 -0.004464978 0.01296004
0.936234375 0.0002712356 0.01344631
0.9373828125 0.004552871 0.01206702
0.93853125 0.008675407 0.009901425
0.9396796875 0.01128654 0.006089508
0.940828125 0.01253552 0.001930178
0.9419765625 0.01205166 -0.002452724
