# GHZ S RI R 50.0
0.3 -0.8650397 -0.8294492
0.3011484375 -1.104535 -0.3581682
0.302296875 -1.094673 0.1386004
0.3034453125 -0.8813909 0.54049
0.30459375 -0.5519642 0.7854314
0.3057421875 -0.19477 0.8657097
0.306890625 0.1269746 0.8102273
0.3080390625 0.3743631 0.6605909
0.3091875 0.5382795 0.4588102
0.3103359375 0.6188377 0.236944
0.311484375 0.6251944 0.02074189
0.3126328125 0.5694056 -0.1727089
0.31378125 0.4648872 -0.3305946
0.3149296875 0.3251129 -0.4449317
0.316078125 0.1631945 -0.5110767
0.3172265625 -0.007867029 -0.5251712
0.318375 -0.1730767 -0.4878729
0.3195234375 -0.3178647 -0.4011746
0.320671875 -0.428207 -0.2724033
0.3218203125 -0.4901532 -0.1139109
0.32296875 -0.4952809 0.05577324
0.3241171875 -0.4422933 0.2166184
0.325265625 -0.337987 0.3477943
0.3264140625 -0.1972325 0.4332004
0.3275625 -0.04121978 0.4638387
0.3287109375 0.1113226 0.4409787
0.329859375 0.242762 0.3716486
0.3310078125 0.3403807 0.268771
0.33215625 0.3998207 0.1451308
0.3333046875 0.4178123 0.01420079
0.334453125 0.3980892 -0.1127595
0.3356015625 0.343092 -0.2276354
0.33675 0.2589223 -0.3204958
0.3378984375 0.1521326 -0.3872861
0.339046875 0.02921016 -0.421597
0.3401953125 -0.1019392 -0.4205615
0.34134375 -0.2326289 -0.3806092
0.3424921875 -0.3514435 -0.3016855
0.343640625 -0.4475072 -0.1832495
0.3447890625 -0.5068226 -0.03250664
0.3459375 -0.5164968 0.1427522
0.3470859375 -0.4641874 0.3251534
0.348234375 -0.3440363 0.492581
0.3493828125 -0.1568808 0.6169698
0.35053125 0.07851809 0.669102
0.3516796875 0.3368183 0.6261984
0.352828125 0.5738611 0.4791625
0.3539765625 0.7462425 0.2361089
0.355125 0.812052 -0.07329309
0.3562734375 0.745305 -0.3978854
0.357421875 0.5423841 -0.6803037
0.3585703125 0.2287127 -0.8599373
0.35971875 -0.1409665 -0.8908292
0.3608671875 -0.4929051 -0.757587
0.362015625 -0.7518799 -0.4859537
0.3631640625 -0.8650913 -0.1360311
0.3643125 -0.8210347 0.2141784
0.3654609375 -0.6449134 0.4967803
0.366609375 -0.3870036 0.6740472
0.3677578125 -0.1021188 0.7326
0.36890625 0.1643925 0.6842651
0.3700546875 0.3791829 0.5528515
0.371203125 0.5253698 0.3666954
0.3723515625 0.5945448 0.1543226
0.3735 0.5875541 -0.05843793
0.3746484375 0.5119906 -0.2479048
0.375796875 0.3817052 -0.3937141
0.3769453125 0.2157738 -0.4832682
0.37809375 0.03621107 -0.5091508
0.3792421875 -0.1343091 -0.472885
0.380390625 -0.2758766 -0.3836212
0.3815390625 -0.3722984 -0.2577309
0.3826875 -0.4185879 -0.1151189
0.3838359375 -0.4145548 0.02771141
0.384984375 -0.3676876 0.1523223
0.3861328125 -0.2883921 0.2505051
0.38728125 -0.1884763 0.3152701
0.3884296875 -0.08027487 0.3451073
0.389578125 0.02634872 0.3422605
0.3907265625 0.1247028 0.3102129
0.391875 0.206421 0.2540861
0.3930234375 0.2681857 0.1793404
0.394171875 0.3060147 0.09210365
0.3953203125 0.3186838 -0.002401461
0.39646875 0.3044936 -0.09615667
0.3976171875 0.2643066 -0.1835778
0.398765625 0.2000521 -0.2578727
0.3999140625 0.1147638 -0.3112232
0.4010625 0.01442926 -0.3381163
0.4022109375 -0.09339087 -0.3332685
0.403359375 -0.1979358 -0.2936611
0.4045078125 -0.2880069 -0.2205278
0.40565625 -0.351472 -0.1183899
0.4068046875 -0.3785986 0.001038639
0.407953125 -0.363925 0.1267761
0.4091015625 -0.3082199 0.24263
0.41025 -0.2155164 0.3343035
0.4113984375 -0.09711456 0.3914365
0.412546875 0.03506355 0.4074777
0.4136953125 0.1653713 0.3805135
0.41484375 0.2824035 0.3141501
0.4159921875 0.3745846 0.2135282
0.417140625 0.4339041 0.08607249
0.4182890625 0.452249 -0.05594998
0.4194375 0.42657 -0.2030405
0.4205859375 0.3549068 -0.3419101
0.421734375 0.2373364 -0.4599952
0.4228828125 0.07888941 -0.5405834
0.42403125 -0.1128668 -0.5692922
0.4251796875 -0.3198258 -0.5307168
0.426328125 -0.5204458 -0.4123482
0.4274765625 -0.680825 -0.2111232
0.428625 -0.7625038 0.0632238
0.4297734375 -0.725518 0.3790984
0.430921875 -0.5446706 0.6771474
0.4320703125 -0.2268827 0.8839779
0.43321875 0.1740891 0.927416
0.4343671875 0.5644237 0.7744155
0.435515625 0.839824 0.4530135
0.4366640625 0.9299178 0.05032652
0.4378125 0.8304456 -0.3312624
0.4389609375 0.5898679 -0.6080434
0.440109375 0.2816606 -0.7436512
0.4412578125 -0.02368557 -0.7420278
0.44240625 -0.2778024 -0.6332138
0.4435546875 -0.453188 -0.4569958
0.444703125 -0.5453802 -0.2514797
0.4458515625 -0.560855 -0.04675196
0.447 -0.5121944 0.1345626
0.4481484375 -0.4160826 0.2787324
0.449296875 -0.2894049 0.3787856
0.4504453125 -0.1465349 0.4319661
0.45159375 -0.001914795 0.4395071
0.4527421875 0.1327009 0.4039945
0.453890625 0.2463758 0.3321644
0.4550390625 0.3315337 0.2317029
0.4561875 0.3802465 0.1126116
0.4573359375 0.3901321 -0.01476486
0.458484375 0.3598141 -0.1374293
0.4596328125 0.2927368 -0.2428952
0.46078125 0.1953745 -0.3207038
0.4619296875 0.07940698 -0.3621067
0.463078125 -0.04207943 -0.363546
0.4642265625 -0.1562134 -0.3254195
0.465375 -0.2496287 -0.2528838
0.4665234375 -0.3129063 -0.1566388
0.467671875 -0.3413835 -0.04701028
0.4688203125 -0.333636 0.06342489
0.46996875 -0.2930228 0.1629729
0.4711171875 -0.2249302 0.2442146
0.472265625 -0.1364568 0.2996905
0.4734140625 -0.0373137 0.3262545
0.4745625 0.06510589 0.3221573
0.4757109375 0.1618471 0.2878046
0.476859375 0.2453361 0.2264624
0.4780078125 0.3074771 0.1420876
0.47915625 0.3433637 0.04073758
0.4803046875 0.3476349 -0.07052448
0.481453125 0.3170846 -0.181481
0.4826015625 0.2507268 -0.2823935
0.48375 0.151767 -0.3607752
0.4848984375 0.02634721 -0.4063995
0.486046875 -0.1146011 -0.408835
0.4871953125 -0.2565014 -0.361734
0.48834375 -0.38074 -0.2638592
0.4894921875 -0.4690113 -0.1200706
0.490640625 -0.5028504 0.05473181
0.4917890625 -0.4696727 0.2405003
0.4929375 -0.3656391 0.4105799
0.4940859375 -0.1973529 0.5368587
0.495234375 0.01550659 0.5925361
0.4963828125 0.2446749 0.5624799
0.49753125 0.4534539 0.4405639
0.4986796875 0.6025941 0.2391982
0.499828125 0.6608246 -0.01290132
0.5009765625 0.6115547 -0.2726804
0.502125 0.4584091 -0.4927608
0.5032734375 0.2285377 -0.6317449
0.504421875 -0.03500986 -0.6638903
0.5055703125 -0.2839452 -0.5883266
0.50671875 -0.4766568 -0.4253009
0.5078671875 -0.5858866 -0.2080337
0.509015625 -0.6027017 0.02528001
0.5101640625 -0.5334847 0.237508
0.5113125 -0.3970932 0.4020989
0.5124609375 -0.2177023 0.5010549
0.513609375 -0.02443015 0.5277842
0.5147578125 0.158251 0.4855144
0.51590625 0.3085341 0.3860883
0.5170546875 0.4091018 0.2465346
0.518203125 0.4534976 0.0872969
0.5193515625 0.4406069 -0.07068199
0.5205 0.3777462 -0.2086024
0.5216484375 0.2764177 -0.312874
0.522796875 0.1519051 -0.3742111
0.5239453125 0.0197936 -0.3912775
0.52509375 -0.105018 -0.365676
0.5262421875 -0.2114605 -0.3041321
0.527390625 -0.2902559 -0.2156452
0.5285390625 -0.3368206 -0.1108361
0.5296875 -0.3485952 0.000736093
0.5308359375 -0.3268674 0.1080778
0.531984375 -0.2746005 0.2028112
0.5331328125 -0.197172 0.2771671
0.53428125 -0.1008535 0.3244246
0.5354296875 0.005433364 0.3413197
0.536578125 0.1124698 0.3249322
0.5377265625 0.2117351 0.2758845
0.538875 0.2916304 0.1974673
0.5400234375 0.3455334 0.09586515
0.541171875 0.3646177 -0.02080152
0.5423203125 0.3451523 -0.1404631
0.54346875 0.2867952 -0.2504199
0.5446171875 0.1928457 -0.3382078
0.545765625 0.0716022 -0.3917349
0.5469140625 -0.0639371 -0.4027098
0.5480625 -0.1994015 -0.3667666
0.5492109375 -0.319065 -0.2848651
0.550359375 -0.4063542 -0.1649197
0.5515078125 -0.4495099 -0.01801631
0.55265625 -0.4403324 0.1404425
0.5538046875 -0.3762091 0.2915419
0.554953125 -0.2591085 0.4165777
0.5561015625 -0.1003178 0.4955149
0.55725 0.08368218 0.5144764
0.5583984375 0.2712541 0.4642805
0.559546875 0.4344317 0.3440765
0.5606953125 0.5456132 0.1640149
0.56184375 0.5812063 -0.05352829
0.5629921875 0.5276285 -0.2749752
0.564140625 0.3865069 -0.4612672
0.5652890625 0.1797788 -0.5781954
0.5664375 -0.05788987 -0.6011282
0.5675859375 -0.2833968 -0.5261489
0.568734375 -0.4556642 -0.3699092
0.5698828125 -0.5483268 -0.1631724
0.57103125 -0.5515172 0.05537574
0.5721796875 -0.4729953 0.2482227
0.573328125 -0.3335899 0.3886932
0.5744765625 -0.1616847 0.4622678
0.575625 0.01385979 0.4665011
0.5767734375 0.1691081 0.4111498
0.577921875 0.2864206 0.3113047
0.5790703125 0.3575247 0.1858218
0.58021875 0.380323 0.05212748
0.5813671875 0.3588561 -0.07330135
0.582515625 0.30178 -0.1785448
0.5836640625 0.2188828 -0.2557105
0.5848125 0.1208274 -0.3005407
0.5859609375 0.01887194 -0.3124874
0.587109375 -0.07788939 -0.2935092
0.5882578125 -0.1616998 -0.2471174
0.58940625 -0.2255192 -0.1798256
0.5905546875 -0.2651133 -0.09868062
0.591703125 -0.2780061 -0.01050795
0.5928515625 -0.2638381 0.0754352
0.594 -0.2244605 0.1526664
0.5951484375 -0.1636562 0.2135151
0.596296875 -0.08739668 0.2522408
0.5974453125 -0.003078263 0.2653949
0.59859375 0.080762 0.2513992
0.5997421875 0.1558598 0.211582
0.600890625 0.21428 0.1503365
0.6020390625 0.2501312 0.07421108
0.6031875 0.259917 -0.00907265
0.6043359375 0.2429056 -0.09083853
0.605484375 0.2014096 -0.1627032
0.6066328125 0.1398888 -0.217938
0.60778125 0.06434226 -0.251173
0.6089296875 -0.01757048 -0.2594695
0.610078125 -0.09834779 -0.2425037
0.6112265625 -0.1710573 -0.2013642
0.612375 -0.228292 -0.1395714
0.6135234375 -0.2646847 -0.06233495
0.614671875 -0.2760423 0.02461649
0.6158203125 -0.2602799 0.1126475
0.61696875 -0.217418 0.1945227
0.6181171875 -0.148494 0.2613489
0.619265625 -0.05788663 0.3053862
0.6204140625 0.04612638 0.31951
0.6215625 0.1550228 0.2980403
0.6227109375 0.2562586 0.2398206
0.623859375 0.337052 0.1447033
0.6250078125 0.3835208 0.02092503
0.62615625 0.384016 -0.1199302
0.6273046875 0.3317108 -0.2604055
0.628453125 0.2255856 -0.379886
0.6296015625 0.07361588 -0.4558887
0.63075 -0.1064934 -0.4698134
0.6318984375 -0.2881782 -0.4096303
0.633046875 -0.4385145 -0.2758258
0.6341953125 -0.5261195 -0.08424628
0.63534375 -0.5268147 0.1333674
0.6364921875 -0.434408 0.3360682
0.637640625 -0.2639385 0.4829096
0.6387890625 -0.04812052 0.5430976
0.6399375 0.1691984 0.5078431
0.6410859375 0.3455258 0.3900871
0.642234375 0.4541888 0.2184434
0.6433828125 0.4840646 0.02757301
0.64453125 0.4405957 -0.1487913
0.6456796875 0.3403649 -0.2878392
0.646828125 0.204178 -0.3745449
0.6479765625 0.05513585 -0.4051344
0.649125 -0.08738528 -0.3825245
0.6502734375 -0.2063832 -0.315282
0.651421875 -0.2913107 -0.2165612
0.6525703125 -0.3351103 -0.1003701
0.65371875 -0.3372531 0.01867646
0.6548671875 -0.3013342 0.1269715
0.656015625 -0.233689 0.2140121
0.6571640625 -0.1447138 0.2711252
0.6583125 -0.04552514 0.2950351
0.6594609375 0.05281513 0.285368
0.660609375 0.1398079 0.2458584
0.6617578125 0.2068923 0.1824244
0.66290625 0.2489022 0.1035306
0.6640546875 0.2636378 0.01771551
0.665203125 0.2508393 -0.06613699
0.6663515625 0.2134922 -0.1403917
0.6675 0.1561509 -0.1980803
0.6686484375 0.08480623 -0.2349453
0.669796875 0.006782424 -0.2482621
0.6709453125 -0.07196577 -0.236918
0.67209375 -0.1424106 -0.202598
0.6732421875 -0.1997652 -0.1475868
0.674390625 -0.2375698 -0.07744955
0.6755390625 -0.2519524 0.001830285
0.6766875 -0.2408275 0.08296771
0.6778359375 -0.2047409 0.1576499
0.678984375 -0.1449896 0.21866
0.6801328125 -0.06793353 0.2578063
0.68128125 0.02000475 0.2708294
0.6824296875 0.1092608 0.2541668
0.683578125 0.1903604 0.2083481
0.6847265625 0.2531875 0.137077
0.685875 0.2906442 0.0468438
0.6870234375 0.2962901 -0.0530936
0.688171875 0.2678581 -0.1520342
0.6893203125 0.2068632 -0.2381551
0.69046875 0.1180537 -0.3015907
0.6916171875 0.01036055 -0.3325103
0.692765625 -0.1055068 -0.3259224
0.6939140625 -0.2162868 -0.2789637
0.6950625 -0.3084183 -0.1938268
0.6962109375 -0.3682542 -0.07774503
0.697359375 -0.385363 0.05791916
0.6985078125 -0.3518365 0.1968204
0.69965625 -0.2670136 0.3207454
0.7008046875 -0.1367276 0.4087825
0.701953125 0.02399386 0.4434567
0.7031015625 0.1923377 0.4135734
0.70425 0.3408627 0.3176979
0.7053984375 0.4434649 0.1672899
0.706546875 0.4786946 -0.01460717
0.7076953125 0.4377002 -0.1979163
0.70884375 0.3273573 -0.3486164
0.7099921875 0.1677108 -0.4425918
0.711140625 -0.01251595 -0.4652944
0.7122890625 -0.1823305 -0.4170581
0.7134375 -0.3156692 -0.3109433
0.7145859375 -0.3956574 -0.1686133
0.715734375 -0.4157991 -0.01336485
0.7168828125 -0.3792877 0.1319533
0.71803125 -0.2981702 0.2477936
0.7191796875 -0.1868566 0.3242509
0.720328125 -0.0622009 0.3558813
0.7214765625 0.05998369 0.3445792
0.722625 0.1665582 0.2950583
0.7237734375 0.2482241 0.2164044
0.724921875 0.2979647 0.1195366
0.7260703125 0.312886 0.01486116
0.72721875 0.2942956 -0.08595531
0.7283671875 0.24577 -0.1737061
0.729515625 0.1735647 -0.240597
0.7306640625 0.0853802 -0.2799976
0.7318125 -0.01001973 -0.2891854
0.7329609375 -0.102288 -0.2681863
0.734109375 -0.1822081 -0.2187561
0.7352578125 -0.2424829 -0.1471392
0.73640625 -0.2754575 -0.06017432
0.7375546875 -0.2790491 0.0331454
0.738703125 -0.2527165 0.1216833
0.7398515625 -0.1990932 0.1974079
0.741 -0.1231442 0.2515989
0.7421484375 -0.03494366 0.2783191
0.743296875 0.05785754 0.2748472
0.7444453125 0.1447362 0.2417765
0.74559375 0.2169832 0.1821298
0.7467421875 0.2662441 0.1023966
0.747890625 0.2878078 0.009737803
0.7490390625 0.2675639 -0.08235341
0.7501875 0.2281591 -0.1683748
0.7513359375 0.1625717 -0.2378731
0.752484375 0.07631882 -0.2834512
0.7536328125 -0.02358603 -0.2984606
0.75478125 -0.1259746 -0.2796092
0.7559296875 -0.2185394 -0.2259143
0.757078125 -0.2905847 -0.1403231
0.7582265625 -0.3295451 -0.03143222
0.759375 -0.3281847 0.08917515
0.7605234375 -0.2817873 0.2059972
0.761671875 -0.1926686 0.3003424
0.7628203125 -0.07081924 0.3581344
0.76396875 0.06766873 0.3653792
0.7651171875 0.2022098 0.3175715
0.766265625 0.3091325 0.2200151
0.7674140625 0.3704019 0.08689311
0.7685625 0.3740473 -0.05989465
0.7697109375 0.3198549 -0.1952452
0.770859375 0.2191356 -0.2966735
0.7720078125 0.08972947 -0.3495017
0.77315625 -0.04534487 -0.3486967
0.7743046875 -0.1657693 -0.2984396
0.775453125 -0.2545412 -0.2108691
0.7766015625 -0.3029933 -0.1018526
0.77775 -0.3078587 0.01217818
0.7788984375 -0.2741667 0.1152905
0.780046875 -0.2091354 0.1964853
0.7811953125 -0.1248557 0.2478324
0.78234375 -0.03161602 0.2666948
0.7834921875 0.05842848 0.253591
0.784640625 0.1363097 0.2124776
0.7857890625 0.1942975 0.1503271
0.7869375 0.2271365 0.07487805
0.7880859375 0.2335242 -0.004843441
0.789234375 0.213631 -0.08027367
0.7903828125 0.1714768 -0.1431968
0.79153125 0.1121449 -0.1880767
0.7926796875 0.04305561 -0.2104329
0.793828125 -0.02792789 -0.2089605
0.7949765625 -0.0930125 -0.1850193
0.796125 -0.1460593 -0.1421732
0.7972734375 -0.181391 -0.08534343
0.798421875 -0.1963605 -0.02138182
0.7995703125 -0.1903014 0.04272604
0.80071875 -0.1643669 0.1005386
0.8018671875 -0.1221269 0.1462617
0.803015625 -0.06836697 0.1765365
0.8041640625 -0.00876663 0.1880526
0.8053125 0.05158786 0.1805844
0.8064609375 0.1062006 0.1548108
0.807609375 0.1501183 0.1134975
0.8087578125 0.1796105 0.06027424
0.80990625 0.1909438 -3.88222E-05
0.8110546875 0.1832584 -0.06201246
0.812203125 0.1565141 -0.1191816
0.8133515625 0.1115478 -0.1659861
0.8145 0.05284142 -0.197019
0.8156484375 -0.01436322 -0.2082433
0.816796875 -0.08429361 -0.1966317
0.8179453125 -0.1482934 -0.1620776
0.81909375 -0.19926 -0.1061924
0.8202421875 -0.2300674 -0.03424872
0.821390625 -0.234779 0.04715757
0.8225390625 -0.210847 0.128458
0.8236875 -0.1589716 0.1992896
0.8248359375 -0.08234409 0.2502802
0.825984375 0.01115806 0.271796
0.8271328125 0.1100429 0.2588998
0.82828125 0.2018162 0.2085564
0.8294296875 0.2723768 0.1258056
0.830578125 0.3087226 0.01834183
0.8317265625 0.3022858 -0.1001751
0.832875 0.2486174 -0.2111459
0.8340234375 0.1535671 -0.2958803
0.835171875 0.02944416 -0.3377274
0.8363203125 -0.1039182 -0.3265183
0.83746875 -0.2231886 -0.2617601
0.8386171875 -0.3063314 -0.1544615
0.839765625 -0.3387445 -0.02367445
0.8409140625 -0.3168013 0.1068674
0.8420625 -0.2463488 0.2146548
0.8432109375 -0.1428682 0.2839293
0.844359375 -0.02590242 0.3067033
0.8455078125 0.08660672 0.2849766
0.84665625 0.1778121 0.2252486
0.8478046875 0.2376041 0.140359
0.848953125 0.261782 0.04447865
0.8501015625 0.2503119 -0.04840051
0.85125 0.2090853 -0.127189
0.8523984375 0.1467267 -0.1841005
0.853546875 0.07184389 -0.2146325
0.8546953125 -0.004349377 -0.2175981
0.85584375 -0.07386912 -0.1963343
0.8569921875 -0.1300436 -0.1551079
0.858140625 -0.1681519 -0.1006625
0.8592890625 -0.1851568 -0.03948557
0.8604375 -0.1827568 0.02184157
0.8615859375 -0.1617772 0.07718998
0.862734375 -0.1258262 0.1219845
0.8638828125 -0.07909721 0.1522937
0.86503125 -0.02639062 0.1665539
0.8661796875 0.02700915 0.1638693
0.867328125 0.07639045 0.1452345
0.8684765625 0.1172546 0.1125752
0.869625 0.1458684 0.06921242
0.8707734375 0.1594366 0.01954746
0.871921875 0.1571067 -0.03194103
0.8730703125 0.1388603 -0.08018304
0.87421875 0.1059845 -0.1202533
0.8753671875 0.06209832 -0.1481873
0.876515625 0.01147458 -0.1608859
0.8776640625 -0.04103615 -0.1564515
0.8788125 -0.08998143 -0.1358683
0.8799609375 -0.1294911 -0.1005301
0.881109375 -0.1558111 -0.05336558
0.8822578125 -0.1657051 -0.000211354
0.88340625 -0.158788 0.05390025
0.8845546875 -0.13399 0.1032446
0.885703125 -0.0947166 0.1429649
0.8868515625 -0.04423217 0.1678759
0.888 0.01285359 0.176137
0.8891484375 0.07034135 0.16497
0.890296875 0.1226399 0.135855
0.8914453125 0.1642532 0.09034333
0.89259375 0.1892364 0.03190847
0.8937421875 0.1947631 -0.03369807
0.894890625 0.1771853 -0.09943835
0.8960390625 0.1376162 -0.1580309
0.8971875 0.07772216 -0.2016313
0.8983359375 0.004081536 -0.2237078
0.899484375 -0.07683486 -0.2178331
0.9006328125 -0.1541726 -0.1822819
0.90178125 -0.2158435 -0.1188446
0.9029296875 -0.2514379 -0.03347887
0.904078125 -0.2531921 0.0628672
0.9052265625 -0.216713 0.1558651
0.906375 -0.1456444 0.2296299
0.9075234375 -0.04902874 0.2713988
0.908671875 0.05766694 0.2719077
0.9098203125 0.1567907 0.2302851
0.91096875 0.2313396 0.1529365
0.9121171875 0.2693131 0.05428363
0.913265625 0.2661353 -0.05030445
0.9144140625 0.2239365 -0.142691
0.9155625 0.1522429 -0.2103903
0.9167109375 0.06339229 -0.2450328
0.917859375 -0.02840629 -0.2446498
0.9190078125 -0.1108766 -0.2123009
0.92015625 -0.1735042 -0.1551567
0.9213046875 -0.2108779 -0.08215895
0.922453125 -0.2203482 -0.004276755
0.9236015625 -0.2026941 0.06990527
0.92475 -0.1627157 0.1315132
0.9258984375 -0.105468 0.174792
0.927046875 -0.03951882 0.1958543
0.9281953125 0.02827001 0.1937182
0.92934375 0.08970708 0.1700023
0.9304921875 0.1388289 0.1278928
0.931640625 0.1706735 0.07307926
0.9327890625 0.1823215 0.01185614
0.9339375 0.1733684 -0.04840188
0.9350859375 0.145591 -0.101784
0.936234375 0.1026134 -0.1424183
0.9373828125 0.04954767 -0.1659368
0.93853125 -0.007468771 -0.1712038
0.9396796875 -0.06245554 -0.1579426
0.940828125 -0.1095689 -0.1280342
0.9419765625 -0.1445589 -0.08489158
0.943125 -0.1637817 -0.03339009
0.9442734375 -0.1653684 0.02134806
0.945421875 -0.1494427 0.07333333
0.9465703125 -0.1183562 0.118226
0.94771875 -0.07434858 0.1509014
0.9488671875 -0.02163661 0.1678871
0.950015625 0.03392464 0.1678309
0.9511640625 0.08790168 0.1495556
0.9523125 0.1340761 0.1142937
0.9534609375 0.1671596 0.06511186
0.954609375 0.1830971 0.006721803
0.9557578125 0.178302 -0.05545621
0.95690625 0.1529004 -0.1147548
0.9580546875 0.1076834 -0.163501
0.959203125 0.04717307 -0.1950288
0.9603515625 -0.02315871 -0.2045766
0.9615 -0.09429654 -0.1884859
0.9626484375 -0.1576462 -0.1477365
0.963796875 -0.2041781 -0.08511724
0.9649453125 -0.2262338 -0.007727636
0.96609375 -0.2191834 0.07443739
0.9672421875 -0.1816996 0.1510062
0.968390625 -0.1170666 0.2099495
0.9695390625 -0.0339192 0.2418714
0.9706875 0.0570926 0.2407888
0.9718359375 0.1426453 0.2056468
0.972984375 0.2091985 0.139942
0.9741328125 0.247256 0.05374282
0.97528125 0.2499362 -0.04078519
0.9764296875 0.2164454 -0.1294784
0.977578125 0.1529658 -0.1985693
0.9787265625 0.06945531 -0.2383275
0.979875 -0.02138584 -0.2438705
0.9810234375 -0.1065202 -0.2160432
0.982171875 -0.1740534 -0.1603865
0.9833203125 -0.2153307 -0.08575646
0.98446875 -0.226895 -0.003900249
0.9856171875 -0.2093501 0.07482685
0.986765625 -0.1659214 0.1398444
0.9879140625 -0.1040696 0.1841838
0.9890625 -0.03320079 0.2039066
