# GHZ S RI R 50.0
0.3 -0.8638566 -0.8281199
0.3011484375 -1.102668 -0.3577888
0.302296875 -1.093308 0.1387101
0.3034453125 -0.8799909 0.5399297
0.30459375 -0.5510336 0.7844743
0.3057421875 -0.1945388 0.8646331
0.306890625 0.1254847 0.8085918
0.3080390625 0.3736394 0.6599715
0.3091875 0.5372785 0.4580759
0.3103359375 0.6180968 0.2363301
0.311484375 0.6240541 0.02095161
0.3126328125 0.5687325 -0.1725949
0.31378125 0.464412 -0.3295464
0.3149296875 0.3247249 -0.4444955
0.316078125 0.1626809 -0.5101852
0.3172265625 -0.007777324 -0.5240941
0.318375 -0.1730252 -0.4868399
0.3195234375 -0.3176462 -0.4005273
0.320671875 -0.4275598 -0.2717888
0.3218203125 -0.4893 -0.1142061
0.32296875 -0.4946162 0.0560306
0.3241171875 -0.4414955 0.2163536
0.325265625 -0.3373683 0.346922
0.3264140625 -0.1971815 0.4320546
0.3275625 -0.04095063 0.4630857
0.3287109375 0.1111062 0.4402921
0.329859375 0.24212 0.3711435
0.3310078125 0.3402999 0.268287
0.33215625 0.3989749 0.1447906
0.3333046875 0.4177505 0.01420966
0.334453125 0.3971883 -0.1130259
0.3356015625 0.3425491 -0.2271564
0.33675 0.2590869 -0.3203817
0.3378984375 0.1522043 -0.3865266
0.339046875 0.02902573 -0.4209435
0.3401953125 -0.1016232 -0.4197628
0.34134375 -0.2319084 -0.3803758
0.3424921875 -0.3512971 -0.301379
0.343640625 -0.447175 -0.1835458
0.3447890625 -0.5064501 -0.03213621
0.3459375 -0.5162803 0.1429174
0.3470859375 -0.4640606 0.3250068
0.348234375 -0.3432012 0.4919965
0.3493828125 -0.1578456 0.6158502
0.35053125 0.0788074 0.6684428
0.3516796875 0.3352874 0.6256679
0.352828125 0.572871 0.478945
0.3539765625 0.7454048 0.2358273
0.355125 0.8105709 -0.07241269
0.3562734375 0.7435712 -0.3974037
0.357421875 0.542142 -0.6790066
0.3585703125 0.2292214 -0.8586016
0.35971875 -0.1407552 -0.8903067
0.3608671875 -0.4930691 -0.7566849
0.362015625 -0.7504487 -0.4856741
0.3631640625 -0.8642167 -0.1367184
0.3643125 -0.820277 0.2130582
0.3654609375 -0.6438663 0.4965567
0.366609375 -0.386621 0.6728457
0.3677578125 -0.1016569 0.7322746
0.36890625 0.1643313 0.6833996
0.3700546875 0.3791076 0.5523984
0.371203125 0.5251706 0.3662931
0.3723515625 0.5939801 0.1537117
0.3735 0.5863324 -0.05861039
0.3746484375 0.5108919 -0.2478609
0.375796875 0.3812777 -0.3927772
0.3769453125 0.2154616 -0.4827384
0.37809375 0.0356662 -0.5083592
0.3792421875 -0.1344467 -0.4721165
0.380390625 -0.2750674 -0.3835511
0.3815390625 -0.3718933 -0.2580069
0.3826875 -0.4182917 -0.1142682
0.3838359375 -0.4138804 0.0266808
0.384984375 -0.367485 0.1520171
0.3861328125 -0.2880393 0.2499071
0.38728125 -0.1886871 0.3142899
0.3884296875 -0.0799501 0.3446654
0.389578125 0.02709457 0.3418486
0.3907265625 0.1243824 0.3099796
0.391875 0.2061743 0.2540393
0.3930234375 0.2677228 0.1790978
0.394171875 0.3056135 0.09177665
0.3953203125 0.318033 -0.002114851
0.39646875 0.3041927 -0.09594222
0.3976171875 0.2642616 -0.1831402
0.398765625 0.1998013 -0.2572431
0.3999140625 0.1146371 -0.3110242
0.4010625 0.0142421 -0.3374815
0.4022109375 -0.09333959 -0.3325278
0.403359375 -0.1977441 -0.2933667
0.4045078125 -0.287588 -0.220257
0.40565625 -0.3508703 -0.1189396
0.4068046875 -0.378097 0.001078403
0.407953125 -0.363792 0.1265144
0.4091015625 -0.3076292 0.2417744
0.41025 -0.2154471 0.333881
0.4113984375 -0.09706858 0.3905986
0.412546875 0.03518875 0.4069708
0.4136953125 0.1651071 0.3800037
0.41484375 0.2817282 0.313831
0.4159921875 0.3737456 0.2129145
0.417140625 0.4329163 0.0863284
0.4182890625 0.4514624 -0.05570117
0.4194375 0.4259074 -0.2023624
0.4205859375 0.3544542 -0.3414519
0.421734375 0.2369155 -0.4586173
0.4228828125 0.07893255 -0.5395144
0.42403125 -0.1123344 -0.5687824
0.4251796875 -0.3193742 -0.5300158
0.426328125 -0.5191078 -0.4120505
0.4274765625 -0.6799904 -0.2110258
0.428625 -0.761351 0.06286485
0.4297734375 -0.7245009 0.3778382
0.430921875 -0.5445252 0.6760543
0.4320703125 -0.2269033 0.8821592
0.43321875 0.1742729 0.9263372
0.4343671875 0.5631827 0.7731889
0.435515625 0.8377829 0.4529838
0.4366640625 0.9286546 0.05025859
0.4378125 0.8296868 -0.3312314
0.4389609375 0.5889368 -0.6075046
0.440109375 0.2818212 -0.7430014
0.4412578125 -0.02426825 -0.7412837
0.44240625 -0.2772831 -0.6324725
0.4435546875 -0.453017 -0.4564669
0.444703125 -0.5454712 -0.2505864
0.4458515625 -0.5600331 -0.04699134
0.447 -0.5113273 0.1340943
0.4481484375 -0.4156072 0.2782506
0.449296875 -0.288868 0.3785961
0.4504453125 -0.1462492 0.4313936
0.45159375 -0.001784188 0.4384209
0.4527421875 0.1324933 0.4034516
0.453890625 0.2461558 0.331682
0.4550390625 0.3307756 0.2318393
0.4561875 0.3800643 0.1125741
0.4573359375 0.3896307 -0.01419082
0.458484375 0.3592583 -0.1368269
0.4596328125 0.2919116 -0.2421088
0.46078125 0.1952152 -0.3200201
0.4619296875 0.07931242 -0.3615041
0.463078125 -0.0422761 -0.3628259
0.4642265625 -0.1558565 -0.3248281
0.465375 -0.2488783 -0.2527975
0.4665234375 -0.3124198 -0.1559064
0.467671875 -0.3409765 -0.04671817
0.4688203125 -0.3332366 0.06285237
0.46996875 -0.2924964 0.1627901
0.4711171875 -0.2243095 0.2436105
0.472265625 -0.1366413 0.2993983
0.4734140625 -0.03712137 0.3255972
0.4745625 0.06508697 0.3217048
0.4757109375 0.1615357 0.2875253
0.476859375 0.2448159 0.2262571
0.4780078125 0.3074359 0.141993
0.47915625 0.3433515 0.04052441
0.4803046875 0.3468874 -0.07021595
0.481453125 0.3164108 -0.1812283
0.4826015625 0.2505432 -0.2817144
0.48375 0.151516 -0.3600051
0.4848984375 0.02682721 -0.4058937
0.486046875 -0.114272 -0.4087565
0.4871953125 -0.2561274 -0.3613516
0.48834375 -0.3802861 -0.2632292
0.4894921875 -0.4682297 -0.1200711
0.490640625 -0.5018643 0.05467154
0.4917890625 -0.4689676 0.2398029
0.4929375 -0.3655216 0.4097528
0.4940859375 -0.1975536 0.5358304
0.495234375 0.0153712 0.5923781
0.4963828125 0.244575 0.5618194
0.49753125 0.4520872 0.4402217
0.4986796875 0.6017447 0.2394555
0.499828125 0.6601798 -0.01246321
0.5009765625 0.6108838 -0.2722588
0.502125 0.4577658 -0.4919598
0.5032734375 0.2287592 -0.6303364
0.504421875 -0.03517146 -0.6631493
0.5055703125 -0.2837663 -0.5879893
0.50671875 -0.4762888 -0.4244914
0.5078671875 -0.5856454 -0.2069853
0.509015625 -0.602048 0.02522376
0.5101640625 -0.5328214 0.2374969
0.5113125 -0.396471 0.4017514
0.5124609375 -0.2178348 0.5000758
0.513609375 -0.02450107 0.5266856
0.5147578125 0.1581179 0.4848319
0.51590625 0.3073764 0.3853652
0.5170546875 0.4085709 0.2462875
0.518203125 0.4524002 0.08708438
0.5193515625 0.4400454 -0.07056776
0.5205 0.3773517 -0.2083296
0.5216484375 0.27592 -0.3123078
0.522796875 0.1517893 -0.3738618
0.5239453125 0.02005713 -0.3903623
0.52509375 -0.1048604 -0.3651348
0.5262421875 -0.2112921 -0.3036153
0.527390625 -0.2898367 -0.2154837
0.5285390625 -0.3361874 -0.1107487
0.5296875 -0.3481943 0.0007154379
0.5308359375 -0.3262853 0.1083005
0.531984375 -0.2742069 0.2023987
0.5331328125 -0.1968826 0.276523
0.53428125 -0.100789 0.3243754
0.5354296875 0.005309482 0.3406276
0.536578125 0.1124848 0.3245
0.5377265625 0.2111478 0.2755188
0.538875 0.2915797 0.1972765
0.5400234375 0.3448318 0.09565099
0.541171875 0.3638376 -0.02041734
0.5423203125 0.3441981 -0.1398189
0.54346875 0.2859842 -0.2502169
0.5446171875 0.1922925 -0.3374629
0.545765625 0.07158387 -0.3910181
0.5469140625 -0.06412453 -0.4019102
0.5480625 -0.1991217 -0.3663262
0.5492109375 -0.3180953 -0.2848486
0.550359375 -0.4056882 -0.1648097
0.5515078125 -0.4487624 -0.01796173
0.55265625 -0.4397164 0.1400099
0.5538046875 -0.3756177 0.2908105
0.554953125 -0.2593487 0.4152633
0.5561015625 -0.1005219 0.494664
0.55725 0.0837197 0.5142409
0.5583984375 0.27061 0.4640878
0.559546875 0.433752 0.3437791
0.5606953125 0.5446963 0.1640404
0.56184375 0.5802487 -0.05306448
0.5629921875 0.5269216 -0.2738939
0.564140625 0.3861526 -0.4608382
0.5652890625 0.1797762 -0.5772778
0.5664375 -0.05770729 -0.600403
0.5675859375 -0.282703 -0.525732
0.568734375 -0.4551263 -0.3695841
0.5698828125 -0.5476371 -0.1629368
0.57103125 -0.550813 0.055112
0.5721796875 -0.4717426 0.2478978
0.573328125 -0.333114 0.3879938
0.5744765625 -0.161846 0.4611559
0.575625 0.01400282 0.4658617
0.5767734375 0.1686372 0.4103998
0.577921875 0.2858275 0.31073
0.5790703125 0.3571471 0.1853618
0.58021875 0.3796019 0.05193945
0.5813671875 0.3582327 -0.07321753
0.582515625 0.301309 -0.1781117
0.5836640625 0.2183423 -0.2549805
0.5848125 0.1207693 -0.299975
0.5859609375 0.01849091 -0.3119516
0.587109375 -0.07803074 -0.2929412
0.5882578125 -0.1613838 -0.2468362
0.58940625 -0.2249626 -0.179836
0.5905546875 -0.2645714 -0.09865562
0.591703125 -0.2775527 -0.01095819
0.5928515625 -0.2632717 0.07520957
0.594 -0.2241218 0.1522718
0.5951484375 -0.1633041 0.2130749
0.596296875 -0.08712403 0.2518075
0.5974453125 -0.002832635 0.2648951
0.59859375 0.08071503 0.2509733
0.5997421875 0.1555138 0.2114796
0.600890625 0.2138596 0.1504081
0.6020390625 0.2496304 0.07417825
0.6031875 0.2595736 -0.008877168
0.6043359375 0.2428935 -0.09052277
0.605484375 0.2009595 -0.1623222
0.6066328125 0.1397828 -0.2174962
0.60778125 0.06394409 -0.2507419
0.6089296875 -0.01776478 -0.2590638
0.610078125 -0.09819264 -0.2418897
0.6112265625 -0.1705015 -0.2011831
0.612375 -0.2279276 -0.1396454
0.6135234375 -0.2642538 -0.06209248
0.614671875 -0.2756201 0.0241973
0.6158203125 -0.2597834 0.1121998
0.61696875 -0.216911 0.1938178
0.6181171875 -0.1481993 0.2607679
0.619265625 -0.058135 0.3048099
0.6204140625 0.0463464 0.3190629
0.6215625 0.1544987 0.2977832
0.6227109375 0.255737 0.2390909
0.623859375 0.3367376 0.1441252
0.6250078125 0.3823352 0.0209214
0.62615625 0.3839445 -0.1193012
0.6273046875 0.3313664 -0.2597862
0.628453125 0.2252271 -0.3789282
0.6296015625 0.07312654 -0.4550933
0.63075 -0.1062719 -0.4692883
0.6318984375 -0.2874078 -0.4091798
0.633046875 -0.437864 -0.2759157
0.6341953125 -0.5250535 -0.08466047
0.63534375 -0.5264437 0.1329786
0.6364921875 -0.4341791 0.3356476
0.637640625 -0.2632789 0.4823727
0.6387890625 -0.04756661 0.5424029
0.6399375 0.1686098 0.5076467
0.6410859375 0.3449358 0.3895236
0.642234375 0.4534691 0.2181661
0.6433828125 0.4834902 0.02786098
0.64453125 0.4399121 -0.1483915
0.6456796875 0.3398091 -0.2872025
0.646828125 0.2035395 -0.3742489
0.6479765625 0.05487866 -0.4045193
0.649125 -0.08737445 -0.3820294
0.6502734375 -0.2061179 -0.3147306
0.651421875 -0.2906457 -0.2163977
0.6525703125 -0.3343682 -0.1001794
0.65371875 -0.3367497 0.01879925
0.6548671875 -0.3007609 0.1268651
0.656015625 -0.2333153 0.2135554
0.6571640625 -0.1444093 0.2706085
0.6583125 -0.04525727 0.2945681
0.6594609375 0.05260109 0.28488
0.660609375 0.1394839 0.2453034
0.6617578125 0.2064153 0.182236
0.66290625 0.2486864 0.1033598
0.6640546875 0.2633105 0.01771676
0.665203125 0.2506011 -0.06621202
0.6663515625 0.2130152 -0.1400423
0.6675 0.1558611 -0.1977186
0.6686484375 0.0846272 -0.2344598
0.669796875 0.006309408 -0.2477418
0.6709453125 -0.07180065 -0.2364148
0.67209375 -0.1422463 -0.20203
0.6732421875 -0.1993907 -0.1474742
0.674390625 -0.2369975 -0.07709394
0.6755390625 -0.251474 0.001883256
0.6766875 -0.2402178 0.08271368
0.6778359375 -0.2040109 0.1576398
0.678984375 -0.14466 0.217899
0.6801328125 -0.06783376 0.2575159
0.68128125 0.02019853 0.2701914
0.6824296875 0.1085209 0.2536911
0.683578125 0.1898158 0.2081464
0.6847265625 0.252868 0.1372086
0.685875 0.2897424 0.04680621
0.6870234375 0.2956671 -0.05293206
0.688171875 0.2674302 -0.1518604
0.6893203125 0.2068258 -0.237723
0.69046875 0.1182602 -0.3008772
0.6916171875 0.0107237 -0.332018
0.692765625 -0.1051073 -0.3252362
0.6939140625 -0.2161344 -0.2785757
0.6950625 -0.3081037 -0.1936429
0.6962109375 -0.3677109 -0.07790012
0.697359375 -0.3845015 0.05778917
0.6985078125 -0.3514197 0.1963614
0.69965625 -0.2665696 0.3200806
0.7008046875 -0.1369836 0.4076757
0.701953125 0.02339024 0.4426224
0.7031015625 0.1915156 0.4134401
0.70425 0.3405331 0.3174455
0.7053984375 0.4426708 0.1674264
0.706546875 0.4777839 -0.01462083
0.7076953125 0.4371908 -0.1970812
0.70884375 0.3268969 -0.3482128
0.7099921875 0.1675581 -0.4421472
0.711140625 -0.01222173 -0.4648014
0.7122890625 -0.1820324 -0.4165596
0.7134375 -0.3150024 -0.3107878
0.7145859375 -0.3950736 -0.1680314
0.715734375 -0.4149062 -0.01303175
0.7168828125 -0.3788698 0.1307625
0.71803125 -0.2982919 0.2470719
0.7191796875 -0.1867034 0.323676
0.720328125 -0.0623928 0.3552996
0.7214765625 0.05991928 0.3441088
0.722625 0.1663736 0.2946008
0.7237734375 0.247422 0.2162133
0.724921875 0.2968585 0.1190865
0.7260703125 0.3123547 0.01498742
0.72721875 0.2939598 -0.08551995
0.7283671875 0.2456234 -0.1730886
0.729515625 0.1735165 -0.2396734
0.7306640625 0.08507543 -0.2796645
0.7318125 -0.009655998 -0.2887493
0.7329609375 -0.1014895 -0.2675977
0.734109375 -0.1821164 -0.2184115
0.7352578125 -0.2418197 -0.146785
0.73640625 -0.2752556 -0.06009078
0.7375546875 -0.2788098 0.03272207
0.738703125 -0.2521767 0.1218887
0.7398515625 -0.198591 0.1971458
0.741 -0.1233087 0.2512945
0.7421484375 -0.03438177 0.2778221
0.743296875 0.05752401 0.274186
0.7444453125 0.1446726 0.2414201
0.74559375 0.2164699 0.1819402
0.7467421875 0.2659305 0.1021239
0.747890625 0.2874149 0.009875443
0.7490390625 0.2666897 -0.08230551
0.7501875 0.2279006 -0.1677954
0.7513359375 0.1625057 -0.2375031
0.752484375 0.07591834 -0.2830818
0.7536328125 -0.02351568 -0.2980246
0.75478125 -0.1254769 -0.2796876
0.7559296875 -0.2183712 -0.22548
0.757078125 -0.2899924 -0.1402219
0.7582265625 -0.3291774 -0.03172571
0.759375 -0.3277883 0.08866696
0.7605234375 -0.2815566 0.2052066
0.761671875 -0.1928708 0.2995598
0.7628203125 -0.0710993 0.3571225
0.76396875 0.06749 0.364453
0.7651171875 0.2016491 0.3174471
0.766265625 0.3084135 0.2196936
0.7674140625 0.3692473 0.08672464
0.7685625 0.3737074 -0.05979875
0.7697109375 0.3199344 -0.1948332
0.770859375 0.2191252 -0.2961589
0.7720078125 0.09007097 -0.3493192
0.77315625 -0.04531379 -0.3485041
0.7743046875 -0.1652503 -0.2983303
0.775453125 -0.2544013 -0.2106862
0.7766015625 -0.3022113 -0.1017728
0.77775 -0.3073021 0.01223252
0.7788984375 -0.2736475 0.1149471
0.780046875 -0.209087 0.1958323
0.7811953125 -0.1243966 0.247212
0.78234375 -0.03206301 0.2661021
0.7834921875 0.05840354 0.2529663
0.784640625 0.1359997 0.2123178
0.7857890625 0.1942342 0.1499341
0.7869375 0.2268334 0.07487887
0.7880859375 0.2331055 -0.004718047
0.789234375 0.2134161 -0.08005778
0.7903828125 0.1711143 -0.1429917
0.79153125 0.1121201 -0.1877669
0.7926796875 0.04322333 -0.2099719
0.793828125 -0.02797258 -0.2083754
0.7949765625 -0.09299741 -0.1845465
0.796125 -0.1456966 -0.1416239
0.7972734375 -0.1809495 -0.0852106
0.798421875 -0.1959306 -0.02139147
0.7995703125 -0.1898567 0.04251847
0.80071875 -0.1639839 0.1002266
0.8018671875 -0.1221603 0.1460247
0.803015625 -0.06823786 0.1757295
0.8041640625 -0.008891677 0.1877246
0.8053125 0.05122501 0.1802129
0.8064609375 0.1059013 0.1546277
0.807609375 0.1497492 0.1134095
0.8087578125 0.1789654 0.06014702
0.80990625 0.1909054 7.881237E-05
0.8110546875 0.1829291 -0.06168555
0.812203125 0.1558767 -0.1186513
0.8133515625 0.1112107 -0.1654647
0.8145 0.05264053 -0.1968929
0.8156484375 -0.01446268 -0.2076074
0.816796875 -0.08400761 -0.1964565
0.8179453125 -0.1482441 -0.1619954
0.81909375 -0.1989857 -0.1059025
0.8202421875 -0.2294005 -0.03408193
0.821390625 -0.2346821 0.04703643
0.8225390625 -0.21068 0.1278986
0.8236875 -0.1587711 0.1987524
0.8248359375 -0.08237185 0.2498423
0.825984375 0.01092799 0.2713924
0.8271328125 0.1093143 0.258418
0.82828125 0.2016424 0.2088451
0.8294296875 0.2713977 0.1256603
0.830578125 0.3083332 0.01838113
0.8317265625 0.3018114 -0.09972174
0.832875 0.2482717 -0.2107439
0.8340234375 0.1533789 -0.2953824
0.835171875 0.02925705 -0.3369866
0.8363203125 -0.1040447 -0.3258507
0.83746875 -0.2228107 -0.2615767
0.8386171875 -0.305956 -0.1542786
0.839765625 -0.3385231 -0.02366043
0.8409140625 -0.3160181 0.106421
0.8420625 -0.2461199 0.2141283
0.8432109375 -0.1427454 0.2833188
0.844359375 -0.02595252 0.3065356
0.8455078125 0.08630615 0.2845885
0.84665625 0.1776176 0.224981
0.8478046875 0.2374117 0.1403261
0.848953125 0.261233 0.04468653
0.8501015625 0.2500799 -0.0483572
0.85125 0.2087424 -0.1269222
0.8523984375 0.1462177 -0.1836427
0.853546875 0.07184632 -0.2142912
0.8546953125 -0.00428782 -0.2175115
0.85584375 -0.07395209 -0.1960271
0.8569921875 -0.1297901 -0.1547798
0.858140625 -0.1677427 -0.1004525
0.8592890625 -0.1851296 -0.03913316
0.8604375 -0.1824574 0.02189801
0.8615859375 -0.161765 0.07715116
0.862734375 -0.1257267 0.1215645
0.8638828125 -0.07896186 0.1522451
0.86503125 -0.02644211 0.1660733
0.8661796875 0.02715997 0.1634287
0.867328125 0.07635535 0.144885
0.8684765625 0.116963 0.1124723
0.869625 0.1455688 0.06907985
0.8707734375 0.1592121 0.01938328
0.871921875 0.1568188 -0.03193977
0.8730703125 0.1384215 -0.07997549
0.87421875 0.1057304 -0.1201286
0.8753671875 0.06208721 -0.1481657
0.876515625 0.01138787 -0.1604821
0.8776640625 -0.04097217 -0.1561388
0.8788125 -0.08939596 -0.135556
0.8799609375 -0.1292208 -0.1001376
0.881109375 -0.1556296 -0.0532585
0.8822578125 -0.1662448 -0.0005390741
0.88340625 -0.158495 0.05380484
0.8845546875 -0.1341461 0.1029688
0.885703125 -0.09465968 0.1423277
0.8868515625 -0.04412697 0.1674787
0.888 0.01262075 0.1756259
0.8891484375 0.07035048 0.1649691
0.890296875 0.1226804 0.1357487
0.8914453125 0.1636528 0.08999263
0.89259375 0.189114 0.03199267
0.8937421875 0.1939633 -0.0331781
0.894890625 0.1767186 -0.09898533
0.8960390625 0.1373014 -0.157706
0.8971875 0.07788959 -0.2016505
0.8983359375 0.003545657 -0.2231259
0.899484375 -0.07673017 -0.2171762
0.9006328125 -0.1533506 -0.1820341
0.90178125 -0.2154416 -0.1190848
0.9029296875 -0.2514839 -0.03349357
0.904078125 -0.2527162 0.06248109
0.9052265625 -0.2166196 0.1552341
0.906375 -0.1454281 0.2293767
0.9075234375 -0.04917834 0.2709207
0.908671875 0.05738257 0.2714228
0.9098203125 0.1562199 0.2298138
0.91096875 0.2306928 0.1531114
0.9121171875 0.2690629 0.05409955
0.913265625 0.2656721 -0.04989734
0.9144140625 0.2237448 -0.1422932
0.9155625 0.1520384 -0.2100744
0.9167109375 0.06352562 -0.2447361
0.917859375 -0.02844992 -0.2444932
0.9190078125 -0.1104387 -0.212236
0.92015625 -0.1731718 -0.1549595
0.9213046875 -0.2106614 -0.08207017
0.922453125 -0.2199705 -0.003948664
0.9236015625 -0.202471 0.06975817
0.92475 -0.1624143 0.1314819
0.9258984375 -0.1056373 0.1744948
0.927046875 -0.03961486 0.1955561
0.9281953125 0.02789665 0.1934341
0.92934375 0.08943188 0.1697636
0.9304921875 0.1383578 0.1277937
0.931640625 0.1701626 0.07308155
0.9327890625 0.1818398 0.01205275
0.9339375 0.1731371 -0.04840568
0.9350859375 0.1453383 -0.1013401
0.936234375 0.1027708 -0.1417789
0.9373828125 0.049622 -0.1656637
0.93853125 -0.007467029 -0.1711667
0.9396796875 -0.06229293 -0.1575769
0.940828125 -0.1096255 -0.1277403
0.9419765625 -0.1440544 -0.08484732
0.943125 -0.1632446 -0.03348679
0.9442734375 -0.164904 0.02084528
0.945421875 -0.14934 0.07342397
0.9465703125 -0.1183215 0.1179201
0.94771875 -0.07422829 0.1505471
0.9488671875 -0.02172588 0.1677588
0.950015625 0.0341714 0.1673861
0.9511640625 0.08792374 0.1490571
0.9523125 0.1337732 0.1142288
0.9534609375 0.1668118 0.06540264
0.954609375 0.182292 0.006457243
0.9557578125 0.1785492 -0.05536783
0.95690625 0.1526347 -0.1143107
0.9580546875 0.1079019 -0.1629908
0.959203125 0.04725458 -0.1947269
0.9603515625 -0.02277274 -0.2041772
0.9615 -0.09398127 -0.1883678
0.9626484375 -0.1575041 -0.1475739
0.963796875 -0.203789 -0.08525435
0.9649453125 -0.2261897 -0.008048972
0.96609375 -0.218658 0.07407406
0.9672421875 -0.1813664 0.1504341
0.968390625 -0.1170654 0.2094493
0.9695390625 -0.0339321 0.2417089
0.9706875 0.05683896 0.2405909
0.9718359375 0.1426739 0.2053672
0.972984375 0.2093894 0.139848
0.9741328125 0.2468801 0.05370243
0.97528125 0.2494626 -0.04087774
0.9764296875 0.2164483 -0.1288872
0.977578125 0.1528337 -0.1979311
0.9787265625 0.06966705 -0.2378071
0.979875 -0.02164336 -0.2433251
0.9810234375 -0.1064178 -0.2157094
0.982171875 -0.1737489 -0.1601956
0.9833203125 -0.215174 -0.08592931
0.98446875 -0.2266724 -0.003988212
0.9856171875 -0.2085576 0.07460343
0.986765625 -0.1653855 0.1397573
0.9879140625 -0.1040687 0.184017
0.9890625 -0.03316862 0.2033573
