# GHZ S RI R 50.0
0.3 0.6128579 -0.1164069
0.3011484375 0.5441318 -0.3236742
0.302296875 0.4084001 -0.4950057
0.3034453125 0.2222523 -0.6133982
0.30459375 0.004708488 -0.6647197
0.3057421875 -0.2215594 -0.6434499
0.306890625 -0.4350902 -0.5480954
0.3080390625 -0.6143692 -0.3827388
0.3091875 -0.7362761 -0.1575344
0.3103359375 -0.7795669 0.1120393
0.311484375 -0.7235991 0.3992201
0.3126328125 -0.5563225 0.6687157
0.31378125 -0.2797749 0.8701198
0.3149296875 0.08096854 0.9537027
0.316078125 0.4705686 0.8757386
0.3172265625 0.8067091 0.62906
0.318375 1.00955 0.245711
0.3195234375 1.022447 -0.1963856
0.320671875 0.8385656 -0.5942286
0.3218203125 0.5076965 -0.8644133
0.32296875 0.1078192 -0.958958
0.3241171875 -0.2719223 -0.8789341
0.325265625 -0.5623041 -0.6633164
0.3264140625 -0.7258927 -0.3727899
0.3275625 -0.7584334 -0.06917411
0.3287109375 -0.6813816 0.1963542
0.329859375 -0.5284052 0.3949611
0.3310078125 -0.3354912 0.5143663
0.33215625 -0.1343668 0.5571365
0.3333046875 0.05080466 0.5350131
0.334453125 0.2058297 0.4627442
0.3356015625 0.3231045 0.3558458
0.33675 0.3991292 0.2277975
0.3378984375 0.432384 0.09155642
0.339046875 0.4259509 -0.04227557
0.3401953125 0.384154 -0.1655694
0.34134375 0.3106634 -0.2692446
0.3424921875 0.2118214 -0.3472464
0.343640625 0.09478772 -0.3939738
0.3447890625 -0.03233949 -0.4040104
0.3459375 -0.1582044 -0.3746912
0.3470859375 -0.271242 -0.3070041
0.348234375 -0.3584206 -0.2043762
0.3493828125 -0.4087388 -0.07619546
0.35053125 -0.4133227 0.06364682
0.3516796875 -0.3695592 0.1987001
0.352828125 -0.2822737 0.3107765
0.3539765625 -0.1626196 0.3854807
0.355125 -0.02536119 0.4157111
0.3562734375 0.1120487 0.3987706
0.357421875 0.2343321 0.3392064
0.3585703125 0.3302071 0.2455911
0.35971875 0.3915198 0.127052
0.3608671875 0.4136836 -0.003094855
0.362015625 0.3962015 -0.1339582
0.3631640625 0.3400797 -0.2555287
0.3643125 0.2489795 -0.3576306
0.3654609375 0.1282796 -0.4309441
0.366609375 -0.01660487 -0.4674465
0.3677578125 -0.1735133 -0.4582452
0.36890625 -0.3308407 -0.3971729
0.3700546875 -0.4724797 -0.2801048
0.371203125 -0.5774286 -0.1078205
0.3723515625 -0.6205562 0.1103177
0.3735 -0.5774029 0.3552106
0.3746484375 -0.4311804 0.5886958
0.375796875 -0.1764627 0.7629557
0.3769453125 0.1603269 0.819268
0.37809375 0.5163166 0.7133249
0.3792421875 0.8030137 0.4357956
0.380390625 0.9300475 0.03876224
0.3815390625 0.8485507 -0.375403
0.3826875 0.582714 -0.6928948
0.3838359375 0.2171614 -0.8394648
0.384984375 -0.1470526 -0.8048899
0.3861328125 -0.4295801 -0.6306408
0.38728125 -0.5960236 -0.3826374
0.3884296875 -0.6447801 -0.1207613
0.389578125 -0.5968646 0.1131809
0.3907265625 -0.4823436 0.2944088
0.391875 -0.3289382 0.4132104
0.3930234375 -0.1614482 0.4700527
0.394171875 0.002432261 0.4704297
0.3953203125 0.1474936 0.423439
0.39646875 0.2647756 0.3394152
0.3976171875 0.3474973 0.228807
0.398765625 0.3912476 0.1027842
0.3999140625 0.3943413 -0.02776518
0.4010625 0.3577633 -0.1503585
0.4022109375 0.2848647 -0.2542382
0.403359375 0.1841369 -0.3286747
0.4045078125 0.06477179 -0.3662177
0.40565625 -0.05875074 -0.361819
0.4068046875 -0.1730998 -0.3174075
0.407953125 -0.263749 -0.2382755
0.4091015625 -0.3219043 -0.1354646
0.41025 -0.3412436 -0.02213255
0.4113984375 -0.3229951 0.0878053
0.412546875 -0.2718776 0.1834435
0.4136953125 -0.1957136 0.25489
0.41484375 -0.1042997 0.2978532
0.4159921875 -0.007109149 0.3106918
0.417140625 0.08729542 0.2948104
0.4182890625 0.1716271 0.2528646
0.4194375 0.2392962 0.1888218
0.4205859375 0.2863623 0.1090441
0.421734375 0.30855 0.01865877
0.4228828125 0.3043102 -0.07651168
0.42403125 0.2727346 -0.1681824
0.4251796875 0.2140438 -0.2492805
0.426328125 0.1316819 -0.3127971
0.4274765625 0.02902699 -0.3501829
0.428625 -0.08565834 -0.3553248
0.4297734375 -0.2034959 -0.322943
0.430921875 -0.3102906 -0.2506321
0.4320703125 -0.3933081 -0.1404949
0.43321875 -0.4373454 -0.0008295926
0.4343671875 -0.4316921 0.1528884
0.435515625 -0.3699628 0.304534
0.4366640625 -0.2530175 0.4325671
0.4378125 -0.0909777 0.5153505
0.4389609375 0.1001619 0.537677
0.440109375 0.295566 0.4888762
0.4412578125 0.470266 0.3670622
0.44240625 0.5970178 0.1809524
0.4435546875 0.6506391 -0.05138344
0.444703125 0.6123602 -0.3018528
0.4458515625 0.4732443 -0.5333403
0.447 0.2413274 -0.7020532
0.4481484375 -0.05518233 -0.7669655
0.449296875 -0.3654278 -0.6998682
0.4504453125 -0.6268413 -0.501262
0.45159375 -0.7799944 -0.2045914
0.4527421875 -0.7903223 0.1277248
0.453890625 -0.660681 0.4271624
0.4550390625 -0.4254615 0.6367339
0.4561875 -0.1379395 0.7276427
0.4573359375 0.1468443 0.6973411
0.458484375 0.3838286 0.5655333
0.4596328125 0.5417435 0.3646659
0.46078125 0.6091473 0.1334623
0.4619296875 0.5871968 -0.09193384
0.463078125 0.490766 -0.2818982
0.4642265625 0.3423223 -0.4158044
0.465375 0.1672889 -0.4840586
0.4665234375 -0.008788643 -0.4866316
0.467671875 -0.1640797 -0.4326766
0.4688203125 -0.2842784 -0.3373884
0.46996875 -0.3622398 -0.2153063
0.4711171875 -0.3950881 -0.08302705
0.472265625 -0.3851494 0.04503424
0.4734140625 -0.339237 0.1582196
0.4745625 -0.2644323 0.2485398
0.4757109375 -0.1699642 0.3105527
0.476859375 -0.06426673 0.3402931
0.4780078125 0.04317499 0.3384622
0.47915625 0.1436018 0.3053016
0.4803046875 0.2293924 0.2447426
0.481453125 0.2936085 0.1613811
0.4826015625 0.3300808 0.06183832
0.48375 0.3344815 -0.04516121
0.4848984375 0.3057944 -0.149864
0.486046875 0.2443641 -0.2422071
0.4871953125 0.155511 -0.3114817
0.48834375 0.04646996 -0.349844
0.4894921875 -0.0713861 -0.3506775
0.490640625 -0.1852012 -0.3113624
0.4917890625 -0.2810477 -0.2363303
0.4929375 -0.3483078 -0.132143
0.4940859375 -0.3773174 -0.008947037
0.495234375 -0.3643485 0.1181072
0.4963828125 -0.309409 0.2359782
0.49753125 -0.2172726 0.3306906
0.4986796875 -0.09760946 0.3912033
0.499828125 0.0391048 0.4110003
0.5009765625 0.1780572 0.384008
0.502125 0.3059144 0.3104453
0.5032734375 0.406288 0.1941972
0.504421875 0.4641803 0.04485271
0.5055703125 0.4687046 -0.1237166
0.50671875 0.4109012 -0.2931732
0.5078671875 0.2890387 -0.4389883
0.509015625 0.1123638 -0.5359148
0.5101640625 -0.1004442 -0.5606924
0.5113125 -0.3179497 -0.496932
0.5124609375 -0.5003221 -0.3442205
0.513609375 -0.6090477 -0.1217593
0.5147578125 -0.6156358 0.1336043
0.51590625 -0.5120289 0.3706595
0.5170546875 -0.3177964 0.5411459
0.518203125 -0.07370255 0.6129565
0.5193515625 0.1703229 0.5765263
0.5205 0.3697111 0.4491538
0.5216484375 0.4932921 0.2615277
0.522796875 0.5315117 0.05381211
0.5239453125 0.4899063 -0.1399386
0.52509375 0.3868429 -0.2934897
0.5262421875 0.245128 -0.3925742
0.527390625 0.08790886 -0.4323873
0.5285390625 -0.06255274 -0.4172335
0.5296875 -0.1917014 -0.3561887
0.5308359375 -0.2885909 -0.2612854
0.531984375 -0.3466244 -0.1462605
0.5331328125 -0.3639957 -0.02380603
0.53428125 -0.3430127 0.09378843
0.5354296875 -0.2875497 0.1953686
0.536578125 -0.2047265 0.2729854
0.5377265625 -0.1042777 0.3200379
0.538875 0.004820679 0.3324969
0.5400234375 0.1114961 0.3103558
0.541171875 0.2051215 0.255652
0.5423203125 0.2760348 0.1737386
0.54346875 0.3162819 0.07389968
0.5446171875 0.3227691 -0.03371371
0.545765625 0.2932816 -0.1376599
0.5469140625 0.2318211 -0.2260424
0.5480625 0.1453938 -0.2893252
0.5492109375 0.04272404 -0.3213688
0.550359375 -0.06441403 -0.3184614
0.5515078125 -0.1651664 -0.2813055
0.55265625 -0.2487656 -0.2135254
0.5538046875 -0.3076442 -0.1226341
0.554953125 -0.334289 -0.01693627
0.5561015625 -0.3272447 0.0936091
0.55725 -0.2839769 0.1983911
0.5583984375 -0.2086152 0.2855555
0.559546875 -0.1069328 0.3476237
0.5606953125 0.01391978 0.3740175
0.56184375 0.1422541 0.3602541
0.5629921875 0.2647908 0.3024091
0.564140625 0.3657331 0.2015514
0.5652890625 0.4302627 0.06502824
0.5664375 0.4444166 -0.09482954
0.5675859375 0.3968711 -0.2582599
0.568734375 0.2872419 -0.4017359
0.5698828125 0.121926 -0.4988811
0.57103125 -0.07905507 -0.5264044
0.5721796875 -0.2826926 -0.4691588
0.573328125 -0.4535377 -0.3293619
0.5744765625 -0.5544364 -0.1263813
0.575625 -0.5616963 0.1041496
0.5767734375 -0.4724585 0.3166908
0.577921875 -0.3046899 0.4707225
0.5790703125 -0.09375932 0.5399351
0.58021875 0.1183728 0.5182667
0.5813671875 0.2964044 0.4179638
0.582515625 0.4131522 0.265312
0.5836640625 0.4611707 0.09083593
0.5848125 0.4419099 -0.07798576
0.5859609375 0.368648 -0.2193878
0.587109375 0.2570601 -0.3191415
0.5882578125 0.125833 -0.3716279
0.58940625 -0.007676255 -0.3765565
0.5905546875 -0.1289471 -0.3384295
0.591703125 -0.2262924 -0.2666264
0.5928515625 -0.2919071 -0.170501
0.594 -0.3217191 -0.06275599
0.5951484375 -0.3152921 0.04584358
0.596296875 -0.2750443 0.1426045
0.5974453125 -0.2076073 0.219266
0.59859375 -0.1210889 0.2688688
0.5997421875 -0.0264478 0.2866628
0.600890625 0.06670394 0.2731013
0.6020390625 0.1487536 0.2312524
0.6031875 0.2107841 0.1671541
0.6043359375 0.2478038 0.08867009
0.605484375 0.2578849 0.00453877
0.6066328125 0.2412683 -0.07642011
0.60778125 0.201135 -0.1459756
0.6089296875 0.1427867 -0.1987969
0.610078125 0.07237317 -0.2306163
0.6112265625 -0.003123247 -0.2391032
0.612375 -0.07655484 -0.2249002
0.6135234375 -0.1417188 -0.1892416
0.614671875 -0.1932999 -0.1359822
0.6158203125 -0.2266346 -0.06934293
0.61696875 -0.2385404 0.004334557
0.6181171875 -0.2274436 0.07929135
0.619265625 -0.1933749 0.1484753
0.6204140625 -0.1395564 0.2051811
0.6215625 -0.06834415 0.2431487
0.6227109375 0.0131762 0.2572824
0.623859375 0.09749416 0.2457548
0.6250078125 0.1756814 0.204749
0.62615625 0.2388739 0.1396366
0.6273046875 0.2789441 0.05471415
0.628453125 0.2887662 -0.0420838
0.6296015625 0.2652279 -0.1397473
0.63075 0.2088132 -0.2273248
0.6318984375 0.123184 -0.2926481
0.633046875 0.01720253 -0.3266228
0.6341953125 -0.09902045 -0.3222261
0.63534375 -0.2104584 -0.2777326
0.6364921875 -0.3031599 -0.1941318
0.637640625 -0.3646981 -0.07776043
0.6387890625 -0.382229 0.05812662
0.6399375 -0.3483087 0.198902
0.6410859375 -0.2616811 0.3235672
0.642234375 -0.1277635 0.4120511
0.6433828125 0.0380368 0.4445334
0.64453125 0.2109318 0.4085478
0.6456796875 0.3614134 0.3023023
0.646828125 0.4594239 0.1388698
0.6479765625 0.4814818 -0.05461458
0.649125 0.4207623 -0.2416117
0.6502734375 0.2881956 -0.3857439
0.651421875 0.1104788 -0.4607355
0.6525703125 -0.07691435 -0.4565315
0.65371875 -0.2403982 -0.3798078
0.6548671875 -0.3548513 -0.2501056
0.656015625 -0.4071937 -0.09378856
0.6571640625 -0.396143 0.06113046
0.6583125 -0.3315007 0.1930619
0.6594609375 -0.229495 0.2870289
0.660609375 -0.1080681 0.3347046
0.6617578125 0.01519774 0.3362933
0.66290625 0.1251129 0.2976486
0.6640546875 0.2105946 0.2278557
0.665203125 0.2651452 0.137951
0.6663515625 0.2860543 0.04001595
0.6675 0.2741908 -0.05503142
0.6686484375 0.2342561 -0.1379476
0.669796875 0.1718479 -0.2019173
0.6709453125 0.09484141 -0.2415546
0.67209375 0.01088675 -0.2546288
0.6732421875 -0.07095131 -0.2408676
0.674390625 -0.1430672 -0.2025775
0.6755390625 -0.1993887 -0.1440806
0.6766875 -0.2341562 -0.07116835
0.6778359375 -0.2435157 0.008508651
0.678984375 -0.2273229 0.08719349
0.6801328125 -0.1862505 0.1567568
0.68128125 -0.1247257 0.2094647
0.6824296875 -0.04955563 0.2394239
0.683578125 0.03205981 0.2434229
0.6847265625 0.1108773 0.220567
0.685875 0.1783053 0.1728011
0.6870234375 0.226918 0.1052801
0.688171875 0.2507285 0.0248844
0.6893203125 0.2472489 -0.05951235
0.69046875 0.2162704 -0.1393264
0.6916171875 0.1604766 -0.205644
0.692765625 0.08542239 -0.2507421
0.6939140625 -0.002190115 -0.2695518
0.6950625 -0.09262472 -0.2589191
0.6962109375 -0.1777293 -0.2185011
0.697359375 -0.2469221 -0.1503195
0.6985078125 -0.2912942 -0.06043449
0.69965625 -0.3036419 0.04343575
0.7008046875 -0.2794123 0.1491962
0.701953125 -0.2177335 0.2453011
0.7031015625 -0.1219659 0.3169188
0.70425 -0.001836184 0.3520463
0.7053984375 0.1293969 0.3406502
0.706546875 0.2526567 0.2792023
0.7076953125 0.3485887 0.1712395
0.70884375 0.3981012 0.02919567
0.7099921875 0.3878919 -0.1260555
0.711140625 0.3164383 -0.2691755
0.7122890625 0.1913253 -0.3739046
0.7134375 0.0334148 -0.4201381
0.7145859375 -0.129836 -0.3998029
0.715734375 -0.270322 -0.3173506
0.7168828125 -0.3655919 -0.1882323
0.71803125 -0.4017183 -0.03592793
0.7191796875 -0.3773471 0.1134867
0.720328125 -0.3011112 0.2381233
0.7214765625 -0.1886604 0.3217665
0.722625 -0.05880993 0.3574126
0.7237734375 0.06926068 0.3446556
0.724921875 0.1802645 0.2902105
0.7260703125 0.2617535 0.2036006
0.72721875 0.3075501 0.09858512
0.7283671875 0.314761 -0.01183293
0.729515625 0.2853339 -0.1154721
0.7306640625 0.2248978 -0.1997987
0.7318125 0.1421537 -0.258829
0.7329609375 0.04621593 -0.2860515
0.734109375 -0.05063173 -0.2805234
0.7352578125 -0.1394647 -0.2438925
0.73640625 -0.2095829 -0.1808883
0.7375546875 -0.2548859 -0.09965148
0.738703125 -0.2700399 -0.009614403
0.7398515625 -0.2549636 0.07951998
0.741 -0.2123335 0.1574798
0.7421484375 -0.1473275 0.2164717
0.743296875 -0.06704498 0.2513134
0.7444453125 0.0183259 0.2573809
0.74559375 0.1011198 0.2363057
0.7467421875 0.1719465 0.1898076
0.747890625 0.2243541 0.1234638
0.7490390625 0.2427913 0.04182861
0.7501875 0.244527 -0.03968158
0.7513359375 0.2198563 -0.11821
0.752484375 0.1707043 -0.1851606
0.7536328125 0.1018749 -0.2336655
0.75478125 0.01925992 -0.2586603
0.7559296875 -0.06871469 -0.2544312
0.757078125 -0.1533744 -0.2214428
0.7582265625 -0.2237002 -0.1602138
0.759375 -0.2712227 -0.07614864
0.7605234375 -0.2875836 0.02273179
0.761671875 -0.2683896 0.1243216
0.7628203125 -0.2125803 0.2158698
0.76396875 -0.1245987 0.2845951
0.7651171875 -0.01447875 0.3169575
0.766265625 0.1045484 0.3064944
0.7674140625 0.2139103 0.2511428
0.7685625 0.2955233 0.1560493
0.7697109375 0.3355567 0.03455009
0.770859375 0.3251519 -0.09397568
0.7720078125 0.2661418 -0.2098642
0.77315625 0.1666246 -0.2932247
0.7743046875 0.04341729 -0.3307949
0.775453125 -0.0829803 -0.3179738
0.7766015625 -0.1919109 -0.2588523
0.77775 -0.2676065 -0.1658276
0.7788984375 -0.3021673 -0.05430752
0.780046875 -0.2930497 0.05814784
0.7811953125 -0.2446647 0.1551717
0.78234375 -0.1676766 0.2255636
0.7834921875 -0.07430214 0.2619911
0.784640625 0.02202682 0.2631638
0.7857890625 0.1086639 0.2316659
0.7869375 0.1771669 0.1739224
0.7880859375 0.2199198 0.09899259
0.789234375 0.2338961 0.01694301
0.7903828125 0.219283 -0.06192253
0.79153125 0.1798868 -0.1297644
0.7926796875 0.1218601 -0.1782942
0.793828125 0.05311764 -0.2034566
0.7949765625 -0.01780501 -0.20442
0.796125 -0.0829511 -0.1820721
0.7972734375 -0.1358166 -0.1404368
0.798421875 -0.1706065 -0.08558547
0.7995703125 -0.1854128 -0.02397113
0.80071875 -0.1790797 0.0368117
0.8018671875 -0.1543003 0.09191655
0.803015625 -0.1145106 0.134666
0.8041640625 -0.06401426 0.1622134
0.8053125 -0.00823688 0.1723616
0.8064609375 0.04736643 0.164556
0.807609375 0.09690517 0.1397984
0.8087578125 0.1365055 0.1011892
0.80990625 0.1619777 0.05202064
0.8110546875 0.1704799 -0.00287777
0.812203125 0.1614451 -0.05794862
0.8133515625 0.1354111 -0.1080324
0.8145 0.09386981 -0.1478569
0.8156484375 0.04121194 -0.1730029
0.816796875 -0.01851229 -0.1797142
0.8179453125 -0.07797102 -0.166497
0.81909375 -0.1316209 -0.1336319
0.8202421875 -0.1720364 -0.08330975
0.821390625 -0.1942484 -0.02182485
0.8225390625 -0.1944745 0.04624256
0.8236875 -0.1713177 0.1122939
0.8248359375 -0.1254136 0.1680558
0.825984375 -0.06178868 0.2061355
0.8271328125 0.01380027 0.2206413
0.82828125 0.09203292 0.2079753
0.8294296875 0.1635019 0.166662
0.830578125 0.2179957 0.1010617
0.8317265625 0.2466085 0.01755547
0.832875 0.2434219 -0.0746764
0.8340234375 0.2052284 -0.1630403
0.835171875 0.134421 -0.2334127
0.8363203125 0.0389954 -0.273865
0.83746875 -0.06866939 -0.274231
0.8386171875 -0.1711327 -0.2314258
0.839765625 -0.2501023 -0.1497222
0.8409140625 -0.290467 -0.04189916
0.8420625 -0.2840698 0.07382543
0.8432109375 -0.2319541 0.1769679
0.844359375 -0.1435828 0.2496208
0.8455078125 -0.03631929 0.2806073
0.84665625 0.071698 0.2665688
0.8478046875 0.1623883 0.213773
0.848953125 0.2231248 0.132973
0.8501015625 0.2475747 0.04017225
0.85125 0.2360435 -0.05069918
0.8523984375 0.1945639 -0.127464
0.853546875 0.1313473 -0.1808928
0.8546953125 0.05710506 -0.2069227
0.85584375 -0.01724351 -0.2055984
0.8569921875 -0.08353933 -0.1803093
0.858140625 -0.1344737 -0.136458
0.8592890625 -0.1662935 -0.08071805
0.8604375 -0.177846 -0.02013556
0.8615859375 -0.1693463 0.03844522
0.862734375 -0.1436246 0.08914031
0.8638828125 -0.104057 0.1276923
0.86503125 -0.05616161 0.151267
0.8661796875 -0.004228787 0.1579276
0.867328125 0.04600251 0.1488823
0.8684765625 0.0901497 0.1242748
0.869625 0.1238257 0.08771054
0.8707734375 0.14451 0.04289023
0.871921875 0.149879 -0.005931789
0.8730703125 0.1393726 -0.05388821
0.87421875 0.1139755 -0.09582203
0.8753671875 0.07670622 -0.1275346
0.876515625 0.03101445 -0.1454564
0.8776640625 -0.01800372 -0.1476018
0.8788125 -0.06516077 -0.1340883
0.8799609375 -0.1054994 -0.1055085
0.881109375 -0.1346169 -0.06555451
0.8822578125 -0.1493077 -0.01823288
0.88340625 -0.1479623 0.03162107
0.8845546875 -0.1300885 0.07866528
0.885703125 -0.09849545 0.1178357
0.8868515625 -0.05492859 0.144841
0.888 -0.004909724 0.1567441
0.8891484375 0.04731297 0.1517631
0.890296875 0.09607508 0.1301587
0.8914453125 0.1361691 0.09296887
0.89259375 0.1623335 0.04345396
0.8937421875 0.171741 -0.01361535
0.894890625 0.1610218 -0.07210603
0.8960390625 0.1307757 -0.1258047
0.8971875 0.08247511 -0.1679606
0.8983359375 0.019714 -0.1914132
0.899484375 -0.04970364 -0.191959
0.9006328125 -0.1178728 -0.1668178
0.90178125 -0.1745077 -0.1173498
0.9029296875 -0.2107907 -0.04727562
0.904078125 -0.2190229 0.03397597
0.9052265625 -0.1955123 0.1144883
0.906375 -0.1411003 0.182763
0.9075234375 -0.06333584 0.2253477
0.908671875 0.02638445 0.2350113
0.9098203125 0.1133379 0.2079366
0.91096875 0.1838361 0.1499452
0.9121171875 0.2252705 0.06909224
0.913265625 0.2325887 -0.02025703
0.9144140625 0.2048174 -0.1039111
0.9155625 0.1487162 -0.1692522
0.9167109375 0.07486955 -0.2075967
0.917859375 -0.00598465 -0.2155184
0.9190078125 -0.08113001 -0.1940256
0.92015625 -0.1415543 -0.1486683
0.9213046875 -0.1805803 -0.08654846
0.922453125 -0.194561 -0.01735368
0.9236015625 -0.1836879 0.05039889
0.92475 -0.1515749 0.1081736
0.9258984375 -0.102731 0.1505609
0.927046875 -0.04394592 0.1730967
0.9281953125 0.01759914 0.1741542
0.92934375 0.07426527 0.1549908
0.9304921875 0.1207267 0.1186816
0.931640625 0.1509279 0.0699193
0.9327890625 0.1633678 0.01451693
0.9339375 0.1565716 -0.04090134
0.9350859375 0.1317775 -0.08996797
0.936234375 0.09306756 -0.1271717
0.9373828125 0.04465725 -0.1495953
0.93853125 -0.007355885 -0.1542432
0.9396796875 -0.05795445 -0.1418786
0.940828125 -0.1004185 -0.1139608
0.9419765625 -0.1315436 -0.07394339
0.943125 -0.1483072 -0.02668273
0.9442734375 -0.1486823 0.02369271
0.945421875 -0.1325414 0.07101636
0.9465703125 -0.102703 0.1109448
0.94771875 -0.06082115 0.1394412
0.9488671875 -0.01181769 0.1528321
0.950015625 0.03973048 0.1497095
0.9511640625 0.08803617 0.1300144
0.9523125 0.128101 0.09453581
0.9534609375 0.1548801 0.0476605
0.954609375 0.1651457 -0.007313526
0.9557578125 0.1559795 -0.06374869
0.95690625 0.1281171 -0.1157038
0.9580546875 0.08239192 -0.1561819
0.959203125 0.02397722 -0.1794319
0.9603515625 -0.04066844 -0.1804541
0.9615 -0.1038035 -0.1581395
0.9626484375 -0.156369 -0.1141409
0.963796875 -0.1904631 -0.05203781
0.9649453125 -0.2005305 0.01984981
0.96609375 -0.1836951 0.09265304
0.9672421875 -0.139688 0.1549574
0.968390625 -0.07455925 0.1978665
0.9695390625 0.002782514 0.2137271
0.9706875 0.08145539 0.1994089
0.9718359375 0.1498826 0.1563249
0.972984375 0.1970496 0.09071412
0.9741328125 0.2163426 0.01196629
0.97528125 0.2048229 -0.06815257
0.9764296875 0.1646648 -0.1374651
0.977578125 0.1019346 -0.1858024
0.9787265625 0.02727905 -0.2075817
0.979875 -0.04890779 -0.2005874
0.9810234375 -0.1155327 -0.1670652
0.982171875 -0.1647162 -0.1123303
0.9833203125 -0.1900936 -0.04569621
0.98446875 -0.1902988 0.02407953
0.9856171875 -0.1661721 0.08714266
0.986765625 -0.1227475 0.1368335
0.9879140625 -0.06628977 0.1673832
