# GHZ S RI R 50.0
0.3 -0.5040738 0.4870549
0.3011484375 -0.2702704 0.59525
0.302296875 -0.03698191 0.6081278
0.3034453125 0.1638741 0.5445046
0.30459375 0.3172143 0.4278178
0.3057421875 0.4136278 0.2826926
0.306890625 0.4568113 0.1278128
0.3080390625 0.4518655 -0.0215291
0.3091875 0.405804 -0.1546544
0.3103359375 0.3288136 -0.2630002
0.311484375 0.2277939 -0.3425222
0.3126328125 0.1109791 -0.3894293
0.31378125 -0.01260392 -0.4013816
0.3149296875 -0.134463 -0.3784504
0.316078125 -0.2466081 -0.3206868
0.3172265625 -0.3386169 -0.2308934
0.318375 -0.4017286 -0.1141584
0.3195234375 -0.42629 0.02198955
0.320671875 -0.4051602 0.1641056
0.3218203125 -0.335337 0.297179
0.32296875 -0.2203384 0.4020902
0.3241171875 -0.07119704 0.4628534
0.325265625 0.09452028 0.4671217
0.3264140625 0.2523044 0.4114196
0.3275625 0.3827975 0.3030053
0.3287109375 0.4672209 0.1568155
0.329859375 0.4966888 -0.01092139
0.3310078125 0.4694287 -0.1791323
0.33215625 0.388445 -0.3290372
0.3333046875 0.2630843 -0.4462387
0.334453125 0.1030534 -0.5195092
0.3356015625 -0.07644393 -0.5389153
0.33675 -0.2598974 -0.5006987
0.3378984375 -0.4307328 -0.4004555
0.339046875 -0.5671167 -0.2397986
0.3401953125 -0.6476048 -0.02811257
0.34134375 -0.6489553 0.2169469
0.3424921875 -0.5531077 0.4663692
0.343640625 -0.3546416 0.6771963
0.3447890625 -0.06506231 0.800562
0.3459375 0.2733938 0.7916856
0.3470859375 0.5918723 0.6298449
0.348234375 0.8142647 0.3304295
0.3493828125 0.8787119 -0.04198297
0.35053125 0.7686313 -0.4012241
0.3516796875 0.5159212 -0.6645324
0.352828125 0.1903611 -0.782781
0.3539765625 -0.1311659 -0.7513214
0.355125 -0.3882858 -0.6010646
0.3562734375 -0.5480566 -0.3830918
0.357421875 -0.6053863 -0.1444528
0.3585703125 -0.5749036 0.07569149
0.35971875 -0.4791093 0.2515753
0.3608671875 -0.3427778 0.3727602
0.362015625 -0.1894661 0.4373398
0.3631640625 -0.03690404 0.4492003
0.3643125 0.1018823 0.4164901
0.3654609375 0.2173997 0.3486986
0.366609375 0.3032468 0.2547925
0.3677578125 0.3565128 0.1444807
0.36890625 0.3747841 0.02785548
0.3700546875 0.3591957 -0.08718731
0.371203125 0.3109769 -0.1916736
0.3723515625 0.2340184 -0.2765601
0.3735 0.1343548 -0.3348771
0.3746484375 0.02108557 -0.3595132
0.375796875 -0.09499561 -0.3472305
0.3769453125 -0.2027649 -0.2974121
0.37809375 -0.2881718 -0.2142191
0.3792421875 -0.3408625 -0.1075346
0.380390625 -0.3550025 0.01020838
0.3815390625 -0.3288361 0.1246582
0.3826875 -0.267251 0.2223842
0.3838359375 -0.1787264 0.2930073
0.384984375 -0.07493336 0.3305454
0.3861328125 0.03241013 0.333611
0.38728125 0.1334646 0.3039154
0.3884296875 0.2195032 0.2469444
0.389578125 0.2839215 0.1681337
0.3907265625 0.3225082 0.07433785
0.391875 0.333159 -0.02689973
0.3930234375 0.3145632 -0.1283375
0.394171875 0.2666719 -0.2219805
0.3953203125 0.1915735 -0.3012428
0.39646875 0.09269696 -0.3578487
0.3976171875 -0.02421343 -0.3839669
0.398765625 -0.1514333 -0.3740737
0.3999140625 -0.276869 -0.3212593
0.4010625 -0.3889942 -0.2241058
0.4022109375 -0.4679136 -0.0857057
0.403359375 -0.4976844 0.08553882
0.4045078125 -0.4631576 0.2709258
0.40565625 -0.354802 0.445647
0.4068046875 -0.1751565 0.5778761
0.407953125 0.05783848 0.634541
0.4091015625 0.3126881 0.5927151
0.41025 0.5436564 0.4424527
0.4113984375 0.7018964 0.1962276
0.412546875 0.7429029 -0.1067084
0.4136953125 0.6463337 -0.4095926
0.41484375 0.4222417 -0.6461673
0.4159921875 0.1158251 -0.7595025
0.417140625 -0.2047039 -0.7264318
0.4182890625 -0.4689094 -0.5618442
0.4194375 -0.6282247 -0.3132448
0.4205859375 -0.6675558 -0.04004458
0.421734375 -0.6000298 0.2070735
0.4228828125 -0.4542313 0.3941937
0.42403125 -0.2649533 0.5050943
0.4251796875 -0.06343433 0.5380019
0.426328125 0.1244109 0.5014274
0.4274765625 0.2784991 0.4080614
0.428625 0.3862846 0.2752672
0.4297734375 0.4402998 0.1212384
0.430921875 0.439576 -0.03608095
0.4320703125 0.3872775 -0.1783914
0.43321875 0.2927068 -0.2902201
0.4343671875 0.1704094 -0.3604462
0.435515625 0.03654413 -0.3839724
0.4366640625 -0.0927199 -0.3614115
0.4378125 -0.2016701 -0.298622
0.4389609375 -0.2798385 -0.2073191
0.440109375 -0.3213369 -0.1003719
0.4412578125 -0.3257897 0.009595692
0.44240625 -0.2960834 0.1106708
0.4435546875 -0.2389181 0.1935668
0.444703125 -0.1619586 0.2529337
0.4458515625 -0.07350765 0.2854706
0.447 0.01860375 0.2899106
0.4481484375 0.1062644 0.2674106
0.449296875 0.1823237 0.2207922
0.4504453125 0.2420673 0.1543473
0.45159375 0.2795011 0.07236797
0.4527421875 0.2914232 -0.01824818
0.453890625 0.2755127 -0.1105835
0.4550390625 0.2310563 -0.1954629
0.4561875 0.1605946 -0.2652028
0.4573359375 0.06826811 -0.3108693
0.458484375 -0.03825577 -0.3253008
0.4596328125 -0.1479073 -0.3034706
0.46078125 -0.2478332 -0.2438278
0.4619296875 -0.3250794 -0.1509497
0.463078125 -0.3675408 -0.03296764
0.4642265625 -0.3669927 0.09706385
0.465375 -0.3204008 0.2232789
0.4665234375 -0.2307761 0.3283447
0.467671875 -0.1069899 0.3988855
0.4688203125 0.03727745 0.4233599
0.46996875 0.1867919 0.3967805
0.4711171875 0.3232745 0.3175123
0.472265625 0.4283921 0.1922205
0.4734140625 0.4868802 0.0305597
0.4745625 0.4850216 -0.1500983
0.4757109375 0.4154644 -0.3284708
0.476859375 0.2780484 -0.4779688
0.4780078125 0.0836136 -0.5709593
0.47915625 -0.1454297 -0.5829201
0.4803046875 -0.3724457 -0.4986158
0.481453125 -0.5542909 -0.3215468
0.4826015625 -0.649564 -0.07596676
0.48375 -0.63292 0.1925357
0.4848984375 -0.5031537 0.4312323
0.486046875 -0.285731 0.5919135
0.4871953125 -0.02665878 0.6448454
0.48834375 0.2232583 0.5880975
0.4894921875 0.4205019 0.4416473
0.490640625 0.5366197 0.2383568
0.4917890625 0.5627804 0.01869354
0.4929375 0.5073536 -0.1818682
0.4940859375 0.388939 -0.3373049
0.495234375 0.232206 -0.4335546
0.4963828125 0.0637363 -0.4653719
0.49753125 -0.0953689 -0.4390087
0.4986796875 -0.2280647 -0.3651589
0.499828125 -0.3236479 -0.2583062
0.5009765625 -0.3767363 -0.1328432
0.502125 -0.3869613 -0.003242147
0.5032734375 -0.3574236 0.1181344
0.504421875 -0.2941918 0.2209156
0.5055703125 -0.2048282 0.2976043
0.50671875 -0.09868734 0.3423088
0.5078671875 0.01487815 0.3524785
0.509015625 0.1256464 0.3275262
0.5101640625 0.2227314 0.2697659
0.5113125 0.2976665 0.1844716
0.5124609375 0.3426892 0.07878765
0.513609375 0.3517279 -0.0364781
0.5147578125 0.3224932 -0.1507443
0.51590625 0.2573034 -0.2499387
0.5170546875 0.1617439 -0.3235603
0.518203125 0.04619852 -0.3615886
0.5193515625 -0.07696551 -0.3593376
0.5205 -0.1937412 -0.3162125
0.5216484375 -0.2899192 -0.235809
0.522796875 -0.3556446 -0.1269255
0.5239453125 -0.381074 -0.002071518
0.52509375 -0.3645809 0.1260205
0.5262421875 -0.3065705 0.2430837
0.527390625 -0.2118887 0.3364811
0.5285390625 -0.0894267 0.3952899
0.5296875 0.04918251 0.4109031
0.5308359375 0.1896828 0.3798563
0.531984375 0.3162692 0.3010601
0.5331328125 0.4130641 0.1784104
0.53428125 0.4637133 0.02424271
0.5354296875 0.4571363 -0.1467389
0.536578125 0.3858594 -0.3113444
0.5377265625 0.2522603 -0.4453499
0.538875 0.0702977 -0.5212933
0.5400234375 -0.1354429 -0.5216672
0.541171875 -0.3312088 -0.437064
0.5423203125 -0.4799201 -0.2775226
0.54346875 -0.5514562 -0.06862186
0.5446171875 -0.5305569 0.1515976
0.545765625 -0.4235341 0.3419985
0.5469140625 -0.2522146 0.468658
0.5480625 -0.05146244 0.5142086
0.5492109375 0.1421048 0.4776776
0.550359375 0.2978984 0.3745734
0.5515078125 0.397071 0.2286117
0.55265625 0.4325562 0.0667055
0.5538046875 0.4090482 -0.08715455
0.554953125 0.3374447 -0.214839
0.5561015625 0.2321988 -0.3046698
0.55725 0.1103312 -0.3505169
0.5583984375 -0.01306584 -0.3531677
0.559546875 -0.1251326 -0.3173077
0.5606953125 -0.216076 -0.24976
0.56184375 -0.2781818 -0.1604754
0.5629921875 -0.3076382 -0.0586027
0.564140625 -0.3032813 0.04389384
0.5652890625 -0.2673312 0.1382471
0.5664375 -0.2038708 0.2139313
0.5675859375 -0.1208211 0.265279
0.568734375 -0.02656814 0.2866805
0.5698828125 0.06817716 0.2763407
0.57103125 0.1540105 0.2360648
0.5721796875 0.2209772 0.1704058
0.573328125 0.2621724 0.08729745
0.5744765625 0.2739283 -0.003791249
0.575625 0.2551738 -0.09274935
0.5767734375 0.2091899 -0.1697634
0.577921875 0.1417642 -0.2270928
0.5790703125 0.05996944 -0.2595405
0.58021875 -0.02707946 -0.2642209
0.5813671875 -0.1106938 -0.241224
0.582515625 -0.1828821 -0.1940076
0.5836640625 -0.2366608 -0.125493
0.5848125 -0.26698 -0.04393037
0.5859609375 -0.2709993 0.04471468
0.587109375 -0.2465648 0.1317139
0.5882578125 -0.1951772 0.2087136
0.58940625 -0.1203186 0.2678449
0.5905546875 -0.02659117 0.3013611
0.591703125 0.07739942 0.3038138
0.5928515625 0.1814044 0.2701551
0.594 0.2728914 0.2009358
0.5951484375 0.3399405 0.09856909
0.596296875 0.3689378 -0.02739889
0.5974453125 0.3511067 -0.1639303
0.59859375 0.2807272 -0.2929575
0.5997421875 0.1602593 -0.3929993
0.600890625 0.002026395 -0.4430465
0.6020390625 -0.1734923 -0.4275219
0.6031875 -0.3372583 -0.3389679
0.6043359375 -0.4562345 -0.1847288
0.605484375 -0.5036801 0.01170249
0.6066328125 -0.46324 0.2155865
0.60778125 -0.3388861 0.3855509
0.6089296875 -0.1547225 0.4866299
0.610078125 0.0526493 0.5007082
0.6112265625 0.2408276 0.4288896
0.612375 0.3772575 0.29142
0.6135234375 0.4441851 0.1195749
0.614671875 0.4386151 -0.05491479
0.6158203125 0.3716977 -0.204733
0.61696875 0.2600616 -0.3129857
0.6181171875 0.1249711 -0.3694268
0.619265625 -0.01334062 -0.3745416
0.6204140625 -0.1380374 -0.333046
0.6215625 -0.2360573 -0.2548659
0.6227109375 -0.2989862 -0.1525439
0.623859375 -0.3226032 -0.0401387
0.6250078125 -0.3066933 0.06935875
0.62615625 -0.2574961 0.1640287
0.6273046875 -0.181916 0.2337325
0.628453125 -0.09051512 0.27327
0.6296015625 0.005276757 0.2799974
0.63075 0.09507944 0.2553509
0.6318984375 0.1693753 0.2045361
0.633046875 0.2213666 0.1345556
0.6341953125 0.2471407 0.05437886
0.63534375 0.2463116 -0.02726529
0.6364921875 0.2200976 -0.1028238
0.637640625 0.173016 -0.1644388
0.6387890625 0.1106559 -0.2077203
0.6399375 0.03942056 -0.2292806
0.6410859375 -0.03380842 -0.2282277
0.642234375 -0.1029146 -0.2054381
0.6433828125 -0.161431 -0.1625911
0.64453125 -0.204595 -0.1042404
0.6456796875 -0.2283892 -0.03541388
0.646828125 -0.2297817 0.03821784
0.6479765625 -0.2087833 0.1097169
0.649125 -0.1655155 0.1726611
0.6502734375 -0.1040089 0.2198427
0.651421875 -0.02897334 0.2460591
0.6525703125 0.05284963 0.2475064
0.65371875 0.1332672 0.2219537
0.6548671875 0.2027978 0.1707246
0.656015625 0.2534105 0.0971431
0.6571640625 0.2782975 0.008278601
0.6583125 0.2725988 -0.08616696
0.6594609375 0.2349443 -0.1766272
0.660609375 0.166879 -0.2520026
0.6617578125 0.07505819 -0.3022363
0.66290625 -0.03222163 -0.3193527
0.6640546875 -0.1436983 -0.2988277
0.665203125 -0.2451051 -0.2400293
0.6663515625 -0.3241507 -0.1460219
0.6675 -0.3679761 -0.02463518
0.6686484375 -0.3668959 0.1108964
0.669796875 -0.3150623 0.2436659
0.6709453125 -0.2131948 0.3542432
0.67209375 -0.07048212 0.4233472
0.6732421875 0.09620257 0.4338882
0.674390625 0.2612956 0.3762908
0.6755390625 0.3964482 0.2530184
0.6766875 0.4723596 0.08035217
0.6778359375 0.4713689 -0.1122121
0.678984375 0.3904562 -0.2895539
0.6801328125 0.2438243 -0.4178666
0.68128125 0.05985459 -0.4737185
0.6824296875 -0.1266752 -0.4501521
0.683578125 -0.2823178 -0.3568172
0.6847265625 -0.3842472 -0.2153711
0.685875 -0.4216777 -0.0532961
0.6870234375 -0.3953294 0.1018489
0.688171875 -0.3179185 0.2292695
0.6893203125 -0.2059144 0.3143843
0.69046875 -0.07800148 0.3518467
0.6916171875 0.04732722 0.3425041
0.692765625 0.1560372 0.2937135
0.6939140625 0.2375468 0.2150256
0.6950625 0.2859248 0.1182508
0.6962109375 0.2996665 0.01570153
0.697359375 0.2796005 -0.08176093
0.6985078125 0.2309797 -0.1651256
0.69965625 0.1604045 -0.2265714
0.7008046875 0.07632459 -0.2617415
0.701953125 -0.01329973 -0.2679331
0.7031015625 -0.09871001 -0.2458003
0.70425 -0.1720186 -0.1977801
0.7053984375 -0.2255054 -0.1296227
0.706546875 -0.2541181 -0.04819496
0.7076953125 -0.2550239 0.03783376
0.70884375 -0.2275365 0.1195742
0.7099921875 -0.1753123 0.1879095
0.711140625 -0.1030631 0.2353921
0.7122890625 -0.01926052 0.2570186
0.7134375 0.06715426 0.2497075
0.7145859375 0.1472379 0.2139256
0.715734375 0.210678 0.1539299
0.7168828125 0.2522216 0.07518228
0.71803125 0.2653309 -0.01371314
0.7191796875 0.2483342 -0.1024418
0.720328125 0.2026437 -0.1821437
0.7214765625 0.1314767 -0.2430934
0.722625 0.04278914 -0.2783944
0.7237734375 -0.05569496 -0.2822223
0.724921875 -0.1521833 -0.25196
0.7260703125 -0.2356383 -0.1889452
0.72721875 -0.2940326 -0.09786756
0.7283671875 -0.3186943 0.01219419
0.729515625 -0.3021008 0.1285133
0.7306640625 -0.242374 0.2350477
0.7318125 -0.1443148 0.3164674
0.7329609375 -0.01731336 0.3564661
0.734109375 0.1196815 0.3450714
0.7352578125 0.2461763 0.2796711
0.73640625 0.3391858 0.1665791
0.7375546875 0.3811792 0.02442886
0.738703125 0.3624332 -0.1246428
0.7398515625 0.2850623 -0.254148
0.741 0.1643325 -0.340551
0.7421484375 0.02099501 -0.3729976
0.743296875 -0.1194477 -0.3457925
0.7444453125 -0.235032 -0.2688662
0.74559375 -0.3099405 -0.1579201
0.7467421875 -0.3359315 -0.03224983
0.747890625 -0.3145234 0.08864622
0.7490390625 -0.2438862 0.181726
0.7501875 -0.1581202 0.2488543
0.7513359375 -0.05912431 0.2795327
0.752484375 0.03984639 0.2749835
0.7536328125 0.1281163 0.2383246
0.75478125 0.1966046 0.1759325
0.7559296875 0.2391042 0.09648284
0.757078125 0.2521002 0.01018988
0.7582265625 0.2370323 -0.0735255
0.759375 0.1956217 -0.1463489
0.7605234375 0.1336615 -0.2005133
0.761671875 0.05840922 -0.2305513
0.7628203125 -0.02129533 -0.2345389
0.76396875 -0.0971487 -0.2121785
0.7651171875 -0.160794 -0.1664739
0.766265625 -0.2053359 -0.1030999
0.7674140625 -0.2268828 -0.02910921
0.7685625 -0.222936 0.04739231
0.7697109375 -0.1940989 0.117837
0.770859375 -0.1442792 0.1751824
0.7720078125 -0.07850569 0.2127713
0.77315625 -0.004667549 0.2271157
0.7743046875 0.070467 0.2173193
0.775453125 0.1382772 0.1831998
0.7766015625 0.1925106 0.1288855
0.77775 0.2266593 0.05958157
0.7788984375 0.2373895 -0.01849545
0.780046875 0.2218297 -0.09717222
0.7811953125 0.1809189 -0.1681216
0.78234375 0.1173876 -0.2242964
0.7834921875 0.03628609 -0.2567742
0.784640625 -0.05446791 -0.2611176
0.7857890625 -0.1448672 -0.2337529
0.7869375 -0.2237104 -0.1749932
0.7880859375 -0.2794679 -0.08847407
0.789234375 -0.302771 0.01707024
0.7903828125 -0.2854707 0.1290478
0.79153125 -0.2257333 0.23112
0.7926796875 -0.1278149 0.3067638
0.793828125 -0.004356363 0.3410589
0.7949765625 0.1280577 0.3236544
0.796125 0.2460458 0.2542221
0.7972734375 0.3281245 0.141472
0.798421875 0.3580158 0.003899562
0.7995703125 0.3308495 -0.1348245
0.80071875 0.25014 -0.2491226
0.8018671875 0.1327904 -0.3208899
0.803015625 0.0005651337 -0.3391783
0.8041640625 -0.1241799 -0.3054878
0.8053125 -0.2218423 -0.2293487
0.8064609375 -0.2803818 -0.1266864
0.807609375 -0.2962228 -0.01590805
0.8087578125 -0.2715495 0.08835658
0.80990625 -0.2139418 0.1721549
0.8110546875 -0.1349557 0.2276132
0.812203125 -0.0459647 0.250919
0.8133515625 0.0417439 0.2425385
0.8145 0.1181568 0.2064097
0.8156484375 0.1753988 0.1487947
0.816796875 0.209084 0.07848206
0.8179453125 0.2162364 0.003430365
0.81909375 0.1992896 -0.06717004
0.8202421875 0.1608445 -0.1261678
0.821390625 0.1068797 -0.1679995
0.8225390625 0.04415021 -0.1887213
0.8236875 -0.01989285 -0.1881663
0.8248359375 -0.07837544 -0.167154
0.825984375 -0.1258981 -0.1291279
0.8271328125 -0.1575747 -0.0796791
0.82828125 -0.1713358 -0.02401625
0.8294296875 -0.1669094 0.03195928
0.830578125 -0.1454853 0.08225358
0.8317265625 -0.1102493 0.122819
0.832875 -0.06487818 0.1496334
0.8340234375 -0.01386841 0.1609031
0.835171875 0.03784595 0.1565149
0.8363203125 0.08490625 0.1360763
0.83746875 0.1236134 0.1023332
0.8386171875 0.1503855 0.0581525
0.839765625 0.1622949 0.00731849
0.8409140625 0.1573101 -0.04520766
0.8420625 0.1363874 -0.09457719
0.8432109375 0.1001955 -0.134962
0.844359375 0.05174187 -0.1630575
0.8455078125 -0.004339607 -0.1740284
0.84665625 -0.06224134 -0.1664009
0.8478046875 -0.1159912 -0.1396388
0.848953125 -0.1594938 -0.09509597
0.8501015625 -0.1865917 -0.03733037
0.85125 -0.1929488 0.02820469
0.8523984375 -0.1766641 0.09393214
0.853546875 -0.1380825 0.1525291
0.8546953125 -0.07965657 0.195586
0.85584375 -0.007892912 0.2174257
0.8569921875 0.06984755 0.2130167
0.858140625 0.1439826 0.1813191
0.8592890625 0.2049864 0.1231216
0.8604375 0.2436032 0.04357547
0.8615859375 0.2514283 -0.04864883
0.862734375 0.2237862 -0.1413505
0.8638828125 0.1609992 -0.2212028
0.86503125 0.06872866 -0.2735775
0.8661796875 -0.04112196 -0.2868041
0.867328125 -0.1514879 -0.2550224
0.8684765625 -0.2425631 -0.1796447
0.869625 -0.2967031 -0.07143469
0.8707734375 -0.3020266 0.05074804
0.871921875 -0.256834 0.1647342
0.8730703125 -0.1702447 0.249322
0.87421875 -0.05843934 0.2905475
0.8753671875 0.05666668 0.2837006
0.876515625 0.155616 0.2338704
0.8776640625 0.2249728 0.1527867
0.8788125 0.2562875 0.05613116
0.8799609375 0.2490282 -0.04005303
0.881109375 0.2095762 -0.1225955
0.8822578125 0.1459099 -0.1816527
0.88340625 0.06994937 -0.2127319
0.8845546875 -0.008340461 -0.215136
0.885703125 -0.07849101 -0.1923515
0.8868515625 -0.1342374 -0.1486075
0.888 -0.1705043 -0.09201536
0.8891484375 -0.1855245 -0.02884131
0.890296875 -0.1797343 0.03288804
0.8914453125 -0.154673 0.08794022
0.89259375 -0.1152377 0.1305944
0.8937421875 -0.06490222 0.1579003
0.894890625 -0.01039017 0.1676776
0.8960390625 0.04409826 0.159842
0.8971875 0.09259492 0.1356978
0.8983359375 0.1303486 0.0975188
0.899484375 0.1539571 0.0495199
0.9006328125 0.1613104 -0.003072638
0.90178125 0.151334 -0.05529455
0.9029296875 0.1250231 -0.1015293
0.904078125 0.08518808 -0.136859
0.9052265625 0.03574209 -0.1577192
0.906375 -0.01793354 -0.1610683
0.9075234375 -0.07052583 -0.1469659
0.908671875 -0.1151773 -0.1160326
0.9098203125 -0.1478594 -0.07191963
0.91096875 -0.1643808 -0.01923733
0.9121171875 -0.1628309 0.03597166
0.913265625 -0.1434239 0.0888754
0.9144140625 -0.1074305 0.132818
0.9155625 -0.05837829 0.1625005
0.9167109375 -0.000960179 0.1751832
0.917859375 0.0584191 0.168447
0.9190078125 0.1135021 0.1420426
0.92015625 0.1576168 0.09785899
0.9213046875 0.1857538 0.0398581
0.922453125 0.1929455 -0.02650274
0.9236015625 0.1761416 -0.09346725
0.92475 0.136809 -0.1529957
0.9258984375 0.0765902 -0.1958857
0.927046875 0.002316879 -0.2163367
0.9281953125 -0.07726599 -0.2080282
0.92934375 -0.1508045 -0.169939
0.9304921875 -0.2066488 -0.1056779
0.931640625 -0.2352471 -0.02222975
0.9327890625 -0.2301626 0.06770562
0.9339375 -0.189696 0.1502557
0.9350859375 -0.1204833 0.2115877
0.936234375 -0.03239512 0.2417541
0.9373828125 0.06086836 0.234801
0.93853125 0.1428965 0.1932789
0.9396796875 0.2016715 0.124236
0.940828125 0.2294454 0.0396709
0.9419765625 0.2233364 -0.04607474
0.943125 0.1867203 -0.1214888
0.9442734375 0.1271827 -0.1760401
0.945421875 0.05425113 -0.2045213
0.9465703125 -0.02114895 -0.2046541
0.94771875 -0.08939174 -0.1798657
0.9488671875 -0.1423501 -0.1337063
0.950015625 -0.1754085 -0.07458349
0.9511640625 -0.1859109 -0.009541789
0.9523125 -0.1741974 0.05336925
0.9534609375 -0.1428919 0.1071707
0.954609375 -0.09630359 0.1460147
0.9557578125 -0.04055147 0.1673433
0.95690625 0.01786516 0.1681534
0.9580546875 0.07230608 0.1503181
0.959203125 0.1171559 0.1153615
0.9603515625 0.1469386 0.0687544
0.9615 0.1598248 0.01547398
0.9626484375 0.1543705 -0.0383904
0.963796875 0.1311322 -0.08665284
0.9649453125 0.09404105 -0.1246175
0.96609375 0.04690047 -0.1476096
0.9672421875 -0.004881291 -0.1541493
0.968390625 -0.05500237 -0.1430134
0.9695390625 -0.09890623 -0.1166126
0.9706875 -0.1317578 -0.07740832
0.9718359375 -0.1500072 -0.02978584
0.972984375 -0.1521015 0.02117007
0.9741328125 -0.1371924 0.07081415
0.97528125 -0.1074293 0.1129169
0.9764296875 -0.06499585 0.1436433
0.977578125 -0.01362135 0.1592141
0.9787265625 0.04090749 0.1575624
0.979875 0.09297077 0.1374778
0.9810234375 0.1369733 0.1002029
0.982171875 0.166408 0.04863199
0.9833203125 0.1775453 -0.01181232
0.98446875 0.166884 -0.0742334
0.9856171875 0.1341973 -0.1315623
0.986765625 0.08136325 -0.1750526
0.9879140625 0.01410716 -0.1978333
