# GHZ S RI R 50.0
0.3 0.6101503 -0.1161278
0.3011484375 0.5424758 -0.3221807
0.302296875 0.4069497 -0.4934838
0.3034453125 0.2210779 -0.6114687
0.30459375 0.005195154 -0.6621715
0.3057421875 -0.2212957 -0.640796
0.306890625 -0.4342791 -0.5456681
0.3080390625 -0.6117726 -0.3812457
0.3091875 -0.7335911 -0.1569337
0.3103359375 -0.776395 0.1112321
0.311484375 -0.7212602 0.3979646
0.3126328125 -0.5543081 0.6645756
0.31378125 -0.2784936 0.8656105
0.3149296875 0.08010865 0.9489268
0.316078125 0.467906 0.8724683
0.3172265625 0.802565 0.6257895
0.318375 1.005484 0.2435555
0.3195234375 1.018253 -0.1949012
0.320671875 0.8350695 -0.5909721
0.3218203125 0.5054643 -0.8602258
0.32296875 0.1081181 -0.9550798
0.3241171875 -0.2696022 -0.8754249
0.325265625 -0.5597566 -0.6603934
0.3264140625 -0.7226502 -0.3714633
0.3275625 -0.7550516 -0.06925838
0.3287109375 -0.6783292 0.1948845
0.329859375 -0.5264255 0.3929133
0.3310078125 -0.3342853 0.5121028
0.33215625 -0.1345851 0.5549197
0.3333046875 0.05008486 0.5329523
0.334453125 0.2053351 0.4609257
0.3356015625 0.3221487 0.3541818
0.33675 0.3969894 0.2273906
0.3378984375 0.4302731 0.09113467
0.339046875 0.4245325 -0.04204559
0.3401953125 0.3827836 -0.1639815
0.34134375 0.3097579 -0.2680539
0.3424921875 0.2111081 -0.3460459
0.343640625 0.09469933 -0.3925708
0.3447890625 -0.03236967 -0.4021302
0.3459375 -0.1575752 -0.3731945
0.3470859375 -0.2700824 -0.3057861
0.348234375 -0.3568965 -0.2036544
0.3493828125 -0.4068969 -0.0760988
0.35053125 -0.4118114 0.06295102
0.3516796875 -0.36796 0.1972515
0.352828125 -0.2811883 0.3093662
0.3539765625 -0.1618081 0.3841732
0.355125 -0.02551861 0.4139847
0.3562734375 0.1116007 0.3971763
0.357421875 0.2336866 0.3372606
0.3585703125 0.3288877 0.2437182
0.35971875 0.3898943 0.1260462
0.3608671875 0.4121509 -0.00320699
0.362015625 0.394354 -0.1332104
0.3631640625 0.3382849 -0.2548862
0.3643125 0.2477228 -0.3564614
0.3654609375 0.1270892 -0.4294191
0.366609375 -0.01616409 -0.4656381
0.3677578125 -0.1726067 -0.4561311
0.36890625 -0.3296936 -0.3956244
0.3700546875 -0.4704134 -0.2787314
0.371203125 -0.5746413 -0.1072953
0.3723515625 -0.6171351 0.1107439
0.3735 -0.574689 0.3534281
0.3746484375 -0.4288027 0.586371
0.375796875 -0.1746078 0.7596067
0.3769453125 0.158885 0.8149027
0.37809375 0.5135024 0.7085633
0.3792421875 0.7980088 0.4329223
0.380390625 0.9238423 0.03856759
0.3815390625 0.8429298 -0.3734918
0.3826875 0.579314 -0.6887072
0.3838359375 0.2166924 -0.834755
0.384984375 -0.1447324 -0.8000382
0.3861328125 -0.4267892 -0.6278465
0.38728125 -0.592004 -0.3816965
0.3884296875 -0.6410171 -0.1204168
0.389578125 -0.5945769 0.1124872
0.3907265625 -0.4803949 0.2922746
0.391875 -0.3279836 0.4106812
0.3930234375 -0.1609877 0.467525
0.394171875 0.001374943 0.4683111
0.3953203125 0.146921 0.4215019
0.39646875 0.2632025 0.3382036
0.3976171875 0.3458153 0.2275857
0.398765625 0.3895239 0.1021189
0.3999140625 0.3925796 -0.0272535
0.4010625 0.3560974 -0.1496853
0.4022109375 0.2836655 -0.2527799
0.403359375 0.1835375 -0.3267286
0.4045078125 0.06448431 -0.3642228
0.40565625 -0.05848466 -0.3606107
0.4068046875 -0.1718255 -0.3158413
0.407953125 -0.2625325 -0.2372841
0.4091015625 -0.3200252 -0.1348386
0.41025 -0.3398033 -0.02181765
0.4113984375 -0.321589 0.08736923
0.412546875 -0.2705361 0.1826008
0.4136953125 -0.1950397 0.2536562
0.41484375 -0.1040206 0.2966842
0.4159921875 -0.006837292 0.3093945
0.417140625 0.08722536 0.2930898
0.4182890625 0.1707874 0.2518556
0.4194375 0.2380832 0.1878024
0.4205859375 0.2849922 0.1082387
0.421734375 0.3073357 0.01804141
0.4228828125 0.3027323 -0.07636646
0.42403125 0.2711731 -0.1675319
0.4251796875 0.2127586 -0.2483096
0.426328125 0.1308746 -0.3114161
0.4274765625 0.02866577 -0.349075
0.428625 -0.08563791 -0.3537486
0.4297734375 -0.2022647 -0.321264
0.430921875 -0.3090622 -0.2493247
0.4320703125 -0.3914702 -0.1403897
0.43321875 -0.4351293 -0.001699032
0.4343671875 -0.4294335 0.1524083
0.435515625 -0.3675187 0.3031943
0.4366640625 -0.2512373 0.4303307
0.4378125 -0.09017529 0.5127982
0.4389609375 0.0996327 0.5347882
0.440109375 0.294823 0.4858033
0.4412578125 0.4683998 0.3647344
0.44240625 0.5940776 0.1795361
0.4435546875 0.6469193 -0.05199993
0.444703125 0.6087974 -0.300749
0.4458515625 0.4703542 -0.5304375
0.447 0.2396014 -0.6981465
0.4481484375 -0.05487788 -0.7618337
0.449296875 -0.3639556 -0.6948495
0.4504453125 -0.6230325 -0.4974147
0.45159375 -0.7753194 -0.2034948
0.4527421875 -0.7856843 0.1268507
0.453890625 -0.6570872 0.4240688
0.4550390625 -0.4234619 0.6328115
0.4561875 -0.137466 0.7232262
0.4573359375 0.1458708 0.6929978
0.458484375 0.3808213 0.5624582
0.4596328125 0.5390367 0.3628461
0.46078125 0.6056901 0.1336263
0.4619296875 0.5842856 -0.09090889
0.463078125 0.4884252 -0.2796156
0.4642265625 0.3406767 -0.4132124
0.465375 0.166911 -0.4811061
0.4665234375 -0.007588997 -0.4843286
0.467671875 -0.1629438 -0.431209
0.4688203125 -0.2830992 -0.3358053
0.46996875 -0.3602886 -0.2147963
0.4711171875 -0.3928794 -0.08334339
0.472265625 -0.3833237 0.04482267
0.4734140625 -0.3376261 0.1576826
0.4745625 -0.2630948 0.2474109
0.4757109375 -0.1692584 0.3087768
0.476859375 -0.06419369 0.3388841
0.4780078125 0.04275563 0.337003
0.47915625 0.1429153 0.3041884
0.4803046875 0.228181 0.2437038
0.481453125 0.2920454 0.1605235
0.4826015625 0.3283237 0.06180973
0.48375 0.3330438 -0.04475238
0.4848984375 0.3041912 -0.1489899
0.486046875 0.2433108 -0.2410156
0.4871953125 0.1546005 -0.3101702
0.48834375 0.04620724 -0.3480574
0.4894921875 -0.07091846 -0.3487738
0.490640625 -0.1841559 -0.3100717
0.4917890625 -0.2794734 -0.235161
0.4929375 -0.3466016 -0.130977
0.4940859375 -0.3754007 -0.008501251
0.495234375 -0.362409 0.1176239
0.4963828125 -0.3074371 0.2347139
0.49753125 -0.2159528 0.3291358
0.4986796875 -0.09647586 0.3895819
0.499828125 0.03929419 0.4087043
0.5009765625 0.1778632 0.3818283
0.502125 0.3045726 0.3080195
0.5032734375 0.4041055 0.1928214
0.504421875 0.4617438 0.04438636
0.5055703125 0.4660323 -0.1238618
0.50671875 0.4078167 -0.2916336
0.5078671875 0.2871194 -0.4368257
0.509015625 0.1112912 -0.5325384
0.5101640625 -0.1000062 -0.5566631
0.5113125 -0.3164804 -0.4932839
0.5124609375 -0.497586 -0.3416989
0.513609375 -0.605067 -0.1203413
0.5147578125 -0.6108655 0.1325471
0.51590625 -0.5081427 0.367857
0.5170546875 -0.3156297 0.5374066
0.518203125 -0.07353436 0.6086025
0.5193515625 0.1689627 0.5726582
0.5205 0.3666123 0.4458459
0.5216484375 0.4898368 0.2602991
0.522796875 0.5284307 0.05379065
0.5239453125 0.4871062 -0.1388375
0.52509375 0.3847277 -0.2914052
0.5262421875 0.2436471 -0.3900237
0.527390625 0.0879609 -0.4300178
0.5285390625 -0.06205076 -0.4146565
0.5296875 -0.1908063 -0.3537896
0.5308359375 -0.2864653 -0.259879
0.531984375 -0.3443296 -0.145451
0.5331328125 -0.3623129 -0.02373917
0.53428125 -0.3408999 0.09296596
0.5354296875 -0.285804 0.1940372
0.536578125 -0.2039545 0.2711846
0.5377265625 -0.1034752 0.3182151
0.538875 0.004998019 0.3306098
0.5400234375 0.1108942 0.3086691
0.541171875 0.2041615 0.2538827
0.5423203125 0.2743981 0.173091
0.54346875 0.3148175 0.07346723
0.5446171875 0.3207943 -0.03351792
0.545765625 0.2915783 -0.1366815
0.5469140625 0.230829 -0.2245864
0.5480625 0.1441532 -0.2877938
0.5492109375 0.04212788 -0.3194939
0.550359375 -0.06406362 -0.3167563
0.5515078125 -0.1643209 -0.2796006
0.55265625 -0.2478309 -0.2124832
0.5538046875 -0.3058171 -0.1217674
0.554953125 -0.3325229 -0.01644784
0.5561015625 -0.3251062 0.09302388
0.55725 -0.2820226 0.1970134
0.5583984375 -0.2077871 0.2844522
0.559546875 -0.1054253 0.3455597
0.5606953125 0.01437652 0.3720603
0.56184375 0.1417181 0.3575822
0.5629921875 0.2629751 0.300005
0.564140625 0.3637017 0.2001643
0.5652890625 0.4278046 0.06391881
0.5664375 0.4412986 -0.09465764
0.5675859375 0.3942459 -0.257508
0.568734375 0.2849366 -0.3992115
0.5698828125 0.1204379 -0.4954134
0.57103125 -0.07856388 -0.5222204
0.5721796875 -0.2816723 -0.4651662
0.573328125 -0.4503576 -0.326547
0.5744765625 -0.5503389 -0.1250603
0.575625 -0.5577167 0.1036944
0.5767734375 -0.4685868 0.3144292
0.577921875 -0.3024014 0.4675866
0.5790703125 -0.09317347 0.5359056
0.58021875 0.1177619 0.5144554
0.5813671875 0.2932889 0.4152949
0.582515625 0.4098353 0.263956
0.5836640625 0.4576333 0.09065585
0.5848125 0.4390189 -0.07690942
0.5859609375 0.3660822 -0.2172326
0.587109375 0.2554297 -0.3169352
0.5882578125 0.1248169 -0.3691067
0.58940625 -0.007151952 -0.3741083
0.5905546875 -0.1274494 -0.3368049
0.591703125 -0.2246044 -0.2650433
0.5928515625 -0.2900882 -0.1698631
0.594 -0.3195203 -0.06280909
0.5951484375 -0.3131897 0.04506905
0.596296875 -0.2736792 0.141424
0.5974453125 -0.2066713 0.2179398
0.59859375 -0.1207451 0.2669825
0.5997421875 -0.02628281 0.2848435
0.600890625 0.06635464 0.2716702
0.6020390625 0.147533 0.2301551
0.6031875 0.2093194 0.1663105
0.6043359375 0.2463475 0.08830822
0.605484375 0.2564496 0.004595031
0.6066328125 0.2401445 -0.07586697
0.60778125 0.2002031 -0.1454347
0.6089296875 0.1419202 -0.1977081
0.610078125 0.07231271 -0.2293278
0.6112265625 -0.00295658 -0.2379971
0.612375 -0.07611571 -0.2235262
0.6135234375 -0.1410993 -0.1881734
0.614671875 -0.1923753 -0.1351988
0.6158203125 -0.2255449 -0.06894448
0.61696875 -0.2372056 0.004385829
0.6181171875 -0.2263908 0.07883734
0.619265625 -0.192507 0.1475448
0.6204140625 -0.1386063 0.204183
0.6215625 -0.06776231 0.2417563
0.6227109375 0.01301044 0.2561184
0.623859375 0.09705946 0.2435218
0.6250078125 0.1748683 0.2033327
0.62615625 0.2376409 0.1384685
0.6273046875 0.2773547 0.05396377
0.628453125 0.2870227 -0.04190257
0.6296015625 0.2636029 -0.1394745
0.63075 0.2077301 -0.2258413
0.6318984375 0.1220029 -0.2907535
0.633046875 0.01634268 -0.3245733
0.6341953125 -0.0983713 -0.320176
0.63534375 -0.2092595 -0.2754
0.6364921875 -0.3017114 -0.1918103
0.637640625 -0.3621823 -0.07701185
0.6387890625 -0.3796053 0.05840457
0.6399375 -0.3453259 0.1981064
0.6410859375 -0.2590063 0.3212398
0.642234375 -0.126228 0.4089966
0.6433828125 0.03784558 0.4407886
0.64453125 0.2094135 0.4049858
0.6456796875 0.3585795 0.2994661
0.646828125 0.4553075 0.1374295
0.6479765625 0.477279 -0.05404456
0.649125 0.4171908 -0.2391923
0.6502734375 0.2860013 -0.3822709
0.651421875 0.10991 -0.4566437
0.6525703125 -0.07575513 -0.4527424
0.65371875 -0.2379299 -0.3766575
0.6548671875 -0.3517049 -0.2487305
0.656015625 -0.4033649 -0.09428891
0.6571640625 -0.3928716 0.05990874
0.6583125 -0.329343 0.1910098
0.6594609375 -0.2282521 0.2840611
0.660609375 -0.1077336 0.332109
0.6617578125 0.01479102 0.3341497
0.66290625 0.1240287 0.2957524
0.6640546875 0.2089193 0.2266143
0.665203125 0.2633506 0.1373772
0.6663515625 0.2840409 0.03988314
0.6675 0.272339 -0.05411696
0.6686484375 0.2329096 -0.1367901
0.669796875 0.1706988 -0.2004196
0.6709453125 0.09425713 -0.239985
0.67209375 0.01118611 -0.252684
0.6732421875 -0.07028091 -0.2393469
0.674390625 -0.1421987 -0.2013509
0.6755390625 -0.1980379 -0.1432748
0.6766875 -0.2323626 -0.07080039
0.6778359375 -0.2421301 0.008478013
0.678984375 -0.2257229 0.08654349
0.6801328125 -0.1852099 0.1557001
0.68128125 -0.1240015 0.208204
0.6824296875 -0.04910617 0.2379345
0.683578125 0.031844 0.2418894
0.6847265625 0.1103733 0.2191062
0.685875 0.1771062 0.1716095
0.6870234375 0.2254116 0.1043426
0.688171875 0.2491591 0.02461593
0.6893203125 0.2454892 -0.05926788
0.69046875 0.2151169 -0.1384856
0.6916171875 0.1596036 -0.2043662
0.692765625 0.08471259 -0.2491426
0.6939140625 -0.002302104 -0.2676882
0.6950625 -0.09265352 -0.2571172
0.6962109375 -0.1769833 -0.2171078
0.697359375 -0.2453991 -0.1494466
0.6985078125 -0.2893191 -0.0597337
0.69965625 -0.3014199 0.04334734
0.7008046875 -0.2771749 0.1488369
0.701953125 -0.2160063 0.243946
0.7031015625 -0.1210051 0.3148622
0.70425 -0.001538669 0.3492134
0.7053984375 0.1290493 0.3375778
0.706546875 0.2513062 0.2765091
0.7076953125 0.3459483 0.1696865
0.70884375 0.3947494 0.02871929
0.7099921875 0.3847798 -0.1253376
0.711140625 0.3133231 -0.2672129
0.7122890625 0.1895448 -0.3706118
0.7134375 0.03266974 -0.4168018
0.7145859375 -0.1290682 -0.3969083
0.715734375 -0.2687499 -0.3146422
0.7168828125 -0.3627652 -0.1865961
0.71803125 -0.3983593 -0.03583808
0.7191796875 -0.3742802 0.1121287
0.720328125 -0.2987057 0.2357247
0.7214765625 -0.1871597 0.3191256
0.722625 -0.0588795 0.3543287
0.7237734375 0.06850465 0.3416869
0.724921875 0.1784486 0.2875897
0.7260703125 0.2598022 0.2024469
0.72721875 0.305106 0.09813474
0.7283671875 0.3121672 -0.01137828
0.729515625 0.2830608 -0.1135667
0.7306640625 0.2235651 -0.1981902
0.7318125 0.1409204 -0.2568897
0.7329609375 0.04612916 -0.2842306
0.734109375 -0.05036578 -0.2786678
0.7352578125 -0.1382448 -0.2420625
0.73640625 -0.2081217 -0.1796868
0.7375546875 -0.2528551 -0.09915512
0.738703125 -0.268252 -0.009591619
0.7398515625 -0.2533333 0.07865086
0.741 -0.2108484 0.1563756
0.7421484375 -0.1461525 0.2151224
0.743296875 -0.06687327 0.2493991
0.7444453125 0.01842664 0.2556956
0.74559375 0.1004369 0.2346099
0.7467421875 0.170894 0.1884792
0.747890625 0.2228728 0.1223598
0.7490390625 0.2414161 0.04161611
0.7501875 0.242398 -0.03971328
0.7513359375 0.2181171 -0.117359
0.752484375 0.1698155 -0.1837724
0.7536328125 0.101273 -0.2322744
0.75478125 0.01908204 -0.256411
0.7559296875 -0.06826236 -0.2528657
0.757078125 -0.1522114 -0.2193808
0.7582265625 -0.2217762 -0.1586475
0.759375 -0.2691772 -0.07528679
0.7605234375 -0.2854974 0.02247802
0.761671875 -0.2659922 0.1237793
0.7628203125 -0.2107806 0.2143959
0.76396875 -0.1231478 0.282323
0.7651171875 -0.01340316 0.3147666
0.766265625 0.1038508 0.3037231
0.7674140625 0.2118293 0.2488849
0.7685625 0.2928054 0.1543014
0.7697109375 0.332327 0.03447454
0.770859375 0.3223881 -0.09361883
0.7720078125 0.2634415 -0.2080801
0.77315625 0.1649705 -0.2905377
0.7743046875 0.04299953 -0.3279884
0.775453125 -0.08178496 -0.315273
0.7766015625 -0.1900582 -0.2570034
0.77775 -0.2656542 -0.1648524
0.7788984375 -0.2993935 -0.05405758
0.780046875 -0.290354 0.0573637
0.7811953125 -0.2429777 0.1534097
0.78234375 -0.1665304 0.2233183
0.7834921875 -0.07395674 0.2596342
0.784640625 0.02138282 0.2607917
0.7857890625 0.1077644 0.2299163
0.7869375 0.1759273 0.1728586
0.7880859375 0.2177997 0.0986739
0.789234375 0.2318446 0.01691988
0.7903828125 0.2178772 -0.06158456
0.79153125 0.1788555 -0.1285436
0.7926796875 0.1212193 -0.176709
0.793828125 0.05311533 -0.2018466
0.7949765625 -0.01747841 -0.2026679
0.796125 -0.08218078 -0.1806758
0.7972734375 -0.1342836 -0.1395065
0.798421875 -0.1693345 -0.08504217
0.7995703125 -0.1835293 -0.02419928
0.80071875 -0.1782413 0.03685443
0.8018671875 -0.153399 0.09107027
0.803015625 -0.1137115 0.133578
0.8041640625 -0.06365968 0.1613168
0.8053125 -0.008453595 0.17094
0.8064609375 0.04678928 0.1634415
0.807609375 0.09645125 0.1390441
0.8087578125 0.1355042 0.100425
0.80990625 0.1608678 0.05176092
0.8110546875 0.1692967 -0.002704697
0.812203125 0.160618 -0.05776213
0.8133515625 0.1343653 -0.1076083
0.8145 0.0933766 -0.1470771
0.8156484375 0.04057737 -0.1717198
0.816796875 -0.01812492 -0.1785055
0.8179453125 -0.07770465 -0.1653429
0.81909375 -0.1304775 -0.1327188
0.8202421875 -0.1708326 -0.08301193
0.821390625 -0.1927636 -0.0214076
0.8225390625 -0.1928561 0.04613638
0.8236875 -0.1699134 0.111636
0.8248359375 -0.1242627 0.1669478
0.825984375 -0.06100093 0.2046869
0.8271328125 0.01378818 0.2185995
0.82828125 0.09160616 0.2053567
0.8294296875 0.1624019 0.165076
0.830578125 0.2159051 0.09988639
0.8317265625 0.2445614 0.01704897
0.832875 0.2411484 -0.07472231
0.8340234375 0.2034048 -0.1615811
0.835171875 0.13301 -0.2312286
0.8363203125 0.03798984 -0.2712605
0.83746875 -0.0686211 -0.271277
0.8386171875 -0.1694492 -0.2289821
0.839765625 -0.2473948 -0.1480642
0.8409140625 -0.2874961 -0.04124952
0.8420625 -0.2812318 0.07292646
0.8432109375 -0.22964 0.1750904
0.844359375 -0.1423665 0.2469342
0.8455078125 -0.0360678 0.2775361
0.84665625 0.07075579 0.2639774
0.8478046875 0.1603281 0.2117157
0.848953125 0.2207285 0.1323555
0.8501015625 0.2452479 0.04010943
0.85125 0.2342289 -0.04971587
0.8523984375 0.1929275 -0.1259624
0.853546875 0.1301817 -0.1789573
0.8546953125 0.05688335 -0.2046568
0.85584375 -0.0167389 -0.2039179
0.8569921875 -0.08230373 -0.1790728
0.858140625 -0.1332346 -0.1353536
0.8592890625 -0.1649306 -0.08027951
0.8604375 -0.1762756 -0.02016181
0.8615859375 -0.1682418 0.03779791
0.862734375 -0.1424165 0.08837128
0.8638828125 -0.1036391 0.1264912
0.86503125 -0.05565748 0.1501333
0.8661796875 -0.004471889 0.1569293
0.867328125 0.04574405 0.1475891
0.8684765625 0.08957408 0.1234041
0.869625 0.1232037 0.08699019
0.8707734375 0.1433986 0.04256611
0.871921875 0.1485941 -0.006072478
0.8730703125 0.1380801 -0.05334143
0.87421875 0.1130835 -0.09482493
0.8753671875 0.0762877 -0.1264074
0.876515625 0.03087349 -0.1442087
0.8776640625 -0.01775557 -0.146508
0.8788125 -0.06440684 -0.1329356
0.8799609375 -0.1047001 -0.1049453
0.881109375 -0.133482 -0.0653699
0.8822578125 -0.1480483 -0.01800403
0.88340625 -0.1465973 0.03129599
0.8845546875 -0.1290612 0.07801156
0.885703125 -0.0974494 0.1168333
0.8868515625 -0.05459629 0.1437713
0.888 -0.00454442 0.1555816
0.8891484375 0.04732501 0.1506113
0.890296875 0.09546638 0.1290456
0.8914453125 0.1351152 0.09192855
0.89259375 0.1614217 0.04280126
0.8937421875 0.1700564 -0.01355918
0.894890625 0.1600794 -0.07156247
0.8960390625 0.129836 -0.1251408
0.8971875 0.08133882 -0.1662971
0.8983359375 0.0195645 -0.1899638
0.899484375 -0.04945824 -0.1901406
0.9006328125 -0.1168634 -0.1654096
0.90178125 -0.1731709 -0.1157302
0.9029296875 -0.2088366 -0.04666819
0.904078125 -0.2170986 0.033875
0.9052265625 -0.193248 0.1135662
0.906375 -0.1397569 0.180961
0.9075234375 -0.06259766 0.223007
0.908671875 0.02608953 0.2324977
0.9098203125 0.1125136 0.2064152
0.91096875 0.1817576 0.1480846
0.9121171875 0.222607 0.06858417
0.913265625 0.2298145 -0.0201279
0.9144140625 0.2024328 -0.1026947
0.9155625 0.1473313 -0.1672955
0.9167109375 0.07407199 -0.2057425
0.917859375 -0.005779889 -0.2133851
0.9190078125 -0.08023848 -0.1921136
0.92015625 -0.1401094 -0.1469904
0.9213046875 -0.1784989 -0.08596294
0.922453125 -0.1924566 -0.01748981
0.9236015625 -0.1823773 0.04948302
0.92475 -0.150023 0.1071376
0.9258984375 -0.101881 0.1491467
0.927046875 -0.04405795 0.1713554
0.9281953125 0.01715937 0.1728358
0.92934375 0.07362368 0.1539808
0.9304921875 0.1192462 0.1178072
0.931640625 0.1499329 0.06941795
0.9327890625 0.1619318 0.01437692
0.9339375 0.155391 -0.04052006
0.9350859375 0.130876 -0.08911264
0.936234375 0.09234461 -0.1262072
0.9373828125 0.04472492 -0.1481891
0.93853125 -0.007325655 -0.1529855
0.9396796875 -0.05721431 -0.1406521
0.940828125 -0.09953464 -0.1129144
0.9419765625 -0.1305908 -0.0734411
0.943125 -0.1472274 -0.02651618
0.9442734375 -0.1472873 0.02312765
0.945421875 -0.1314951 0.07056355
0.9465703125 -0.1017182 0.1103026
0.94771875 -0.06047668 0.1382078
0.9488671875 -0.01182336 0.1516655
0.950015625 0.03925006 0.1484005
0.9511640625 0.08753811 0.1288771
0.9523125 0.1267769 0.09413482
0.9534609375 0.1538245 0.04683579
0.954609375 0.1636799 -0.007274021
0.9557578125 0.1547369 -0.06364365
0.95690625 0.1270235 -0.114912
0.9580546875 0.08166075 -0.1547714
0.959203125 0.02402204 -0.1776396
0.9603515625 -0.04038595 -0.1784978
0.9615 -0.102819 -0.1568771
0.9626484375 -0.1549679 -0.1128703
0.963796875 -0.1888613 -0.05159975
0.9649453125 -0.198473 0.02032654
0.96609375 -0.1811479 0.09165945
0.9672421875 -0.1378945 0.1535753
0.968390625 -0.07368505 0.1960202
0.9695390625 0.002780326 0.211756
0.9706875 0.08075941 0.1973727
0.9718359375 0.1482956 0.1546124
0.972984375 0.1949318 0.08938877
0.9741328125 0.2144532 0.01182232
0.97528125 0.2024413 -0.06747942
0.9764296875 0.1625754 -0.1356011
0.977578125 0.1011635 -0.1838695
0.9787265625 0.02711386 -0.2052566
0.979875 -0.04831196 -0.1983894
0.9810234375 -0.1144714 -0.1650699
0.982171875 -0.1629729 -0.1114973
0.9833203125 -0.1884018 -0.0455456
0.98446875 -0.1885169 0.02369163
0.9856171875 -0.164868 0.08623813
0.986765625 -0.1219851 0.1352735
0.9879140625 -0.06584369 0.165706
