# GHZ S RI R 50.0
0.3 -0.5035586 0.4868962
0.3011484375 -0.2701412 0.594248
0.302296875 -0.03729281 0.6071881
0.3034453125 0.1639012 0.5436954
0.30459375 0.3160814 0.4277093
0.3057421875 0.4136601 0.2817078
0.306890625 0.4564544 0.1272229
0.3080390625 0.4511687 -0.02155497
0.3091875 0.4051159 -0.1541635
0.3103359375 0.3281012 -0.2626611
0.311484375 0.2271235 -0.3417333
0.3126328125 0.1110013 -0.3886011
0.31378125 -0.01250639 -0.4010522
0.3149296875 -0.1342475 -0.378134
0.316078125 -0.2462413 -0.3201771
0.3172265625 -0.3380011 -0.2305492
0.318375 -0.4011136 -0.1134121
0.3195234375 -0.4256425 0.02230807
0.320671875 -0.4045508 0.1638079
0.3218203125 -0.3348229 0.2963792
0.32296875 -0.2203027 0.4015266
0.3241171875 -0.07014558 0.4620442
0.325265625 0.09330578 0.4661559
0.3264140625 0.2516049 0.4113885
0.3275625 0.381856 0.3029956
0.3287109375 0.4664216 0.1561111
0.329859375 0.4962271 -0.01080377
0.3310078125 0.4688889 -0.1781388
0.33215625 0.3877762 -0.3284386
0.3333046875 0.2624114 -0.4458735
0.334453125 0.1031984 -0.5187595
0.3356015625 -0.07575319 -0.5389412
0.33675 -0.2597369 -0.4996254
0.3378984375 -0.4300646 -0.3993712
0.339046875 -0.5671514 -0.2391277
0.3401953125 -0.6463361 -0.02760282
0.34134375 -0.647924 0.2171044
0.3424921875 -0.5522668 0.4654048
0.343640625 -0.3535877 0.6757674
0.3447890625 -0.06512731 0.7990637
0.3459375 0.2725878 0.7905812
0.3470859375 0.591223 0.6279531
0.348234375 0.8126584 0.3300031
0.3493828125 0.8768826 -0.04222577
0.35053125 0.7664666 -0.4005672
0.3516796875 0.5147353 -0.6635655
0.352828125 0.1902098 -0.7812573
0.3539765625 -0.1308238 -0.7499024
0.355125 -0.3874842 -0.6004888
0.3562734375 -0.5466497 -0.382351
0.357421875 -0.6048908 -0.1439824
0.3585703125 -0.5744251 0.07508653
0.35971875 -0.4782753 0.2507783
0.3608671875 -0.3422331 0.3720777
0.362015625 -0.1895187 0.4362417
0.3631640625 -0.03689145 0.4485475
0.3643125 0.1017232 0.4158372
0.3654609375 0.216854 0.3483681
0.366609375 0.3027653 0.2546532
0.3677578125 0.3556337 0.1447717
0.36890625 0.3741361 0.02802528
0.3700546875 0.3584021 -0.08710635
0.371203125 0.3102959 -0.1915064
0.3723515625 0.2336525 -0.2764381
0.3735 0.1346021 -0.334104
0.3746484375 0.02128231 -0.3591444
0.375796875 -0.09505246 -0.346989
0.3769453125 -0.2024223 -0.2968661
0.37809375 -0.2872864 -0.2143239
0.3792421875 -0.3402745 -0.1077667
0.380390625 -0.3545986 0.01024396
0.3815390625 -0.328438 0.124534
0.3826875 -0.266916 0.222246
0.3838359375 -0.1787118 0.2925413
0.384984375 -0.07521764 0.3303434
0.3861328125 0.03221622 0.3329639
0.38728125 0.1334355 0.3037686
0.3884296875 0.2190117 0.2465398
0.389578125 0.2834451 0.1677327
0.3907265625 0.3223329 0.07425781
0.391875 0.3327036 -0.02693142
0.3930234375 0.3138487 -0.1281555
0.394171875 0.2660954 -0.2220723
0.3953203125 0.1913445 -0.3008463
0.39646875 0.09232736 -0.3574932
0.3976171875 -0.02433991 -0.3837722
0.398765625 -0.1516979 -0.3729413
0.3999140625 -0.2772366 -0.3209761
0.4010625 -0.3881816 -0.2239575
0.4022109375 -0.4668574 -0.0852654
0.403359375 -0.4971072 0.08553428
0.4045078125 -0.4621395 0.2706066
0.40565625 -0.3542042 0.4450613
0.4068046875 -0.1747412 0.5770763
0.407953125 0.05779016 0.6336932
0.4091015625 0.3127705 0.5911499
0.41025 0.5432824 0.4413497
0.4113984375 0.6999401 0.1965328
0.412546875 0.7414818 -0.1070634
0.4136953125 0.645173 -0.4094745
0.41484375 0.4210533 -0.6444153
0.4159921875 0.1144295 -0.75796
0.417140625 -0.2047327 -0.7242393
0.4182890625 -0.4679336 -0.5608734
0.4194375 -0.6272203 -0.3127984
0.4205859375 -0.6669948 -0.04014492
0.421734375 -0.5990232 0.206592
0.4228828125 -0.4538745 0.3932593
0.42403125 -0.2645248 0.5039874
0.4251796875 -0.06317446 0.5372894
0.426328125 0.1237526 0.5005708
0.4274765625 0.2779675 0.4078698
0.428625 0.3856395 0.2750659
0.4297734375 0.4396776 0.1209946
0.430921875 0.438831 -0.0358855
0.4320703125 0.3866872 -0.1777625
0.43321875 0.292432 -0.2897792
0.4343671875 0.170131 -0.3599522
0.435515625 0.03644867 -0.3836011
0.4366640625 -0.09234437 -0.3608
0.4378125 -0.2013589 -0.2982214
0.4389609375 -0.2792694 -0.2069718
0.440109375 -0.3210367 -0.09980001
0.4412578125 -0.3252901 0.00960548
0.44240625 -0.2955496 0.1101464
0.4435546875 -0.2387411 0.193516
0.444703125 -0.1618902 0.2527783
0.4458515625 -0.07320036 0.2851496
0.447 0.01858974 0.2893313
0.4481484375 0.1058175 0.2670103
0.449296875 0.182231 0.2207403
0.4504453125 0.2416165 0.1537537
0.45159375 0.279179 0.07221034
0.4527421875 0.291137 -0.01815292
0.453890625 0.275214 -0.1102751
0.4550390625 0.2307952 -0.1954831
0.4561875 0.160046 -0.2650727
0.4573359375 0.06797229 -0.3106775
0.458484375 -0.0380775 -0.3250251
0.4596328125 -0.1473625 -0.303221
0.46078125 -0.2476654 -0.243431
0.4619296875 -0.3246138 -0.150435
0.463078125 -0.3671468 -0.033068
0.4642265625 -0.3666995 0.09730293
0.465375 -0.3200303 0.2232973
0.4665234375 -0.2303292 0.3280537
0.467671875 -0.107057 0.3982791
0.4688203125 0.03759987 0.4232516
0.46996875 0.1868336 0.3957541
0.4711171875 0.3225762 0.3174209
0.472265625 0.4279731 0.1916344
0.4734140625 0.4861158 0.03051686
0.4745625 0.4841868 -0.1502699
0.4757109375 0.4151936 -0.3284365
0.476859375 0.2773767 -0.477552
0.4780078125 0.08314708 -0.5699749
0.47915625 -0.145127 -0.5815493
0.4803046875 -0.3716175 -0.4973539
0.481453125 -0.5531233 -0.320514
0.4826015625 -0.6484303 -0.07551286
0.48375 -0.6318761 0.1926548
0.4848984375 -0.5017662 0.4309115
0.486046875 -0.2857927 0.590678
0.4871953125 -0.02662229 0.6441474
0.48834375 0.2228624 0.5875519
0.4894921875 0.4199016 0.4407591
0.490640625 0.5355775 0.2381637
0.4917890625 0.5621457 0.01877338
0.4929375 0.5066708 -0.1817905
0.4940859375 0.3882805 -0.3370432
0.495234375 0.2322089 -0.4326094
0.4963828125 0.0638549 -0.4646261
0.49753125 -0.09506871 -0.4383633
0.4986796875 -0.2278169 -0.3645249
0.499828125 -0.3229259 -0.2577285
0.5009765625 -0.3761067 -0.1329257
0.502125 -0.3866113 -0.002874825
0.5032734375 -0.3569442 0.1177417
0.504421875 -0.2936524 0.2203131
0.5055703125 -0.2043693 0.2974026
0.50671875 -0.09849263 0.3418535
0.5078671875 0.01484927 0.351964
0.509015625 0.1256685 0.3269335
0.5101640625 0.222383 0.2695109
0.5113125 0.2974217 0.1839603
0.5124609375 0.3421548 0.07884632
0.513609375 0.3510249 -0.03664227
0.5147578125 0.3221886 -0.1506281
0.51590625 0.2571346 -0.2499238
0.5170546875 0.1615459 -0.322559
0.518203125 0.04604539 -0.3612787
0.5193515625 -0.077349 -0.3589096
0.5205 -0.1939597 -0.315739
0.5216484375 -0.2897685 -0.2354658
0.522796875 -0.3548101 -0.1272109
0.5239453125 -0.3804454 -0.002149902
0.52509375 -0.3639649 0.1257473
0.5262421875 -0.3063129 0.2427055
0.527390625 -0.2114363 0.335989
0.5285390625 -0.08900341 0.3946625
0.5296875 0.04922196 0.4106635
0.5308359375 0.1897777 0.3793657
0.531984375 0.3156939 0.3004367
0.5331328125 0.4125984 0.1786726
0.53428125 0.4632651 0.023908
0.5354296875 0.456293 -0.1464967
0.536578125 0.3853559 -0.3113692
0.5377265625 0.251969 -0.4444262
0.538875 0.07028331 -0.5207701
0.5400234375 -0.1356 -0.5206249
0.541171875 -0.3307009 -0.436493
0.5423203125 -0.4789886 -0.2770011
0.54346875 -0.5505558 -0.06835704
0.5446171875 -0.5301387 0.151325
0.545765625 -0.4229404 0.3411644
0.5469140625 -0.2513601 0.4680429
0.5480625 -0.05099197 0.5129908
0.5492109375 0.1419383 0.4768008
0.550359375 0.2975864 0.3737837
0.5515078125 0.3963237 0.228525
0.55265625 0.4321921 0.06627615
0.5538046875 0.4084865 -0.08710627
0.554953125 0.3370667 -0.2142711
0.5561015625 0.2320221 -0.3039992
0.55725 0.1099023 -0.3500951
0.5583984375 -0.01310003 -0.3528049
0.559546875 -0.1252776 -0.3169062
0.5606953125 -0.2161014 -0.2494575
0.56184375 -0.2778898 -0.1602041
0.5629921875 -0.3074653 -0.05865274
0.564140625 -0.3028299 0.04390078
0.5652890625 -0.2667475 0.1378683
0.5664375 -0.2036562 0.2141121
0.5675859375 -0.1206423 0.2651947
0.568734375 -0.02657121 0.2863475
0.5698828125 0.06821188 0.2760131
0.57103125 0.1537927 0.2358185
0.5721796875 0.2207452 0.1701033
0.573328125 0.262 0.08698592
0.5744765625 0.2736382 -0.00384491
0.575625 0.2546202 -0.09255586
0.5767734375 0.2090607 -0.1695221
0.577921875 0.1414392 -0.2267482
0.5790703125 0.05974504 -0.2591163
0.58021875 -0.02721997 -0.2641053
0.5813671875 -0.1103892 -0.2412438
0.582515625 -0.1826741 -0.1931699
0.5836640625 -0.2361405 -0.1255981
0.5848125 -0.2666794 -0.04363519
0.5859609375 -0.2705674 0.04454926
0.587109375 -0.2464998 0.1315747
0.5882578125 -0.1945745 0.2085408
0.58940625 -0.1198022 0.2676921
0.5905546875 -0.0264503 0.3012109
0.591703125 0.07683545 0.303199
0.5928515625 0.1808913 0.2696345
0.594 0.2728849 0.2003921
0.5951484375 0.339698 0.09839724
0.596296875 0.3684328 -0.02740452
0.5974453125 0.3503131 -0.1641073
0.59859375 0.2800716 -0.2926437
0.5997421875 0.1600072 -0.3919982
0.600890625 0.001685871 -0.4424401
0.6020390625 -0.1736534 -0.42651
0.6031875 -0.336842 -0.3384134
0.6043359375 -0.4556732 -0.1845235
0.605484375 -0.5025067 0.01159805
0.6066328125 -0.4622618 0.2148704
0.60778125 -0.3385015 0.3847298
0.6089296875 -0.1544551 0.4861325
0.610078125 0.05259339 0.4994667
0.6112265625 0.2402232 0.4281856
0.612375 0.3767267 0.2908062
0.6135234375 0.4434574 0.1196065
0.614671875 0.4381343 -0.0548667
0.6158203125 0.3712445 -0.204513
0.61696875 0.2594714 -0.3124266
0.6181171875 0.1248229 -0.3688635
0.619265625 -0.01367233 -0.3739726
0.6204140625 -0.1378357 -0.332526
0.6215625 -0.2358022 -0.2546209
0.6227109375 -0.2985516 -0.152242
0.623859375 -0.3215924 -0.04048071
0.6250078125 -0.306384 0.06936438
0.62615625 -0.2568755 0.1636526
0.6273046875 -0.1817649 0.2337191
0.628453125 -0.09035085 0.2728402
0.6296015625 0.005384909 0.2797278
0.63075 0.09494546 0.2554952
0.6318984375 0.169349 0.2043115
0.633046875 0.221292 0.1344785
0.6341953125 0.2469397 0.05428905
0.63534375 0.246087 -0.02728553
0.6364921875 0.2197621 -0.10238
0.637640625 0.172629 -0.164114
0.6387890625 0.1107139 -0.2074423
0.6399375 0.0395246 -0.228901
0.6410859375 -0.03399996 -0.2282934
0.642234375 -0.1027643 -0.2050654
0.6433828125 -0.1613247 -0.1625527
0.64453125 -0.2044631 -0.1039046
0.6456796875 -0.2279567 -0.03542469
0.646828125 -0.229519 0.03834087
0.6479765625 -0.2085108 0.1095287
0.649125 -0.1654677 0.1723675
0.6502734375 -0.1039937 0.2196273
0.651421875 -0.02889187 0.2459824
0.6525703125 0.05296984 0.2472096
0.65371875 0.1331378 0.2217573
0.6548671875 0.2026802 0.1702708
0.656015625 0.2531641 0.09702945
0.6571640625 0.2782844 0.008625194
0.6583125 0.2722794 -0.08595923
0.6594609375 0.2342385 -0.176401
0.660609375 0.1669537 -0.2515653
0.6617578125 0.07469983 -0.3018564
0.66290625 -0.03223281 -0.3189821
0.6640546875 -0.1433234 -0.2988258
0.665203125 -0.2448952 -0.2395986
0.6663515625 -0.3238434 -0.1451582
0.6675 -0.3675557 -0.02452603
0.6686484375 -0.3664874 0.1105128
0.669796875 -0.3142404 0.2432264
0.6709453125 -0.2128707 0.354029
0.67209375 -0.07017403 0.4226777
0.6732421875 0.09627485 0.4330116
0.674390625 0.2613912 0.3755946
0.6755390625 0.3953201 0.2526797
0.6766875 0.4716051 0.08049273
0.6778359375 0.4706927 -0.1117687
0.678984375 0.3904202 -0.2890278
0.6801328125 0.2438039 -0.4171233
0.68128125 0.05970993 -0.4727921
0.6824296875 -0.1262462 -0.4493406
0.683578125 -0.2821351 -0.356227
0.6847265625 -0.3837369 -0.2150764
0.685875 -0.4205087 -0.0532846
0.6870234375 -0.3950737 0.1016497
0.688171875 -0.3173048 0.2290415
0.6893203125 -0.2054864 0.31369
0.69046875 -0.07802227 0.3511153
0.6916171875 0.04736237 0.3421285
0.692765625 0.1557279 0.2932644
0.6939140625 0.2370505 0.2151238
0.6950625 0.2854067 0.1183062
0.6962109375 0.2991374 0.01565904
0.697359375 0.2793112 -0.08195639
0.6985078125 0.2309195 -0.1648454
0.69965625 0.1603288 -0.2264777
0.7008046875 0.07598197 -0.2615497
0.701953125 -0.01324838 -0.2676728
0.7031015625 -0.09863741 -0.2452426
0.70425 -0.1716396 -0.1975493
0.7053984375 -0.2253631 -0.129367
0.706546875 -0.2539524 -0.04799617
0.7076953125 -0.2544833 0.03779898
0.70884375 -0.2274401 0.1190858
0.7099921875 -0.1750847 0.1876265
0.711140625 -0.1031047 0.2350862
0.7122890625 -0.01940719 0.2566983
0.7134375 0.06715914 0.2493756
0.7145859375 0.1468088 0.2134943
0.715734375 0.2109656 0.1536501
0.7168828125 0.2517107 0.07502421
0.71803125 0.2649364 -0.01324826
0.7191796875 0.2483132 -0.1018954
0.720328125 0.2020629 -0.1816138
0.7214765625 0.131816 -0.2431055
0.722625 0.04280002 -0.2784612
0.7237734375 -0.0554823 -0.2818262
0.724921875 -0.1518705 -0.2516696
0.7260703125 -0.235021 -0.1887622
0.72721875 -0.2941374 -0.09786718
0.7283671875 -0.3184185 0.01217361
0.729515625 -0.3020202 0.1282635
0.7306640625 -0.242286 0.2350801
0.7318125 -0.1434388 0.3157443
0.7329609375 -0.01729565 0.355977
0.734109375 0.1194191 0.3441624
0.7352578125 0.2453317 0.2791985
0.73640625 0.338844 0.1667944
0.7375546875 0.3804828 0.02457851
0.738703125 0.3617069 -0.1243083
0.7398515625 0.2851642 -0.2537166
0.741 0.1641307 -0.3402962
0.7421484375 0.02129035 -0.3719377
0.743296875 -0.1194859 -0.3452297
0.7444453125 -0.2344745 -0.2685017
0.74559375 -0.3093023 -0.1574192
0.7467421875 -0.3354919 -0.03252857
0.747890625 -0.3140225 0.08843747
0.7490390625 -0.2434208 0.1822422
0.7501875 -0.1578815 0.2490209
0.7513359375 -0.05949908 0.2795296
0.752484375 0.0398379 0.2746829
0.7536328125 0.1279536 0.2377737
0.75478125 0.1964169 0.1749105
0.7559296875 0.2389926 0.096386
0.757078125 0.2523325 0.01036594
0.7582265625 0.2365901 -0.07371125
0.759375 0.1952971 -0.1459679
0.7605234375 0.1333196 -0.2001568
0.761671875 0.05868654 -0.2302776
0.7628203125 -0.0213516 -0.2341338
0.76396875 -0.09715003 -0.2121094
0.7651171875 -0.1606413 -0.1663804
0.766265625 -0.2051927 -0.1028838
0.7674140625 -0.2265782 -0.02892261
0.7685625 -0.2228033 0.04715384
0.7697109375 -0.1936826 0.1178748
0.770859375 -0.1439637 0.1749027
0.7720078125 -0.07864551 0.2122818
0.77315625 -0.00464428 0.2269326
0.7743046875 0.07025938 0.2169143
0.775453125 0.1382766 0.1828722
0.7766015625 0.1919708 0.1289953
0.77775 0.226389 0.05962737
0.7788984375 0.2370533 -0.01830333
0.780046875 0.2214439 -0.09723931
0.7811953125 0.180442 -0.1683064
0.78234375 0.1172905 -0.2238358
0.7834921875 0.0361711 -0.2565253
0.784640625 -0.05428827 -0.2608936
0.7857890625 -0.1443528 -0.2336384
0.7869375 -0.2232364 -0.174644
0.7880859375 -0.2795779 -0.08806568
0.789234375 -0.3024826 0.01698787
0.7903828125 -0.2850599 0.1288288
0.79153125 -0.2252157 0.2309024
0.7926796875 -0.1278866 0.3064392
0.793828125 -0.004215762 0.340397
0.7949765625 0.1279606 0.3232071
0.796125 0.2459058 0.253797
0.7972734375 0.3276385 0.1417101
0.798421875 0.3579721 0.003784559
0.7995703125 0.3305157 -0.1346416
0.80071875 0.2500383 -0.2488015
0.8018671875 0.1326301 -0.3201237
0.803015625 0.0004293596 -0.3385692
0.8041640625 -0.1239547 -0.3049959
0.8053125 -0.2215316 -0.2293075
0.8064609375 -0.2800497 -0.126731
0.807609375 -0.2956608 -0.01569604
0.8087578125 -0.2716963 0.08825396
0.80990625 -0.2138857 0.1720764
0.8110546875 -0.1348558 0.2271242
0.812203125 -0.04570831 0.2507151
0.8133515625 0.04178923 0.2423139
0.8145 0.1179233 0.2060624
0.8156484375 0.1754261 0.1485954
0.816796875 0.2087142 0.07850005
0.8179453125 0.2163961 0.003658583
0.81909375 0.1988898 -0.06701995
0.8202421875 0.1608645 -0.1259022
0.821390625 0.1069248 -0.1677307
0.8225390625 0.0442098 -0.188572
0.8236875 -0.01988559 -0.1879302
0.8248359375 -0.07847426 -0.1670756
0.825984375 -0.1259151 -0.1291821
0.8271328125 -0.1573039 -0.07955088
0.82828125 -0.1710165 -0.02384747
0.8294296875 -0.1667555 0.03194404
0.830578125 -0.1453322 0.08225715
0.8317265625 -0.1101561 0.1226403
0.832875 -0.06488808 0.1496329
0.8340234375 -0.01401417 0.1611432
0.835171875 0.03751169 0.1561821
0.8363203125 0.08480353 0.1361915
0.83746875 0.1232741 0.102488
0.8386171875 0.1501799 0.05815964
0.839765625 0.1621183 0.007210192
0.8409140625 0.1574087 -0.04480118
0.8420625 0.1362306 -0.09420081
0.8432109375 0.1001327 -0.1352555
0.844359375 0.05170942 -0.1629816
0.8455078125 -0.004651706 -0.1738067
0.84665625 -0.06233769 -0.16593
0.8478046875 -0.1161177 -0.1393421
0.848953125 -0.1591764 -0.09524015
0.8501015625 -0.186204 -0.03729219
0.85125 -0.1928182 0.0277088
0.8523984375 -0.1763343 0.09363662
0.853546875 -0.1378705 0.1520561
0.8546953125 -0.07950862 0.1953433
0.85584375 -0.008254311 0.2173138
0.8569921875 0.06966499 0.2132103
0.858140625 0.1438025 0.1806196
0.8592890625 0.2047623 0.1228701
0.8604375 0.2429622 0.04334838
0.8615859375 0.2508319 -0.04853476
0.862734375 0.2232875 -0.1409808
0.8638828125 0.1607814 -0.2210027
0.86503125 0.06875627 -0.2731138
0.8661796875 -0.04100898 -0.2864229
0.867328125 -0.1510857 -0.2548052
0.8684765625 -0.2420314 -0.1791892
0.869625 -0.2964643 -0.0713598
0.8707734375 -0.301502 0.05076851
0.871921875 -0.2564759 0.1644311
0.8730703125 -0.1695712 0.2487286
0.87421875 -0.05841055 0.2900586
0.8753671875 0.05669921 0.2833114
0.876515625 0.1556438 0.233756
0.8776640625 0.2245328 0.1526196
0.8788125 0.2557806 0.0560977
0.8799609375 0.2489862 -0.04009454
0.881109375 0.2092281 -0.1222678
0.8822578125 0.1458061 -0.1814001
0.88340625 0.06982417 -0.2126672
0.8845546875 -0.007972579 -0.2151608
0.885703125 -0.07845882 -0.191978
0.8868515625 -0.1340478 -0.148519
0.888 -0.1704802 -0.091848
0.8891484375 -0.1854665 -0.02895802
0.890296875 -0.1793277 0.03303012
0.8914453125 -0.1545307 0.08740103
0.89259375 -0.1150705 0.1302811
0.8937421875 -0.06509418 0.1577291
0.894890625 -0.01041914 0.167588
0.8960390625 0.04409703 0.1598268
0.8971875 0.09232939 0.1355166
0.8983359375 0.1300105 0.09727947
0.899484375 0.1537369 0.0497526
0.9006328125 0.1610377 -0.002878973
0.90178125 0.1511361 -0.05515352
0.9029296875 0.1247089 -0.1011565
0.904078125 0.08490423 -0.1367198
0.9052265625 0.03535221 -0.1573905
0.906375 -0.01831259 -0.1609589
0.9075234375 -0.07039466 -0.1467808
0.908671875 -0.1150058 -0.1158901
0.9098203125 -0.1476166 -0.07227879
0.91096875 -0.1642175 -0.01953387
0.9121171875 -0.1629682 0.03608532
0.913265625 -0.1435559 0.08869305
0.9144140625 -0.1070636 0.1321783
0.9155625 -0.0580677 0.1624878
0.9167109375 -0.001029484 0.1753319
0.917859375 0.05845224 0.1684617
0.9190078125 0.1132585 0.1420468
0.92015625 0.1573051 0.09787874
0.9213046875 0.1857244 0.03978421
0.922453125 0.1927174 -0.02663153
0.9236015625 0.1762702 -0.09342829
0.92475 0.1362839 -0.1524654
0.9258984375 0.07645637 -0.1957915
0.927046875 0.002152954 -0.2160656
0.9281953125 -0.07747689 -0.2075204
0.92934375 -0.1503339 -0.1695288
0.9304921875 -0.2063688 -0.1055837
0.931640625 -0.2349116 -0.02229078
0.9327890625 -0.2297082 0.06760529
0.9339375 -0.1899584 0.1500583
0.9350859375 -0.1200843 0.2113858
0.936234375 -0.03190585 0.2412788
0.9373828125 0.06059673 0.2343219
0.93853125 0.142766 0.1928514
0.9396796875 0.2014485 0.1238718
0.940828125 0.2288532 0.04002806
0.9419765625 0.2228294 -0.04602678
0.943125 0.1866824 -0.1212983
0.9442734375 0.1269847 -0.1759856
0.945421875 0.05436741 -0.2041661
0.9465703125 -0.02113187 -0.2047839
0.94771875 -0.0891924 -0.17959
0.9488671875 -0.1421701 -0.1337329
0.950015625 -0.174978 -0.07475387
0.9511640625 -0.1859756 -0.009691469
0.9523125 -0.1741006 0.05340924
0.9534609375 -0.1426555 0.1070212
0.954609375 -0.09637213 0.1461385
0.9557578125 -0.04055698 0.1668326
0.95690625 0.01797777 0.1680878
0.9580546875 0.0723537 0.1500431
0.959203125 0.1168702 0.1154335
0.9603515625 0.146969 0.06877033
0.9615 0.1595964 0.01550086
0.9626484375 0.1541072 -0.03814667
0.963796875 0.131035 -0.08669369
0.9649453125 0.09408417 -0.1243182
0.96609375 0.04685 -0.1475057
0.9672421875 -0.004565916 -0.1537454
0.968390625 -0.05480659 -0.1428833
0.9695390625 -0.09885229 -0.1164571
0.9706875 -0.1315793 -0.07734547
0.9718359375 -0.1500142 -0.02985119
0.972984375 -0.1518803 0.02114712
0.9741328125 -0.1371267 0.07030302
0.97528125 -0.1073711 0.1128919
0.9764296875 -0.06473472 0.1437729
0.977578125 -0.01383683 0.1590954
0.9787265625 0.04077182 0.1573197
0.979875 0.09307326 0.1371567
0.9810234375 0.1364944 0.1001948
0.982171875 0.1663691 0.04887077
0.9833203125 0.1774203 -0.01144223
0.98446875 0.1668738 -0.07424625
0.9856171875 0.1340304 -0.1313977
0.986765625 0.08120594 -0.1748984
0.9879140625 0.01431117 -0.1975673
