# GHZ S RI R 50.0
0.3 -0.3006154 0.5564933
0.3011484375 -0.07711633 0.589147
0.302296875 0.1245703 0.5439092
0.3034453125 0.2837227 0.4414751
0.30459375 0.390768 0.3047079
0.3057421875 0.4445803 0.1541992
0.306890625 0.4493067 0.005092531
0.3080390625 0.4121788 -0.1295689
0.3091875 0.3418438 -0.2420329
0.3103359375 0.2461272 -0.326681
0.311484375 0.133975 -0.3801243
0.3126328125 0.01255591 -0.3996854
0.31378125 -0.1087473 -0.3852852
0.3149296875 -0.2230925 -0.3363899
0.316078125 -0.3207797 -0.2552835
0.3172265625 -0.3927044 -0.1457248
0.318375 -0.4301127 -0.01347555
0.3195234375 -0.424271 0.1298163
0.320671875 -0.3697928 0.2711432
0.3218203125 -0.2661494 0.3915528
0.32296875 -0.1213626 0.4736247
0.3241171875 0.05084836 0.5010666
0.325265625 0.2276062 0.4641826
0.3264140625 0.3838546 0.3642646
0.3275625 0.4964019 0.2117447
0.3287109375 0.5490397 0.02762767
0.329859375 0.5341571 -0.1667909
0.3310078125 0.453164 -0.3466265
0.33215625 0.3137676 -0.4916187
0.3333046875 0.1303463 -0.5842661
0.334453125 -0.07958391 -0.6117176
0.3356015625 -0.2974219 -0.5654957
0.33675 -0.4948541 -0.443736
0.3378984375 -0.6478282 -0.2481706
0.339046875 -0.7258174 0.005566064
0.3401953125 -0.7025675 0.2879632
0.34134375 -0.5629914 0.5579069
0.3424921875 -0.311684 0.7616773
0.343640625 0.02032452 0.8471969
0.3447890625 0.3690819 0.7812569
0.3459375 0.6602802 0.5653039
0.3470859375 0.8294033 0.242643
0.348234375 0.8409372 -0.1163067
0.3493828125 0.7007416 -0.433044
0.35053125 0.4501392 -0.6520507
0.3516796875 0.1494019 -0.7393471
0.352828125 -0.1398295 -0.6991432
0.3539765625 -0.3703563 -0.5588304
0.355125 -0.5145283 -0.3586063
0.3562734375 -0.5694969 -0.1403781
0.357421875 -0.5439462 0.06320839
0.3585703125 -0.4586598 0.2295138
0.35971875 -0.3338873 0.3465517
0.3608671875 -0.1917967 0.4103848
0.362015625 -0.04849609 0.4268579
0.3631640625 0.08369632 0.4004574
0.3643125 0.1948155 0.3407651
0.3654609375 0.2798759 0.2552733
0.366609375 0.3344058 0.153985
0.3677578125 0.3574679 0.04459811
0.36890625 0.3486393 -0.06469889
0.3700546875 0.3096131 -0.165687
0.371203125 0.2428511 -0.2514581
0.3723515625 0.1529456 -0.314117
0.3735 0.04750613 -0.347626
0.3746484375 -0.065214 -0.3467586
0.375796875 -0.1735399 -0.3095424
0.3769453125 -0.2661688 -0.2385479
0.37809375 -0.3310018 -0.1391069
0.3792421875 -0.3597578 -0.02256639
0.380390625 -0.3472075 0.09704375
0.3815390625 -0.2956268 0.2053987
0.3826875 -0.2114587 0.2897651
0.3838359375 -0.1058336 0.3413228
0.384984375 0.009570719 0.3555653
0.3861328125 0.1212643 0.3331386
0.38728125 0.2197634 0.2780282
0.3884296875 0.2962559 0.1960441
0.389578125 0.3452365 0.09579277
0.3907265625 0.3627042 -0.01535888
0.391875 0.3471557 -0.1287249
0.3930234375 0.2983738 -0.2353114
0.394171875 0.2173483 -0.3267033
0.3953203125 0.108638 -0.3936605
0.39646875 -0.02269515 -0.426812
0.3976171875 -0.1683708 -0.4175774
0.398765625 -0.3142682 -0.3602615
0.3999140625 -0.4444976 -0.2484108
0.4010625 -0.5383763 -0.08466941
0.4022109375 -0.5720925 0.1206915
0.403359375 -0.5231397 0.346383
0.4045078125 -0.3779274 0.5562341
0.40565625 -0.1385583 0.7041437
0.4068046875 0.1672891 0.7419298
0.407953125 0.4834503 0.6353215
0.4091015625 0.7319372 0.3834772
0.41025 0.8412637 0.03052202
0.4113984375 0.7711911 -0.3376755
0.412546875 0.5400597 -0.6264852
0.4136953125 0.2131727 -0.7692676
0.41484375 -0.1209468 -0.7492139
0.4159921875 -0.3899362 -0.5985648
0.417140625 -0.5551621 -0.3712578
0.4182890625 -0.610232 -0.1241525
0.4194375 -0.5726444 0.1014902
0.4205859375 -0.466269 0.2803324
0.421734375 -0.318465 0.3998163
0.4228828125 -0.1532529 0.457892
0.42403125 0.00911735 0.4587199
0.4251796875 0.1547153 0.4103611
0.426328125 0.2707399 0.3230453
0.4274765625 0.35016 0.2084222
0.428625 0.3876134 0.07874365
0.4297734375 0.3818911 -0.05242951
0.430921875 0.3347705 -0.1726132
0.4320703125 0.2527403 -0.2683221
0.43321875 0.1452172 -0.3305559
0.4343671875 0.02588119 -0.3526685
0.435515625 -0.0917958 -0.3338773
0.4366640625 -0.1936975 -0.2776246
0.4378125 -0.2686265 -0.1933123
0.4389609375 -0.3103836 -0.09224872
0.440109375 -0.3159148 0.01408833
0.4412578125 -0.2884088 0.1132206
0.44240625 -0.2323332 0.1956917
0.4435546875 -0.1558095 0.2549324
0.444703125 -0.06696571 0.2874053
0.4458515625 0.02569692 0.2918622
0.447 0.1146689 0.2684906
0.4481484375 0.1922293 0.2203661
0.449296875 0.2528452 0.1512923
0.4504453125 0.2908158 0.06636335
0.45159375 0.3025659 -0.02762645
0.4527421875 0.2849358 -0.1234945
0.453890625 0.2382109 -0.213102
0.4550390625 0.1629957 -0.2868518
0.4561875 0.06391572 -0.3356296
0.4573359375 -0.05101235 -0.3518931
0.458484375 -0.1716498 -0.3280461
0.4596328125 -0.2834662 -0.2623532
0.46078125 -0.3716063 -0.156853
0.4619296875 -0.420278 -0.0203194
0.463078125 -0.4182458 0.1328987
0.4642265625 -0.3596852 0.2828789
0.465375 -0.2455822 0.4081644
0.4665234375 -0.08736908 0.4886219
0.467671875 0.09872409 0.5068956
0.4688203125 0.2866476 0.4545824
0.46996875 0.4511092 0.330151
0.4711171875 0.5626565 0.145848
0.472265625 0.5985925 -0.07943121
0.4734140625 0.542562 -0.3121199
0.4745625 0.3920612 -0.5137264
0.4757109375 0.163855 -0.6433966
0.476859375 -0.1064516 -0.6687289
0.4780078125 -0.3681999 -0.5768877
0.47915625 -0.5693009 -0.3825155
0.4803046875 -0.6696165 -0.1232977
0.481453125 -0.653074 0.1491039
0.4826015625 -0.5302801 0.3832826
0.48375 -0.3322408 0.5426785
0.4848984375 -0.09756965 0.6081681
0.486046875 0.1325496 0.5797887
0.4871953125 0.3250912 0.4719587
0.48834375 0.4574402 0.3082567
0.4894921875 0.5172426 0.1181039
0.490640625 0.5049732 -0.07147147
0.4917890625 0.4302598 -0.2346529
0.4929375 0.3088899 -0.3550787
0.4940859375 0.1616414 -0.4225108
0.495234375 0.008496543 -0.4345352
0.4963828125 -0.1322505 -0.3975955
0.49753125 -0.247377 -0.3200313
0.4986796875 -0.3275636 -0.2147824
0.499828125 -0.3682759 -0.09472825
0.5009765625 -0.369662 0.02728575
0.502125 -0.334285 0.1403265
0.5032734375 -0.2687251 0.234615
0.504421875 -0.1786548 0.3032752
0.5055703125 -0.07374422 0.3412018
0.50671875 0.03681703 0.3459335
0.5078671875 0.1440676 0.3170174
0.509015625 0.2378985 0.2564081
0.5101640625 0.3092597 0.168678
0.5113125 0.3512055 0.06097858
0.5124609375 0.3567867 -0.05611586
0.513609375 0.323808 -0.1719455
0.5147578125 0.253876 -0.2738206
0.51590625 0.1516044 -0.348816
0.5170546875 0.02738068 -0.3862327
0.518203125 -0.1061977 -0.3800069
0.5193515625 -0.2320801 -0.3278048
0.5205 -0.3355688 -0.2343097
0.5216484375 -0.4027634 -0.108203
0.522796875 -0.4235004 0.03614107
0.5239453125 -0.3931778 0.1822505
0.52509375 -0.3134283 0.3128958
0.5262421875 -0.1901939 0.4109576
0.527390625 -0.03666715 0.4623849
0.5285390625 0.1309534 0.4572932
0.5296875 0.2920344 0.3913323
0.5308359375 0.4241279 0.2684242
0.531984375 0.5061544 0.09915254
0.5331328125 0.5206527 -0.09641488
0.53428125 0.4577034 -0.2903354
0.5354296875 0.3198078 -0.4505014
0.536578125 0.1254863 -0.5466849
0.5377265625 -0.09612027 -0.5573657
0.538875 -0.3052632 -0.477267
0.5400234375 -0.4644957 -0.3181967
0.541171875 -0.54412 -0.1117403
0.5423203125 -0.5340172 0.1050159
0.54346875 -0.4408179 0.2937446
0.5446171875 -0.2863939 0.4252795
0.545765625 -0.10194 0.4835182
0.5469140625 0.08142319 0.4675386
0.5480625 0.2361479 0.3882895
0.5492109375 0.3441761 0.2652265
0.550359375 0.3975545 0.1204672
0.5515078125 0.3961647 -0.02459262
0.55265625 0.3480669 -0.1528193
0.5538046875 0.2639444 -0.2508194
0.554953125 0.1581986 -0.312307
0.5561015625 0.04358898 -0.3347885
0.55725 -0.06596927 -0.3198162
0.5583984375 -0.1618484 -0.2722528
0.559546875 -0.2356976 -0.2000254
0.5606953125 -0.2813721 -0.1110982
0.56184375 -0.2968089 -0.0142888
0.5629921875 -0.2816396 0.08101557
0.564140625 -0.2378252 0.1657856
0.5652890625 -0.1706301 0.2318044
0.5664375 -0.08563435 0.27334
0.5675859375 0.007966753 0.2855828
0.568734375 0.1006076 0.2673874
0.5698828125 0.1829454 0.2195124
0.57103125 0.2453357 0.1474981
0.5721796875 0.2812567 0.05848298
0.573328125 0.2857147 -0.03754888
0.5744765625 0.258345 -0.130593
0.575625 0.2015266 -0.2094442
0.5767734375 0.1222156 -0.2656186
0.577921875 0.02797184 -0.2928943
0.5790703125 -0.07065473 -0.2886376
0.58021875 -0.1631498 -0.2525692
0.5813671875 -0.2400941 -0.1875859
0.582515625 -0.2934791 -0.1004667
0.5836640625 -0.3168416 0.001149877
0.5848125 -0.306443 0.1081972
0.5859609375 -0.2607894 0.2097666
0.587109375 -0.1818888 0.2947536
0.5882578125 -0.07516994 0.3511568
0.58940625 0.05137496 0.370491
0.5905546875 0.18451 0.3451489
0.591703125 0.3084548 0.2710814
0.5928515625 0.4043654 0.1493533
0.594 0.4531369 -0.009957002
0.5951484375 0.4371614 -0.1877549
0.596296875 0.3475836 -0.3566853
0.5974453125 0.1877171 -0.483443
0.59859375 -0.02095519 -0.536465
0.5997421875 -0.2417962 -0.4942575
0.600890625 -0.4287216 -0.3571287
0.6020390625 -0.5384502 -0.1501553
0.6031875 -0.5467461 0.08356906
0.6043359375 -0.4555512 0.2918546
0.605484375 -0.2912742 0.4357626
0.6066328125 -0.09185139 0.4950007
0.60778125 0.1011994 0.4698693
0.6089296875 0.2578062 0.3778853
0.610078125 0.3602261 0.2436307
0.6112265625 0.4026236 0.09172256
0.612375 0.3887436 -0.05336146
0.6135234375 0.3296955 -0.176946
0.614671875 0.2383441 -0.2665053
0.6158203125 0.1289548 -0.3175932
0.61696875 0.01459698 -0.3291987
0.6181171875 -0.09208202 -0.3044442
0.619265625 -0.1818414 -0.249263
0.6204140625 -0.2464938 -0.1710302
0.6215625 -0.281386 -0.07903411
0.6227109375 -0.2855807 0.01711922
0.623859375 -0.2584473 0.1075663
0.6250078125 -0.2056383 0.1821354
0.62615625 -0.1327958 0.2350395
0.6273046875 -0.04815681 0.2612614
0.628453125 0.03877923 0.2585436
0.6296015625 0.1190326 0.228414
0.63075 0.183505 0.1750899
0.6318984375 0.2272859 0.1049972
0.633046875 0.2455767 0.02593783
0.6341953125 0.2383719 -0.05329596
0.63534375 0.2069089 -0.1250717
0.6364921875 0.1556337 -0.1826412
0.637640625 0.08932661 -0.2209801
0.6387890625 0.01580047 -0.2371704
0.6399375 -0.05928842 -0.2302684
0.6410859375 -0.1287892 -0.2010722
0.642234375 -0.1861929 -0.1515921
0.6433828125 -0.2267492 -0.08665024
0.64453125 -0.2456876 -0.0114142
0.6456796875 -0.2409155 0.06717006
0.646828125 -0.2120439 0.1429048
0.6479765625 -0.1590825 0.2074172
0.649125 -0.08653247 0.2543701
0.6502734375 -0.0004538927 0.2765039
0.651421875 0.0927495 0.2698967
0.6525703125 0.1821924 0.2316738
0.65371875 0.2576019 0.1638638
0.6548671875 0.3085621 0.07068477
0.656015625 0.3262148 -0.0392282
0.6571640625 0.3046767 -0.1541081
0.6583125 0.2414579 -0.2598012
0.6594609375 0.1411738 -0.3406348
0.660609375 0.01284282 -0.3831016
0.6617578125 -0.1297386 -0.3767334
0.66290625 -0.2671731 -0.3169747
0.6640546875 -0.3787026 -0.2045171
0.665203125 -0.4429841 -0.05148492
0.6663515625 -0.4446887 0.1231147
0.6675 -0.3749703 0.2914751
0.6686484375 -0.2392932 0.4239087
0.669796875 -0.05613224 0.4924045
0.6709453125 0.1439492 0.4801505
0.67209375 0.3219426 0.3855487
0.6732421875 0.4458156 0.2266472
0.674390625 0.4924561 0.03329922
0.6755390625 0.4572189 -0.1582362
0.6766875 0.3519938 -0.314031
0.6778359375 0.1993583 -0.4119373
0.678984375 0.02867552 -0.4417381
0.6801328125 -0.1326742 -0.4055052
0.68128125 -0.2620151 -0.3165353
0.6824296875 -0.3450593 -0.1919753
0.683578125 -0.3758803 -0.05340198
0.6847265625 -0.3559591 0.08000889
0.685875 -0.2936298 0.1921745
0.6870234375 -0.2009098 0.2715779
0.688171875 -0.09232457 0.3118781
0.6893203125 0.01838805 0.3135844
0.69046875 0.1187602 0.2792351
0.6916171875 0.1987623 0.21681
0.692765625 0.2517706 0.1350272
0.6939140625 0.2749486 0.04352058
0.6950625 0.2681782 -0.04775243
0.6962109375 0.2334318 -0.1297777
0.697359375 0.1756238 -0.1950172
0.6985078125 0.1017951 -0.2386153
0.69965625 0.01895967 -0.2562055
0.7008046875 -0.06420092 -0.2469965
0.701953125 -0.1409185 -0.2123944
0.7031015625 -0.2018965 -0.1552078
0.70425 -0.2423601 -0.08081289
0.7053984375 -0.2568606 0.002590079
0.706546875 -0.2435693 0.08791285
0.7076953125 -0.2026722 0.1649441
0.70884375 -0.1382267 0.2252754
0.7099921875 -0.05591983 0.2614698
0.711140625 0.03607406 0.269173
0.7122890625 0.1258138 0.2449727
0.7134375 0.2043953 0.1912564
0.7145859375 0.2621447 0.1122196
0.715734375 0.2899416 0.01662549
0.7168828125 0.283808 -0.08539516
0.71803125 0.2424663 -0.1816098
0.7191796875 0.1685794 -0.2602029
0.720328125 0.06938121 -0.3097406
0.7214765625 -0.0443415 -0.3231857
0.722625 -0.1597815 -0.2938496
0.7237734375 -0.2611052 -0.2236467
0.724921875 -0.3333381 -0.1176631
0.7260703125 -0.363088 0.01196476
0.72721875 -0.3417808 0.148783
0.7283671875 -0.2683351 0.2719174
0.729515625 -0.1493297 0.3602827
0.7306640625 -0.001280898 0.3959882
0.7318125 0.1514769 0.3712337
0.7329609375 0.2846748 0.2859448
0.734109375 0.3733668 0.1545722
0.7352578125 0.4017596 -0.001187708
0.73640625 0.3665375 -0.153189
0.7375546875 0.2754203 -0.2770218
0.738703125 0.1471052 -0.3529979
0.7398515625 0.003992454 -0.3725354
0.741 -0.1306057 -0.3379638
0.7421484375 -0.2376439 -0.2585801
0.743296875 -0.3045802 -0.1501443
0.7444453125 -0.3272264 -0.03058649
0.74559375 -0.3067957 0.08390547
0.7467421875 -0.2503339 0.1794424
0.747890625 -0.1676214 0.2465756
0.7490390625 -0.06906968 0.2700985
0.7501875 0.02532394 0.2698268
0.7513359375 0.1112686 0.2396045
0.752484375 0.180422 0.1850527
0.7536328125 0.2275028 0.112751
0.75478125 0.2484123 0.03097141
0.7559296875 0.2414489 -0.05139057
0.757078125 0.209143 -0.1263922
0.7582265625 0.1551155 -0.1863387
0.759375 0.08516157 -0.2259953
0.7605234375 0.006488604 -0.2406175
0.761671875 -0.07234675 -0.2295947
0.7628203125 -0.1442921 -0.1927648
0.76396875 -0.2000778 -0.135075
0.7651171875 -0.234547 -0.06169882
0.766265625 -0.2430423 0.01931705
0.7674140625 -0.2241891 0.09927208
0.7685625 -0.1801064 0.1693322
0.7697109375 -0.1147558 0.2214922
0.770859375 -0.03512315 0.2496761
0.7720078125 0.0503966 0.2501636
0.77315625 0.1324353 0.2219832
0.7743046875 0.2022713 0.1674861
0.775453125 0.250919 0.09218826
0.7766015625 0.2729836 0.002678335
0.77775 0.2630895 -0.09177376
0.7788984375 0.221829 -0.1800825
0.780046875 0.1506981 -0.251909
0.7811953125 0.05558243 -0.2964841
0.78234375 -0.05343347 -0.3067125
0.7834921875 -0.1633773 -0.2759691
0.784640625 -0.2593058 -0.2049817
0.7857890625 -0.3256868 -0.09890191
0.7869375 -0.349087 0.02923381
0.7880859375 -0.3200027 0.1621638
0.789234375 -0.2392668 0.2765717
0.7903828125 -0.1166638 0.3524526
0.79153125 0.02917809 0.372763
0.7926796875 0.1719117 0.3326889
0.793828125 0.2854331 0.2373116
0.7949765625 0.3504371 0.1065657
0.796125 0.3565063 -0.03570164
0.7972734375 0.3066437 -0.1650017
0.798421875 0.2146131 -0.2598771
0.7995703125 0.09798186 -0.3089377
0.80071875 -0.02163492 -0.3105526
0.8018671875 -0.1271981 -0.2702842
0.803015625 -0.2061909 -0.1979395
0.8041640625 -0.2513572 -0.1082098
0.8053125 -0.2617157 -0.01368575
0.8064609375 -0.2404646 0.07398877
0.807609375 -0.1935165 0.1455969
0.8087578125 -0.1283882 0.1947265
0.80990625 -0.05424478 0.2189229
0.8110546875 0.02068195 0.2173512
0.812203125 0.08870266 0.1925429
0.8133515625 0.1432871 0.1487672
0.8145 0.1795075 0.0909927
0.8156484375 0.1954321 0.0268559
0.816796875 0.1894008 -0.03767475
0.8179453125 0.1636081 -0.09560931
0.81909375 0.1212578 -0.1413233
0.8202421875 0.06726891 -0.1703736
0.821390625 0.008003673 -0.180428
0.8225390625 -0.05035012 -0.1709027
0.8236875 -0.1021558 -0.1434012
0.8248359375 -0.1411826 -0.101241
0.825984375 -0.1647147 -0.04966794
0.8271328125 -0.1702096 0.00623311
0.82828125 -0.1581403 0.06027574
0.8294296875 -0.1296975 0.1070244
0.830578125 -0.08826609 0.1426197
0.8317265625 -0.03822207 0.1631848
0.832875 0.01587404 0.1672865
0.8340234375 0.06877185 0.153922
0.835171875 0.1152821 0.125132
0.8363203125 0.1504276 0.08257086
0.83746875 0.1717098 0.03040168
0.8386171875 0.1753068 -0.02713214
0.839765625 0.1603589 -0.08395012
0.8409140625 0.1273774 -0.1351088
0.8420625 0.07817896 -0.173799
0.8432109375 0.01670304 -0.1954224
0.844359375 -0.05077494 -0.1957077
0.8455078125 -0.1180523 -0.1728196
0.84665625 -0.1753493 -0.1268229
0.8478046875 -0.2159376 -0.06065029
0.848953125 -0.2319231 0.0189062
0.8501015625 -0.2182026 0.1033847
0.85125 -0.1732988 0.1808195
0.8523984375 -0.1000526 0.2396728
0.853546875 -0.006184942 0.2695301
0.8546953125 0.0976529 0.261257
0.85584375 0.1942392 0.2127825
0.8569921875 0.2682597 0.1267765
0.858140625 0.3033786 0.0148427
0.8592890625 0.2914415 -0.1060636
0.8604375 0.2298481 -0.2141892
0.8615859375 0.1285888 -0.2889968
0.862734375 0.004671924 -0.3161317
0.8638828125 -0.1191024 -0.2899662
0.86503125 -0.2193587 -0.2174945
0.8661796875 -0.280506 -0.1131386
0.867328125 -0.294134 0.002806707
0.8684765625 -0.2630811 0.1104856
0.869625 -0.1963505 0.1942675
0.8707734375 -0.1071244 0.2441432
0.871921875 -0.01032959 0.2567762
0.8730703125 0.07996505 0.2346831
0.87421875 0.1524728 0.1842837
0.8753671875 0.2005139 0.1140282
0.876515625 0.2198162 0.03539455
0.8776640625 0.2111659 -0.04146673
0.8788125 0.1778211 -0.1076911
0.8799609375 0.1264032 -0.1568789
0.881109375 0.06395027 -0.1842783
0.8822578125 -0.001556355 -0.1891667
0.88340625 -0.06271565 -0.1728989
0.8845546875 -0.1131536 -0.1384277
0.885703125 -0.1486618 -0.09120044
0.8868515625 -0.1664304 -0.03718571
0.888 -0.165912 0.01889178
0.8891484375 -0.1480793 0.07013962
0.890296875 -0.116082 0.1125932
0.8914453125 -0.07316419 0.1418933
0.89259375 -0.02356249 0.1564666
0.8937421875 0.02764175 0.1549217
0.894890625 0.07542066 0.1375686
0.8960390625 0.115727 0.106021
0.8971875 0.1436655 0.06326892
0.8983359375 0.1575918 0.0137435
0.899484375 0.1543638 -0.03808526
0.9006328125 0.1348401 -0.08681733
0.90178125 0.1002763 -0.1276594
0.9029296875 0.05352204 -0.1552377
0.904078125 -0.0006423319 -0.1660365
0.9052265625 -0.05617696 -0.1589079
0.906375 -0.1075762 -0.1328691
0.9075234375 -0.1482367 -0.09106456
0.908671875 -0.1727449 -0.03687328
0.9098203125 -0.1782912 0.0239297
0.91096875 -0.1626681 0.0841803
0.9121171875 -0.1267943 0.1365061
0.913265625 -0.07429422 0.1748635
0.9144140625 -0.01028329 0.1937598
0.9155625 0.05788967 0.1894606
0.9167109375 0.1227879 0.1610087
0.917859375 0.1751831 0.1111597
0.9190078125 0.2077888 0.04398569
0.92015625 0.214576 -0.03294424
0.9213046875 0.1930515 -0.1101807
0.922453125 0.1437562 -0.1762032
0.9236015625 0.07193373 -0.2207749
0.92475 -0.01411236 -0.235692
0.9258984375 -0.1020048 -0.2175867
0.927046875 -0.1781936 -0.1658337
0.9281953125 -0.2289363 -0.0879763
0.92934375 -0.2459984 0.004601554
0.9304921875 -0.2261067 0.09647116
0.931640625 -0.1720563 0.1735806
0.9327890625 -0.09363426 0.2231776
0.9339375 -0.003185613 0.2385879
0.9350859375 0.08364319 0.2183432
0.936234375 0.1545233 0.1684273
0.9373828125 0.2007937 0.09765229
0.93853125 0.2162592 0.01790269
0.9396796875 0.2027105 -0.05934804
0.940828125 0.1636714 -0.1235714
0.9419765625 0.1069486 -0.1679472
0.943125 0.04036822 -0.188965
0.9442734375 -0.02639592 -0.1860607
0.945421875 -0.08599735 -0.1616458
0.9465703125 -0.132302 -0.1199956
0.94771875 -0.1613531 -0.06701073
0.9488671875 -0.1711236 -0.008882279
0.950015625 -0.161177 0.0480677
0.9511640625 -0.1342085 0.09726828
0.9523125 -0.09300896 0.1346594
0.9534609375 -0.04289334 0.1562039
0.954609375 0.01122339 0.1602013
0.9557578125 0.06317198 0.1461299
0.95690625 0.1073856 0.1163516
0.9580546875 0.1397355 0.07374924
0.959203125 0.1560069 0.02331415
0.9603515625 0.1547497 -0.02993757
0.9615 0.1362188 -0.07982258
0.9626484375 0.1018663 -0.1209163
0.963796875 0.05599107 -0.1483461
0.9649453125 0.00316776 -0.1592273
0.96609375 -0.05039692 -0.1520045
0.9672421875 -0.09892312 -0.1273599
0.968390625 -0.1368663 -0.08747542
0.9695390625 -0.1595455 -0.03708797
0.9706875 -0.1649507 0.01866603
0.9718359375 -0.1513072 0.07401601
0.972984375 -0.1193305 0.122559
0.9741328125 -0.07213734 0.1584074
0.97528125 -0.01445159 0.1770799
0.9764296875 0.04751027 0.1752617
0.977578125 0.1074405 0.1520591
0.9787265625 0.1575307 0.1080688
0.979875 0.1903326 0.04742869
0.9810234375 0.2002236 -0.02358904
0.982171875 0.1839162 -0.09580585
0.9833203125 0.1405396 -0.1597693
0.98446875 0.07461659 -0.2055834
0.9856171875 -0.006605654 -0.2236969
0.986765625 -0.0911444 -0.2095799
0.9879140625 -0.1656384 -0.1627668
