# GHZ S RI R 50.0
0.3 -0.6097667 0.4175443
0.3011484375 -0.3802435 0.5728042
0.302296875 -0.1369709 0.6244923
0.3034453125 0.08617646 0.5878248
0.30459375 0.2625841 0.4884387
0.3057421875 0.383601 0.3498714
0.306890625 0.4494942 0.1948835
0.3080390625 0.4630309 0.0402853
0.3091875 0.4333815 -0.1021539
0.3103359375 0.367032 -0.2223742
0.311484375 0.2734285 -0.3152401
0.3126328125 0.1613155 -0.3761971
0.31378125 0.03842553 -0.4025262
0.3149296875 -0.08635039 -0.3935914
0.316078125 -0.2044937 -0.3489237
0.3172265625 -0.3061521 -0.2692286
0.318375 -0.3807246 -0.1611181
0.3195234375 -0.4199952 -0.03004489
0.320671875 -0.414722 0.1111498
0.3218203125 -0.3614612 0.2475721
0.32296875 -0.2617303 0.3616983
0.3241171875 -0.1246752 0.4362602
0.325265625 0.03321778 0.4582734
0.3264140625 0.1902034 0.4237351
0.3275625 0.325272 0.3355901
0.3287109375 0.4211898 0.2061737
0.329859375 0.4686982 0.05336601
0.3310078125 0.4618344 -0.1058633
0.33215625 0.4053144 -0.2534575
0.3333046875 0.3038828 -0.3767466
0.334453125 0.1681684 -0.4636958
0.3356015625 0.008880901 -0.5048048
0.33675 -0.1610653 -0.4946224
0.3378984375 -0.3264933 -0.4302989
0.339046875 -0.4716334 -0.3100922
0.3401953125 -0.5770162 -0.1383651
0.34134375 -0.6216414 0.07415614
0.3424921875 -0.5881002 0.3079824
0.343640625 -0.4609497 0.5331667
0.3447890625 -0.2382129 0.707926
0.3459375 0.05997225 0.7865229
0.3470859375 0.3889039 0.7280823
0.348234375 0.6757411 0.5213871
0.3493828125 0.8494619 0.1931509
0.35053125 0.854684 -0.1840893
0.3516796875 0.6874155 -0.5210941
0.352828125 0.394297 -0.738204
0.3539765625 0.05414064 -0.7988994
0.355125 -0.2565333 -0.7122644
0.3562734375 -0.4816057 -0.5214058
0.357421875 -0.5998803 -0.2810392
0.3585703125 -0.616532 -0.03891515
0.35971875 -0.5500135 0.1700968
0.3608671875 -0.427118 0.3266773
0.362015625 -0.2749729 0.4231907
0.3631640625 -0.1140203 0.4620005
0.3643125 0.03841222 0.4495794
0.3654609375 0.1708072 0.3954772
0.366609375 0.2752582 0.3090875
0.3677578125 0.3460859 0.2011841
0.36890625 0.3808119 0.08213055
0.3700546875 0.3795038 -0.03926029
0.371203125 0.3432397 -0.1530148
0.3723515625 0.2748939 -0.2498277
0.3735 0.1799998 -0.3214638
0.3746484375 0.06825247 -0.3600134
0.375796875 -0.05130887 -0.3613633
0.3769453125 -0.1649835 -0.323627
0.37809375 -0.2605141 -0.2504006
0.3792421875 -0.3256273 -0.1496527
0.380390625 -0.3530431 -0.03378763
0.3815390625 -0.3400981 0.08263332
0.3826875 -0.290223 0.1863683
0.3838359375 -0.2112245 0.2650221
0.384984375 -0.1141798 0.3135949
0.3861328125 -0.009219118 0.3284567
0.38728125 0.09151651 0.3109706
0.3884296875 0.1808866 0.2653214
0.389578125 0.2521378 0.1969436
0.3907265625 0.2990648 0.1114727
0.391875 0.3206196 0.01656786
0.3930234375 0.3138722 -0.08142859
0.394171875 0.2798001 -0.174691
0.3953203125 0.2192008 -0.2568953
0.39646875 0.1345175 -0.3203959
0.3976171875 0.03030984 -0.3592075
0.398765625 -0.08688235 -0.3652749
0.3999140625 -0.2072738 -0.3342046
0.4010625 -0.3192449 -0.2613344
0.4022109375 -0.4081673 -0.1497113
0.403359375 -0.4587944 -0.003806216
0.4045078125 -0.4564711 0.1624443
0.40565625 -0.3908983 0.3296028
0.4068046875 -0.2611755 0.4716268
0.407953125 -0.07632126 0.5617793
0.4091015625 0.1425498 0.5771916
0.41025 0.3641622 0.504121
0.4113984375 0.5505014 0.3421321
0.412546875 0.6636974 0.1083031
0.4136953125 0.6752613 -0.163947
0.41484375 0.5704798 -0.42813
0.4159921875 0.3580635 -0.6328857
0.417140625 0.07252902 -0.7306018
0.4182890625 -0.2296765 -0.6971359
0.4194375 -0.4866673 -0.5372537
0.4205859375 -0.6467037 -0.2892165
0.421734375 -0.6859227 -0.00796583
0.4228828125 -0.610379 0.2488304
0.42403125 -0.448895 0.443137
0.4251796875 -0.2393745 0.553019
0.426328125 -0.01785698 0.5752852
0.4274765625 0.1826754 0.5189
0.428625 0.341148 0.4015173
0.4297734375 0.4424233 0.2441176
0.430921875 0.4803233 0.06939996
0.4320703125 0.4561248 -0.09904832
0.43321875 0.3776692 -0.2421811
0.4343671875 0.260328 -0.3447549
0.435515625 0.1204841 -0.3974871
0.4366640625 -0.02199032 -0.398505
0.4378125 -0.149664 -0.3528696
0.4389609375 -0.2494689 -0.2709452
0.440109375 -0.312608 -0.1660037
0.4412578125 -0.3365345 -0.05213045
0.44240625 -0.3235082 0.05708739
0.4435546875 -0.2788283 0.1525025
0.444703125 -0.2099711 0.2260152
0.4458515625 -0.1258087 0.2733697
0.447 -0.03389083 0.2928747
0.4481484375 0.05722497 0.2848465
0.449296875 0.1412025 0.2506014
0.4504453125 0.210434 0.1940693
0.45159375 0.2604617 0.1196086
0.4527421875 0.2863118 0.03309043
0.453890625 0.2852832 -0.05825618
0.4550390625 0.2562662 -0.1472643
0.4561875 0.1997694 -0.2249412
0.4573359375 0.1192724 -0.2829862
0.458484375 0.02159363 -0.3131739
0.4596328125 -0.0844739 -0.3099774
0.46078125 -0.1870478 -0.2709616
0.4619296875 -0.2730036 -0.1975534
0.463078125 -0.3310007 -0.09697832
0.4642265625 -0.3515772 0.02097647
0.465375 -0.3310375 0.1415875
0.4665234375 -0.2688628 0.250529
0.467671875 -0.1722556 0.3337802
0.4688203125 -0.0501253 0.3804913
0.46996875 0.08310709 0.3848418
0.4711171875 0.2134679 0.3430538
0.472265625 0.3265597 0.2581114
0.4734140625 0.4088739 0.1362694
0.4745625 0.4467441 -0.01283569
0.4757109375 0.4314817 -0.173804
0.476859375 0.3580195 -0.3283201
0.4780078125 0.2272319 -0.4548757
0.47915625 0.04885305 -0.5303282
0.4803046875 -0.1588673 -0.5347157
0.481453125 -0.3649316 -0.4540222
0.4826015625 -0.532475 -0.2886498
0.48375 -0.6226919 -0.05790554
0.4848984375 -0.6081579 0.1993794
0.486046875 -0.4832297 0.4330607
0.4871953125 -0.2684797 0.5938983
0.48834375 -0.006707092 0.646031
0.4894921875 0.2482522 0.5846199
0.490640625 0.4469721 0.4273835
0.4917890625 0.5591401 0.2126513
0.4929375 0.5746441 -0.01688317
0.4940859375 0.5035462 -0.2215127
0.495234375 0.3696869 -0.3732934
0.4963828125 0.2009622 -0.4590119
0.49753125 0.02476318 -0.4773556
0.4986796875 -0.135712 -0.4359681
0.499828125 -0.2645046 -0.3481262
0.5009765625 -0.3512239 -0.2302361
0.502125 -0.3930506 -0.09757446
0.5032734375 -0.3907163 0.03537842
0.504421875 -0.3481223 0.1553291
0.5055703125 -0.2730998 0.2532625
0.50671875 -0.1738587 0.3208166
0.5078671875 -0.06134278 0.3544623
0.509015625 0.05456855 0.3515539
0.5101640625 0.1633675 0.3131521
0.5113125 0.2542067 0.2427773
0.5124609375 0.3185462 0.1473546
0.513609375 0.3493122 0.03605546
0.5147578125 0.3424012 -0.07992242
0.51590625 0.2978669 -0.1883401
0.5170546875 0.2198246 -0.27695
0.518203125 0.116427 -0.3350312
0.5193515625 -0.0004552084 -0.3556568
0.5205 -0.1184593 -0.3365989
0.5216484375 -0.2235972 -0.2794899
0.522796875 -0.3039428 -0.190965
0.5239453125 -0.3516691 -0.08093017
0.52509375 -0.3611446 0.03871381
0.5262421875 -0.331246 0.1560803
0.527390625 -0.264952 0.2590142
0.5285390625 -0.1682373 0.3360881
0.5296875 -0.04940201 0.3789866
0.5308359375 0.07992081 0.3819307
0.531984375 0.2072854 0.3420746
0.5331328125 0.3182109 0.2601356
0.53428125 0.3992031 0.1410061
0.5354296875 0.4379016 -0.004672313
0.536578125 0.4227704 -0.1622318
0.5377265625 0.3498123 -0.3121637
0.538875 0.2211583 -0.4315878
0.5400234375 0.04939045 -0.4984742
0.541171875 -0.1441725 -0.4950482
0.5423203125 -0.328658 -0.413388
0.54346875 -0.4700995 -0.2607203
0.5446171875 -0.5398184 -0.05875982
0.545765625 -0.5215426 0.1557085
0.5469140625 -0.4165782 0.344806
0.5480625 -0.2457698 0.4724731
0.5492109375 -0.04310074 0.5195141
0.550359375 0.153577 0.4819095
0.5515078125 0.3126544 0.3751181
0.55265625 0.4129206 0.2234258
0.5538046875 0.4472169 0.05476076
0.554953125 0.4183388 -0.1048163
0.5561015625 0.3395266 -0.235681
0.55725 0.2260418 -0.3250993
0.5583984375 0.09655845 -0.3676136
0.559546875 -0.03290559 -0.3643533
0.5606953125 -0.1484558 -0.3202865
0.56184375 -0.2389915 -0.2441449
0.5629921875 -0.2973223 -0.1462821
0.564140625 -0.3205971 -0.03868619
0.5652890625 -0.3076041 0.06784002
0.5664375 -0.2620675 0.1618739
0.5675859375 -0.1901654 0.2346592
0.568734375 -0.1001576 0.2790325
0.5698828125 -0.002072971 0.2912627
0.57103125 0.09278516 0.2709691
0.5721796875 0.1741461 0.2216189
0.573328125 0.2336531 0.1492741
0.5744765625 0.2658054 0.06284391
0.575625 0.2676595 -0.02739318
0.5767734375 0.240656 -0.1116383
0.577921875 0.1886142 -0.1809571
0.5790703125 0.1184684 -0.2298729
0.58021875 0.03773952 -0.2531299
0.5813671875 -0.04474273 -0.2500278
0.582515625 -0.1219041 -0.221657
0.5836640625 -0.1857459 -0.1713343
0.5848125 -0.2310241 -0.10362
0.5859609375 -0.2537204 -0.0251796
0.587109375 -0.2508725 0.05715078
0.5882578125 -0.2229516 0.1356308
0.58940625 -0.1708438 0.2038935
0.5905546875 -0.09831196 0.2533676
0.591703125 -0.011133 0.2788917
0.5928515625 0.0832886 0.2745773
0.594 0.1744508 0.2393831
0.5951484375 0.253636 0.173366
0.596296875 0.3084029 0.0803218
0.5974453125 0.3295553 -0.03140983
0.59859375 0.3103606 -0.149414
0.5997421875 0.2477684 -0.2594004
0.600890625 0.1449747 -0.3447861
0.6020390625 0.01111818 -0.3890342
0.6031875 -0.1369251 -0.3805885
0.6043359375 -0.278736 -0.3140731
0.605484375 -0.3897687 -0.1931398
0.6066328125 -0.4482576 -0.03102118
0.60778125 -0.4371103 0.1475688
0.6089296875 -0.3525668 0.3130412
0.610078125 -0.2035711 0.4340861
0.6112265625 -0.01602593 0.4834652
0.612375 0.1768556 0.4498545
0.6135234375 0.3378149 0.3406183
0.614671875 0.4374215 0.1773123
0.6158203125 0.4615369 -0.006675996
0.61696875 0.4113061 -0.1785056
0.6181171875 0.3028976 -0.3109739
0.619265625 0.1587067 -0.388364
0.6204140625 0.003885928 -0.4042839
0.6215625 -0.1379927 -0.3639861
0.6227109375 -0.2501612 -0.2793739
0.623859375 -0.3208067 -0.165493
0.6250078125 -0.3457364 -0.04040228
0.62615625 -0.3252435 0.07972536
0.6273046875 -0.2683989 0.1813614
0.628453125 -0.1826485 0.2533824
0.6296015625 -0.08272247 0.2902305
0.63075 0.01957158 0.2915218
0.6318984375 0.1121839 0.2587306
0.633046875 0.1858597 0.2003845
0.6341953125 0.2344546 0.1244281
0.63534375 0.2541922 0.04030881
0.6364921875 0.2471972 -0.04363004
0.637640625 0.21505 -0.1175576
0.6387890625 0.162943 -0.1758685
0.6399375 0.09714524 -0.2145295
0.6410859375 0.02406111 -0.2307319
0.642234375 -0.04882265 -0.2241028
0.6433828125 -0.1157161 -0.1959557
0.64453125 -0.1705008 -0.1493596
0.6456796875 -0.2082122 -0.08838755
0.646828125 -0.22623 -0.01860573
0.6479765625 -0.2217685 0.05376969
0.649125 -0.1948041 0.1219778
0.6502734375 -0.1476257 0.1791932
0.651421875 -0.08409317 0.2193191
0.6525703125 -0.009442811 0.2379952
0.65371875 0.06841998 0.2320822
0.6548671875 0.1420883 0.2008657
0.656015625 0.20315 0.1465857
0.6571640625 0.2444542 0.07351688
0.6583125 0.2596885 -0.01039456
0.6594609375 0.2474504 -0.09682444
0.660609375 0.2060555 -0.1761748
0.6617578125 0.1397882 -0.2392299
0.66290625 0.0542211 -0.2784717
0.6640546875 -0.04216351 -0.2881801
0.665203125 -0.1388593 -0.2653528
0.6663515625 -0.2263083 -0.2092146
0.6675 -0.2927743 -0.12546
0.6686484375 -0.3287803 -0.01938464
0.669796875 -0.327437 0.09766144
0.6709453125 -0.2838441 0.2128486
0.67209375 -0.1991416 0.3107227
0.6732421875 -0.07864278 0.3761714
0.674390625 0.06479058 0.3944175
0.6755390625 0.2130378 0.3564394
0.6766875 0.3423105 0.2604687
0.6778359375 0.4287802 0.1148911
0.678984375 0.4516153 -0.0597966
0.6801328125 0.4007659 -0.2351486
0.68128125 0.2805177 -0.3773169
0.6824296875 0.1103853 -0.4587778
0.683578125 -0.07808392 -0.4630128
0.6847265625 -0.2495432 -0.3903846
0.685875 -0.3733839 -0.2579685
0.6870234375 -0.4319993 -0.09277613
0.688171875 -0.4210478 0.07517105
0.6893203125 -0.3496398 0.2189769
0.69046875 -0.2357684 0.3194582
0.6916171875 -0.1003687 0.3677751
0.692765625 0.03579163 0.3645403
0.6939140625 0.1555659 0.3162293
0.6950625 0.245403 0.2336274
0.6962109375 0.299574 0.1309785
0.697359375 0.3151895 0.0208657
0.6985078125 0.2949318 -0.08360063
0.69965625 0.2432065 -0.1722989
0.7008046875 0.1677463 -0.2369705
0.701953125 0.07807315 -0.2729886
0.7031015625 -0.01592737 -0.2779103
0.70425 -0.1048524 -0.2527003
0.7053984375 -0.1797845 -0.2006356
0.706546875 -0.2326752 -0.1288016
0.7076953125 -0.2591669 -0.04390615
0.70884375 -0.2569828 0.04341116
0.7099921875 -0.2262557 0.1245684
0.711140625 -0.170899 0.1914982
0.7122890625 -0.09744553 0.2358893
0.7134375 -0.01427958 0.2533927
0.7145859375 0.07042386 0.2440044
0.715734375 0.1465768 0.2060823
0.7168828125 0.2067864 0.1465009
0.71803125 0.2434274 0.06992996
0.7191796875 0.2539535 -0.01413479
0.720328125 0.2365463 -0.09770954
0.7214765625 0.1925521 -0.1720731
0.722625 0.1263653 -0.2283316
0.7237734375 0.04369127 -0.2610494
0.724921875 -0.04704893 -0.2647333
0.7260703125 -0.1357038 -0.2382317
0.72721875 -0.2129851 -0.1822406
0.7283671875 -0.2686136 -0.1006934
0.729515625 -0.2942767 -0.002226894
0.7306640625 -0.284374 0.1031288
0.7318125 -0.2360782 0.2020139
0.7329609375 -0.1519791 0.2815277
0.734109375 -0.0418019 0.3261288
0.7352578125 0.08245029 0.3268324
0.73640625 0.2021472 0.2790143
0.7375546875 0.2980204 0.1873794
0.738703125 0.3523845 0.06218493
0.7398515625 0.3534875 -0.0772711
0.741 0.2992162 -0.2076335
0.7421484375 0.196876 -0.3062231
0.743296875 0.06476137 -0.3565657
0.7444453125 -0.07520086 -0.3505943
0.74559375 -0.1994942 -0.2915267
0.7467421875 -0.2884764 -0.1910547
0.747890625 -0.3315385 -0.06847181
0.7490390625 -0.3122791 0.05482918
0.7501875 -0.2636348 0.1607338
0.7513359375 -0.1825459 0.2381014
0.752484375 -0.08260915 0.2798428
0.7536328125 0.02067794 0.2824378
0.75478125 0.1151914 0.2502683
0.7559296875 0.190258 0.1899392
0.757078125 0.2380222 0.1096108
0.7582265625 0.2556628 0.02120867
0.759375 0.2419065 -0.0658287
0.7605234375 0.2009749 -0.1414458
0.761671875 0.1385466 -0.197495
0.7628203125 0.0627162 -0.2288788
0.76396875 -0.01767983 -0.2328691
0.7651171875 -0.09367079 -0.2104134
0.766265625 -0.1565509 -0.1646916
0.7674140625 -0.1998859 -0.1017595
0.7685625 -0.2199219 -0.029029
0.7697109375 -0.2147979 0.0451803
0.770859375 -0.1859593 0.1125064
0.7720078125 -0.1378153 0.1664065
0.77315625 -0.07502366 0.2012904
0.7743046875 -0.005300638 0.2139176
0.775453125 0.06463183 0.2037088
0.7766015625 0.1276717 0.1718018
0.77775 0.1771253 0.1213031
0.7788984375 0.2085062 0.05788693
0.780046875 0.2183321 -0.0132109
0.7811953125 0.2040891 -0.08518343
0.78234375 0.1681174 -0.1499069
0.7834921875 0.11146 -0.2005174
0.784640625 0.03965363 -0.2312203
0.7857890625 -0.04051147 -0.2365732
0.7869375 -0.120559 -0.2153662
0.7880859375 -0.1919415 -0.1658677
0.789234375 -0.2439393 -0.09321445
0.7903828125 -0.2689953 -0.002841219
0.79153125 -0.2607744 0.0943483
0.7926796875 -0.2169322 0.1862543
0.793828125 -0.1403346 0.2592071
0.7949765625 -0.03835909 0.3007469
0.796125 0.07663357 0.3021155
0.7972734375 0.1870497 0.2584784
0.798421875 0.275491 0.1736109
0.7995703125 0.3264917 0.05784144
0.80071875 0.3280494 -0.07074713
0.8018671875 0.2782329 -0.1918352
0.803015625 0.1842092 -0.2841644
0.8041640625 0.06102487 -0.3319906
0.8053125 -0.06939132 -0.3265606
0.8064609375 -0.1859333 -0.271553
0.807609375 -0.2693424 -0.1773972
0.8087578125 -0.3081515 -0.06210623
0.80990625 -0.3004686 0.05510511
0.8110546875 -0.2510215 0.1568556
0.812203125 -0.1709647 0.229731
0.8133515625 -0.07465977 0.2667271
0.8145 0.02478805 0.266242
0.8156484375 0.1131294 0.2325033
0.816796875 0.1808873 0.1716382
0.8179453125 0.2214326 0.0951167
0.81909375 0.2325741 0.01234629
0.8202421875 0.215224 -0.06565043
0.821390625 0.1742038 -0.1307448
0.8225390625 0.1158616 -0.175689
0.8236875 0.0483247 -0.1984373
0.8248359375 -0.01954614 -0.1967513
0.825984375 -0.08125398 -0.1738618
0.8271328125 -0.1298271 -0.1334898
0.82828125 -0.161834 -0.08154521
0.8294296875 -0.1748756 -0.02376066
0.830578125 -0.1693219 0.03281166
0.8317265625 -0.1465922 0.08396029
0.832875 -0.1101761 0.1238575
0.8340234375 -0.06387582 0.1500513
0.835171875 -0.01274235 0.1604887
0.8363203125 0.03807683 0.1545769
0.83746875 0.0845478 0.1339367
0.8386171875 0.1221424 0.09969689
0.839765625 0.1472026 0.0556968
0.8409140625 0.1576208 0.005956588
0.8420625 0.1516513 -0.04451536
0.8432109375 0.130109 -0.09138121
0.844359375 0.09475379 -0.1292726
0.8455078125 0.04830607 -0.1547699
0.84665625 -0.004253912 -0.1633627
0.8478046875 -0.05816707 -0.155247
0.848953125 -0.1072709 -0.1297478
0.8501015625 -0.1457568 -0.08825495
0.85125 -0.1692827 -0.03607906
0.8523984375 -0.1747968 0.02224898
0.853546875 -0.1600318 0.08012771
0.8546953125 -0.1268222 0.1310936
0.85584375 -0.07739888 0.1695683
0.8569921875 -0.01703351 0.1895003
0.858140625 0.04879265 0.1888436
0.8592890625 0.1124037 0.1653248
0.8604375 0.166543 0.1213435
0.8615859375 0.2035966 0.05876126
0.862734375 0.2185234 -0.01536262
0.8638828125 0.2064872 -0.09351678
0.86503125 0.1662071 -0.1661834
0.8661796875 0.09936391 -0.2223294
0.867328125 0.0131693 -0.2521775
0.8684765625 -0.0828103 -0.2479261
0.869625 -0.1748717 -0.2059243
0.8707734375 -0.2474705 -0.1285733
0.871921875 -0.2847615 -0.02438504
0.8730703125 -0.2772656 0.08923384
0.87421875 -0.2233211 0.1929662
0.8753671875 -0.1302851 0.2665735
0.876515625 -0.01497039 0.2958164
0.8776640625 0.1008933 0.2752974
0.8788125 0.1966644 0.2104308
0.8799609375 0.2565623 0.1154073
0.881109375 0.2727906 0.009047621
0.8822578125 0.2479893 -0.09167954
0.88340625 0.1892657 -0.1702112
0.8845546875 0.1096722 -0.2191597
0.885703125 0.02267042 -0.2348668
0.8868515625 -0.0599845 -0.2185379
0.888 -0.1274062 -0.1769107
0.8891484375 -0.1741731 -0.1176248
0.890296875 -0.1967229 -0.04949662
0.8914453125 -0.1954589 0.01913573
0.89259375 -0.1724428 0.08132005
0.8937421875 -0.1320419 0.1305549
0.894890625 -0.0795043 0.1628881
0.8960390625 -0.02104885 0.1761948
0.8971875 0.03749359 0.1699731
0.8983359375 0.08976474 0.1459817
0.899484375 0.1307418 0.1068575
0.9006328125 0.1568401 0.05740239
0.90178125 0.1653703 0.002853947
0.9029296875 0.1559968 -0.05118756
0.904078125 0.1295069 -0.09866916
0.9052265625 0.08916429 -0.1350484
0.906375 0.03990283 -0.1564224
0.9075234375 -0.01354217 -0.1602372
0.908671875 -0.06507968 -0.1466091
0.9098203125 -0.109429 -0.1170996
0.91096875 -0.1413043 -0.07451129
0.9121171875 -0.1582631 -0.02421544
0.913265625 -0.1580239 0.02910741
0.9144140625 -0.1402963 0.07932778
0.9155625 -0.1073503 0.1211836
0.9167109375 -0.06248011 0.1513026
0.917859375 -0.009467811 0.1646903
0.9190078125 0.04525597 0.1608532
0.92015625 0.09725872 0.138983
0.9213046875 0.1400727 0.1010329
0.922453125 0.1687335 0.04964843
0.9236015625 0.1796017 -0.009579939
0.92475 0.1697807 -0.07091807
0.9258984375 0.1390797 -0.1275632
0.927046875 0.0889205 -0.1717698
0.9281953125 0.02503826 -0.1971646
0.92934375 -0.04682976 -0.1983845
0.9304921875 -0.1167767 -0.1737243
0.931640625 -0.1751759 -0.1241005
0.9327890625 -0.2125738 -0.0538821
0.9339375 -0.2226892 0.027475
0.9350859375 -0.2003708 0.1088828
0.936234375 -0.1483376 0.1777266
0.9373828125 -0.07315144 0.2221834
0.93853125 0.01485124 0.2350755
0.9396796875 0.1014957 0.2133612
0.940828125 0.1734214 0.1601245
0.9419765625 0.2187055 0.08341945
0.943125 0.2320555 -0.003367691
0.9442734375 0.2115462 -0.08769313
0.945421875 0.1625501 -0.1563345
0.9465703125 0.09236126 -0.2010171
0.94771875 0.01329436 -0.2162606
0.9488671875 -0.06377741 -0.201845
0.950015625 -0.1286716 -0.1626527
0.9511640625 -0.1733996 -0.1040535
0.9523125 -0.1946632 -0.03591751
0.9534609375 -0.1905284 0.03317965
0.954609375 -0.1634759 0.09529262
0.9557578125 -0.1178124 0.1428107
0.95690625 -0.06040229 0.1709611
0.9580546875 0.001756094 0.177543
0.959203125 0.06126063 0.1629285
0.9603515625 0.1107208 0.1302242
0.9615 0.1453561 0.08338956
0.9626484375 0.1621973 0.02893063
0.963796875 0.1596832 -0.02678799
0.9649453125 0.1392507 -0.07777957
0.96609375 0.103943 -0.1177273
0.9672421875 0.05779091 -0.143571
0.968390625 0.006769747 -0.1528357
0.9695390625 -0.04348176 -0.144714
0.9706875 -0.08789068 -0.1213477
0.9718359375 -0.122028 -0.08521781
0.972984375 -0.1425436 -0.04053858
0.9741328125 -0.1474535 0.008152461
0.97528125 -0.1366722 0.05618125
0.9764296875 -0.1113192 0.09781273
0.977578125 -0.07345755 0.1299735
0.9787265625 -0.0269334 0.1480489
0.979875 0.02386089 0.1503109
0.9810234375 0.07307306 0.1359258
0.982171875 0.1159089 0.1052553
0.9833203125 0.1469227 0.06156707
0.98446875 0.1628399 0.008437404
0.9856171875 0.1590694 -0.04835435
0.986765625 0.1359883 -0.1019693
0.9879140625 0.09474055 -0.1462011
