# GHZ S RI R 50.0
0.3 -0.3006442 0.5569203
0.3011484375 -0.0772512 0.5901214
0.302296875 0.124731 0.5448486
0.3034453125 0.2839034 0.4420664
0.30459375 0.3910799 0.3056694
0.3057421875 0.4452474 0.1544026
0.306890625 0.4496961 0.004844404
0.3080390625 0.4127941 -0.1296766
0.3091875 0.3421205 -0.2421778
0.3103359375 0.2463353 -0.3272433
0.311484375 0.1339929 -0.3806717
0.3126328125 0.0129458 -0.4002868
0.31378125 -0.1093074 -0.3854851
0.3149296875 -0.2233138 -0.3366008
0.316078125 -0.3212656 -0.2556674
0.3172265625 -0.3928628 -0.1456611
0.318375 -0.4304266 -0.01340931
0.3195234375 -0.4248526 0.1296629
0.320671875 -0.3706358 0.2704369
0.3218203125 -0.2669537 0.392462
0.32296875 -0.1216757 0.4740894
0.3241171875 0.05069982 0.5017866
0.325265625 0.2273121 0.4649782
0.3264140625 0.3842055 0.3644364
0.3275625 0.4964982 0.212371
0.3287109375 0.5494093 0.02703988
0.329859375 0.5348383 -0.1669279
0.3310078125 0.4538232 -0.3470116
0.33215625 0.3147767 -0.492136
0.3333046875 0.1303672 -0.5852487
0.334453125 -0.08047789 -0.6123546
0.3356015625 -0.2971867 -0.5667995
0.33675 -0.4957863 -0.4439112
0.3378984375 -0.6492799 -0.2486403
0.339046875 -0.7271751 0.005210403
0.3401953125 -0.7039936 0.2878657
0.34134375 -0.5639616 0.5586725
0.3424921875 -0.3118455 0.763162
0.343640625 0.02014523 0.8480266
0.3447890625 0.3691832 0.7816649
0.3459375 0.6611136 0.5661587
0.3470859375 0.830428 0.2425103
0.348234375 0.8420732 -0.1154679
0.3493828125 0.7013361 -0.4355642
0.35053125 0.4500557 -0.6525574
0.3516796875 0.1490958 -0.7407376
0.352828125 -0.1406831 -0.7004456
0.3539765625 -0.3705815 -0.5596244
0.355125 -0.5154318 -0.3590867
0.3562734375 -0.5699226 -0.1402805
0.357421875 -0.5447925 0.06346761
0.3585703125 -0.4586608 0.2301016
0.35971875 -0.3344607 0.346874
0.3608671875 -0.1920771 0.4111498
0.362015625 -0.04803694 0.4272102
0.3631640625 0.08434261 0.4009525
0.3643125 0.1951272 0.341115
0.3654609375 0.2800109 0.2558052
0.366609375 0.3345501 0.1544961
0.3677578125 0.3576757 0.04473993
0.36890625 0.3487931 -0.0649135
0.3700546875 0.3097261 -0.1661427
0.371203125 0.242883 -0.2515673
0.3723515625 0.1533029 -0.3141217
0.3735 0.0475686 -0.3480081
0.3746484375 -0.06538928 -0.3471217
0.375796875 -0.1737236 -0.3100971
0.3769453125 -0.2667323 -0.2384755
0.37809375 -0.3318291 -0.1388785
0.3792421875 -0.3600029 -0.02249042
0.380390625 -0.3477694 0.09727336
0.3815390625 -0.2960449 0.2055621
0.3826875 -0.211758 0.2904218
0.3838359375 -0.1059631 0.3415629
0.384984375 0.009567496 0.3559395
0.3861328125 0.1215608 0.3332644
0.38728125 0.220092 0.2779806
0.3884296875 0.2967339 0.1963752
0.389578125 0.3454551 0.09576367
0.3907265625 0.363323 -0.01516877
0.391875 0.3474438 -0.1288359
0.3930234375 0.2985965 -0.235661
0.394171875 0.2180738 -0.3265552
0.3953203125 0.1089588 -0.3940153
0.39646875 -0.0228787 -0.4273977
0.3976171875 -0.1678502 -0.4189903
0.398765625 -0.3144739 -0.360644
0.3999140625 -0.4453055 -0.2492887
0.4010625 -0.5390474 -0.08498938
0.4022109375 -0.5727891 0.1214639
0.403359375 -0.5239077 0.3465061
0.4045078125 -0.3783795 0.5567819
0.40565625 -0.1385204 0.7052392
0.4068046875 0.1671192 0.7432001
0.407953125 0.4839102 0.6362523
0.4091015625 0.7327145 0.3840441
0.41025 0.8422792 0.03119393
0.4113984375 0.7726223 -0.3377925
0.412546875 0.5397766 -0.6278282
0.4136953125 0.2132604 -0.7696511
0.41484375 -0.1212391 -0.7498144
0.4159921875 -0.390308 -0.5985541
0.417140625 -0.5556521 -0.3720979
0.4182890625 -0.6113254 -0.1242111
0.4194375 -0.5732159 0.1016332
0.4205859375 -0.4665222 0.2807066
0.421734375 -0.3189477 0.4003691
0.4228828125 -0.1535241 0.458166
0.42403125 0.0092362 0.459498
0.4251796875 0.1550478 0.4107838
0.426328125 0.2714806 0.3236557
0.4274765625 0.3505482 0.2084902
0.428625 0.3880776 0.07864885
0.4297734375 0.3825555 -0.05303047
0.430921875 0.3354576 -0.1727078
0.4320703125 0.2528498 -0.268629
0.43321875 0.1455372 -0.3310048
0.4343671875 0.02575639 -0.3530217
0.435515625 -0.09193349 -0.3338607
0.4366640625 -0.1938846 -0.2780371
0.4378125 -0.2688148 -0.1935347
0.4389609375 -0.3104315 -0.09163006
0.440109375 -0.3164066 0.01415399
0.4412578125 -0.2886039 0.1135127
0.44240625 -0.2325476 0.1960399
0.4435546875 -0.1558768 0.2553151
0.444703125 -0.06727316 0.2879147
0.4458515625 0.02572275 0.2917863
0.447 0.1146649 0.2688086
0.4481484375 0.1924811 0.2205072
0.449296875 0.2529474 0.1510018
0.4504453125 0.2909332 0.06635134
0.45159375 0.3025291 -0.02786757
0.4527421875 0.2854494 -0.1236838
0.453890625 0.2383527 -0.2128773
0.4550390625 0.163005 -0.2870558
0.4561875 0.06432502 -0.3359917
0.4573359375 -0.05068633 -0.3517135
0.458484375 -0.1716662 -0.3285394
0.4596328125 -0.2839614 -0.2626049
0.46078125 -0.3719887 -0.1564912
0.4619296875 -0.4207452 -0.02017044
0.463078125 -0.4190252 0.1328407
0.4642265625 -0.3601001 0.2832311
0.465375 -0.2460374 0.4086379
0.4665234375 -0.0875634 0.4890931
0.467671875 0.09795384 0.5076751
0.4688203125 0.2872248 0.4553538
0.46996875 0.4514746 0.3308692
0.4711171875 0.5637027 0.1458075
0.472265625 0.599404 -0.07943925
0.4734140625 0.542788 -0.3126468
0.4745625 0.3926974 -0.5146441
0.4757109375 0.1638284 -0.6441916
0.476859375 -0.1064287 -0.6693203
0.4780078125 -0.3685915 -0.5776543
0.47915625 -0.5697219 -0.3826435
0.4803046875 -0.6694983 -0.123153
0.481453125 -0.6536556 0.1498098
0.4826015625 -0.5309669 0.3835217
0.48375 -0.3325204 0.5428767
0.4848984375 -0.097862 0.6084347
0.486046875 0.132878 0.5804884
0.4871953125 0.3255671 0.4725621
0.48834375 0.4580345 0.30876
0.4894921875 0.5179123 0.1182105
0.490640625 0.5052896 -0.07128528
0.4917890625 0.4302565 -0.2349837
0.4929375 0.3091147 -0.3554346
0.4940859375 0.1616585 -0.4227811
0.495234375 0.008500612 -0.435166
0.4963828125 -0.1323151 -0.3978968
0.49753125 -0.2474885 -0.3204347
0.4986796875 -0.3277451 -0.2148671
0.499828125 -0.3687005 -0.09469458
0.5009765625 -0.369875 0.0274141
0.502125 -0.3348287 0.1404489
0.5032734375 -0.2687104 0.2350079
0.504421875 -0.1786039 0.3039463
0.5055703125 -0.07382095 0.3415705
0.50671875 0.03687355 0.3461174
0.5078671875 0.1441681 0.3171795
0.509015625 0.2381046 0.2565746
0.5101640625 0.3098912 0.1686408
0.5113125 0.3515119 0.06099305
0.5124609375 0.3571825 -0.05633553
0.513609375 0.3241195 -0.1722496
0.5147578125 0.254164 -0.2737778
0.51590625 0.1516924 -0.3485476
0.5170546875 0.02709095 -0.3865642
0.518203125 -0.1061483 -0.3805934
0.5193515625 -0.2322785 -0.3284709
0.5205 -0.3361725 -0.2343586
0.5216484375 -0.4030351 -0.1085333
0.522796875 -0.4240735 0.03608988
0.5239453125 -0.3935372 0.1828785
0.52509375 -0.3136939 0.312822
0.5262421875 -0.1904381 0.4112222
0.527390625 -0.03649328 0.4623172
0.5285390625 0.1310492 0.4577246
0.5296875 0.2919593 0.3920238
0.5308359375 0.4246533 0.2684782
0.531984375 0.5066327 0.09894878
0.5331328125 0.5206465 -0.0965127
0.53428125 0.4576799 -0.2907246
0.5354296875 0.3205747 -0.4508546
0.536578125 0.1256082 -0.5473285
0.5377265625 -0.09603042 -0.5578867
0.538875 -0.3059061 -0.4772505
0.5400234375 -0.4647463 -0.3187334
0.541171875 -0.5447177 -0.1118775
0.5423203125 -0.5344904 0.1057899
0.54346875 -0.4412293 0.2945585
0.5446171875 -0.2864967 0.4262798
0.545765625 -0.1017981 0.4845254
0.5469140625 0.08159988 0.4681894
0.5480625 0.2365752 0.3889195
0.5492109375 0.3447464 0.265313
0.550359375 0.3978777 0.1207225
0.5515078125 0.396668 -0.02485239
0.55265625 0.3481544 -0.1529807
0.5538046875 0.2642383 -0.2512733
0.554953125 0.158233 -0.312735
0.5561015625 0.04392054 -0.3350016
0.55725 -0.06652448 -0.3200421
0.5583984375 -0.1619899 -0.2728255
0.559546875 -0.2360853 -0.2002896
0.5606953125 -0.2817061 -0.1108353
0.56184375 -0.2972282 -0.01398649
0.5629921875 -0.2818286 0.08137012
0.564140625 -0.2381077 0.1660754
0.5652890625 -0.1705628 0.2318083
0.5664375 -0.08589943 0.2734488
0.5675859375 0.00774909 0.2858397
0.568734375 0.1005812 0.2672638
0.5698828125 0.1829815 0.2200048
0.57103125 0.2457165 0.147557
0.5721796875 0.2813337 0.05860929
0.573328125 0.2859968 -0.03787836
0.5744765625 0.2584831 -0.1305112
0.575625 0.2016939 -0.2095862
0.5767734375 0.1220849 -0.2658544
0.577921875 0.0277168 -0.293327
0.5790703125 -0.07088351 -0.2889072
0.58021875 -0.1632812 -0.2527849
0.5813671875 -0.2405447 -0.1878501
0.582515625 -0.2936497 -0.1006736
0.5836640625 -0.3172197 0.001237772
0.5848125 -0.3062622 0.1086348
0.5859609375 -0.2609321 0.2100409
0.587109375 -0.1819408 0.294962
0.5882578125 -0.07476849 0.3514447
0.58940625 0.05122656 0.3707991
0.5905546875 0.1849574 0.3454849
0.591703125 0.3086051 0.2711087
0.5928515625 0.4052652 0.1496768
0.594 0.453562 -0.009863423
0.5951484375 0.4375907 -0.1880593
0.596296875 0.3473345 -0.3573261
0.5974453125 0.1883014 -0.4840867
0.59859375 -0.02104288 -0.5369329
0.5997421875 -0.2422437 -0.4947485
0.600890625 -0.4290957 -0.3570763
0.6020390625 -0.5390131 -0.1497079
0.6031875 -0.5473305 0.08340596
0.6043359375 -0.4559821 0.2922442
0.605484375 -0.291227 0.4364516
0.6066328125 -0.09191195 0.4955036
0.60778125 0.1017755 0.4706962
0.6089296875 0.2583125 0.378122
0.610078125 0.3605169 0.2436052
0.6112265625 0.4030296 0.09191763
0.612375 0.3889387 -0.05352901
0.6135234375 0.3297977 -0.1767807
0.614671875 0.2380989 -0.2664903
0.6158203125 0.1285928 -0.3179429
0.61696875 0.01443329 -0.3296016
0.6181171875 -0.09227486 -0.3050136
0.619265625 -0.1820098 -0.2495813
0.6204140625 -0.2463432 -0.1711395
0.6215625 -0.2820053 -0.07895038
0.6227109375 -0.285611 0.01725493
0.623859375 -0.2588942 0.1072036
0.6250078125 -0.2059718 0.1821613
0.62615625 -0.1327 0.2351567
0.6273046875 -0.04800941 0.26122
0.628453125 0.03899554 0.258639
0.6296015625 0.1191325 0.2284582
0.63075 0.1837338 0.1750277
0.6318984375 0.227363 0.1049135
0.633046875 0.2457478 0.02579105
0.6341953125 0.2385842 -0.05315211
0.63534375 0.2077519 -0.1248195
0.6364921875 0.1555494 -0.1829204
0.637640625 0.08975086 -0.2211862
0.6387890625 0.01555573 -0.2373738
0.6399375 -0.05917559 -0.2304769
0.6410859375 -0.1288124 -0.2008995
0.642234375 -0.1864524 -0.1518049
0.6433828125 -0.2268373 -0.08683937
0.64453125 -0.2458372 -0.01173115
0.6456796875 -0.2413641 0.06727935
0.646828125 -0.2120299 0.1430223
0.6479765625 -0.1591043 0.207743
0.649125 -0.08656771 0.2544916
0.6502734375 4.874807E-05 0.2768326
0.651421875 0.09340061 0.26974
0.6525703125 0.1822781 0.231933
0.65371875 0.2579905 0.1639531
0.6548671875 0.3088701 0.07074673
0.656015625 0.3265283 -0.03947528
0.6571640625 0.3047237 -0.1544515
0.6583125 0.2419799 -0.2600791
0.6594609375 0.1411709 -0.3413231
0.660609375 0.01277035 -0.3838738
0.6617578125 -0.130135 -0.377618
0.66290625 -0.2677228 -0.3170798
0.6640546875 -0.3792269 -0.2047506
0.665203125 -0.4437522 -0.05121643
0.6663515625 -0.4450841 0.1232476
0.6675 -0.3753033 0.292079
0.6686484375 -0.2397609 0.424441
0.669796875 -0.05605232 0.4929311
0.6709453125 0.1440704 0.4806824
0.67209375 0.3224741 0.3861387
0.6732421875 0.4457588 0.2267292
0.674390625 0.4929299 0.03312117
0.6755390625 0.4580483 -0.1584464
0.6766875 0.3520472 -0.3146078
0.6778359375 0.1996309 -0.4124531
0.678984375 0.02850684 -0.4419178
0.6801328125 -0.1328394 -0.4057311
0.68128125 -0.2625872 -0.3164874
0.6824296875 -0.3455114 -0.191987
0.683578125 -0.3762337 -0.05332099
0.6847265625 -0.3565399 0.08039838
0.685875 -0.2937201 0.1922352
0.6870234375 -0.2011609 0.2717452
0.688171875 -0.09232128 0.3121812
0.6893203125 0.01852613 0.313609
0.69046875 0.1187319 0.2797524
0.6916171875 0.198609 0.2169386
0.692765625 0.2521863 0.1350056
0.6939140625 0.2754253 0.04345496
0.6950625 0.2681794 -0.04771966
0.6962109375 0.2335134 -0.1296809
0.697359375 0.1758381 -0.1955029
0.6985078125 0.1017381 -0.2387428
0.69965625 0.01890399 -0.2566035
0.7008046875 -0.0646163 -0.2471101
0.701953125 -0.1409476 -0.2122336
0.7031015625 -0.2021679 -0.155336
0.70425 -0.2423662 -0.08130418
0.7053984375 -0.2570964 0.002725823
0.706546875 -0.2438255 0.08768606
0.7076953125 -0.2029378 0.1649522
0.70884375 -0.1382945 0.2254241
0.7099921875 -0.05597844 0.2621468
0.711140625 0.03561934 0.2694413
0.7122890625 0.1262159 0.2453927
0.7134375 0.2046647 0.1910024
0.7145859375 0.2622875 0.1125655
0.715734375 0.2903278 0.01664933
0.7168828125 0.2842266 -0.08521085
0.71803125 0.2424498 -0.1815029
0.7191796875 0.1689689 -0.2602749
0.720328125 0.06944408 -0.3104145
0.7214765625 -0.04490969 -0.3226007
0.722625 -0.1601368 -0.2941948
0.7237734375 -0.2617145 -0.2236719
0.724921875 -0.3336568 -0.1177039
0.7260703125 -0.3634016 0.01200011
0.72721875 -0.3422056 0.1491265
0.7283671875 -0.2683831 0.2721018
0.729515625 -0.1491411 0.3601024
0.7306640625 -0.001353494 0.3972509
0.7318125 0.1528458 0.3712196
0.7329609375 0.2845874 0.2865376
0.734109375 0.3732083 0.1546822
0.7352578125 0.401892 -0.001093982
0.73640625 0.3667713 -0.1534894
0.7375546875 0.2760642 -0.2771865
0.738703125 0.1475472 -0.3533751
0.7398515625 0.00391644 -0.3733312
0.741 -0.1305449 -0.3382549
0.7421484375 -0.2377524 -0.25871
0.743296875 -0.3054918 -0.1503624
0.7444453125 -0.3275174 -0.03048409
0.74559375 -0.3068915 0.0841514
0.7467421875 -0.2504759 0.1795596
0.747890625 -0.1677488 0.2469221
0.7490390625 -0.06889382 0.2703347
0.7501875 0.02574255 0.2696139
0.7513359375 0.1116491 0.2396395
0.752484375 0.1807622 0.1850979
0.7536328125 0.2285105 0.1129657
0.75478125 0.2488106 0.03144076
0.7559296875 0.2417617 -0.05115702
0.757078125 0.2093373 -0.1264836
0.7582265625 0.1552264 -0.1864782
0.759375 0.08516683 -0.2261207
0.7605234375 0.006536687 -0.2411345
0.761671875 -0.0730605 -0.2293836
0.7628203125 -0.1442065 -0.193079
0.76396875 -0.2004858 -0.135137
0.7651171875 -0.2345209 -0.06181348
0.766265625 -0.2433379 0.01942791
0.7674140625 -0.2246415 0.09935223
0.7685625 -0.180185 0.1695189
0.7697109375 -0.1149686 0.2217455
0.770859375 -0.03514947 0.2498435
0.7720078125 0.05018503 0.2502906
0.77315625 0.1327705 0.2222035
0.7743046875 0.2022745 0.1680023
0.775453125 0.2513566 0.09227353
0.7766015625 0.2733334 0.002327789
0.77775 0.2634872 -0.09203549
0.7788984375 0.2220819 -0.1804953
0.780046875 0.1507835 -0.2522794
0.7811953125 0.05550338 -0.297397
0.78234375 -0.05367266 -0.3068039
0.7834921875 -0.1637703 -0.2757756
0.784640625 -0.2601487 -0.2050467
0.7857890625 -0.326284 -0.09889074
0.7869375 -0.349209 0.02980191
0.7880859375 -0.3202179 0.1619902
0.789234375 -0.2394598 0.2773236
0.7903828125 -0.116783 0.3532689
0.79153125 0.02941513 0.3731387
0.7926796875 0.1721112 0.3327121
0.793828125 0.2862387 0.2378078
0.7949765625 0.350903 0.1067183
0.796125 0.3571163 -0.03623357
0.7972734375 0.3070227 -0.1651598
0.798421875 0.2145892 -0.2600887
0.7995703125 0.09818651 -0.3093149
0.80071875 -0.02152677 -0.3109242
0.8018671875 -0.127154 -0.2704498
0.803015625 -0.2062439 -0.1982102
0.8041640625 -0.2514138 -0.1081584
0.8053125 -0.261935 -0.01346434
0.8064609375 -0.2405539 0.07435277
0.807609375 -0.1938793 0.145497
0.8087578125 -0.128508 0.1949355
0.80990625 -0.05429667 0.2191786
0.8110546875 0.02099227 0.2173724
0.812203125 0.08881825 0.1927807
0.8133515625 0.1432738 0.1487921
0.8145 0.1800035 0.09119679
0.8156484375 0.195408 0.02684376
0.816796875 0.1895447 -0.03779268
0.8179453125 0.1638914 -0.09575409
0.81909375 0.1215004 -0.1417727
0.8202421875 0.0673418 -0.1709308
0.821390625 0.007915649 -0.1807656
0.8225390625 -0.05075764 -0.1711225
0.8236875 -0.1019145 -0.1434921
0.8248359375 -0.1414453 -0.1014213
0.825984375 -0.1649935 -0.04941912
0.8271328125 -0.1702917 0.00610619
0.82828125 -0.1580911 0.0602231
0.8294296875 -0.1298422 0.1074013
0.830578125 -0.08838799 0.1426453
0.8317265625 -0.03808801 0.1633184
0.832875 0.01616115 0.1671982
0.8340234375 0.06886207 0.154443
0.835171875 0.1153052 0.1251384
0.8363203125 0.15085 0.08251678
0.83746875 0.1722049 0.03009451
0.8386171875 0.1754721 -0.02702615
0.839765625 0.1605724 -0.08407314
0.8409140625 0.1274663 -0.1348185
0.8420625 0.07797426 -0.1743131
0.8432109375 0.01680445 -0.1954343
0.844359375 -0.05116108 -0.195872
0.8455078125 -0.1182025 -0.1728615
0.84665625 -0.1757871 -0.1265289
0.8478046875 -0.2161561 -0.06065503
0.848953125 -0.2318461 0.01920258
0.8501015625 -0.2186864 0.1035534
0.85125 -0.1734248 0.181045
0.8523984375 -0.1004207 0.2402507
0.853546875 -0.005847505 0.2696359
0.8546953125 0.09750337 0.2615221
0.85584375 0.1945726 0.2128425
0.8569921875 0.2686005 0.126806
0.858140625 0.3037404 0.01459319
0.8592890625 0.291532 -0.1061556
0.8604375 0.2301896 -0.2145371
0.8615859375 0.1283957 -0.2896673
0.862734375 0.004072919 -0.3165967
0.8638828125 -0.1193643 -0.2902752
0.86503125 -0.2196823 -0.2174765
0.8661796875 -0.2805205 -0.1131044
0.867328125 -0.2942626 0.002870842
0.8684765625 -0.2632667 0.1107045
0.869625 -0.1964317 0.1945935
0.8707734375 -0.1067123 0.2443638
0.871921875 -0.01021895 0.2567511
0.8730703125 0.08005493 0.2349343
0.87421875 0.1526316 0.1840042
0.8753671875 0.2006948 0.1142813
0.876515625 0.2198028 0.0352563
0.8776640625 0.2112481 -0.04171606
0.8788125 0.1779501 -0.1077675
0.8799609375 0.1262272 -0.1566611
0.881109375 0.0637517 -0.1843364
0.8822578125 -0.001832128 -0.1893738
0.88340625 -0.06278585 -0.1729079
0.8845546875 -0.1132467 -0.1384685
0.885703125 -0.148852 -0.09128292
0.8868515625 -0.1664066 -0.03669884
0.888 -0.1661097 0.01897308
0.8891484375 -0.148446 0.07031685
0.890296875 -0.1164495 0.112606
0.8914453125 -0.0732156 0.1421153
0.89259375 -0.02342119 0.1567417
0.8937421875 0.02774604 0.1551914
0.894890625 0.07583562 0.1376836
0.8960390625 0.1156048 0.1062175
0.8971875 0.1440627 0.06360295
0.8983359375 0.157686 0.01381721
0.899484375 0.1544328 -0.03827061
0.9006328125 0.1347625 -0.08723149
0.90178125 0.100307 -0.1275829
0.9029296875 0.0534845 -0.1550647
0.904078125 -0.000557435 -0.1662756
0.9052265625 -0.05669572 -0.1591029
0.906375 -0.1076769 -0.1331332
0.9075234375 -0.1483756 -0.09115139
0.908671875 -0.1731357 -0.03672063
0.9098203125 -0.1782818 0.02408207
0.91096875 -0.1626778 0.08418234
0.9121171875 -0.1269754 0.1367883
0.913265625 -0.07427253 0.1751376
0.9144140625 -0.01021865 0.1936782
0.9155625 0.05815353 0.1899671
0.9167109375 0.1228878 0.161431
0.917859375 0.1752172 0.111299
0.9190078125 0.2080987 0.04376007
0.92015625 0.2146931 -0.03311707
0.9213046875 0.1934955 -0.1100683
0.922453125 0.1439999 -0.1760706
0.9236015625 0.07181812 -0.2213703
0.92475 -0.01446105 -0.2363317
0.9258984375 -0.1024297 -0.2175914
0.927046875 -0.1785014 -0.1659089
0.9281953125 -0.2293035 -0.08788007
0.92934375 -0.2464225 0.004304874
0.9304921875 -0.2263287 0.09694936
0.931640625 -0.1722061 0.1742634
0.9327890625 -0.09331464 0.2234908
0.9339375 -0.003130466 0.2386566
0.9350859375 0.0838218 0.2188171
0.936234375 0.1551565 0.1682931
0.9373828125 0.2006905 0.09756944
0.93853125 0.216814 0.01784752
0.9396796875 0.2030826 -0.05922218
0.940828125 0.1639502 -0.1239405
0.9419765625 0.1067669 -0.1683232
0.943125 0.04060371 -0.1892075
0.9442734375 -0.02637924 -0.1862119
0.945421875 -0.08614448 -0.1621689
0.9465703125 -0.1324954 -0.1200778
0.94771875 -0.1615233 -0.06680023
0.9488671875 -0.1712223 -0.008685521
0.950015625 -0.1614382 0.0479312
0.9511640625 -0.1341772 0.09739926
0.9523125 -0.09301603 0.1346385
0.9534609375 -0.04287853 0.155938
0.954609375 0.01130743 0.1598957
0.9557578125 0.06324234 0.1462294
0.95690625 0.1077443 0.1166852
0.9580546875 0.1397309 0.07396159
0.959203125 0.1561553 0.02308021
0.9603515625 0.1549127 -0.03025776
0.9615 0.1360444 -0.07997095
0.9626484375 0.1020487 -0.1210106
0.963796875 0.05603949 -0.1484663
0.9649453125 0.003193095 -0.1594506
0.96609375 -0.05054393 -0.1520372
0.9672421875 -0.09910747 -0.1274566
0.968390625 -0.1372198 -0.0878254
0.9695390625 -0.1601388 -0.037306
0.9706875 -0.1649427 0.01877037
0.9718359375 -0.1513779 0.07409907
0.972984375 -0.1198186 0.1224206
0.9741328125 -0.0724507 0.1584315
0.97528125 -0.01466373 0.1771641
0.9764296875 0.04779318 0.1756714
0.977578125 0.1077347 0.1523433
0.9787265625 0.1578613 0.1082019
0.979875 0.1907524 0.04746438
0.9810234375 0.2005692 -0.02362313
0.982171875 0.18402 -0.09626433
0.9833203125 0.1409127 -0.1603114
0.98446875 0.07436072 -0.2057534
0.9856171875 -0.006663422 -0.223758
0.986765625 -0.09102955 -0.2097455
0.9879140625 -0.1660848 -0.1629021
0.9890625 -0.217877 -0.08927458
