# GHZ S RI R 50.0
0.3 -0.4269035 0.5220293
0.3011484375 -0.1945868 0.5994505
0.302296875 0.02783019 0.5885069
0.3034453125 0.2139242 0.5082371
0.30459375 0.3487052 0.3824545
0.3057421875 0.4290088 0.233845
0.306890625 0.4569016 0.08073217
0.3080390625 0.4390139 -0.06406593
0.3091875 0.3837101 -0.1892101
0.3103359375 0.2989268 -0.2888965
0.311484375 0.1929261 -0.3584646
0.3126328125 0.07430999 -0.3954996
0.31378125 -0.04865848 -0.3975865
0.3149296875 -0.1684579 -0.3649209
0.316078125 -0.275113 -0.2983827
0.3172265625 -0.3600857 -0.2009166
0.318375 -0.4137234 -0.077978
0.3195234375 -0.4273258 0.06101853
0.320671875 -0.3944391 0.2035696
0.3218203125 -0.3123814 0.3326943
0.32296875 -0.1859996 0.4296078
0.3241171875 -0.02901944 0.4787694
0.325265625 0.141659 0.4689569
0.3264140625 0.2997252 0.3976531
0.3275625 0.4242266 0.2740815
0.3287109375 0.499117 0.1137062
0.329859375 0.5138585 -0.06382851
0.3310078125 0.468916 -0.2361847
0.33215625 0.3680153 -0.3866712
0.3333046875 0.2226881 -0.4972584
0.334453125 0.04501415 -0.5576081
0.3356015625 -0.1491827 -0.5576217
0.33675 -0.3413447 -0.4924362
0.3378984375 -0.5109836 -0.3605525
0.339046875 -0.6340428 -0.1673396
0.3401953125 -0.6857929 0.07474724
0.34134375 -0.6437895 0.3371587
0.3424921875 -0.493461 0.5844898
0.343640625 -0.2395608 0.7659564
0.3447890625 0.08894542 0.8302268
0.3459375 0.4323888 0.7451137
0.3470859375 0.7140945 0.5078385
0.348234375 0.8633187 0.1641525
0.3493828125 0.8435652 -0.208553
0.35053125 0.6645603 -0.5246854
0.3516796875 0.3757932 -0.7218023
0.352828125 0.05210429 -0.7720475
0.3539765625 -0.2394402 -0.688629
0.355125 -0.4529276 -0.510929
0.3562734375 -0.5688527 -0.2863958
0.357421875 -0.5904672 -0.05767408
0.3585703125 -0.5343314 0.1427943
0.35971875 -0.4247737 0.2954629
0.3608671875 -0.2840415 0.3933272
0.362015625 -0.1334431 0.4377659
0.3631640625 0.01270006 0.4337216
0.3643125 0.1407655 0.3895174
0.3654609375 0.2442429 0.3140076
0.366609375 0.3179816 0.2163336
0.3677578125 0.3589927 0.1062105
0.36890625 0.3666137 -0.0079733
0.3700546875 0.3414055 -0.1183288
0.371203125 0.2861116 -0.2156639
0.3723515625 0.2041959 -0.2923981
0.3735 0.1021189 -0.3414266
0.3746484375 -0.01127544 -0.3562652
0.375796875 -0.1249942 -0.3346722
0.3769453125 -0.2270841 -0.2767284
0.37809375 -0.3053736 -0.1874595
0.3792421875 -0.3493596 -0.0770636
0.380390625 -0.3537024 0.04214536
0.3815390625 -0.318137 0.15472
0.3826875 -0.2484516 0.2476492
0.3838359375 -0.1537348 0.3114269
0.384984375 -0.04574183 0.3408732
0.3861328125 0.06365995 0.3351806
0.38728125 0.1643331 0.2965231
0.3884296875 0.246858 0.2305646
0.389578125 0.3068019 0.144317
0.3907265625 0.3383379 0.0439431
0.391875 0.3403205 -0.06156071
0.3930234375 0.3112262 -0.1649155
0.394171875 0.2528076 -0.2586321
0.3953203125 0.1659575 -0.3346059
0.39646875 0.0563788 -0.3837917
0.3976171875 -0.07024291 -0.3998945
0.398765625 -0.2045205 -0.3747922
0.3999140625 -0.3339594 -0.3040558
0.4010625 -0.4418614 -0.1859019
0.4022109375 -0.5098836 -0.02481828
0.403359375 -0.5184206 0.1661705
0.4045078125 -0.4521195 0.3644077
0.40565625 -0.3040982 0.5391985
0.4068046875 -0.08146586 0.6521668
0.407953125 0.1892296 0.6686064
0.4091015625 0.4620775 0.5653948
0.41025 0.679073 0.3429376
0.4113984375 0.7828712 0.03261156
0.412546875 0.7369906 -0.3045864
0.4136953125 0.5417519 -0.5879126
0.41484375 0.2400081 -0.7524526
0.4159921875 -0.09414383 -0.7630559
0.417140625 -0.3833743 -0.6318104
0.4182890625 -0.5750886 -0.4036402
0.4194375 -0.6494278 -0.1386652
0.4205859375 -0.6157789 0.111404
0.421734375 -0.5001007 0.3115736
0.4228828125 -0.3343958 0.4442125
0.42403125 -0.1476607 0.5052201
0.4251796875 0.03508386 0.4991781
0.426328125 0.1951458 0.4359618
0.4274765625 0.3187255 0.3296953
0.428625 0.3964733 0.195052
0.4297734375 0.424159 0.04814251
0.430921875 0.4028277 -0.09516765
0.4320703125 0.3367172 -0.2196942
0.43321875 0.2356322 -0.3114613
0.4343671875 0.1129425 -0.3623801
0.435515625 -0.01546215 -0.3681515
0.4366640625 -0.1344123 -0.3316188
0.4378125 -0.2308347 -0.2599481
0.4389609375 -0.2950475 -0.1632476
0.440109375 -0.3223957 -0.05614315
0.4412578125 -0.3141012 0.04997495
0.44240625 -0.27418 0.144366
0.4435546875 -0.2094166 0.2187673
0.444703125 -0.1275087 0.2679629
0.4458515625 -0.03696502 0.2900271
0.447 0.05419219 0.2840735
0.4481484375 0.1387674 0.2522046
0.449296875 0.2097256 0.1972938
0.4504453125 0.2615544 0.123563
0.45159375 0.2900646 0.0371075
0.4527421875 0.2915412 -0.05592094
0.453890625 0.2647583 -0.1476457
0.4550390625 0.2097614 -0.229394
0.4561875 0.1287647 -0.2924433
0.4573359375 0.02807109 -0.3280333
0.458484375 -0.08409468 -0.3300853
0.4596328125 -0.1952803 -0.2933991
0.46078125 -0.2924878 -0.2181254
0.4619296875 -0.3609755 -0.1103427
0.463078125 -0.3901645 0.02053542
0.4642265625 -0.3712545 0.1582616
0.465375 -0.3032823 0.2864321
0.4665234375 -0.1913579 0.3863025
0.467671875 -0.04614694 0.4432319
0.4688203125 0.1153513 0.4462569
0.46996875 0.2741789 0.3902445
0.4711171875 0.4090661 0.2789236
0.472265625 0.5000015 0.1188506
0.4734140625 0.5303218 -0.07220656
0.4745625 0.4865921 -0.2718365
0.4757109375 0.3651741 -0.4508756
0.476859375 0.1743403 -0.5774709
0.4780078125 -0.06319318 -0.6217514
0.47915625 -0.310031 -0.5644221
0.4803046875 -0.5193033 -0.4045796
0.481453125 -0.6463614 -0.1661599
0.4826015625 -0.6616558 0.1064985
0.48375 -0.5608331 0.3599416
0.4848984375 -0.3669779 0.5453968
0.486046875 -0.120057 0.6316265
0.4871953125 0.1306368 0.6114911
0.48834375 0.3432637 0.497387
0.4894921875 0.4876829 0.318828
0.490640625 0.5484056 0.1105397
0.4917890625 0.5277386 -0.09387028
0.4929375 0.4387027 -0.2654639
0.4940859375 0.302867 -0.3860096
0.495234375 0.1425404 -0.4470514
0.4963828125 -0.01821634 -0.4488969
0.49753125 -0.161914 -0.3994803
0.4986796875 -0.2745536 -0.3105412
0.499828125 -0.3484118 -0.1962205
0.5009765625 -0.3810006 -0.07021295
0.502125 -0.3724951 0.05447517
0.5032734375 -0.3279579 0.1664896
0.504421875 -0.2528079 0.2571328
0.5055703125 -0.1568187 0.3189779
0.50671875 -0.04763403 0.348648
0.5078671875 0.06454047 0.3434821
0.509015625 0.1697964 0.3049841
0.5101640625 0.2584068 0.235503
0.5113125 0.3214949 0.1412001
0.5124609375 0.3523159 0.03020043
0.513609375 0.346369 -0.08634301
0.5147578125 0.3024886 -0.1969376
0.51590625 0.2233862 -0.2885508
0.5170546875 0.1165504 -0.3505874
0.518203125 -0.00649777 -0.3736857
0.5193515625 -0.1322332 -0.3542594
0.5205 -0.2457998 -0.2933304
0.5216484375 -0.3336282 -0.1969374
0.522796875 -0.3854065 -0.07479246
0.5239453125 -0.3936097 0.05954194
0.52509375 -0.3560265 0.1907417
0.5262421875 -0.2763531 0.3047701
0.527390625 -0.1609255 0.3873431
0.5285390625 -0.02011607 0.4280491
0.5296875 0.1298611 0.4201274
0.5308359375 0.2738737 0.3592379
0.531984375 0.392497 0.2487485
0.5331328125 0.4694732 0.09751391
0.53428125 0.487847 -0.07906879
0.5354296875 0.4389996 -0.2584808
0.536578125 0.3217869 -0.4139203
0.5377265625 0.1462969 -0.5175183
0.538875 -0.0628166 -0.545234
0.5400234375 -0.2722564 -0.4859761
0.541171875 -0.4427856 -0.3445463
0.5423203125 -0.5415469 -0.1443466
0.54346875 -0.5498996 0.07790406
0.5446171875 -0.467593 0.280872
0.545765625 -0.3143735 0.4288893
0.5469140625 -0.1222761 0.5010352
0.5480625 0.07342647 0.4910848
0.5492109375 0.2406952 0.4115024
0.550359375 0.3582976 0.2817947
0.5515078125 0.4162444 0.1277352
0.55265625 0.414653 -0.02662541
0.5538046875 0.3624881 -0.1623089
0.554953125 0.2725562 -0.2648129
0.5561015625 0.159906 -0.3273966
0.55725 0.03936664 -0.3482409
0.5583984375 -0.0757785 -0.3295397
0.559546875 -0.1745216 -0.2774391
0.5606953125 -0.2483544 -0.1993228
0.56184375 -0.2923861 -0.1051044
0.5629921875 -0.3037851 -0.004550512
0.564140625 -0.2834954 0.09299117
0.5652890625 -0.234733 0.1772718
0.5664375 -0.1623237 0.240871
0.5675859375 -0.07361453 0.2779514
0.568734375 0.02139875 0.284481
0.5698828125 0.1124542 0.2599868
0.57103125 0.1906236 0.207363
0.5721796875 0.2464454 0.1323042
0.573328125 0.2751084 0.0433357
0.5744765625 0.2729378 -0.04948392
0.575625 0.2407372 -0.1356291
0.5767734375 0.1824779 -0.2066649
0.577921875 0.1047547 -0.2545914
0.5790703125 0.01629603 -0.274399
0.58021875 -0.07366934 -0.2655033
0.5813671875 -0.1562848 -0.2284933
0.582515625 -0.2238282 -0.1672085
0.5836640625 -0.2688169 -0.08673618
0.5848125 -0.2868835 0.004310622
0.5859609375 -0.2751696 0.09881692
0.587109375 -0.2339091 0.1872677
0.5882578125 -0.1644055 0.2602594
0.58940625 -0.0721546 0.3098291
0.5905546875 0.03625486 0.3279946
0.591703125 0.1507002 0.308648
0.5928515625 0.2574395 0.2488705
0.594 0.3434348 0.1507209
0.5951484375 0.3930894 0.02074241
0.596296875 0.3924422 -0.1277847
0.5974453125 0.3341389 -0.2759739
0.59859375 0.2165692 -0.3990002
0.5997421875 0.05030176 -0.4718183
0.600890625 -0.1418648 -0.4724624
0.6020390625 -0.3274744 -0.3905703
0.6031875 -0.4678257 -0.2326773
0.6043359375 -0.5299322 -0.02384276
0.605484375 -0.4960334 0.1943396
0.6066328125 -0.372391 0.3771827
0.60778125 -0.1850825 0.4872722
0.6089296875 0.02383675 0.5068226
0.610078125 0.2138938 0.4411183
0.6112265625 0.3529198 0.3121704
0.612375 0.4255478 0.1489445
0.6135234375 0.4301992 -0.01891588
0.614671875 0.3763375 -0.1656229
0.6158203125 0.2793314 -0.276572
0.61696875 0.157345 -0.3417047
0.6181171875 0.02783656 -0.3600997
0.619265625 -0.09381475 -0.3347816
0.6204140625 -0.1950108 -0.2725998
0.6215625 -0.2663156 -0.1847328
0.6227109375 -0.3030603 -0.08187991
0.623859375 -0.3045995 0.0240661
0.6250078125 -0.2716149 0.1203668
0.62615625 -0.2107205 0.1988873
0.6273046875 -0.1296007 0.2511444
0.628453125 -0.03829901 0.2733769
0.6296015625 0.05226827 0.2646009
0.63075 0.1333137 0.2277848
0.6318984375 0.1958182 0.1681484
0.633046875 0.2350115 0.09365727
0.6341953125 0.2481647 0.01298741
0.63534375 0.2349174 -0.06596287
0.6364921875 0.1987908 -0.1349818
0.637640625 0.1439715 -0.1883733
0.6387890625 0.07643697 -0.2219139
0.6399375 0.003264704 -0.2331036
0.6410859375 -0.06944935 -0.2216084
0.642234375 -0.1347762 -0.1885409
0.6433828125 -0.1872964 -0.137465
0.64453125 -0.2224743 -0.07290463
0.6456796875 -0.2365319 0.0002548484
0.646828125 -0.227287 0.0755348
0.6479765625 -0.1947102 0.1453168
0.649125 -0.1416183 0.2033224
0.6502734375 -0.07055421 0.2431539
0.651421875 0.01122486 0.2589637
0.6525703125 0.09678221 0.2475
0.65371875 0.1765184 0.2080744
0.6548671875 0.2418774 0.1424382
0.656015625 0.2833158 0.05569188
0.6571640625 0.2948497 -0.0422579
0.6583125 0.2716724 -0.1428677
0.6594609375 0.2147382 -0.2330775
0.660609375 0.1270922 -0.3020436
0.6617578125 0.01651892 -0.338515
0.66290625 -0.1045426 -0.334883
0.6640546875 -0.2219757 -0.2881115
0.665203125 -0.320732 -0.1993907
0.6663515625 -0.3843441 -0.07553704
0.6675 -0.4005256 0.07001898
0.6686484375 -0.3612817 0.2188915
0.669796875 -0.2643748 0.3488501
0.6709453125 -0.1180321 0.4371466
0.67209375 0.05868788 0.4626712
0.6732421875 0.2379228 0.4146912
0.674390625 0.3874779 0.2948359
0.6755390625 0.477113 0.1201674
0.6766875 0.4871636 -0.07722656
0.6778359375 0.4144015 -0.261727
0.678984375 0.2757063 -0.3976866
0.6801328125 0.0971399 -0.4643479
0.68128125 -0.0871177 -0.4529286
0.6824296875 -0.2451266 -0.3742419
0.683578125 -0.3547724 -0.2457689
0.6847265625 -0.4043751 -0.09313555
0.685875 -0.3943557 0.05859036
0.6870234375 -0.3324665 0.1886592
0.688171875 -0.2340259 0.2823545
0.6893203125 -0.1152114 0.3321665
0.69046875 0.006423361 0.3378
0.6916171875 0.1166815 0.3032769
0.692765625 0.2049525 0.2372461
0.6939140625 0.2634816 0.1500274
0.6950625 0.2892509 0.05236433
0.6962109375 0.2823223 -0.04445888
0.697359375 0.2459486 -0.1315662
0.6985078125 0.1855526 -0.2003978
0.69965625 0.1083382 -0.2453177
0.7008046875 0.02243319 -0.2634861
0.701953125 -0.06382127 -0.2535028
0.7031015625 -0.1416527 -0.2171743
0.70425 -0.203466 -0.1584383
0.7053984375 -0.2434665 -0.08258451
0.706546875 -0.2569562 0.001488346
0.7076953125 -0.2423387 0.08587523
0.70884375 -0.2008218 0.161712
0.7099921875 -0.1365331 0.2197457
0.711140625 -0.05611607 0.2541204
0.7122890625 0.03176932 0.2603014
0.7134375 0.1176818 0.2365175
0.7145859375 0.1919897 0.1854178
0.715734375 0.2451422 0.1115349
0.7168828125 0.2716219 0.0230886
0.71803125 0.2671162 -0.0707873
0.7191796875 0.2314793 -0.1590078
0.720328125 0.1666946 -0.2321921
0.7214765625 0.07910616 -0.2806112
0.722625 -0.02175185 -0.2976288
0.7237734375 -0.1259659 -0.278527
0.724921875 -0.220827 -0.2232104
0.7260703125 -0.2926811 -0.1355184
0.72721875 -0.3308898 -0.02323044
0.7283671875 -0.3267331 0.1000724
0.729515625 -0.2757761 0.2179097
0.7306640625 -0.181341 0.3127582
0.7318125 -0.05303009 0.3663247
0.7329609375 0.09064919 0.3673483
0.734109375 0.2274735 0.310541
0.7352578125 0.3329305 0.2024632
0.73640625 0.3879225 0.05850122
0.7375546875 0.380294 -0.09570513
0.738703125 0.3119295 -0.233623
0.7398515625 0.1961154 -0.3316307
0.741 0.0537957 -0.3743203
0.7421484375 -0.08948608 -0.3587192
0.743296875 -0.2115889 -0.2912365
0.7444453125 -0.2954399 -0.1867807
0.74559375 -0.332426 -0.06402316
0.7467421875 -0.3226479 0.05785786
0.747890625 -0.2716713 0.1633258
0.7490390625 -0.1836205 0.2313597
0.7501875 -0.08895598 0.2720762
0.7513359375 0.009768414 0.277473
0.752484375 0.1007123 0.250881
0.7536328125 0.1749059 0.1969436
0.75478125 0.2264301 0.124087
0.7559296875 0.2497448 0.04082764
0.757078125 0.2446219 -0.04392059
0.7582265625 0.2132286 -0.1210604
0.759375 0.1593575 -0.182344
0.7605234375 0.08896526 -0.2226915
0.761671875 0.01044114 -0.2375108
0.7628203125 -0.06841176 -0.2265271
0.76396875 -0.1384863 -0.1900502
0.7651171875 -0.1927712 -0.1332081
0.766265625 -0.2254501 -0.06171954
0.7674140625 -0.2329495 0.01623747
0.7685625 -0.214428 0.09219611
0.7697109375 -0.1725096 0.1581442
0.770859375 -0.1108915 0.2064632
0.7720078125 -0.03676257 0.2325735
0.77315625 0.04198346 0.2332308
0.7743046875 0.1171435 0.2083694
0.775453125 0.181284 0.1599223
0.7766015625 0.2265642 0.09250575
0.77775 0.2484496 0.01285535
0.7788984375 0.2432055 -0.07161587
0.780046875 0.2098577 -0.1515315
0.7811953125 0.1505408 -0.2182606
0.78234375 0.0699572 -0.2632595
0.7834921875 -0.02480969 -0.2794841
0.784640625 -0.122942 -0.2617841
0.7857890625 -0.2135894 -0.2084516
0.7869375 -0.2829716 -0.1240249
0.7880859375 -0.3186275 -0.01475614
0.789234375 -0.3119481 0.1052876
0.7903828125 -0.2590242 0.2194972
0.79153125 -0.1621973 0.3082986
0.7926796875 -0.03390657 0.354717
0.793828125 0.1059088 0.3461953
0.7949765625 0.2339425 0.2819316
0.796125 0.3260654 0.1697741
0.7972734375 0.3647454 0.02949156
0.798421875 0.3438467 -0.11303
0.7995703125 0.2685674 -0.2330808
0.80071875 0.1545885 -0.3099567
0.8018671875 0.02479632 -0.334948
0.803015625 -0.09868992 -0.3089949
0.8041640625 -0.1982633 -0.2414704
0.8053125 -0.2619279 -0.1471715
0.8064609375 -0.2854373 -0.04168129
0.807609375 -0.2704811 0.05942121
0.8087578125 -0.2233112 0.144252
0.80990625 -0.1538346 0.2045027
0.8110546875 -0.07158428 0.2359795
0.812203125 0.0123919 0.2375275
0.8133515625 0.08881225 0.2125651
0.8145 0.1504203 0.1652058
0.8156484375 0.1911176 0.1022359
0.816796875 0.2081608 0.03210303
0.8179453125 0.2017245 -0.0378641
0.81909375 0.1735468 -0.09976582
0.8202421875 0.127639 -0.1480788
0.821390625 0.07023659 -0.1774937
0.8225390625 0.007772809 -0.1867475
0.8236875 -0.05253543 -0.1751893
0.8248359375 -0.1046749 -0.1457616
0.825984375 -0.1437053 -0.1016927
0.8271328125 -0.1659836 -0.04932199
0.82828125 -0.1702971 0.006999783
0.8294296875 -0.1570783 0.06024385
0.830578125 -0.1279559 0.1059906
0.8317265625 -0.08659849 0.1401948
0.832875 -0.03757489 0.1591209
0.8340234375 0.01506943 0.1622135
0.835171875 0.06533215 0.1491102
0.8363203125 0.1093336 0.1209952
0.83746875 0.1428891 0.08039901
0.8386171875 0.1622527 0.03088652
0.839765625 0.1660417 -0.02294378
0.8409140625 0.1519462 -0.07578443
0.8420625 0.1211165 -0.1227754
0.8432109375 0.07645614 -0.1583621
0.844359375 0.02116661 -0.1784728
0.8455078125 -0.03964695 -0.1799046
0.84665625 -0.09903541 -0.1605884
0.8478046875 -0.1513245 -0.1213903
0.848953125 -0.1884359 -0.06544182
0.8501015625 -0.2054239 0.002233142
0.85125 -0.1981181 0.07440282
0.8523984375 -0.165632 0.1420332
0.853546875 -0.1091402 0.1966241
0.8546953125 -0.03468498 0.229801
0.85584375 0.04959465 0.2349586
0.8569921875 0.1340521 0.2087328
0.858140625 0.2069727 0.1516524
0.8592890625 0.2566736 0.06856304
0.8604375 0.2724459 -0.03185503
0.8615859375 0.2486369 -0.1353423
0.862734375 0.1846891 -0.2249831
0.8638828125 0.08694598 -0.2852084
0.86503125 -0.03028378 -0.3024591
0.8661796875 -0.1474128 -0.2701426
0.867328125 -0.2430194 -0.1922227
0.8684765625 -0.2987753 -0.0814532
0.869625 -0.3045172 0.04141058
0.8707734375 -0.2604085 0.1543462
0.871921875 -0.1766419 0.2382159
0.8730703125 -0.07052504 0.2800579
0.87421875 0.03997583 0.2773511
0.8753671875 0.1359666 0.2345392
0.876515625 0.2056959 0.1618533
0.8776640625 0.2410984 0.07318442
0.8788125 0.241861 -0.01787764
0.8799609375 0.2111701 -0.09921815
0.881109375 0.1566392 -0.1608094
0.8822578125 0.08763382 -0.1974244
0.88340625 0.01410247 -0.2075687
0.8845546875 -0.055392 -0.1931923
0.885703125 -0.1130821 -0.1578127
0.8868515625 -0.1545359 -0.1074747
0.888 -0.1762216 -0.04889169
0.8891484375 -0.1775139 0.01139666
0.890296875 -0.1603499 0.06687777
0.8914453125 -0.1275318 0.1129096
0.89259375 -0.08254471 0.1454361
0.8937421875 -0.03052629 0.1617358
0.894890625 0.02277696 0.1612862
0.8960390625 0.07273286 0.1442622
0.8971875 0.1147518 0.1123588
0.8983359375 0.1442 0.06901606
0.899484375 0.1586198 0.01881854
0.9006328125 0.1564552 -0.03367382
0.90178125 0.1372365 -0.08293452
0.9029296875 0.1031085 -0.123593
0.904078125 0.05739479 -0.1511706
0.9052265625 0.004713235 -0.1625847
0.906375 -0.04964621 -0.1565116
0.9075234375 -0.09911243 -0.1325361
0.908671875 -0.1384386 -0.09322413
0.9098203125 -0.1632454 -0.04223565
0.91096875 -0.1698288 0.01420146
0.9121171875 -0.1576041 0.07066723
0.913265625 -0.1268887 0.1200063
0.9144140625 -0.08076678 0.1582572
0.9155625 -0.02378125 0.1790004
0.9167109375 0.03809245 0.1800717
0.917859375 0.09839802 0.1596104
0.9190078125 0.1494887 0.1195722
0.92015625 0.185849 0.0626917
0.9213046875 0.2008535 -0.005201255
0.922453125 0.1913909 -0.07636884
0.9236015625 0.1563714 -0.1423621
0.92475 0.09880816 -0.1934369
0.9258984375 0.02405968 -0.2211714
0.927046875 -0.05881759 -0.2204765
0.9281953125 -0.1378973 -0.1876898
0.92934375 -0.2011964 -0.1262759
0.9304921875 -0.2372624 -0.04304546
0.931640625 -0.2388764 0.0491557
0.9327890625 -0.2043608 0.1364732
0.9339375 -0.1384227 0.2036313
0.9350859375 -0.05142357 0.2397758
0.936234375 0.04207055 0.2396068
0.9373828125 0.1270916 0.2035282
0.93853125 0.1902193 0.13926
0.9396796875 0.223486 0.05786896
0.940828125 0.2239165 -0.02720666
0.9419765625 0.1937187 -0.1035439
0.943125 0.1395221 -0.1617821
0.9442734375 0.07117965 -0.1950473
0.945421875 -0.002028735 -0.2019979
0.9465703125 -0.06970935 -0.1836377
0.94771875 -0.1256825 -0.1442694
0.9488671875 -0.1633366 -0.09005542
0.950015625 -0.1800714 -0.0283979
0.9511640625 -0.1752413 0.03344116
0.9523125 -0.1506405 0.08874008
0.9534609375 -0.1100536 0.1317885
0.954609375 -0.05863817 0.1587048
0.9557578125 -0.00207938 0.1665934
0.95690625 0.05305314 0.1557573
0.9580546875 0.1008559 0.1277108
0.959203125 0.1363993 0.08598337
0.9603515625 0.1558178 0.0349462
0.9615 0.15738 -0.01873194
0.9626484375 0.1412084 -0.06956724
0.963796875 0.1094344 -0.112094
0.9649453125 0.06572251 -0.1414707
0.96609375 0.01482275 -0.1547012
0.9672421875 -0.03702654 -0.1508706
0.968390625 -0.08510555 -0.1300372
0.9695390625 -0.123354 -0.09468574
0.9706875 -0.1482991 -0.0487973
0.9718359375 -0.1568773 0.003143698
0.972984375 -0.1484398 0.05549411
0.9741328125 -0.1227539 0.1025121
0.97528125 -0.08318128 0.1392855
0.9764296875 -0.03260181 0.1614746
0.977578125 0.0238469 0.1662129
0.9787265625 0.08011267 0.1514556
0.979875 0.1295605 0.1179079
0.9810234375 0.1660391 0.06838391
0.982171875 0.184344 0.00692038
0.9833203125 0.1799999 -0.05894524
0.98446875 0.1522753 -0.121946
0.9856171875 0.1015296 -0.1730456
0.986765625 0.03376889 -0.203331
0.9879140625 -0.0436487 -0.2074281
0.9890625 -0.1191498 -0.181063
