# GHZ S RI R 50.0
0.3 -0.5582781 0.4467589
0.3011484375 -0.3283676 0.5792256
0.302296875 -0.09099997 0.6127621
0.3034453125 0.1203308 0.5648856
0.30459375 0.2854765 0.4579634
0.3057421875 0.3949503 0.3171021
0.306890625 0.4501923 0.1635666
0.3080390625 0.455216 0.01175611
0.3091875 0.418671 -0.1256169
0.3103359375 0.3475508 -0.2393551
0.311484375 0.2516938 -0.3257118
0.3126328125 0.1377471 -0.3800449
0.31378125 0.01540062 -0.3997957
0.3149296875 -0.1076602 -0.3847308
0.316078125 -0.222296 -0.3340913
0.3172265625 -0.3187674 -0.2508074
0.318375 -0.3880611 -0.1387257
0.3195234375 -0.4203873 -0.006362057
0.320671875 -0.4082023 0.1347561
0.3218203125 -0.3474898 0.2687585
0.32296875 -0.2413637 0.378678
0.3241171875 -0.09953196 0.4460337
0.325265625 0.0599577 0.4596858
0.3264140625 0.216706 0.4154117
0.3275625 0.3492101 0.3192381
0.3287109375 0.4396398 0.1828439
0.329859375 0.4791042 0.02388197
0.3310078125 0.4624845 -0.1383801
0.33215625 0.3950769 -0.2863038
0.3333046875 0.2837377 -0.405767
0.334453125 0.1376741 -0.4859253
0.3356015625 -0.03009007 -0.5173714
0.33675 -0.2041063 -0.4947774
0.3378984375 -0.3705577 -0.4144938
0.339046875 -0.5114525 -0.2772381
0.3401953125 -0.6049539 -0.08888093
0.34134375 -0.6303601 0.13618
0.3424921875 -0.5710407 0.375697
0.343640625 -0.4129949 0.5937116
0.3447890625 -0.1627056 0.7469584
0.3459375 0.1532328 0.7874
0.3470859375 0.4779107 0.6837638
0.348234375 0.738306 0.4354849
0.3493828125 0.8623208 0.0874962
0.35053125 0.8150804 -0.2828859
0.3516796875 0.6084192 -0.5863102
0.352828125 0.2998485 -0.7574801
0.3539765625 -0.03225174 -0.7751051
0.355125 -0.3160807 -0.6589247
0.3562734375 -0.5102877 -0.4557341
0.357421875 -0.6002305 -0.2171103
0.3585703125 -0.5946516 0.01363584
0.35971875 -0.515209 0.2067316
0.3608671875 -0.3871552 0.3457891
0.362015625 -0.2352226 0.427423
0.3631640625 -0.07864086 0.4539215
0.3643125 0.06693103 0.4321742
0.3654609375 0.1906405 0.3722329
0.366609375 0.2862364 0.2832783
0.3677578125 0.3489917 0.1751437
0.36890625 0.3762372 0.05720318
0.3700546875 0.3683436 -0.06074057
0.371203125 0.326932 -0.1698178
0.3723515625 0.2550512 -0.2606751
0.3735 0.1589646 -0.325841
0.3746484375 0.04698889 -0.3583065
0.375796875 -0.0703958 -0.353545
0.3769453125 -0.1809154 -0.3107699
0.37809375 -0.2716952 -0.2333596
0.3792421875 -0.3313717 -0.1301684
0.380390625 -0.3523395 -0.01401907
0.3815390625 -0.3337322 0.1014791
0.3826875 -0.2788896 0.2016477
0.3838359375 -0.1958596 0.2770115
0.384984375 -0.09648784 0.319708
0.3861328125 0.009246072 0.3294097
0.38728125 0.1100164 0.3065522
0.3884296875 0.1973006 0.2557464
0.389578125 0.2648505 0.1829118
0.3907265625 0.308089 0.09435532
0.391875 0.3245986 -0.002920084
0.3930234375 0.3127336 -0.1015985
0.394171875 0.2726542 -0.1950833
0.3953203125 0.205794 -0.2753714
0.39646875 0.1154473 -0.3356786
0.3976171875 0.006498434 -0.3684475
0.398765625 -0.1149541 -0.3671481
0.3999140625 -0.2369982 -0.3264365
0.4010625 -0.3474686 -0.2441271
0.4022109375 -0.4317709 -0.1211956
0.403359375 -0.4733344 0.03497813
0.4045078125 -0.4571249 0.2086719
0.40565625 -0.3740897 0.3775596
0.4068046875 -0.223941 0.5148229
0.407953125 -0.01964829 0.5908419
0.4091015625 0.2134718 0.58283
0.41025 0.4386181 0.4783195
0.4113984375 0.6137251 0.2824013
0.412546875 0.6986013 0.01924718
0.4136953125 0.6668679 -0.2679098
0.41484375 0.5114183 -0.5245033
0.4159921875 0.2563504 -0.6933913
0.417140625 -0.04881897 -0.7361389
0.4182890625 -0.3397132 -0.6433066
0.4194375 -0.5567839 -0.4396863
0.4205859375 -0.6622139 -0.175964
0.421734375 -0.6504152 0.09292664
0.4228828125 -0.5396014 0.3186983
0.42403125 -0.3631526 0.4742523
0.4251796875 -0.1564316 0.5472946
0.426328125 0.04871043 0.5404575
0.4274765625 0.227625 0.4666554
0.428625 0.3618285 0.3419201
0.4297734375 0.4404536 0.186498
0.430921875 0.4600023 0.02085643
0.4320703125 0.4230992 -0.1350242
0.43321875 0.3377446 -0.2632152
0.4343671875 0.2183473 -0.3506157
0.435515625 0.08200572 -0.3898966
0.4366640625 -0.05373392 -0.3802482
0.4378125 -0.172383 -0.3268775
0.4389609375 -0.2620034 -0.2412434
0.440109375 -0.3150941 -0.1354627
0.4412578125 -0.3304109 -0.02411168
0.44240625 -0.3100682 0.08071209
0.4435546875 -0.2598347 0.1697904
0.444703125 -0.1878669 0.2372784
0.4458515625 -0.1019054 0.2775633
0.447 -0.01036296 0.2904083
0.4481484375 0.07889232 0.2759217
0.449296875 0.1587807 0.236554
0.4504453125 0.2235156 0.1758121
0.45159375 0.2679485 0.09840097
0.4527421875 0.2875842 0.01054837
0.453890625 0.2799543 -0.08077227
0.4550390625 0.2441463 -0.1678855
0.4561875 0.1817548 -0.2417881
0.4573359375 0.09656997 -0.2940182
0.458484375 -0.004740072 -0.3173929
0.4596328125 -0.1119844 -0.3058842
0.46078125 -0.2125196 -0.2581824
0.4619296875 -0.2943961 -0.1762158
0.463078125 -0.3452636 -0.06863199
0.4642265625 -0.3568121 0.05354517
0.465375 -0.3251639 0.1759623
0.4665234375 -0.2521247 0.2830071
0.467671875 -0.1433724 0.3609253
0.4688203125 -0.01275601 0.3976321
0.46996875 0.1270522 0.3885504
0.4711171875 0.2589896 0.3317298
0.472265625 0.3688342 0.2300305
0.4734140625 0.4408005 0.09229197
0.4745625 0.4627088 -0.07043327
0.4757109375 0.4260119 -0.2378519
0.476859375 0.326775 -0.3913184
0.4780078125 0.169314 -0.5050928
0.47915625 -0.03120747 -0.5557111
0.4803046875 -0.2492075 -0.523898
0.481453125 -0.4483025 -0.4027016
0.4826015625 -0.5886213 -0.2006551
0.48375 -0.6346833 0.04985548
0.4848984375 -0.5695415 0.3040346
0.486046875 -0.4008839 0.5095121
0.4871953125 -0.1617045 0.6241531
0.48834375 0.09869659 0.6263646
0.4894921875 0.3302391 0.5238586
0.490640625 0.4924382 0.3428148
0.4917890625 0.5644092 0.1234498
0.4929375 0.5458398 -0.09378501
0.4940859375 0.4521225 -0.2762716
0.495234375 0.3070666 -0.4020257
0.4963828125 0.1375704 -0.4624642
0.49753125 -0.03072657 -0.4598888
0.4986796875 -0.1783827 -0.4035466
0.499828125 -0.2912981 -0.3073853
0.5009765625 -0.3629453 -0.1853669
0.502125 -0.389879 -0.05476891
0.5032734375 -0.3748153 0.07237896
0.504421875 -0.3231847 0.1845502
0.5055703125 -0.2422088 0.2724892
0.50671875 -0.1399697 0.3298751
0.5078671875 -0.02712471 0.3529745
0.509015625 0.08617156 0.3404373
0.5101640625 0.1895526 0.2934928
0.5113125 0.2730421 0.216466
0.5124609375 0.3286024 0.1165497
0.513609375 0.349445 0.003811422
0.5147578125 0.3329215 -0.1107917
0.51590625 0.2796305 -0.2151569
0.5170546875 0.1940515 -0.2962973
0.518203125 0.08565126 -0.3462338
0.5193515625 -0.03396255 -0.3566824
0.5205 -0.1509786 -0.3266094
0.5216484375 -0.251601 -0.2601663
0.522796875 -0.3258644 -0.162726
0.5239453125 -0.3639292 -0.04718925
0.52509375 -0.3622064 0.07579367
0.5262421875 -0.3205284 0.1931346
0.527390625 -0.2419511 0.291316
0.5285390625 -0.1345886 0.3611249
0.5296875 -0.007954286 0.3925406
0.5308359375 0.1260364 0.3815615
0.531984375 0.2533656 0.325504
0.5331328125 0.3584127 0.2268022
0.53428125 0.427311 0.09308146
0.5354296875 0.4477877 -0.0641974
0.536578125 0.4096838 -0.2252124
0.5377265625 0.3115208 -0.36937
0.538875 0.160197 -0.4727185
0.5400234375 -0.02761033 -0.5126789
0.541171875 -0.2248186 -0.4754128
0.5423203125 -0.3973786 -0.3599161
0.54346875 -0.5112457 -0.1803849
0.5446171875 -0.5432383 0.03291245
0.545765625 -0.4844299 0.2405208
0.5469140625 -0.3477644 0.4050404
0.5480625 -0.160325 0.4970921
0.5492109375 0.04101133 0.5056972
0.550359375 0.2215383 0.4372278
0.5515078125 0.3544329 0.3109111
0.55265625 0.4252448 0.1525178
0.5538046875 0.4324487 -0.01059053
0.554953125 0.3833342 -0.1563403
0.5561015625 0.2914073 -0.2684151
0.55725 0.1738532 -0.337909
0.5583984375 0.04656161 -0.3620797
0.559546875 -0.07530315 -0.3439352
0.5606953125 -0.1794689 -0.2888597
0.56184375 -0.2570588 -0.2062156
0.5629921875 -0.302273 -0.1070391
0.564140625 -0.3125458 -0.00183805
0.5652890625 -0.2891473 0.09930987
0.5664375 -0.2360476 0.1851846
0.5675859375 -0.1592195 0.2481589
0.568734375 -0.06737747 0.282275
0.5698828125 0.02895624 0.2843087
0.57103125 0.1192141 0.2553261
0.5721796875 0.1945382 0.198801
0.573328125 0.2459056 0.1219433
0.5744765625 0.2689694 0.03359854
0.575625 0.261889 -0.05585647
0.5767734375 0.2266327 -0.1369137
0.577921875 0.1680468 -0.2011328
0.5790703125 0.0928587 -0.2424113
0.58021875 0.009935302 -0.25747
0.5813671875 -0.07319187 -0.2460494
0.582515625 -0.1477608 -0.2094686
0.5836640625 -0.2072985 -0.1519751
0.5848125 -0.245851 -0.07833824
0.5859609375 -0.2606555 0.004202506
0.587109375 -0.2489547 0.08842198
0.5882578125 -0.2112458 0.1664896
0.58940625 -0.1498543 0.2305041
0.5905546875 -0.06894752 0.2735929
0.591703125 0.0256327 0.2892645
0.5928515625 0.1235172 0.2736275
0.594 0.2151009 0.2246843
0.5951484375 0.2893288 0.1442584
0.596296875 0.3343945 0.03736531
0.5974453125 0.3407539 -0.08446495
0.59859375 0.301705 -0.2077007
0.5997421875 0.2162408 -0.3149195
0.600890625 0.09056175 -0.3879317
0.6020390625 -0.06127187 -0.4105434
0.6031875 -0.2191323 -0.3715543
0.6043359375 -0.3559485 -0.2702041
0.605484375 -0.4462907 -0.1160964
0.6066328125 -0.4681926 0.06907718
0.60778125 -0.4111267 0.252646
0.6089296875 -0.2806129 0.4001802
0.610078125 -0.09891382 0.4798949
0.6112265625 0.09933402 0.4765237
0.612375 0.2766231 0.3935471
0.6135234375 0.4000087 0.2471234
0.614671875 0.4522075 0.07135091
0.6158203125 0.4314323 -0.1022344
0.61696875 0.3472084 -0.248217
0.6181171875 0.2219282 -0.3469539
0.619265625 0.07742769 -0.3882824
0.6204140625 -0.06583364 -0.3752517
0.6215625 -0.1871693 -0.3158374
0.6227109375 -0.2766969 -0.2212687
0.623859375 -0.3249695 -0.1066694
0.6250078125 -0.3289876 0.01183481
0.62615625 -0.295515 0.1207243
0.6273046875 -0.2288994 0.2071229
0.628453125 -0.1405027 0.263703
0.6296015625 -0.04212154 0.2866561
0.63075 0.05478175 0.2755415
0.6318984375 0.1385294 0.2345052
0.633046875 0.2027858 0.1703381
0.6341953125 0.2404588 0.09247629
0.63534375 0.251406 0.009393035
0.6364921875 0.2350617 -0.0703127
0.637640625 0.196828 -0.138747
0.6387890625 0.1398989 -0.1900178
0.6399375 0.07128611 -0.2212463
0.6410859375 -0.001481332 -0.2293221
0.642234375 -0.07295606 -0.2158476
0.6433828125 -0.1360429 -0.1813567
0.64453125 -0.1854648 -0.1297279
0.6456796875 -0.2171442 -0.06518229
0.646828125 -0.2276124 0.006000307
0.6479765625 -0.2159674 0.07802197
0.649125 -0.1822164 0.1436683
0.6502734375 -0.1290674 0.1966936
0.651421875 -0.06034673 0.231074
0.6525703125 0.01696779 0.2422788
0.65371875 0.09620446 0.2279027
0.6548671875 0.1678584 0.1881051
0.656015625 0.2243986 0.1257216
0.6571640625 0.2587712 0.04635295
0.6583125 0.2654092 -0.0416942
0.6594609375 0.2424242 -0.1299333
0.660609375 0.1904759 -0.2077286
0.6617578125 0.1139359 -0.2659905
0.66290625 0.01924649 -0.2966591
0.6640546875 -0.08348728 -0.2938888
0.665203125 -0.1826618 -0.2564916
0.6663515625 -0.2671261 -0.1858655
0.6675 -0.3254854 -0.08646277
0.6686484375 -0.347433 0.03205296
0.669796875 -0.3268651 0.1565363
0.6709453125 -0.2604969 0.2719248
0.67209375 -0.1515084 0.3609709
0.6732421875 -0.01083475 0.4066082
0.674390625 0.1451999 0.396607
0.6755390625 0.2926807 0.3242992
0.6766875 0.4058498 0.1940316
0.6778359375 0.4604993 0.02341358
0.678984375 0.4406005 -0.1600424
0.6801328125 0.3462921 -0.3226077
0.68128125 0.1917415 -0.4335029
0.6824296875 0.006111299 -0.47021
0.683578125 -0.1751605 -0.4284833
0.6847265625 -0.3202532 -0.3199896
0.685875 -0.4066408 -0.168454
0.6870234375 -0.4258362 -0.002142424
0.688171875 -0.3816337 0.1505464
0.6893203125 -0.2881525 0.2694938
0.69046875 -0.164853 0.3408123
0.6916171875 -0.03158097 0.3618906
0.692765625 0.09307589 0.3363093
0.6939140625 0.196129 0.2723834
0.6950625 0.2674499 0.1822749
0.6962109375 0.3026832 0.07815036
0.697359375 0.3018061 -0.02664023
0.6985078125 0.2676606 -0.12188
0.69965625 0.2069249 -0.1985152
0.7008046875 0.1269964 -0.24985
0.701953125 0.03710682 -0.2724164
0.7031015625 -0.05369461 -0.2649858
0.70425 -0.135645 -0.2292653
0.7053984375 -0.2008535 -0.1701078
0.706546875 -0.2431731 -0.09364269
0.7076953125 -0.2586338 -0.007802296
0.70884375 -0.2451077 0.07742599
0.7099921875 -0.20489 0.1530575
0.711140625 -0.1422839 0.2115973
0.7122890625 -0.0639395 0.2458294
0.7134375 0.0211617 0.2535336
0.7145859375 0.1035368 0.2319886
0.715734375 0.1751224 0.184473
0.7168828125 0.2268643 0.116733
0.71803125 0.2540811 0.03517539
0.7191796875 0.2530556 -0.05165941
0.720328125 0.2235793 -0.1339674
0.7214765625 0.1682418 -0.2028788
0.722625 0.09249902 -0.2510845
0.7237734375 0.00222125 -0.2719874
0.724921875 -0.09068017 -0.2620887
0.7260703125 -0.1783358 -0.2201706
0.72721875 -0.2490531 -0.149509
0.7283671875 -0.2927346 -0.05594555
0.729515625 -0.3019243 0.05125218
0.7306640625 -0.2719795 0.1593331
0.7318125 -0.2025507 0.2526906
0.7329609375 -0.1000314 0.3177313
0.734109375 0.02378587 0.341107
0.7352578125 0.1527149 0.3151831
0.73640625 0.2650717 0.2398459
0.7375546875 0.3415531 0.1233321
0.738703125 0.3670063 -0.01614347
0.7398515625 0.3347761 -0.155993
0.741 0.2490585 -0.2725784
0.7421484375 0.1249279 -0.3455256
0.743296875 -0.01630356 -0.3625253
0.7444453125 -0.150251 -0.3237688
0.74559375 -0.2554249 -0.2382834
0.7467421875 -0.3180117 -0.123041
0.747890625 -0.3316617 0.002880622
0.7490390625 -0.2874409 0.1154454
0.7501875 -0.2197801 0.2049309
0.7513359375 -0.1282109 0.2621422
0.752484375 -0.02703735 0.2820942
0.7536328125 0.070824 0.2664209
0.75478125 0.1547161 0.21949
0.7559296875 0.215459 0.1494726
0.757078125 0.2473871 0.06555411
0.7582265625 0.249799 -0.02187139
0.759375 0.2231483 -0.1034579
0.7605234375 0.1726476 -0.1696649
0.761671875 0.1037296 -0.2144175
0.7628203125 0.02562506 -0.2332573
0.76396875 -0.05344989 -0.2255124
0.7651171875 -0.1240738 -0.1925314
0.766265625 -0.1792336 -0.1386213
0.7674140625 -0.213038 -0.07051256
0.7685625 -0.2224152 0.004109532
0.7697109375 -0.2070432 0.07702775
0.770859375 -0.1690944 0.1403691
0.7720078125 -0.1132957 0.1871545
0.77315625 -0.04544697 0.2135705
0.7743046875 0.02678237 0.2166205
0.775453125 0.09634124 0.196401
0.7766015625 0.1560259 0.1548663
0.77775 0.1993112 0.09623436
0.7788984375 0.2223019 0.02622156
0.780046875 0.2214147 -0.04810495
0.7811953125 0.1964259 -0.1199627
0.78234375 0.1489196 -0.1819172
0.7834921875 0.08210191 -0.2259044
0.784640625 0.002162448 -0.2459274
0.7857890625 -0.08257545 -0.2389292
0.7869375 -0.1639609 -0.2022726
0.7880859375 -0.2303295 -0.1376046
0.789234375 -0.272158 -0.05057802
0.7903828125 -0.2815691 0.04970224
0.79153125 -0.2534837 0.1509818
0.7926796875 -0.1875066 0.2393726
0.793828125 -0.08973389 0.2997186
0.7949765625 0.02779883 0.3202137
0.796125 0.148701 0.2937566
0.7972734375 0.2532707 0.2206213
0.798421875 0.3228948 0.1094271
0.7995703125 0.3431963 -0.02259522
0.80071875 0.3090899 -0.1532058
0.8018671875 0.2260367 -0.2593825
0.803015625 0.1080347 -0.3227794
0.8041640625 -0.02319067 -0.3352403
0.8053125 -0.1453655 -0.2946017
0.8064609375 -0.2396755 -0.2129882
0.807609375 -0.2926501 -0.1052471
0.8087578125 -0.3009207 0.009755482
0.80990625 -0.2676327 0.114747
0.8110546875 -0.2013926 0.1964195
0.812203125 -0.1140409 0.2462653
0.8133515625 -0.01894468 0.2609523
0.8145 0.07100133 0.2427465
0.8156484375 0.1455984 0.1960154
0.816796875 0.1973049 0.1293562
0.8179453125 0.2222975 0.052547
0.81909375 0.2198847 -0.02547938
0.8202421875 0.1919793 -0.09526927
0.821390625 0.1444131 -0.1497224
0.8225390625 0.08325852 -0.1834898
0.8236875 0.01705671 -0.1954585
0.8248359375 -0.04709484 -0.1846995
0.825984375 -0.1024723 -0.1545423
0.8271328125 -0.1434874 -0.1098139
0.82828125 -0.1674819 -0.05567667
0.8294296875 -0.1725674 0.001225488
0.830578125 -0.1595553 0.05552697
0.8317265625 -0.1312896 0.101463
0.832875 -0.09039372 0.13605
0.8340234375 -0.04196002 0.1557515
0.835171875 0.00917997 0.1595176
0.8363203125 0.05905251 0.1472474
0.83746875 0.1020817 0.1207796
0.8386171875 0.1348716 0.08213713
0.839765625 0.1541405 0.03519634
0.8409140625 0.1583485 -0.0158597
0.8420625 0.1460199 -0.06596726
0.8432109375 0.1183676 -0.1105015
0.844359375 0.07743542 -0.1443845
0.8455078125 0.0266412 -0.1636324
0.84665625 -0.028531 -0.1658259
0.8478046875 -0.08241791 -0.1498927
0.848953125 -0.1292233 -0.116415
0.8501015625 -0.1636234 -0.06825533
0.85125 -0.1805584 -0.01081409
0.8523984375 -0.1772777 0.05130859
0.853546875 -0.1533754 0.1096844
0.8546953125 -0.1099894 0.1585782
0.85584375 -0.05134911 0.1907978
0.8569921875 0.01688288 0.2020063
0.858140625 0.08671692 0.189224
0.8592890625 0.1505269 0.1529546
0.8604375 0.2003492 0.09429712
0.8615859375 0.2277079 0.0191545
0.862734375 0.2274225 -0.06432261
0.8638828125 0.1966519 -0.145829
0.86503125 0.1354287 -0.2146151
0.8661796875 0.04935942 -0.2578478
0.867328125 -0.05154734 -0.2663642
0.8684765625 -0.1527245 -0.2341721
0.869625 -0.2364437 -0.1621722
0.8707734375 -0.2867939 -0.05974174
0.871921875 -0.2915255 0.05749802
0.8730703125 -0.2476342 0.168254
0.87421875 -0.1616298 0.2517436
0.8753671875 -0.04993291 0.2924521
0.876515625 0.06747516 0.2843942
0.8776640625 0.1685174 0.2305923
0.8788125 0.2372453 0.1445756
0.8799609375 0.2656134 0.04294698
0.881109375 0.2532582 -0.05724927
0.8822578125 0.2064234 -0.1408524
0.88340625 0.1359251 -0.1981242
0.8845546875 0.05412916 -0.2245506
0.885703125 -0.02724782 -0.2206459
0.8868515625 -0.09813635 -0.1898592
0.888 -0.1515708 -0.1393945
0.8891484375 -0.1832741 -0.07700491
0.890296875 -0.1922677 -0.01067789
0.8914453125 -0.1794455 0.05264879
0.89259375 -0.148 0.1062588
0.8937421875 -0.102409 0.1453571
0.894890625 -0.04829027 0.1673387
0.8960390625 0.009137001 0.1708589
0.8971875 0.06324839 0.1561583
0.8983359375 0.1092434 0.1253796
0.899484375 0.1426781 0.0821766
0.9006328125 0.1605743 0.03075703
0.90178125 0.1609301 -0.02297912
0.9029296875 0.1434464 -0.07415982
0.904078125 0.1110547 -0.1168021
0.9052265625 0.06646959 -0.146069
0.906375 0.01490934 -0.1597919
0.9075234375 -0.03853236 -0.1558718
0.908671875 -0.08779313 -0.134804
0.9098203125 -0.1271242 -0.0986478
0.91096875 -0.1527029 -0.05177949
0.9121171875 -0.1620466 0.001315133
0.913265625 -0.1535576 0.0546178
0.9144140625 -0.1280665 0.1029594
0.9155625 -0.08794415 0.1400727
0.9167109375 -0.03727028 0.1632652
0.917859375 0.01874958 0.1686578
0.9190078125 0.07415435 0.1553115
0.92015625 0.1236937 0.1241629
0.9213046875 0.1613975 0.07739554
0.922453125 0.1816543 0.01926011
0.9236015625 0.1818846 -0.04417274
0.92475 0.1596045 -0.1059928
0.9258984375 0.1166426 -0.1586529
0.927046875 0.05577829 -0.1941209
0.9281953125 -0.01625142 -0.2072975
0.92934375 -0.09074011 -0.1928118
0.9304921875 -0.1576797 -0.1513865
0.931640625 -0.2064295 -0.08592487
0.9327890625 -0.228182 -0.004969968
0.9339375 -0.2175285 0.08099353
0.9350859375 -0.1746417 0.1574
0.936234375 -0.104027 0.2135237
0.9373828125 -0.01723851 0.2380162
0.93853125 0.07305283 0.2272027
0.9396796875 0.1516822 0.1823961
0.940828125 0.2070336 0.1116415
0.9419765625 0.2307698 0.02646789
0.943125 0.2206847 -0.0590965
0.9442734375 0.1800272 -0.1335495
0.945421875 0.1171163 -0.1857008
0.9465703125 0.04129255 -0.2101645
0.94771875 -0.03541845 -0.2062128
0.9488671875 -0.1037997 -0.1758707
0.950015625 -0.1550337 -0.125112
0.9511640625 -0.1843943 -0.0617618
0.9523125 -0.1901366 0.005988248
0.9534609375 -0.172237 0.06946955
0.954609375 -0.135289 0.1217454
0.9557578125 -0.083819 0.1570582
0.95690625 -0.02464259 0.1728768
0.9580546875 0.03479762 0.1680796
0.959203125 0.08810391 0.144089
0.9603515625 0.1295548 0.1041507
0.9615 0.1545169 0.05358177
0.9626484375 0.1609568 -0.001165265
0.963796875 0.1491513 -0.05432297
0.9649453125 0.1209567 -0.1000231
0.96609375 0.0795737 -0.1329831
0.9672421875 0.0306549 -0.1501774
0.968390625 -0.02050649 -0.1505353
0.9695390625 -0.0684458 -0.1343713
0.9706875 -0.1082122 -0.1038862
0.9718359375 -0.1357138 -0.06225538
0.972984375 -0.1487547 -0.01440563
0.9741328125 -0.145502 0.03498727
0.97528125 -0.1260843 0.08128382
0.9764296875 -0.0932267 0.1189775
0.977578125 -0.04936479 0.1447304
0.9787265625 0.0009799956 0.1543114
0.979875 0.05313006 0.1476572
0.9810234375 0.1010878 0.1233831
0.982171875 0.139235 0.0839152
0.9833203125 0.1628684 0.03260855
0.98446875 0.1680841 -0.02510621
0.9856171875 0.1530508 -0.08338943
0.986765625 0.1175519 -0.1349107
0.9879140625 0.06460831 -0.171503
0.9890625 -4.436787E-05 -0.1878855
