# GHz S RI R 50
0.001	0.999999974885165	-0.0002241195061156	0	0	0.0149722989459391	0.0149689437337652	0	0	
0	0	0.999999974885165	-0.0002241195061156	0	0	0.0149722989459391	0.0149689437337652	
0.0149722989459391	0.0149689437337652	0	0	-0.999999974885165	0.0002241195061156	0	0	
0	0	0.0149689437337652	0	0	0	-0.999999974885165	0.0002241195061156
0.003	0.999999773966106	-0.000672358472396319	0	0	0.025938591696969	0.0259211574890198	0	0	
0	0	0.999999773966106	-0.000672358472396319	0	0	0.025938591696969	0.0259211574890198	
0.025938591696969	0.0259211574890198	0	0	-0.999999773966106	0.000672358472396319	0	0	
0	0	0.0259211574890198	0	0	0	-0.999999773966106	0.000672358472396319
0.005	0.999999372127388	-0.00112059730012249	0	0	0.033494074725126	0.0334565622644145	0	0	
0	0	0.999999372127388	-0.00112059730012249	0	0	0.033494074725126	0.0334565622644145	
0.033494074725126	0.0334565622644145	0	0	-0.999999372127388	0.00112059730012249	0	0	
0	0	0.0334565622644145	0	0	0	-0.999999372127388	0.00112059730012249
0.007	0.999998769368646	-0.00156883589637232	0	0	0.0396395906891526	0.039577451190559	0	0	
0	0	0.999998769368646	-0.00156883589637232	0	0	0.0396395906891526	0.039577451190559	
0.0396395906891526	0.039577451190559	0	0	-0.999998769368646	0.00156883589637232	0	0	
0	0	0.039577451190559	0	0	0	-0.999998769368646	0.00156883589637232
0.009	0.999997965689658	-0.00201707416813533	0	0	0.0449571214659969	0.0448665305741626	0	0	
0	0	0.999997965689658	-0.00201707416813533	0	0	0.0449571214659969	0.0448665305741626	
0.0449571214659969	0.0448665305741626	0	0	-0.999997965689658	0.00201707416813533	0	0	
0	0	0.0448665305741626	0	0	0	-0.999997965689658	0.00201707416813533
0.011	0.999996961090292	-0.00246531202235068	0	0	0.0497130748307189	0.0495906668192383	0	0	
0	0	0.999996961090292	-0.00246531202235068	0	0	0.0497130748307189	0.0495906668192383	
0.0497130748307189	0.0495906668192383	0	0	-0.999996961090292	0.00246531202235068	0	0	
0	0	0.0495906668192383	0	0	0	-0.999996961090292	0.00246531202235068
0.013	0.999995755570499	-0.0029135493659237	0	0	0.0540558800813693	0.0538986137157164	0	0	
0	0	0.999995755570499	-0.0029135493659237	0	0	0.0540558800813693	0.0538986137157164	
0.0540558800813693	0.0538986137157164	0	0	-0.999995755570499	0.0029135493659237	0	0	
0	0	0.0538986137157164	0	0	0	-0.999995755570499	0.0029135493659237
0.015	0.999994349130297	-0.00336178610573496	0	0	0.0580782899402321	0.0578833693653735	0	0	
0	0	0.999994349130297	-0.00336178610573496	0	0	0.0580782899402321	0.0578833693653735	
0.0580782899402321	0.0578833693653735	0	0	-0.999994349130297	0.00336178610573496	0	0	
0	0	0.0578833693653735	0	0	0	-0.999994349130297	0.00336178610573496
0.017	0.999992741769773	-0.00381002214864586	0	0	0.0618428531595924	0.0616076765539232	0	0	
0	0	0.999992741769773	-0.00381002214864586	0	0	0.0618428531595924	0.0616076765539232	
0.0618428531595924	0.0616076765539232	0	0	-0.999992741769773	0.00381002214864586	0	0	
0	0	0.0616076765539232	0	0	0	-0.999992741769773	0.00381002214864586
0.019	0.999990933489071	-0.0042582574015024	0	0	0.0653941147916148	0.0651162387859273	0	0	
0	0	0.999990933489071	-0.0042582574015024	0	0	0.0653941147916148	0.0651162387859273	
0.0653941147916148	0.0651162387859273	0	0	-0.999990933489071	0.0042582574015024	0	0	
0	0	0.0651162387859273	0	0	0	-0.999990933489071	0.0042582574015024
0.021	0.999988924288396	-0.00470649177113786	0	0	0.0687651289084922	0.0684422427194943	0	0	
0	0	0.999988924288396	-0.00470649177113786	0	0	0.0687651289084922	0.0684422427194943	
0.0687651289084922	0.0684422427194943	0	0	-0.999988924288396	0.00470649177113786	0	0	
0	0	0.0684422427194943	0	0	0	-0.999988924288396	0.00470649177113786
0.023	0.99998671416801	-0.00515472516437483	0	0	0.071981223272937	0.0716111291970826	0	0	
0	0	0.99998671416801	-0.00515472516437483	0	0	0.071981223272937	0.0716111291970826	
0.071981223272937	0.0716111291970826	0	0	-0.99998671416801	0.00515472516437483	0	0	
0	0	0.0716111291970826	0	0	0	-0.99998671416801	0.00515472516437483
0.025	0.999984303128228	-0.00560295748802669	0	0	0.0750623128001594	0.0746429110709411	0	0	
0	0	0.999984303128228	-0.00560295748802669	0	0	0.0750623128001594	0.0746429110709411	
0.0750623128001594	0.0746429110709411	0	0	-0.999984303128228	0.00560295748802669	0	0	
0	0	0.0746429110709411	0	0	0	-0.999984303128228	0.00560295748802669
0.027	0.999981691169423	-0.00605118864889888	0	0	0.0780243920444236	0.077553668797136	0	0	
0	0	0.999981691169423	-0.00605118864889888	0	0	0.0780243920444236	0.077553668797136	
0.0780243920444236	0.077553668797136	0	0	-0.999981691169423	0.00605118864889888	0	0	
0	0	0.077553668797136	0	0	0	-0.999981691169423	0.00605118864889888
0.029	0.999978878292014	-0.00649941855378984	0	0	0.0808805369633572	0.0803565544812538	0	0	
0	0	0.999978878292014	-0.00649941855378984	0	0	0.0808805369633572	0.0803565544812538	
0.0808805369633572	0.0803565544812538	0	0	-0.999978878292014	0.00649941855378984	0	0	
0	0	0.0803565544812538	0	0	0	-0.999978878292014	0.00649941855378984
0.031	0.999975864496479	-0.00694764710949184	0	0	0.0836415998288546	0.0830624885074691	0	0	
0	0	0.999975864496479	-0.00694764710949184	0	0	0.0836415998288546	0.0830624885074691	
0.0836415998288546	0.0830624885074691	0	0	-0.999975864496479	0.00694764710949184	0	0	
0	0	0.0830624885074691	0	0	0	-0.999975864496479	0.00694764710949184
0.033	0.999972649783345	-0.00739587422279163	0	0	0.0863167048907031	0.0856806565240635	0	0	
0	0	0.999972649783345	-0.00739587422279163	0	0	0.0863167048907031	0.0856806565240635	
0.0863167048907031	0.0856806565240635	0	0	-0.999972649783345	0.00739587422279163	0	0	
0	0	0.0856806565240635	0	0	0	-0.999972649783345	0.00739587422279163
0.035	0.999969234153192	-0.00784409980047104	0	0	0.0889136104589736	0.0882188725618957	0	0	
0	0	0.999969234153192	-0.00784409980047104	0	0	0.0889136104589736	0.0882188725618957	
0.0889136104589736	0.0882188725618957	0	0	-0.999969234153192	0.00784409980047104	0	0	
0	0	0.0882188725618957	0	0	0	-0.999969234153192	0.00784409980047104
0.037	0.999965617606646	-0.00829232374930744	0	0	0.0914389789322296	0.0906838498876519	0	0	
0	0	0.999965617606646	-0.00829232374930744	0	0	0.0914389789322296	0.0906838498876519	
0.0914389789322296	0.0906838498876519	0	0	-0.999965617606646	0.00829232374930744	0	0	
0	0	0.0906838498876519	0	0	0	-0.999965617606646	0.00829232374930744
0.039	0.999961800144389	-0.0087405459760742	0	0	0.0938985818532448	0.093081406726037	0	0	
0	0	0.999961800144389	-0.0087405459760742	0	0	0.0938985818532448	0.093081406726037	
0.0938985818532448	0.093081406726037	0	0	-0.999961800144389	0.0087405459760742	0	0	
0	0	0.093081406726037	0	0	0	-0.999961800144389	0.0087405459760742
0.041	0.999957781767149	-0.00918876638754101	0	0	0.0962974581339772	0.0954166250294831	0	0	
0	0	0.999957781767149	-0.00918876638754101	0	0	0.0962974581339772	0.0954166250294831	
0.0962974581339772	0.0954166250294831	0	0	-0.999957781767149	0.00918876638754101	0	0	
0	0	0.0954166250294831	0	0	0	-0.999957781767149	0.00918876638754101
0.043	0.999953562475706	-0.00963698489047425	0	0	0.0986400378925113	0.0976939747656553	0	0	
0	0	0.999953562475706	-0.00963698489047425	0	0	0.0986400378925113	0.0976939747656553	
0.0986400378925113	0.0976939747656553	0	0	-0.999953562475706	0.00963698489047425	0	0	
0	0	0.0976939747656553	0	0	0	-0.999953562475706	0.00963698489047425
0.045	0.999949142270887	-0.0100852013916373	0	0	0.100930240617223	0.0999174124576094	0	0	
0	0	0.999949142270887	-0.0100852013916373	0	0	0.100930240617223	0.0999174124576094	
0.100930240617223	0.0999174124576094	0	0	-0.999949142270887	0.0100852013916373	0	0	
0	0	0.0999174124576094	0	0	0	-0.999949142270887	0.0100852013916373
0.047	0.999944521153572	-0.0105334157977907	0	0	0.103171553877279	0.102090460211174	0	0	
0	0	0.999944521153572	-0.0105334157977907	0	0	0.103171553877279	0.102090460211174	
0.103171553877279	0.102090460211174	0	0	-0.999944521153572	0.0105334157977907	0	0	
0	0	0.102090460211174	0	0	0	-0.999944521153572	0.0105334157977907
0.049	0.999939699124684	-0.0109816280156925	0	0	0.105367097093201	0.104216269754473	0	0	
0	0	0.999939699124684	-0.0109816280156925	0	0	0.105367097093201	0.104216269754473	
0.105367097093201	0.104216269754473	0	0	-0.999939699124684	0.0109816280156925	0	0	
0	0	0.104216269754473	0	0	0	-0.999939699124684	0.0109816280156925
0.051	0.999934676185203	-0.0114298379520984	0	0	0.10751967369324	0.106297674824504	0	0	
0	0	0.999934676185203	-0.0114298379520984	0	0	0.10751967369324	0.106297674824504	
0.10751967369324	0.106297674824504	0	0	-0.999934676185203	0.0114298379520984	0	0	
0	0	0.106297674824504	0	0	0	-0.999934676185203	0.0114298379520984
0.053	0.999929452336151	-0.0118780455137621	0	0	0.109631814140506	0.108337234392364	0	0	
0	0	0.999929452336151	-0.0118780455137621	0	0	0.109631814140506	0.108337234392364	
0.109631814140506	0.108337234392364	0	0	-0.999929452336151	0.0118780455137621	0	0	
0	0	0.108337234392364	0	0	0	-0.999929452336151	0.0118780455137621
0.055	0.999924027578601	-0.0123262506074352	0	0	0.111705811710711	0.110337268612748	0	0	
0	0	0.999924027578601	-0.0123262506074352	0	0	0.111705811710711	0.110337268612748	
0.111705811710711	0.110337268612748	0	0	-0.999924027578601	0.0123262506074352	0	0	
0	0	0.110337268612748	0	0	0	-0.999924027578601	0.0123262506074352
0.057	0.999918401913673	-0.0127744531398676	0	0	0.113743752459561	0.112299888940967	0	0	
0	0	0.999918401913673	-0.0127744531398676	0	0	0.113743752459561	0.112299888940967	
0.113743752459561	0.112299888940967	0	0	-0.999918401913673	0.0127744531398676	0	0	
0	0	0.112299888940967	0	0	0	-0.999918401913673	0.0127744531398676
0.059	0.999912575342538	-0.0132226530178075	0	0	0.115747540492871	0.114227023534129	0	0	
0	0	0.999912575342538	-0.0132226530178075	0	0	0.115747540492871	0.114227023534129	
0.115747540492871	0.114227023534129	0	0	-0.999912575342538	0.0132226530178075	0	0	
0	0	0.114227023534129	0	0	0	-0.999912575342538	0.0132226530178075
0.061	0.999906547866413	-0.0136708501480017	0	0	0.117718919409	0.116120438808941	0	0	
0	0	0.999906547866413	-0.0136708501480017	0	0	0.117718919409	0.116120438808941	
0.117718919409	0.116120438808941	0	0	-0.999906547866413	0.0136708501480017	0	0	
0	0	0.116120438808941	0	0	0	-0.999906547866413	0.0136708501480017
0.063	0.999900319486564	-0.0141190444371955	0	0	0.119659490599113	0.117981757843966	0	0	
0	0	0.999900319486564	-0.0141190444371955	0	0	0.119659490599113	0.117981757843966	
0.119659490599113	0.117981757843966	0	0	-0.999900319486564	0.0141190444371955	0	0	
0	0	0.117981757843966	0	0	0	-0.999900319486564	0.0141190444371955
0.065	0.999893890204303	-0.0145672357921332	0	0	0.121570728950259	0.119812476173265	0	0	
0	0	0.999893890204303	-0.0145672357921332	0	0	0.121570728950259	0.119812476173265	
0.121570728950259	0.119812476173265	0	0	-0.999893890204303	0.0145672357921332	0	0	
0	0	0.119812476173265	0	0	0	-0.999893890204303	0.0145672357921332
0.067	0.999887260020995	-0.0150154241195577	0	0	0.123453996387954	0.121613975409732	0	0	
0	0	0.999887260020995	-0.0150154241195577	0	0	0.123453996387954	0.121613975409732	
0.123453996387954	0.121613975409732	0	0	-0.999887260020995	0.0150154241195577	0	0	
0	0	0.121613975409732	0	0	0	-0.999887260020995	0.0150154241195577
0.069	0.999880428938044	-0.0154636093262111	0	0	0.125310553610798	0.123387535051876	0	0	
0	0	0.999880428938044	-0.0154636093262111	0	0	0.125310553610798	0.123387535051876	
0.125310553610798	0.123387535051876	0	0	-0.999880428938044	0.0154636093262111	0	0	
0	0	0.123387535051876	0	0	0	-0.999880428938044	0.0154636093262111
0.071	0.999873396956911	-0.0159117913188345	0	0	0.127141570303521	0.125134342761786	0	0	
0	0	0.999873396956911	-0.0159117913188345	0	0	0.127141570303521	0.125134342761786	
0.127141570303521	0.125134342761786	0	0	-0.999873396956911	0.0159117913188345	0	0	
0	0	0.125134342761786	0	0	0	-0.999873396956911	0.0159117913188345
0.073	0.9998661640791	-0.0163599700041682	0	0	0.128948134062927	0.126855503349387	0	0	
0	0	0.9998661640791	-0.0163599700041682	0	0	0.128948134062927	0.126855503349387	
0.128948134062927	0.126855503349387	0	0	-0.9998661640791	0.0163599700041682	0	0	
0	0	0.126855503349387	0	0	0	-0.9998661640791	0.0163599700041682
0.075	0.999858730306163	-0.0168081452889519	0	0	0.130731258229443	0.128552046656795	0	0	
0	0	0.999858730306163	-0.0168081452889519	0	0	0.130731258229443	0.128552046656795	
0.130731258229443	0.128552046656795	0	0	-0.999858730306163	0.0168081452889519	0	0	
0	0	0.128552046656795	0	0	0	-0.999858730306163	0.0168081452889519
0.077	0.999851095639698	-0.0172563170799244	0	0	0.132491888784008	0.130224934502941	0	0	
0	0	0.999851095639698	-0.0172563170799244	0	0	0.132491888784008	0.130224934502941	
0.132491888784008	0.130224934502941	0	0	-0.999851095639698	0.0172563170799244	0	0	
0	0	0.130224934502941	0	0	0	-0.999851095639698	0.0172563170799244
0.079	0.999843260081355	-0.0177044852838242	0	0	0.13423091044298	0.131875066821964	0	0	
0	0	0.999843260081355	-0.0177044852838242	0	0	0.13423091044298	0.131875066821964	
0.13423091044298	0.131875066821964	0	0	-0.999843260081355	0.0177044852838242	0	0	
0	0	0.131875066821964	0	0	0	-0.999843260081355	0.0177044852838242
0.081	0.999835223632828	-0.0181526498073892	0	0	0.135949152062274	0.133503287106827	0	0	
0	0	0.999835223632828	-0.0181526498073892	0	0	0.135949152062274	0.133503287106827	
0.135949152062274	0.133503287106827	0	0	-0.999835223632828	0.0181526498073892	0	0	
0	0	0.133503287106827	0	0	0	-0.999835223632828	0.0181526498073892
0.083	0.999826986295858	-0.018600810557357	0	0	0.137647391443951	0.135110387252019	0	0	
0	0	0.999826986295858	-0.018600810557357	0	0	0.137647391443951	0.135110387252019	
0.137647391443951	0.135110387252019	0	0	-0.999826986295858	0.018600810557357	0	0	
0	0	0.135110387252019	0	0	0	-0.999826986295858	0.018600810557357
0.085	0.999818548072236	-0.0190489674404648	0	0	0.139326359624095	0.136697111874494	0	0	
0	0	0.999818548072236	-0.0190489674404648	0	0	0.139326359624095	0.136697111874494	
0.139326359624095	0.136697111874494	0	0	-0.999818548072236	0.0190489674404648	0	0	
0	0	0.136697111874494	0	0	0	-0.999818548072236	0.0190489674404648
0.087	0.999809908963797	-0.0194971203634496	0	0	0.140986744708806	0.138264162179916	0	0	
0	0	0.999809908963797	-0.0194971203634496	0	0	0.140986744708806	0.138264162179916	
0.140986744708806	0.138264162179916	0	0	-0.999809908963797	0.0194971203634496	0	0	
0	0	0.138264162179916	0	0	0	-0.999809908963797	0.0194971203634496
0.089	0.999801068972425	-0.0199452692330482	0	0	0.142629195315112	0.139812199431456	0	0	
0	0	0.999801068972425	-0.0199452692330482	0	0	0.142629195315112	0.139812199431456	
0.142629195315112	0.139812199431456	0	0	-0.999801068972425	0.0199452692330482	0	0	
0	0	0.139812199431456	0	0	0	-0.999801068972425	0.0199452692330482
0.091	0.999792028100054	-0.0203934139559973	0	0	0.144254323665458	0.141341848069908	0	0	
0	0	0.999792028100054	-0.0203934139559973	0	0	0.144254323665458	0.141341848069908	
0.144254323665458	0.141341848069908	0	0	-0.999792028100054	0.0203934139559973	0	0	
0	0	0.141341848069908	0	0	0	-0.999792028100054	0.0203934139559973
0.093	0.999782786348661	-0.0208415544390336	0	0	0.145862708377453	0.142853698527068	0	0	
0	0	0.999782786348661	-0.0208415544390336	0	0	0.145862708377453	0.142853698527068	
0.145862708377453	0.142853698527068	0	0	-0.999782786348661	0.0208415544390336	0	0	
0	0	0.142853698527068	0	0	0	-0.999782786348661	0.0208415544390336
0.095	0.99977334372027	-0.0212896905888936	0	0	0.147454896984721	0.144348309768468	0	0	
0	0	0.99977334372027	-0.0212896905888936	0	0	0.147454896984721	0.144348309768468	
0.147454896984721	0.144348309768468	0	0	-0.99977334372027	0.0212896905888936	0	0	
0	0	0.144348309768468	0	0	0	-0.99977334372027	0.0212896905888936
0.097	0.999763700216956	-0.0217378223123142	0	0	0.149031408219898	0.145826211596626	0	0	
0	0	0.999763700216956	-0.0217378223123142	0	0	0.149031408219898	0.145826211596626	
0.149031408219898	0.145826211596626	0	0	-0.999763700216956	0.0217378223123142	0	0	
0	0	0.145826211596626	0	0	0	-0.999763700216956	0.0217378223123142
0.099	0.999753855840838	-0.0221859495160321	0	0	0.150592734086626	0.147287906741798	0	0	
0	0	0.999753855840838	-0.0221859495160321	0	0	0.150592734086626	0.147287906741798	
0.150592734086626	0.147287906741798	0	0	-0.999753855840838	0.0221859495160321	0	0	
0	0	0.147287906741798	0	0	0	-0.999753855840838	0.0221859495160321
0.101	0.999743810594084	-0.0226340721067846	0	0	0.152139341743886	0.148733872763765	0	0	
0	0	0.999743810594084	-0.0226340721067846	0	0	0.152139341743886	0.148733872763765	
0.152139341743886	0.148733872763765	0	0	-0.999743810594084	0.0226340721067846	0	0	
0	0	0.148733872763765	0	0	0	-0.999743810594084	0.0226340721067846
0.103	0.999733564478907	-0.0230821899913087	0	0	0.153671675223045	0.150164563785076	0	0	
0	0	0.999733564478907	-0.0230821899913087	0	0	0.153671675223045	0.150164563785076	
0.153671675223045	0.150164563785076	0	0	-0.999733564478907	0.0230821899913087	0	0	
0	0	0.150164563785076	0	0	0	-0.999733564478907	0.0230821899913087
0.105	0.999723117497567	-0.0235303030763422	0	0	0.155190156995373	0.151580412073717	0	0	
0	0	0.999723117497567	-0.0235303030763422	0	0	0.155190156995373	0.151580412073717	
0.155190156995373	0.151580412073717	0	0	-0.999723117497567	0.0235303030763422	0	0	
0	0	0.151580412073717	0	0	0	-0.999723117497567	0.0235303030763422
0.107	0.999712469652374	-0.0239784112686229	0	0	0.156695189405684	0.15298182949084	0	0	
0	0	0.999712469652374	-0.0239784112686229	0	0	0.156695189405684	0.15298182949084	
0.156695189405684	0.15298182949084	0	0	-0.999712469652374	0.0239784112686229	0	0	
0	0	0.15298182949084	0	0	0	-0.999712469652374	0.0239784112686229
0.109	0.999701620945682	-0.0244265144748891	0	0	0.158187155985794	0.154369208817388	0	0	
0	0	0.999701620945682	-0.0244265144748891	0	0	0.158187155985794	0.154369208817388	
0.158187155985794	0.154369208817388	0	0	-0.999701620945682	0.0244265144748891	0	0	
0	0	0.154369208817388	0	0	0	-0.999701620945682	0.0244265144748891
0.111	0.999690571379892	-0.0248746126018797	0	0	0.159666422659869	0.155742924971768	0	0	
0	0	0.999690571379892	-0.0248746126018797	0	0	0.159666422659869	0.155742924971768	
0.159666422659869	0.155742924971768	0	0	-0.999690571379892	0.0248746126018797	0	0	
0	0	0.155742924971768	0	0	0	-0.999690571379892	0.0248746126018797
0.113	0.999679320957456	-0.0253227055563339	0	0	0.161133338852335	0.157103336129341	0	0	
0	0	0.999679320957456	-0.0253227055563339	0	0	0.161133338852335	0.157103336129341	
0.161133338852335	0.157103336129341	0	0	-0.999679320957456	0.0253227055563339	0	0	
0	0	0.157103336129341	0	0	0	-0.999679320957456	0.0253227055563339
0.115	0.999667869680865	-0.0257707932449915	0	0	0.162588238507869	0.158450784753165	0	0	
0	0	0.999667869680865	-0.0257707932449915	0	0	0.162588238507869	0.158450784753165	
0.162588238507869	0.158450784753165	0	0	-0.999667869680865	0.0257707932449915	0	0	
0	0	0.158450784753165	0	0	0	-0.999667869680865	0.0257707932449915
0.117	0.999656217552666	-0.0262188755745929	0	0	0.164031441031715	0.159785598544574	0	0	
0	0	0.999656217552666	-0.0262188755745929	0	0	0.164031441031715	0.159785598544574	
0.164031441031715	0.159785598544574	0	0	-0.999656217552666	0.0262188755745929	0	0	
0	0	0.159785598544574	0	0	0	-0.999656217552666	0.0262188755745929
0.119	0.999644364575446	-0.0266669524518791	0	0	0.165463252157972	0.161108091320916	0	0	
0	0	0.999644364575446	-0.0266669524518791	0	0	0.165463252157972	0.161108091320916	
0.165463252157972	0.161108091320916	0	0	-0.999644364575446	0.0266669524518791	0	0	
0	0	0.161108091320916	0	0	0	-0.999644364575446	0.0266669524518791
0.121	0.999632310751843	-0.027115023783592	0	0	0.166883964752313	0.162418563827341	0	0	
0	0	0.999632310751843	-0.027115023783592	0	0	0.166883964752313	0.162418563827341	
0.166883964752313	0.162418563827341	0	0	-0.999632310751843	0.027115023783592	0	0	
0	0	0.162418563827341	0	0	0	-0.999632310751843	0.027115023783592
0.123	0.99962005608454	-0.0275630894764738	0	0	0.168293859555215	0.16371730448844	0	0	
0	0	0.99962005608454	-0.0275630894764738	0	0	0.168293859555215	0.16371730448844	
