# GHZ S RI R 50.0
0.3 -1.32679 -0.07408717
0.3011484375 -1.192602 0.41277
0.302296875 -0.9016103 0.773344
0.3034453125 -0.5297824 0.9758825
0.30459375 -0.1523376 1.024276
0.3057421875 0.1847168 0.9471748
0.306890625 0.4475067 0.7819551
0.3080390625 0.6269736 0.5658166
0.3091875 0.7255911 0.3263333
0.3103359375 0.7482568 0.09014971
0.311484375 0.7073405 -0.1276977
0.3126328125 0.6134111 -0.3153765
0.31378125 0.4790787 -0.4636885
0.3149296875 0.3154688 -0.5662584
0.316078125 0.1339672 -0.619555
0.3172265625 -0.05252013 -0.6211467
0.318375 -0.2316889 -0.5709586
0.3195234375 -0.3890774 -0.4693563
0.320671875 -0.5096598 -0.3248954
0.3218203125 -0.5792732 -0.1493704
0.32296875 -0.5884616 0.04053236
0.3241171875 -0.5360205 0.2205589
0.325265625 -0.4277915 0.3709545
0.3264140625 -0.2800708 0.4729688
0.3275625 -0.1136608 0.5189313
0.3287109375 0.05047068 0.5081462
0.329859375 0.1937631 0.450258
0.3310078125 0.3057004 0.3575665
0.33215625 0.3801532 0.2440092
0.3333046875 0.4180987 0.1209491
0.334453125 0.4209739 -0.0005446405
0.3356015625 0.3930472 -0.1133389
0.33675 0.3395117 -0.211201
0.3378984375 0.2651945 -0.2901275
0.339046875 0.1747603 -0.3471546
0.3401953125 0.07420108 -0.3796515
0.34134375 -0.03239433 -0.3858513
0.3424921875 -0.1376584 -0.3641886
0.343640625 -0.236085 -0.3147752
0.3447890625 -0.3199809 -0.2387224
0.3459375 -0.3815716 -0.1386046
0.3470859375 -0.4130663 -0.02045484
0.348234375 -0.4069996 0.105166
0.3493828125 -0.360583 0.2277671
0.35053125 -0.2762266 0.3314017
0.3516796875 -0.1600726 0.4036193
0.352828125 -0.02649125 0.4331085
0.3539765625 0.1089418 0.4183125
0.355125 0.2305593 0.3612761
0.3562734375 0.3256069 0.2703348
0.357421875 0.3869191 0.1581961
0.3585703125 0.411265 0.03608279
0.35971875 0.3994426 -0.08438937
0.3608671875 0.3556843 -0.1940112
0.362015625 0.2847635 -0.2858052
0.3631640625 0.1929154 -0.3543821
0.3643125 0.08624608 -0.3965192
0.3654609375 -0.02852278 -0.4093699
0.366609375 -0.144513 -0.3911771
0.3677578125 -0.2545069 -0.3421459
0.36890625 -0.3509032 -0.2624493
0.3700546875 -0.4252709 -0.1545363
0.371203125 -0.4689374 -0.02349578
0.3723515625 -0.4725609 0.1227857
0.3735 -0.4299107 0.2727485
0.3746484375 -0.3367635 0.4103712
0.375796875 -0.1958702 0.5168514
0.3769453125 -0.01712716 0.5746083
0.37809375 0.180754 0.5670368
0.3792421875 0.3710946 0.4869097
0.380390625 0.5269503 0.3398933
0.3815390625 0.6220585 0.1420227
0.3826875 0.6398131 -0.07917827
0.3838359375 0.5786937 -0.294896
0.384984375 0.4456129 -0.4747656
0.3861328125 0.2596501 -0.5962659
0.38728125 0.04441357 -0.6473081
0.3884296875 -0.173252 -0.6223724
0.389578125 -0.3677131 -0.5270684
0.3907265625 -0.5181087 -0.3738343
0.391875 -0.608331 -0.1811887
0.3930234375 -0.6299726 0.02799106
0.394171875 -0.5819077 0.2320738
0.3953203125 -0.4706706 0.4069895
0.39646875 -0.3090824 0.5354873
0.3976171875 -0.114751 0.6033934
0.398765625 0.08962554 0.6036224
0.3999140625 0.2823552 0.5356151
0.4010625 0.4405708 0.4073312
0.4022109375 0.5452269 0.2350062
0.403359375 0.5845888 0.03797894
0.4045078125 0.5536286 -0.1585104
0.40565625 0.4580715 -0.3287323
0.4068046875 0.3122824 -0.4518926
0.407953125 0.1383264 -0.5139494
0.4091015625 -0.0384813 -0.512183
0.41025 -0.1965586 -0.4523756
0.4113984375 -0.3177616 -0.3490846
0.412546875 -0.3938147 -0.2202373
0.4136953125 -0.4227661 -0.08231325
0.41484375 -0.4085437 0.0486242
0.4159921875 -0.3594304 0.1614939
0.417140625 -0.2833325 0.2501125
0.4182890625 -0.1908634 0.3098747
0.4194375 -0.0903178 0.3403737
0.4205859375 0.01036857 0.3417658
0.421734375 0.104858 0.3167555
0.4228828125 0.1865185 0.2689174
0.42403125 0.2512466 0.2014983
0.4251796875 0.2949086 0.1201237
0.426328125 0.3146514 0.03001913
0.4274765625 0.3082361 -0.06212929
0.428625 0.2761441 -0.1487727
0.4297734375 0.2195053 -0.2233681
0.430921875 0.1421905 -0.2783672
0.4320703125 0.05174066 -0.3077657
0.43321875 -0.04423188 -0.307649
0.4343671875 -0.1354694 -0.2773195
0.435515625 -0.2119853 -0.2204265
0.4366640625 -0.2659075 -0.1429678
0.4378125 -0.2921934 -0.05407001
0.4389609375 -0.2898135 0.03617551
0.440109375 -0.2602556 0.1189727
0.4412578125 -0.2091502 0.187001
0.44240625 -0.1424751 0.2357033
0.4435546875 -0.0666938 0.2617016
0.444703125 0.01076779 0.2656606
0.4458515625 0.08454857 0.2484502
0.447 0.1498212 0.2122256
0.4481484375 0.2021276 0.1605244
0.449296875 0.2387097 0.0970827
0.4504453125 0.2566886 0.0262056
0.45159375 0.2549737 -0.04739495
0.4527421875 0.2331941 -0.1189801
0.453890625 0.1914521 -0.1829515
0.4550390625 0.1322396 -0.2338765
0.4561875 0.05913016 -0.2666779
0.4573359375 -0.02304169 -0.2768053
0.458484375 -0.106915 -0.261469
0.4596328125 -0.1838983 -0.2202264
0.46078125 -0.2457792 -0.1553968
0.4619296875 -0.2850302 -0.07286748
0.463078125 -0.2959835 0.01945883
0.4642265625 -0.2768457 0.1102419
0.465375 -0.2295878 0.1913146
0.4665234375 -0.1594841 0.2526541
0.467671875 -0.0745123 0.2887715
0.4688203125 0.01670249 0.2972678
0.46996875 0.1050761 0.2776086
0.4711171875 0.1828592 0.2330644
0.472265625 0.2441016 0.1684458
0.4734140625 0.2833213 0.0893337
0.4745625 0.2985919 0.001622735
0.4757109375 0.2886313 -0.08700702
0.476859375 0.2530571 -0.1697961
0.4780078125 0.1943716 -0.2403688
0.47915625 0.1161377 -0.2927603
0.4803046875 0.0240425 -0.3200599
0.481453125 -0.07563981 -0.3192705
0.4826015625 -0.1737256 -0.2878164
0.48375 -0.2600989 -0.2253209
0.4848984375 -0.3254474 -0.1357879
0.486046875 -0.3602252 -0.02587462
0.4871953125 -0.3572586 0.09265225
0.48834375 -0.3141851 0.2076073
0.4894921875 -0.232725 0.303501
0.490640625 -0.1220362 0.3673918
0.4917890625 0.00634627 0.3906994
0.4929375 0.1352172 0.3684202
0.4940859375 0.2490431 0.3038833
0.495234375 0.3347211 0.2047194
0.4963828125 0.3812541 0.08407297
0.49753125 0.3852425 -0.04380303
0.4986796875 0.3478231 -0.1647787
0.499828125 0.2745038 -0.2646729
0.5009765625 0.1744361 -0.3352483
0.502125 0.05809435 -0.370043
0.5032734375 -0.06099322 -0.3664126
0.504421875 -0.1713878 -0.3264441
0.5055703125 -0.2641245 -0.2537419
0.50671875 -0.3280827 -0.1577035
0.5078671875 -0.3593547 -0.04666054
0.509015625 -0.3536679 0.06904932
0.5101640625 -0.3130827 0.1759762
0.5113125 -0.2402716 0.2649355
0.5124609375 -0.1421571 0.3257861
0.513609375 -0.03099717 0.3521277
0.5147578125 0.08238746 0.3410637
0.51590625 0.1857296 0.2931613
0.5170546875 0.2665726 0.2159177
0.518203125 0.3168198 0.1172936
0.5193515625 0.3315139 0.01028032
0.5205 0.3118456 -0.09348133
0.5216484375 0.2607276 -0.1826081
0.522796875 0.1864607 -0.2488233
0.5239453125 0.09842071 -0.2874395
0.52509375 0.005871287 -0.2961958
0.5262421875 -0.08196197 -0.2777061
0.527390625 -0.157932 -0.235481
0.5285390625 -0.2160875 -0.1741361
0.5296875 -0.2533056 -0.1010918
0.5308359375 -0.2677041 -0.02220317
0.531984375 -0.2587924 0.05623747
0.5331328125 -0.229018 0.1278718
0.53428125 -0.1804407 0.1875546
0.5354296875 -0.1171831 0.2307303
0.536578125 -0.04460726 0.2542449
0.5377265625 0.0318975 0.2555995
0.538875 0.1061214 0.234829
0.5400234375 0.1710445 0.1931735
0.541171875 0.221066 0.1333633
0.5423203125 0.2512657 0.06128565
0.54346875 0.2582677 -0.0171016
0.5446171875 0.2408169 -0.09411976
0.545765625 0.2009814 -0.1621977
0.5469140625 0.1422007 -0.2148073
0.5480625 0.07065353 -0.2466393
0.5492109375 -0.006470399 -0.2553476
0.550359375 -0.08212092 -0.2406785
0.5515078125 -0.1488873 -0.2041316
0.55265625 -0.2019687 -0.150561
0.5538046875 -0.2366143 -0.08428432
0.554953125 -0.2503057 -0.01148123
0.5561015625 -0.2429965 0.06211467
0.55725 -0.2150752 0.1303895
0.5583984375 -0.1687958 0.1879465
0.559546875 -0.107783 0.2308946
0.5606953125 -0.03621002 0.254744
0.56184375 0.040297 0.2572471
0.5629921875 0.1159547 0.2377279
0.564140625 0.1838057 0.1962487
0.5652890625 0.2381901 0.1351808
0.5664375 0.2730847 0.05849751
0.5675859375 0.2832792 -0.02722747
0.568734375 0.2667207 -0.1146385
0.5698828125 0.2230264 -0.1948599
0.57103125 0.1547068 -0.2585782
0.5721796875 0.06763207 -0.2989968
0.573328125 -0.02952245 -0.3101282
0.5744765625 -0.126229 -0.2894185
0.575625 -0.2132371 -0.2384584
0.5767734375 -0.2803474 -0.1616262
0.577921875 -0.3199652 -0.06712642
0.5790703125 -0.3287419 0.03667685
0.58021875 -0.3041916 0.1387011
0.5813671875 -0.2489655 0.2286279
0.582515625 -0.1676783 0.2987
0.5836640625 -0.06733233 0.340703
0.5848125 0.04231378 0.3498236
0.5859609375 0.1525529 0.3242387
0.587109375 0.2511156 0.2644547
0.5882578125 0.3273195 0.175007
0.58940625 0.3736311 0.06221468
0.5905546875 0.3811138 -0.06252512
0.591703125 0.3469818 -0.1858823
0.5928515625 0.2714349 -0.2949934
0.594 0.1612563 -0.3741878
0.5951484375 0.02783496 -0.4125107
0.596296875 -0.1142134 -0.402175
0.5974453125 -0.2453611 -0.3427618
0.59859375 -0.3486202 -0.2398657
0.5997421875 -0.4093142 -0.1064145
0.600890625 -0.4192178 0.03898645
0.6020390625 -0.377351 0.1777504
0.6031875 -0.290567 0.2913087
0.6043359375 -0.1726929 0.3659106
0.605484375 -0.03956736 0.3942438
0.6066328125 0.09147213 0.3763332
0.60778125 0.2043483 0.3179848
0.6089296875 0.2889307 0.2277129
0.610078125 0.3377279 0.1191505
0.6112265625 0.3487081 0.005961118
0.612375 0.3239253 -0.102078
0.6135234375 0.2686689 -0.1933263
0.614671875 0.1909534 -0.261113
0.6158203125 0.0981681 -0.3001968
0.61696875 0.0006998693 -0.309046
0.6181171875 -0.09229644 -0.2888702
0.619265625 -0.1733246 -0.2416384
0.6204140625 -0.2353224 -0.173525
0.6215625 -0.2728715 -0.09162422
0.6227109375 -0.2829581 -0.003023098
0.623859375 -0.2659006 0.08323196
0.6250078125 -0.2237806 0.1584193
0.62615625 -0.1607958 0.2160177
0.6273046875 -0.08476409 0.2505764
0.628453125 -0.003357905 0.2595637
0.6296015625 0.0750633 0.2428414
0.63075 0.1427725 0.2039461
0.6318984375 0.1937941 0.1474222
0.633046875 0.224073 0.07997638
0.6341953125 0.2326812 0.008761941
0.63534375 0.2196215 -0.05977953
0.6364921875 0.1878198 -0.1195281
0.637640625 0.1415665 -0.1663619
0.6387890625 0.08500908 -0.1966509
0.6399375 0.02354575 -0.2093835
0.6410859375 -0.03774464 -0.204243
0.642234375 -0.09383927 -0.18232
0.6433828125 -0.1411147 -0.1456807
0.64453125 -0.1759198 -0.09789439
0.6456796875 -0.1954985 -0.04246566
0.646828125 -0.198462 0.01608118
0.6479765625 -0.1848348 0.07308054
0.649125 -0.1550902 0.1236699
0.6502734375 -0.1116703 0.1638076
0.651421875 -0.05847408 0.1895842
0.6525703125 0.0005227946 0.198254
0.65371875 0.05930716 0.1890599
0.6548671875 0.1132313 0.1628347
0.656015625 0.1563436 0.1213051
0.6571640625 0.1852147 0.06882749
0.6583125 0.1968455 0.010095
0.6594609375 0.1900462 -0.04902263
0.660609375 0.1662528 -0.1031006
0.6617578125 0.1275141 -0.147363
0.66290625 0.07773618 -0.1777841
0.6640546875 0.02165701 -0.1923392
0.665203125 -0.03594767 -0.18947
0.6663515625 -0.08983174 -0.1702071
0.6675 -0.1359555 -0.1363888
0.6686484375 -0.1700535 -0.09056671
0.669796875 -0.1894974 -0.03689403
0.6709453125 -0.1930263 0.02068246
0.67209375 -0.1792891 0.07684691
0.6732421875 -0.1496258 0.1271835
0.674390625 -0.1060481 0.1675315
0.6755390625 -0.05183423 0.1929954
0.6766875 0.008305215 0.2014933
0.6778359375 0.06966887 0.191713
0.678984375 0.1252201 0.1630968
0.6801328125 0.1703633 0.1183821
0.68128125 0.2002236 0.0610822
0.6824296875 0.2105567 -0.002984003
0.683578125 0.2007961 -0.06775216
0.6847265625 0.1710268 -0.1270011
0.685875 0.1242953 -0.1736276
0.6870234375 0.06527394 -0.2039569
0.688171875 -0.000471553 -0.2147157
0.6893203125 -0.06580989 -0.2045197
0.69046875 -0.1251353 -0.1749192
0.6916171875 -0.1725754 -0.1287438
0.692765625 -0.2036107 -0.07075167
0.6939140625 -0.2159965 -0.005619363
0.6950625 -0.2082942 0.05978427
0.6962109375 -0.1814032 0.1200768
0.697359375 -0.1371794 0.170321
0.6985078125 -0.0802963 0.2049768
0.69965625 -0.01446219 0.2212641
0.7008046875 0.05419192 0.2167725
0.701953125 0.1185421 0.1919371
0.7031015625 0.1731206 0.1479112
0.70425 0.2122196 0.08792485
0.7053984375 0.2310751 0.01864311
0.706546875 0.2276549 -0.05422786
0.7076953125 0.2006496 -0.1235393
0.70884375 0.153414 -0.1813127
0.7099921875 0.08896482 -0.2214367
0.711140625 0.01541758 -0.2392093
0.7122890625 -0.06087392 -0.2327148
0.7134375 -0.1312395 -0.2015406
0.7145859375 -0.1876283 -0.1508854
0.715734375 -0.2252884 -0.08450477
0.7168828125 -0.2394263 -0.009571509
0.71803125 -0.2303314 0.06498552
0.7191796875 -0.1981651 0.1330503
0.720328125 -0.1464377 0.1869265
0.7214765625 -0.08155023 0.222628
0.722625 -0.009054372 0.2364623
0.7237734375 0.06372312 0.226768
0.724921875 0.1303948 0.1963791
0.7260703125 0.1842316 0.1468308
0.72721875 0.2197832 0.08295619
0.7283671875 0.2350876 0.01127435
0.729515625 0.2272512 -0.06154831
0.7306640625 0.1971287 -0.1285863
0.7318125 0.1480809 -0.1834856
0.7329609375 0.08389034 -0.220185
0.734109375 0.01138867 -0.2351573
0.7352578125 -0.06220734 -0.2269606
0.73640625 -0.1291255 -0.1957077
0.7375546875 -0.1828059 -0.145609
0.738703125 -0.2182002 -0.08105142
0.7398515625 -0.2310181 -0.00933612
0.741 -0.2212771 0.06197228
0.7421484375 -0.1899055 0.1262423
0.743296875 -0.14085 0.1766651
0.7444453125 -0.07955614 0.2096027
0.74559375 -0.0119806 0.2220418
0.7467421875 0.0548726 0.2133991
0.747890625 0.1158873 0.1858055
0.7490390625 0.1589533 0.1361108
0.7501875 0.1910502 0.08229033
0.7513359375 0.206451 0.02138202
0.752484375 0.2033301 -0.04089055
0.7536328125 0.18196 -0.09954337
0.75478125 0.144394 -0.1491556
0.7559296875 0.09396463 -0.1855936
0.757078125 0.03432425 -0.2063509
0.7582265625 -0.02910114 -0.2083212
0.759375 -0.09085748 -0.1912452
0.7605234375 -0.1452194 -0.156368
0.761671875 -0.1867123 -0.1061399
0.7628203125 -0.2119918 -0.04474971
0.76396875 -0.2173081 0.02182594
0.7651171875 -0.2018953 0.08758607
0.766265625 -0.1667805 0.1460877
0.7674140625 -0.1152494 0.1910646
0.7685625 -0.05177983 0.2185221
0.7697109375 0.01752074 0.2254131
0.770859375 0.08580388 0.2107352
0.7720078125 0.1469772 0.1758029
0.77315625 0.1946825 0.1239134
0.7743046875 0.2251891 0.05953818
0.775453125 0.234852 -0.0116125
0.7766015625 0.2225247 -0.08312643
0.77775 0.1891447 -0.148552
0.7788984375 0.1370703 -0.2017151
0.780046875 0.07055634 -0.2375206
0.7811953125 -0.005927296 -0.2521668
0.78234375 -0.0847471 -0.2426884
0.7834921875 -0.1589135 -0.2085574
0.784640625 -0.2205417 -0.1518155
0.7857890625 -0.2625737 -0.07701208
0.7869375 -0.2796227 0.01084583
0.7880859375 -0.2672524 0.1019043
0.789234375 -0.2249408 0.1867546
0.7903828125 -0.1551238 0.2549088
0.79153125 -0.06502583 0.2970987
0.7926796875 0.0379544 0.3070484
0.793828125 0.1401715 0.281037
0.7949765625 0.2288677 0.2206533
0.796125 0.2924428 0.1324079
0.7972734375 0.3221582 0.02709174
0.798421875 0.3135747 -0.08383819
0.7995703125 0.2668192 -0.1849595
0.80071875 0.1883089 -0.2637767
0.8018671875 0.08787673 -0.3104137
0.803015625 -0.0212524 -0.3202073
0.8041640625 -0.1264425 -0.2917135
0.8053125 -0.2145037 -0.2295957
0.8064609375 -0.2751367 -0.1427853
0.807609375 -0.3026375 -0.04238508
0.8087578125 -0.2948795 0.05924957
0.80990625 -0.2546697 0.1508405
0.8110546875 -0.1866655 0.2220325
0.812203125 -0.1012976 0.2655998
0.8133515625 -0.008399568 0.2784738
0.8145 0.08126509 0.2601063
0.8156484375 0.1581976 0.2152111
0.816796875 0.2141005 0.1482127
0.8179453125 0.2443479 0.06894169
0.81909375 0.2470535 -0.01318815
0.8202421875 0.2233275 -0.08965139
0.821390625 0.1783075 -0.1523861
0.8225390625 0.1164913 -0.1950621
0.8236875 0.04719725 -0.2152937
0.8248359375 -0.02220213 -0.212524
0.825984375 -0.08485765 -0.1888653
0.8271328125 -0.1351559 -0.1487058
0.82828125 -0.1687247 -0.0965427
0.8294296875 -0.184267 -0.03901764
0.830578125 -0.1817788 0.01833949
0.8317265625 -0.1629526 0.07028615
0.832875 -0.1308363 0.1128991
0.8340234375 -0.08881565 0.1430703
0.835171875 -0.04107175 0.1589807
0.8363203125 0.007841372 0.1602845
0.83746875 0.05392858 0.1476616
0.8386171875 0.09359761 0.1226975
0.839765625 0.1237914 0.08792145
0.8409140625 0.1418415 0.04639783
0.8420625 0.1469341 0.002047007
0.8432109375 0.1387971 -0.04132283
0.844359375 0.1183902 -0.07993861
0.8455078125 0.08777996 -0.1104545
0.84665625 0.04982159 -0.1297644
0.8478046875 0.008286462 -0.1366899
0.848953125 -0.03279801 -0.1308239
0.8501015625 -0.06962374 -0.1131526
0.85125 -0.09907359 -0.08553728
0.8523984375 -0.1179836 -0.05091425
0.853546875 -0.1255887 -0.01304048
0.8546953125 -0.1215248 0.0246518
0.85584375 -0.1068638 0.05863975
0.8569921875 -0.08323354 0.08641692
0.858140625 -0.05308504 0.105078
0.8592890625 -0.01964104 0.1140827
0.8604375 0.01443627 0.1130411
0.8615859375 0.04617057 0.1025109
0.862734375 0.07341745 0.08355707
0.8638828125 0.09335542 0.05786926
0.86503125 0.1049999 0.02795948
0.8661796875 0.1077485 -0.00378423
0.867328125 0.1012168 -0.0347234
0.8684765625 0.08610439 -0.06262468
0.869625 0.06354064 -0.08459032
0.8707734375 0.03586549 -0.09905118
0.871921875 0.00506263 -0.1047864
0.8730703125 -0.0260187 -0.1011036
0.87421875 -0.05476741 -0.0884296
0.8753671875 -0.0783999 -0.06778897
0.876515625 -0.09436854 -0.04136463
0.8776640625 -0.1017377 -0.0113964
0.8788125 -0.09982166 0.019255
0.8799609375 -0.08898664 0.04776396
0.881109375 -0.07003542 0.07172878
0.8822578125 -0.0454891 0.08832704
0.88340625 -0.01747899 0.09700604
0.8845546875 0.01164441 0.09706126
0.885703125 0.03918512 0.08881835
0.8868515625 0.06316683 0.07276799
0.888 0.08110976 0.05127507
0.8891484375 0.09210595 0.02562189
0.890296875 0.09535907 -0.001973389
0.8914453125 0.09071483 -0.02939048
0.89259375 0.07824559 -0.05454759
0.8937421875 0.05953387 -0.07499228
0.894890625 0.03569769 -0.08940541
0.8960390625 0.008281833 -0.09655476
0.8971875 -0.0203256 -0.09558193
0.8983359375 -0.04797164 -0.08593705
0.899484375 -0.07179634 -0.06883362
0.9006328125 -0.08990815 -0.04523461
0.90178125 -0.1004347 -0.01668609
0.9029296875 -0.1020892 0.01414717
0.904078125 -0.09398711 0.04457752
0.9052265625 -0.07701166 0.07151558
0.906375 -0.05253387 0.09249248
0.9075234375 -0.02240704 0.1052253
0.908671875 0.01061852 0.1080044
0.9098203125 0.04327511 0.100563
0.91096875 0.07215989 0.08303854
0.9121171875 0.09484418 0.05808862
0.913265625 0.1091259 0.02670006
0.9144140625 0.1129753 -0.007744897
0.9155625 0.1063647 -0.04198446
0.9167109375 0.08893956 -0.07258788
0.917859375 0.063499 -0.09759486
0.9190078125 0.03115813 -0.1136359
0.92015625 -0.005130006 -0.1190947
0.9213046875 -0.0418721 -0.113136
0.922453125 -0.07523252 -0.09566338
0.9236015625 -0.1026459 -0.06873367
0.92475 -0.1206681 -0.03392559
0.9258984375 -0.1266304 0.005471747
0.927046875 -0.1201266 0.04544986
0.9281953125 -0.1005648 0.08155239
0.92934375 -0.07043005 0.1102836
0.9304921875 -0.03202006 0.1282848
0.931640625 0.0106793 0.1327938
0.9327890625 0.05269102 0.1231817
0.9339375 0.08942872 0.1002434
0.9350859375 0.1168574 0.06664861
0.936234375 0.1322325 0.02576768
0.9373828125 0.1334357 -0.01773431
0.93853125 0.1204982 -0.05904336
0.9396796875 0.09542003 -0.09382237
0.940828125 0.06091443 -0.118087
0.9419765625 0.02031474 -0.1308176
0.943125 -0.02147245 -0.1298806
0.9442734375 -0.06069798 -0.116202
0.945421875 -0.09322898 -0.0911079
0.9465703125 -0.1160061 -0.0577974
0.94771875 -0.1278159 -0.01872281
0.9488671875 -0.1271384 0.02162297
0.950015625 -0.1139935 0.05970273
0.9511640625 -0.08986507 0.09179228
0.9523125 -0.05738296 0.1146556
0.9534609375 -0.01897125 0.1268566
0.954609375 0.02127416 0.1265109
0.9557578125 0.05950349 0.1136975
0.95690625 0.09185427 0.08978035
0.9580546875 0.1150466 0.05697483
0.959203125 0.1270728 0.01824138
0.9603515625 0.1263667 -0.02223169
0.9615 0.1129574 -0.06037613
0.9626484375 0.08843496 -0.09238729
0.963796875 0.05550979 -0.1150316
0.9649453125 0.01703555 -0.1262036
0.96609375 -0.02282621 -0.1249981
0.9672421875 -0.06011094 -0.1114621
0.968390625 -0.09126857 -0.08744134
0.9695390625 -0.1134699 -0.05511094
0.9706875 -0.1247181 -0.01800663
0.9718359375 -0.1241858 0.02114319
0.972984375 -0.1120423 0.05800013
0.9741328125 -0.08930538 0.08965527
0.97528125 -0.05798374 0.1130771
0.9764296875 -0.02135619 0.1260881
0.977578125 0.01860438 0.127487
0.9787265625 0.05731929 0.1166269
0.979875 0.0913399 0.0944439
0.9810234375 0.1173159 0.0624572
0.982171875 0.1324284 0.02357818
0.9833203125 0.1349049 -0.01923332
