# GHZ S RI R 50.0
0.3 -0.5022801 2.413627
0.3011484375 0.2700821 2.113506
0.302296875 0.8095815 1.677139
0.3034453125 1.13269 1.190492
0.30459375 1.2816 0.7122186
0.3057421875 1.292289 0.2761802
0.306890625 1.198679 -0.09257901
0.3080390625 1.034905 -0.3901743
0.3091875 0.824715 -0.614147
0.3103359375 0.586935 -0.7675923
0.311484375 0.337287 -0.8535005
0.3126328125 0.08867858 -0.875316
0.31378125 -0.1496886 -0.8388033
0.3149296875 -0.3677009 -0.7469885
0.316078125 -0.5542816 -0.604643
0.3172265625 -0.6992203 -0.4174929
0.318375 -0.7899254 -0.1955848
0.3195234375 -0.8157659 0.0500087
0.320671875 -0.7666917 0.2981471
0.3218203125 -0.6399108 0.5270391
0.32296875 -0.4427142 0.7081266
0.3241171875 -0.1916038 0.8171284
0.325265625 0.08553804 0.8366475
0.3264140625 0.3534148 0.7617609
0.3275625 0.5806332 0.6031635
0.3287109375 0.7407341 0.3828423
0.329859375 0.8220729 0.1266651
0.3310078125 0.8212816 -0.1380705
0.33215625 0.7434973 -0.3888315
0.3333046875 0.5978725 -0.6075532
0.334453125 0.3954758 -0.7810314
0.3356015625 0.1462822 -0.8985117
0.33675 -0.1399603 -0.9507807
0.3378984375 -0.4531905 -0.9265648
0.339046875 -0.7838485 -0.8129947
0.3401953125 -1.119628 -0.5901263
0.34134375 -1.439607 -0.2282279
0.3424921875 -1.708155 0.3157348
0.343640625 -1.852972 1.12439
0.3447890625 -1.682337 2.339553
0.3459375 -0.5702103 4.175404
0.3470859375 3.825305 5.733701
0.348234375 8.405994 -2.115409
0.3493828125 1.726412 -5.369612
0.35053125 -1.067623 -3.52521
0.3516796875 -1.84789 -1.938226
0.352828125 -1.931359 -0.8028291
0.3539765625 -1.707652 -0.01035034
0.355125 -1.343456 0.513737
0.3562734375 -0.928739 0.8206213
0.357421875 -0.5210584 0.9559027
0.3585703125 -0.1553515 0.9594142
0.35971875 0.1481635 0.8679206
0.3608671875 0.380731 0.7125814
0.362015625 0.5419471 0.5203092
0.3631640625 0.6350187 0.3112029
0.3643125 0.6663285 0.1003529
0.3654609375 0.64168 -0.09764875
0.366609375 0.5692613 -0.2755966
0.3677578125 0.4556445 -0.4242744
0.36890625 0.3085003 -0.5358331
0.3700546875 0.1367485 -0.6046468
0.371203125 -0.05012613 -0.6240926
0.3723515625 -0.2386193 -0.5897244
0.3735 -0.415307 -0.4999435
0.3746484375 -0.5633395 -0.357294
0.375796875 -0.6648444 -0.1686918
0.3769453125 -0.7043637 0.05041483
0.37809375 -0.6709468 0.2793674
0.3792421875 -0.5616591 0.4919869
0.380390625 -0.3850694 0.6616322
0.3815390625 -0.1588369 0.7677478
0.3826875 0.09317484 0.7965813
0.3838359375 0.3436096 0.7447534
0.384984375 0.5685224 0.6197351
0.3861328125 0.7497281 0.431784
0.38728125 0.8731252 0.1959565
0.3884296875 0.9290298 -0.07070446
0.389578125 0.9119059 -0.3541094
0.3907265625 0.8188871 -0.6370246
0.391875 0.6457348 -0.9058484
0.3930234375 0.3895274 -1.143705
0.394171875 0.04643543 -1.330613
0.3953203125 -0.3854237 -1.441164
0.39646875 -0.9125471 -1.43959
0.3976171875 -1.534088 -1.271795
0.398765625 -2.237776 -0.8508016
0.3999140625 -2.978824 -0.02766194
0.4010625 -3.59285 1.468691
0.4022109375 -3.450976 4.082794
0.403359375 -0.3108982 7.590734
0.4045078125 7.020127 5.712149
0.40565625 7.168355 -1.500555
0.4068046875 3.544938 -3.899707
0.407953125 1.020622 -3.809343
0.4091015625 -0.4449474 -3.068777
0.41025 -1.239997 -2.205299
0.4113984375 -1.607499 -1.385796
0.412546875 -1.685719 -0.6770329
0.4136953125 -1.57913 -0.09906049
0.41484375 -1.354931 0.3396682
0.4159921875 -1.067816 0.6485239
0.417140625 -0.7548537 0.8422643
0.4182890625 -0.4425605 0.9352606
0.4194375 -0.1494626 0.9442014
0.4205859375 0.1114995 0.885245
0.421734375 0.3316329 0.7724373
0.4228828125 0.5053532 0.6179942
0.42403125 0.6290078 0.4349646
0.4251796875 0.6991357 0.2346573
0.426328125 0.7152436 0.02850231
0.4274765625 0.6771822 -0.1696174
0.428625 0.5885485 -0.3483577
0.4297734375 0.4550862 -0.4947869
0.430921875 0.2864691 -0.5970104
0.4320703125 0.09603995 -0.6456484
0.43321875 -0.09897609 -0.6355206
0.4343671875 -0.2804666 -0.5673518
0.435515625 -0.4303469 -0.448891
0.4366640625 -0.534691 -0.2931819
0.4378125 -0.5858226 -0.1168474
0.4389609375 -0.5808538 0.06016196
0.440109375 -0.5250937 0.2228738
0.4412578125 -0.4282185 0.3575661
0.44240625 -0.3010318 0.4556373
0.4435546875 -0.1564811 0.5125489
0.444703125 -0.006490393 0.5276202
0.4458515625 0.1388506 0.5027369
0.447 0.2703587 0.4414107
0.4481484375 0.3801468 0.3490828
0.449296875 0.4624757 0.2319184
0.4504453125 0.5118746 0.09643923
0.45159375 0.5249997 -0.04898097
0.4527421875 0.4989482 -0.1958892
0.453890625 0.4330214 -0.3346659
0.4550390625 0.3286228 -0.4542269
0.4561875 0.1900998 -0.5438673
0.4573359375 0.02526139 -0.5927019
0.458484375 -0.1540858 -0.5921582
0.4596328125 -0.3329863 -0.5363879
0.46078125 -0.493214 -0.4253347
0.4619296875 -0.6168299 -0.264989
0.463078125 -0.6877681 -0.06827413
0.4642265625 -0.695436 0.1470976
0.465375 -0.6357862 0.3599164
0.4665234375 -0.5121985 0.5493872
0.467671875 -0.3349008 0.6968918
0.4688203125 -0.1171819 0.7892085
0.46996875 0.1236752 0.8167207
0.4711171875 0.3703699 0.7752927
0.472265625 0.6061802 0.6647973
0.4734140625 0.8143883 0.4869247
0.4745625 0.9793208 0.246354
0.4757109375 1.084281 -0.05121129
0.476859375 1.111945 -0.3965936
0.4780078125 1.041638 -0.7785623
0.47915625 0.8496554 -1.180121
0.4803046875 0.5061197 -1.57586
0.481453125 -0.0279414 -1.922551
0.4826015625 -0.8039228 -2.144904
0.48375 -1.879293 -2.096699
0.4848984375 -3.284258 -1.454443
0.486046875 -4.72489 0.4507499
0.4871953125 -4.43525 4.3099
0.48834375 0.2861919 6.688519
0.4894921875 4.065443 3.784899
0.490640625 4.167851 0.6564361
0.4917890625 3.105638 -1.013627
0.4929375 1.967241 -1.734322
0.4940859375 0.9964793 -1.93045
0.495234375 0.2334313 -1.830949
0.4963828125 -0.3306901 -1.565371
0.49753125 -0.7157941 -1.213698
0.4986796875 -0.9452291 -0.8308926
0.499828125 -1.043723 -0.4542667
0.5009765625 -1.034759 -0.1084973
0.502125 -0.9419926 0.1900801
0.5032734375 -0.7869387 0.428461
0.504421875 -0.5890837 0.6030378
0.5055703125 -0.3658834 0.710484
0.50671875 -0.1343482 0.7514962
0.5078671875 0.08938316 0.7289064
0.509015625 0.2918559 0.6482626
0.5101640625 0.4598686 0.517436
0.5113125 0.5808609 0.3478491
0.5124609375 0.6471983 0.1526746
0.513609375 0.6531006 -0.05166547
0.5147578125 0.5983166 -0.2474828
0.51590625 0.4869169 -0.4166423
0.5170546875 0.3294871 -0.5430159
0.518203125 0.1419045 -0.6142013
0.5193515625 -0.05748239 -0.6237961
0.5205 -0.2488347 -0.5717266
0.5216484375 -0.4144752 -0.4633799
0.522796875 -0.5375615 -0.3113898
0.5239453125 -0.6092778 -0.1300527
0.52509375 -0.6236489 0.06494248
0.5262421875 -0.5807409 0.2564555
0.527390625 -0.4827374 0.4298037
0.5285390625 -0.336888 0.5705481
0.5296875 -0.1512295 0.6672552
0.5308359375 0.0623953 0.7102666
0.531984375 0.2914382 0.6907227
0.5331328125 0.5208233 0.6028478
0.53428125 0.7331769 0.4418404
0.5354296875 0.9093287 0.2053031
0.536578125 1.023765 -0.1053811
0.5377265625 1.048274 -0.4857515
0.538875 0.9456159 -0.9245642
0.5400234375 0.6658946 -1.400107
0.541171875 0.1353414 -1.869264
0.5423203125 -0.7669489 -2.23122
0.54346875 -2.235955 -2.194485
0.5446171875 -4.329906 -0.7998688
0.545765625 -4.592838 3.647319
0.5469140625 0.5144888 5.369679
0.5480625 2.854346 2.58123
0.5492109375 2.732337 0.5678307
0.550359375 2.09168 -0.487811
0.5515078125 1.416658 -1.003161
0.55265625 0.8136421 -1.206575
0.5538046875 0.3083408 -1.216298
0.554953125 -0.09498748 -1.101667
0.5561015625 -0.3979883 -0.909405
0.55725 -0.6056722 -0.672077
0.5583984375 -0.725157 -0.4155929
0.559546875 -0.7640803 -0.160406
0.5606953125 -0.7332343 0.07725398
0.56184375 -0.642656 0.2835851
0.5629921875 -0.50481 0.4481132
0.564140625 -0.3328245 0.5617094
0.5652890625 -0.1413834 0.6199845
0.5664375 0.05420875 0.6199471
0.5675859375 0.2381786 0.5634844
0.568734375 0.3946053 0.4563227
0.5698828125 0.5107359 0.308684
0.57103125 0.576 0.1344711
0.5721796875 0.5855537 -0.04994461
0.573328125 0.5383723 -0.2270167
0.5744765625 0.4402117 -0.380204
0.575625 0.3015763 -0.4953313
0.5767734375 0.1356669 -0.5628183
0.577921875 -0.0404311 -0.5778284
0.5790703125 -0.2128516 -0.5406166
0.58021875 -0.3662545 -0.4555848
0.5813671875 -0.489336 -0.3298176
0.582515625 -0.5723825 -0.1738248
0.5836640625 -0.6091859 0.001060655
0.5848125 -0.5962395 0.1825235
0.5859609375 -0.5324848 0.3577873
0.587109375 -0.4200063 0.5141971
0.5882578125 -0.262751 0.6387097
0.58940625 -0.0683976 0.7199296
0.5905546875 0.1528582 0.7460706
0.591703125 0.3881117 0.7084475
0.5928515625 0.6195129 0.5985362
0.594 0.8272778 0.4138944
0.5951484375 0.9880946 0.1555976
0.596296875 1.076108 -0.1688806
0.5974453125 1.066288 -0.5436642
0.59859375 0.9315462 -0.945292
0.5997421875 0.6473114 -1.339151
0.600890625 0.1927566 -1.679961
0.6020390625 -0.4544933 -1.902041
0.6031875 -1.304808 -1.906998
0.6043359375 -2.35934 -1.524674
0.605484375 -3.498459 -0.4327647
0.6066328125 -4.103143 1.861012
0.60778125 -2.332641 4.918905
0.6089296875 1.853432 5.043439
0.610078125 3.763561 2.198698
0.6112265625 3.369827 -0.02526227
0.612375 2.403942 -1.148629
0.6135234375 1.475397 -1.6045
0.614671875 0.7028109 -1.698862
0.6158203125 0.0943223 -1.586821
0.61696875 -0.363172 -1.354726
0.6181171875 -0.6850937 -1.054422
0.619265625 -0.8853121 -0.7238301
0.6204140625 -0.9769089 -0.3887698
0.6215625 -0.9731613 -0.07172435
0.6227109375 -0.8883156 0.2083963
0.623859375 -0.7386574 0.4372751
0.6250078125 -0.541715 0.6040493
0.62615625 -0.3199908 0.7005821
0.6273046875 -0.09085102 0.7275133
0.628453125 0.1246621 0.688394
0.6296015625 0.3098544 0.5928857
0.63075 0.4520425 0.4542262
0.6318984375 0.5431075 0.2879798
0.633046875 0.5803926 0.1111821
0.6341953125 0.5659953 -0.06110201
0.63534375 0.5058507 -0.2150436
0.6364921875 0.4088708 -0.3405345
0.637640625 0.2855648 -0.4303249
0.6387890625 0.1469663 -0.481115
0.6399375 0.00429796 -0.491445
0.6410859375 -0.1322427 -0.4631922
0.642234375 -0.2539368 -0.4003672
0.6433828125 -0.3517709 -0.3089823
0.64453125 -0.4209625 -0.195185
0.6456796875 -0.4564252 -0.06764342
0.646828125 -0.4555985 0.06449821
0.6479765625 -0.4182971 0.1920767
0.649125 -0.346818 0.3041036
0.6502734375 -0.2457373 0.3929586
0.651421875 -0.1225558 0.4502441
0.6525703125 0.01371313 0.470216
0.65371875 0.1521297 0.4497615
0.6548671875 0.2796408 0.3895773
0.656015625 0.3857109 0.2933572
0.6571640625 0.4601415 0.1686346
0.6583125 0.4953216 0.02643442
0.6594609375 0.487416 -0.122273
0.660609375 0.4364344 -0.2632451
0.6617578125 0.3456652 -0.3856406
0.66290625 0.2218949 -0.4782745
0.6640546875 0.07457654 -0.533061
0.665203125 -0.08564702 -0.5443103
0.6663515625 -0.2462501 -0.509593
0.6675 -0.3955562 -0.4293973
0.6686484375 -0.5215392 -0.3062713
0.669796875 -0.6117131 -0.1478787
0.6709453125 -0.6574536 0.03874553
0.67209375 -0.6491795 0.2417877
0.6732421875 -0.5805324 0.4473655
0.674390625 -0.4485906 0.6385456
0.6755390625 -0.2519924 0.7971563
0.6766875 0.002028211 0.9018583
0.6778359375 0.3044091 0.932233
0.678984375 0.6368296 0.8662544
0.6801328125 0.9749607 0.6842224
0.68128125 1.282808 0.3676623
0.6824296875 1.513006 -0.09714102
0.683578125 1.599064 -0.718461
0.6847265625 1.43852 -1.488575
0.685875 0.8626318 -2.352367
0.6870234375 -0.3898568 -3.081119
0.688171875 -2.492388 -2.928062
0.6893203125 -4.32556 -0.6916274
0.69046875 -3.444136 2.30864
0.6916171875 -1.114524 3.202812
0.692765625 0.498181 2.635912
0.6939140625 1.265059 1.748839
0.6950625 1.519531 0.9382699
0.6962109375 1.488588 0.2870993
0.697359375 1.30055 -0.2026836
0.6985078125 1.027603 -0.5456874
0.69965625 0.7171053 -0.7596574
0.7008046875 0.4005708 -0.861814
0.701953125 0.1018083 -0.8682784
0.7031015625 -0.1615925 -0.7958872
0.70425 -0.3752452 -0.6611453
0.7053984375 -0.5302456 -0.482938
0.706546875 -0.6201584 -0.2792708
0.7076953125 -0.6450608 -0.06910835
0.70884375 -0.6078947 0.1291579
0.7099921875 -0.5168861 0.3003044
0.711140625 -0.3837713 0.4311518
0.7122890625 -0.2232186 0.5126404
0.7134375 -0.05069348 0.541151
0.7145859375 0.1170353 0.5169232
0.715734375 0.2658013 0.4451943
0.7168828125 0.3835084 0.3347943
0.71803125 0.4616741 0.1969495
0.7191796875 0.4952119 0.04459374
0.720328125 0.4821506 -0.1094998
0.7214765625 0.4249969 -0.2523802
0.722625 0.3282317 -0.3728992
0.7237734375 0.2000555 -0.4603569
0.724921875 0.04945329 -0.5075981
0.7260703125 -0.1123985 -0.509147
0.72721875 -0.2716339 -0.462401
0.7283671875 -0.4160227 -0.3675072
0.729515625 -0.5311918 -0.2281463
0.7306640625 -0.6043981 -0.05205948
0.7318125 -0.6227974 0.1500078
0.7329609375 -0.5770125 0.3623127
0.734109375 -0.4611517 0.5670378
0.7352578125 -0.2728871 0.7417476
0.73640625 -0.01593693 0.8627917
0.7375546875 0.299876 0.9049177
0.738703125 0.657726 0.8403243
0.7398515625 1.031735 0.640219
0.741 1.383971 0.2705889
0.7421484375 1.653401 -0.3141004
0.743296875 1.715678 -1.172083
0.7444453125 1.284012 -2.344677
0.74559375 -0.3001729 -3.530311
0.7467421875 -3.33155 -2.858543
0.747890625 -4.120195 0.6647985
0.7490390625 -2.006209 2.366271
0.7501875 -0.3982478 2.321699
0.7513359375 0.4925404 1.79319
0.752484375 0.9334061 1.21216
0.7536328125 1.10599 0.6839628
0.75478125 1.110943 0.235887
0.7559296875 1.00385 -0.1260894
0.757078125 0.8253343 -0.4005825
0.7582265625 0.6020312 -0.5896201
0.759375 0.3592426 -0.6958007
0.7605234375 0.1164522 -0.7255789
0.761671875 -0.1085054 -0.6861475
0.7628203125 -0.300572 -0.5891067
0.76396875 -0.4476271 -0.4472323
0.7651171875 -0.5419531 -0.2769238
0.766265625 -0.5801365 -0.09382959
0.7674140625 -0.5629715 0.08523515
0.7685625 -0.495826 0.2453999
0.7697109375 -0.3885447 0.374818
0.770859375 -0.2518049 0.4642475
0.7720078125 -0.09910561 0.5089796
0.77315625 0.05644633 0.5074542
0.7743046875 0.2020513 0.4622249
0.775453125 0.3267199 0.3787143
0.7766015625 0.4215554 0.2645766
0.77775 0.4802804 0.1292862
0.7788984375 0.4987195 -0.01695455
0.780046875 0.4755032 -0.1628742
0.7811953125 0.4115596 -0.2980327
0.78234375 0.3114024 -0.4114076
0.7834921875 0.1807675 -0.4939845
0.784640625 0.02841495 -0.5372784
0.7857890625 -0.1348121 -0.5359237
0.7869375 -0.2959797 -0.4867303
0.7880859375 -0.4416612 -0.3896526
0.789234375 -0.5577934 -0.2493542
0.7903828125 -0.631637 -0.07362035
0.79153125 -0.6521233 0.1251418
0.7926796875 -0.6114091 0.3315812
0.793828125 -0.50708 0.5270978
0.7949765625 -0.34061 0.6928785
0.796125 -0.1197355 0.8101307
0.7972734375 0.1431834 0.8618682
0.798421875 0.4310954 0.8331932
0.7995703125 0.7234225 0.7130837
0.80071875 0.9953328 0.4930448
0.8018671875 1.217425 0.1679287
0.803015625 1.354719 -0.2649838
0.8041640625 1.358881 -0.8045027
0.8053125 1.155468 -1.440193
0.8064609375 0.6247647 -2.126251
0.807609375 -0.4240953 -2.700775
0.8087578125 -2.162735 -2.645358
0.80990625 -3.965278 -0.9215825
0.8110546875 -3.594018 2.033465
0.812203125 -1.29663 3.272571
0.8133515625 0.4840229 2.772507
0.8145 1.332747 1.829635
0.8156484375 1.601953 0.9628347
0.816796875 1.558206 0.2720425
0.8179453125 1.346834 -0.2388702
0.81909375 1.04948 -0.5888093
0.8202421875 0.7173296 -0.7983643
0.821390625 0.3867391 -0.8877217
0.8225390625 0.08283498 -0.87804
0.8236875 -0.175358 -0.7900513
0.8248359375 -0.3764596 -0.6453037
0.825984375 -0.5142691 -0.46621
0.8271328125 -0.5885412 -0.271827
0.82828125 -0.6032345 -0.07967005
0.8294296875 -0.5657302 0.09566048
0.830578125 -0.4859294 0.2435086
0.8317265625 -0.3749626 0.3563301
0.832875 -0.2442637 0.4297552
0.8340234375 -0.1055454 0.4624931
0.835171875 0.03097992 0.4562694
0.8363203125 0.1555099 0.4142959
0.83746875 0.2604646 0.3420157
0.8386171875 0.339427 0.2465298
0.839765625 0.3876254 0.1350211
0.8409140625 0.4026695 0.01696182
0.8420625 0.384214 -0.09897877
0.8432109375 0.3343494 -0.2037564
0.844359375 0.257393 -0.2893562
0.8455078125 0.1594857 -0.3488462
0.84665625 0.04941324 -0.3774077
0.8478046875 -0.06389153 -0.3726731
0.848953125 -0.170316 -0.3352119
0.8501015625 -0.2605359 -0.2684777
0.85125 -0.327165 -0.1786535
0.8523984375 -0.3641899 -0.07345551
0.853546875 -0.3690245 0.03737182
0.8546953125 -0.3415586 0.1445563
0.85584375 -0.2843592 0.238801
0.8569921875 -0.2025149 0.3126208
0.858140625 -0.10291 0.3604521
0.8592890625 0.006942835 0.3782383
0.8604375 0.118194 0.3642381
0.8615859375 0.2225421 0.3190143
0.862734375 0.3118151 0.2452135
0.8638828125 0.3786851 0.1470999
0.86503125 0.4168067 0.03071795
0.8661796875 0.4208965 -0.09581185
0.867328125 0.388409 -0.2239201
0.8684765625 0.3176755 -0.3430426
0.869625 0.2105188 -0.4428336
0.8707734375 0.071228 -0.5118524
0.871921875 -0.09291238 -0.5397557
0.8730703125 -0.2708042 -0.5173597
0.87421875 -0.4485802 -0.4373701
0.8753671875 -0.6087241 -0.2967916
0.876515625 -0.7320966 -0.09498852
0.8776640625 -0.7957162 0.1621434
0.8788125 -0.7760682 0.4639735
0.8799609375 -0.6459419 0.7919608
0.881109375 -0.3713002 1.115234
0.8822578125 0.08920125 1.378979
0.88340625 0.7802479 1.470382
0.8845546875 1.695565 1.151252
0.885703125 2.505242 0.01823566
0.8868515625 2.13528 -1.80217
0.888 0.3543774 -2.580553
0.8891484375 -1.011541 -1.877608
0.890296875 -1.437156 -0.9053655
0.8914453125 -1.366375 -0.1701425
0.89259375 -1.10519 0.3052762
0.8937421875 -0.7871442 0.5810961
0.894890625 -0.4711152 0.7113367
0.8960390625 -0.1843003 0.7346425
0.8971875 0.05961576 0.6797798
0.8983359375 0.2513326 0.5695058
0.899484375 0.3871725 0.4230403
0.9006328125 0.4662563 0.2581952
0.90178125 0.4909688 0.09081551
0.9029296875 0.4658737 -0.06524663
0.904078125 0.3993449 -0.1983204
0.9052265625 0.3010919 -0.2991489
0.906375 0.1829249 -0.3622206
0.9075234375 0.05722133 -0.3850054
0.908671875 -0.06414431 -0.3694487
0.9098203125 -0.1708556 -0.3197697
0.91096875 -0.2541626 -0.2429
0.9121171875 -0.3086323 -0.1477353
0.913265625 -0.3315305 -0.04377628
0.9144140625 -0.3223602 0.05976209
0.9155625 -0.2840718 0.1538068
0.9167109375 -0.2204462 0.2310983
0.917859375 -0.1377926 0.2857258
0.9190078125 -0.0434254 0.3136259
0.92015625 0.05493863 0.3125805
0.9213046875 0.1491303 0.2828023
0.922453125 0.2315128 0.2256817
0.9236015625 0.2945713 0.1456762
0.92475 0.3318439 0.04838704
0.9258984375 0.3389931 -0.05829453
0.927046875 0.3128757 -0.1657626
0.9281953125 0.2535792 -0.2639926
0.92934375 0.1639584 -0.3428185
0.9304921875 0.04900818 -0.3930169
0.931640625 -0.08186962 -0.4061121
0.9327890625 -0.2179329 -0.3773156
0.9339375 -0.3456798 -0.3035462
0.9350859375 -0.4513598 -0.1866251
0.936234375 -0.5204751 -0.03211958
0.9373828125 -0.5397741 0.150048
0.93853125 -0.4980552 0.3460318
0.9396796875 -0.3865533 0.5385354
0.940828125 -0.1988891 0.7040907
0.9419765625 0.0656903 0.815046
0.943125 0.4027737 0.8339219
0.9442734375 0.7918641 0.711344
0.945421875 1.180352 0.3826359
0.9465703125 1.442837 -0.215363
0.94771875 1.332771 -1.05483
0.9488671875 0.5841269 -1.798168
0.950015625 -0.5863866 -1.833286
0.9511640625 -1.406267 -1.092078
0.9523125 -1.543576 -0.1900934
0.9534609375 -1.253799 0.4616829
0.954609375 -0.8197333 0.8114389
0.9557578125 -0.3888218 0.9300174
0.95690625 -0.02070391 0.8931085
0.9580546875 0.2629194 0.7576551
0.959203125 0.4585004 0.5661002
0.9603515625 0.5688649 0.3498419
0.9615 0.6030447 0.1344402
0.9626484375 0.5720049 -0.06236896
0.963796875 0.489603 -0.2260296
0.9649453125 0.3710665 -0.3471402
0.96609375 0.2317066 -0.421986
0.9672421875 0.08579744 -0.4499501
0.968390625 -0.05359953 -0.4344583
0.9695390625 -0.1756197 -0.3818796
0.9706875 -0.2726686 -0.2999005
0.9718359375 -0.3388281 -0.1977939
0.972984375 -0.3716948 -0.0853807
0.9741328125 -0.371367 0.02826456
0.97528125 -0.3394736 0.1342625
0.9764296875 -0.2802053 0.2248704
0.977578125 -0.1988242 0.2938238
0.9787265625 -0.1025703 0.3364418
0.979875 0.001180683 0.3498929
0.9810234375 0.1043827 0.3333915
0.982171875 0.1985572 0.2880186
0.9833203125 0.2761101 0.2169177
0.98446875 0.3302617 0.1258978
0.9856171875 0.3559293 0.02196639
0.986765625 0.3500458 -0.08637659
0.9879140625 0.3121239 -0.1895905
0.9890625 0.2445717 -0.2785629
0.9902109375 0.1520825 -0.3446873
0.991359375 0.04236256 -0.3813282
0.9925078125 -0.07567816 -0.3839893
0.99365625 -0.1914634 -0.3513675
0.9948046875 -0.2954426 -0.2848123
0.995953125 -0.3773743 -0.188365
0.9971015625 -0.4293975 -0.06883026
0.99825 -0.4454001 0.06454378
0.9993984375 -0.4217734 0.2027593
1.000546875 -0.3568557 0.333499
1.0016953125 -0.2523607 0.446222
1.00284375 -0.1125621 0.5294479
