# GHZ S RI R 50.0
0.3 1.348245 -2.199942
0.3011484375 0.5904793 -2.908136
0.302296875 -0.5477524 -3.453423
0.3034453125 -2.177404 -3.681651
0.30459375 -4.518796 -3.186044
0.3057421875 -7.607601 -0.6244904
0.306890625 -7.921012 6.746078
0.3080390625 1.270702 9.773371
0.3091875 5.210161 4.462616
0.3103359375 4.74381 1.047369
0.311484375 3.643157 -0.6198996
0.3126328125 2.604902 -1.447159
0.31378125 1.707121 -1.837357
0.3149296875 0.9403411 -1.968931
0.316078125 0.2855843 -1.92608
0.3172265625 -0.2618976 -1.753966
0.318375 -0.7078128 -1.480939
0.3195234375 -1.044434 -1.128863
0.320671875 -1.261115 -0.7211084
0.3218203125 -1.349285 -0.2877721
0.32296875 -1.306454 0.136091
0.3241171875 -1.142294 0.5083733
0.325265625 -0.881 0.7972413
0.3264140625 -0.5592472 0.9777102
0.3275625 -0.2186682 1.042378
0.3287109375 0.1005525 1.000083
0.329859375 0.3707519 0.8738902
0.3310078125 0.5753816 0.6882633
0.33215625 0.7088261 0.4703721
0.3333046875 0.7733147 0.2420284
0.334453125 0.7756221 0.0199109
0.3356015625 0.7247199 -0.1834082
0.33675 0.6294489 -0.3599854
0.3378984375 0.499985 -0.5018409
0.339046875 0.3434763 -0.6063257
0.3401953125 0.1687357 -0.6696749
0.34134375 -0.01613958 -0.6889377
0.3424921875 -0.2018502 -0.661801
0.343640625 -0.3787771 -0.5870094
0.3447890625 -0.5344432 -0.4654325
0.3459375 -0.6556121 -0.3000941
0.3470859375 -0.7283157 -0.1003231
0.348234375 -0.7405047 0.1196439
0.3493828125 -0.6832629 0.3417906
0.35053125 -0.5568921 0.5403894
0.3516796875 -0.3699178 0.6929938
0.352828125 -0.1417006 0.7790857
0.3539765625 0.1025381 0.788085
0.355125 0.3362318 0.7207319
0.3562734375 0.534146 0.5873517
0.357421875 0.6823071 0.4045307
0.3585703125 0.7708169 0.1905778
0.35971875 0.7964697 -0.03566041
0.3608671875 0.7611941 -0.2590201
0.362015625 0.6700776 -0.465432
0.3631640625 0.5288095 -0.644119
0.3643125 0.3444633 -0.7861621
0.3654609375 0.1234476 -0.8826063
0.366609375 -0.1257393 -0.9250031
0.3677578125 -0.3941895 -0.9048444
0.36890625 -0.6701511 -0.8128719
0.3700546875 -0.9379317 -0.6397082
0.371203125 -1.176669 -0.3782609
0.3723515625 -1.35927 -0.02274119
0.3735 -1.450033 0.4262431
0.3746484375 -1.405806 0.9530434
0.375796875 -1.173812 1.533642
0.3769453125 -0.7001347 2.113612
0.37809375 0.07079438 2.608474
0.3792421875 1.204494 2.884712
0.380390625 2.751946 2.701267
0.3815390625 4.688353 1.560733
0.3826875 6.357785 -1.581649
0.3838359375 4.385783 -6.988545
0.384984375 -2.575109 -7.425753
0.3861328125 -5.103297 -2.883958
0.38728125 -4.267948 0.04966373
0.3884296875 -2.949355 1.358873
0.389578125 -1.805513 1.849567
0.3907265625 -0.9051315 1.932228
0.391875 -0.2193397 1.800419
0.3930234375 0.2896489 1.552321
0.394171875 0.6515555 1.242448
0.3953203125 0.8892879 0.9031377
0.39646875 1.020159 0.557533
0.3976171875 1.056921 0.2221636
0.398765625 1.009412 -0.0877222
0.3999140625 0.8904152 -0.3595917
0.4010625 0.7100516 -0.5785335
0.4022109375 0.4836921 -0.7338027
0.403359375 0.2293026 -0.8142622
0.4045078125 -0.03070745 -0.8156504
0.40565625 -0.272559 -0.7391057
0.4068046875 -0.472467 -0.5950807
0.407953125 -0.6117529 -0.4015258
0.4091015625 -0.6799723 -0.1826544
0.41025 -0.6757674 0.03716577
0.4113984375 -0.6061189 0.233706
0.412546875 -0.4858889 0.3913994
0.4136953125 -0.3322158 0.4999841
0.41484375 -0.1624169 0.5561105
0.4159921875 0.008125444 0.5611833
0.417140625 0.1666759 0.5199213
0.4182890625 0.3037758 0.4396967
0.4194375 0.4106865 0.329125
0.4205859375 0.4839609 0.1957175
0.421734375 0.5188158 0.04838781
0.4228828125 0.5134938 -0.1037889
0.42403125 0.4670496 -0.2513011
0.4251796875 0.3800105 -0.3842527
0.426328125 0.2555116 -0.4922234
0.4274765625 0.09898435 -0.5640325
0.428625 -0.08079763 -0.5890222
0.4297734375 -0.2705912 -0.5583584
0.430921875 -0.4540046 -0.4660797
0.4320703125 -0.6097808 -0.3122582
0.43321875 -0.7164174 -0.1031542
0.4343671875 -0.7533503 0.1459647
0.435515625 -0.7052655 0.4127152
0.4366640625 -0.5642149 0.6685834
0.4378125 -0.3309154 0.8835487
0.4389609375 -0.0135851 1.026701
0.440109375 0.3704576 1.069695
0.4412578125 0.8035892 0.983698
0.44240625 1.262217 0.732206
0.4435546875 1.711366 0.2575646
0.444703125 2.069637 -0.5408968
0.4458515625 2.094816 -1.849554
0.447 0.9272344 -3.714379
0.4481484375 -2.736938 -3.985808
0.449296875 -4.308959 -0.1726137
0.4504453125 -2.49875 1.909935
0.45159375 -0.9310305 2.150275
0.4527421875 0.02776446 1.847986
0.453890625 0.5920494 1.410023
0.4550390625 0.9042523 0.9510346
0.4561875 1.036482 0.5147508
0.4573359375 1.035709 0.1211734
0.458484375 0.9304713 -0.2132181
0.4596328125 0.7467738 -0.4737632
0.46078125 0.5108956 -0.6498569
0.4619296875 0.2509751 -0.7361985
0.463078125 -0.005853746 -0.7355774
0.4642265625 -0.2340473 -0.6578655
0.465375 -0.4142557 -0.5197635
0.4665234375 -0.5343599 -0.3429529
0.467671875 -0.5899628 -0.1490407
0.4688203125 -0.5841773 0.04173011
0.46996875 -0.5239196 0.2125352
0.4711171875 -0.4212666 0.3513518
0.472265625 -0.2887175 0.4503391
0.4734140625 -0.1387767 0.506081
0.4745625 0.01630739 0.5174893
0.4757109375 0.1659443 0.4867283
0.476859375 0.3001592 0.4167575
0.4780078125 0.4107533 0.3129008
0.47915625 0.4888749 0.1821398
0.4803046875 0.529376 0.032546
0.481453125 0.526763 -0.1263614
0.4826015625 0.4787763 -0.2829088
0.48375 0.3851401 -0.424448
0.4848984375 0.2491999 -0.537877
0.486046875 0.07870682 -0.6097575
0.4871953125 -0.1138689 -0.6286789
0.48834375 -0.3120711 -0.5873097
0.4894921875 -0.4970279 -0.4829857
0.490640625 -0.6486403 -0.3203374
0.4917890625 -0.7468655 -0.111039
0.4929375 -0.7793465 0.1295721
0.4940859375 -0.736751 0.3784036
0.495234375 -0.6172316 0.6149231
0.4963828125 -0.4250559 0.8162012
0.49753125 -0.1695144 0.9630685
0.4986796875 0.1363853 1.037582
0.499828125 0.4765713 1.025193
0.5009765625 0.8326635 0.9109876
0.502125 1.18174 0.6814613
0.5032734375 1.497898 0.321332
0.504421875 1.742443 -0.1876221
0.5055703125 1.858572 -0.8687914
0.50671875 1.744621 -1.750561
0.5078671875 1.202689 -2.839866
0.509015625 -0.1706875 -4.010888
0.5101640625 -3.056063 -4.43302
0.5113125 -6.609688 -1.448892
0.5124609375 -5.273767 3.904378
0.513609375 -1.194272 5.012481
0.5147578125 1.147644 3.776705
0.51590625 2.088153 2.330941
0.5170546875 2.312984 1.127775
0.518203125 2.167826 0.2043215
0.5193515625 1.825161 -0.4645759
0.5205 1.384651 -0.9089769
0.5216484375 0.9136245 -1.159577
0.522796875 0.4576491 -1.24892
0.5239453125 0.0500383 -1.209125
0.52509375 -0.2898968 -1.071504
0.5262421875 -0.547931 -0.867393
0.527390625 -0.7238563 -0.6237275
0.5285390625 -0.8190256 -0.3640729
0.5296875 -0.8394905 -0.1080531
0.5308359375 -0.7942208 0.1285995
0.531984375 -0.6938763 0.3332429
0.5331328125 -0.5501305 0.4963314
0.53428125 -0.3748749 0.6110535
0.5354296875 -0.1819331 0.6735526
0.536578125 0.01627284 0.681549
0.5377265625 0.2057471 0.6364794
0.538875 0.3738568 0.5422777
0.5400234375 0.5081752 0.4064134
0.541171875 0.5977933 0.2390472
0.5423203125 0.6361101 0.05448012
0.54346875 0.6192331 -0.1330783
0.5446171875 0.5489562 -0.3070951
0.545765625 0.4317035 -0.4520867
0.5469140625 0.2779273 -0.5557432
0.5480625 0.1019541 -0.6092007
0.5492109375 -0.08046416 -0.6092533
0.550359375 -0.253327 -0.5567769
0.5515078125 -0.4026876 -0.4581657
0.55265625 -0.5173072 -0.3225566
0.5538046875 -0.589456 -0.161038
0.554953125 -0.6141549 0.01460589
0.5561015625 -0.5897847 0.1894752
0.55725 -0.5186463 0.3534732
0.5583984375 -0.4040385 0.4940853
0.559546875 -0.2529168 0.6011176
0.5606953125 -0.07379248 0.6652701
0.56184375 0.1226409 0.6788871
0.5629921875 0.3233799 0.637201
0.564140625 0.5136561 0.5372709
0.5652890625 0.6765292 0.3813863
0.5664375 0.7962909 0.1740122
0.5675859375 0.8555734 -0.0734084
0.568734375 0.8399711 -0.344853
0.5698828125 0.7393095 -0.6188605
0.57103125 0.5494708 -0.8687378
0.5721796875 0.2735145 -1.066891
0.573328125 -0.07703901 -1.183845
0.5744765625 -0.4821049 -1.192904
0.575625 -0.9135963 -1.070137
0.5767734375 -1.337333 -0.7952956
0.577921875 -1.710646 -0.3481179
0.5790703125 -1.970083 0.2865765
0.58021875 -2.030377 1.13215
0.5813671875 -1.724981 2.191684
0.582515625 -0.7404205 3.36594
0.5836640625 1.398226 4.079163
0.5848125 4.311134 2.673922
0.5859609375 4.853907 -1.004304
0.587109375 2.631658 -3.118926
0.5882578125 0.5454577 -3.15894
0.58940625 -0.6788085 -2.47128
0.5905546875 -1.288342 -1.673827
0.591703125 -1.520268 -0.9451437
0.5928515625 -1.516793 -0.3304122
0.594 -1.36259 0.1603197
0.5951484375 -1.112168 0.5265037
0.596296875 -0.8068995 0.7720004
0.5974453125 -0.4801872 0.9034707
0.59859375 -0.1611911 0.9307303
0.5997421875 0.1264624 0.8685333
0.600890625 0.3633117 0.7344808
0.6020390625 0.5369248 0.5500404
0.6031875 0.6395079 0.337806
0.6043359375 0.6728036 0.1192173
0.605484375 0.6417825 -0.08674002
0.6066328125 0.5574304 -0.2626455
0.60778125 0.4322594 -0.3992313
0.6089296875 0.2810418 -0.4890526
0.610078125 0.1181941 -0.5300356
0.6112265625 -0.04279174 -0.523621
0.612375 -0.1903357 -0.4736463
0.6135234375 -0.3140201 -0.3869553
0.614671875 -0.4066903 -0.2715421
0.6158203125 -0.4622352 -0.1371102
0.61696875 -0.4773732 0.00643278
0.6181171875 -0.4514358 0.1479894
0.619265625 -0.3858949 0.276524
0.6204140625 -0.2853941 0.3816627
0.6215625 -0.1569213 0.4537648
0.6227109375 -0.01005305 0.4854284
0.623859375 0.1427905 0.4714431
0.6250078125 0.2870691 0.4104482
0.62615625 0.4093684 0.3058933
0.6273046875 0.4959393 0.1651351
0.628453125 0.5362192 -0.0003601749
0.6296015625 0.5228657 -0.1757323
0.63075 0.4542088 -0.3438287
0.6318984375 0.332792 -0.4880969
0.633046875 0.1667896 -0.5927998
0.6341953125 -0.03301871 -0.6453176
0.63534375 -0.2509274 -0.635106
0.6364921875 -0.4707267 -0.5558817
0.637640625 -0.6732986 -0.4040326
0.6387890625 -0.8386517 -0.1782719
0.6399375 -0.9432482 0.1194662
0.6410859375 -0.958378 0.4854527
0.642234375 -0.8439463 0.9107699
0.6433828125 -0.5384364 1.373912
0.64453125 0.05953935 1.815061
0.6456796875 1.112703 2.044074
0.646828125 2.696867 1.451092
0.6479765625 3.657177 -0.9782234
0.649125 1.632961 -3.297401
0.6502734375 -0.7294822 -2.829136
0.651421875 -1.615118 -1.568791
0.6525703125 -1.703382 -0.5584458
0.65371875 -1.474627 0.1297234
0.6548671875 -1.126703 0.5644181
0.656015625 -0.7463377 0.8061923
0.6571640625 -0.3783477 0.8990465
0.6583125 -0.05094931 0.8776262
0.6594609375 0.2187653 0.7713608
0.660609375 0.4204594 0.6075897
0.6617578125 0.5506298 0.4106688
0.66290625 0.6112025 0.2020993
0.6640546875 0.6073037 0.001806644
0.665203125 0.5492543 -0.1765874
0.6663515625 0.4479882 -0.3221053
0.6675 0.3162481 -0.4260621
0.6686484375 0.1670178 -0.4857059
0.669796875 0.01250903 -0.4995781
0.6709453125 -0.1350064 -0.469658
0.67209375 -0.2649241 -0.4005541
0.6732421875 -0.3678644 -0.2989427
0.674390625 -0.4367835 -0.1734937
0.6755390625 -0.466511 -0.03430113
0.6766875 -0.4544363 0.1072755
0.6778359375 -0.4013907 0.2396276
0.678984375 -0.3114059 0.3507152
0.6801328125 -0.1918863 0.4311625
0.68128125 -0.05275722 0.4722895
0.6824296875 0.09369811 0.4702434
0.683578125 0.2339937 0.4239646
0.6847265625 0.3550719 0.337008
0.685875 0.4458344 0.2169936
0.6870234375 0.4974097 0.07394646
0.688171875 0.5047194 -0.0795563
0.6893203125 0.466247 -0.2304986
0.69046875 0.38475 -0.366105
0.6916171875 0.2654672 -0.4743392
0.692765625 0.1172611 -0.5459244
0.6939140625 -0.04962434 -0.5737231
0.6950625 -0.2233782 -0.5528858
0.6962109375 -0.3902916 -0.4824285
0.697359375 -0.5381057 -0.362905
0.6985078125 -0.6528583 -0.1988065
0.69965625 -0.7214918 0.002052585
0.7008046875 -0.7325433 0.229718
0.701953125 -0.6756151 0.4674374
0.7031015625 -0.5435932 0.6992768
0.70425 -0.331442 0.9028168
0.7053984375 -0.04233615 1.051472
0.706546875 0.3173412 1.118055
0.7076953125 0.7323072 1.070594
0.70884375 1.175933 0.8746526
0.7099921875 1.607238 0.4921392
0.711140625 1.959479 -0.1217387
0.7122890625 2.114435 -1.008269
0.7134375 1.849124 -2.184601
0.7145859375 0.748076 -3.485018
0.715734375 -1.653914 -4.050661
0.7168828125 -4.300398 -2.18014
0.71803125 -4.28627 1.094164
0.7191796875 -2.370397 2.729705
0.720328125 -0.6381906 2.825513
0.7214765625 0.4664083 2.320389
0.722625 1.080047 1.665168
0.7237734375 1.363339 1.024803
0.724921875 1.423791 0.456544
0.7260703125 1.333965 -0.01672815
0.72721875 1.142262 -0.3895229
0.7283671875 0.8869635 -0.6600962
0.729515625 0.596672 -0.831219
0.7306640625 0.2986382 -0.9068964
0.7318125 0.0123255 -0.8972322
0.7329609375 -0.2424643 -0.8131415
0.734109375 -0.4507683 -0.669109
0.7352578125 -0.6013311 -0.4817603
0.73640625 -0.6875347 -0.269039
0.7375546875 -0.707995 -0.05014151
0.738703125 -0.665806 0.1564799
0.7398515625 -0.569417 0.3350826
0.741 -0.4310537 0.4729798
0.7421484375 -0.264386 0.5618526
0.743296875 -0.08567721 0.5978733
0.7444453125 0.09033582 0.5817774
0.74559375 0.2496713 0.517987
0.7467421875 0.3811737 0.4150687
0.747890625 0.476214 0.2825595
0.7490390625 0.5093846 0.1265022
0.7501875 0.5187889 -0.0247027
0.7513359375 0.48653 -0.1711287
0.752484375 0.4158272 -0.3023678
0.7536328125 0.311701 -0.4087498
0.75478125 0.1821029 -0.4825813
0.7559296875 0.03569997 -0.5182555
0.757078125 -0.1161498 -0.5117689
0.7582265625 -0.2628289 -0.4621903
0.759375 -0.3922827 -0.371597
0.7605234375 -0.4929035 -0.2454466
0.761671875 -0.5551804 -0.09192407
0.7628203125 -0.5710602 0.07770366
0.76396875 -0.5362759 0.2496891
0.7651171875 -0.450621 0.4095325
0.766265625 -0.3179571 0.5421144
0.7674140625 -0.146317 0.6335621
0.7685625 0.05185733 0.6731233
0.7697109375 0.2620338 0.652697
0.770859375 0.4664387 0.5692844
0.7720078125 0.6484012 0.4234018
0.77315625 0.7896783 0.2203182
0.7743046875 0.8736094 -0.03187878
0.775453125 0.8848012 -0.3194456
0.7766015625 0.807955 -0.6265314
0.77775 0.6288264 -0.93268
0.7788984375 0.3329027 -1.211525
0.780046875 -0.09651386 -1.424684
0.7811953125 -0.6755831 -1.514665
0.78234375 -1.414154 -1.383153
0.7834921875 -2.280097 -0.8423483
0.784640625 -3.037242 0.4299723
0.7857890625 -2.776586 2.63232
0.7869375 -0.2458716 4.216098
0.7880859375 2.411912 2.907895
0.789234375 2.902753 0.7787396
0.7903828125 2.304572 -0.553885
0.79153125 1.510269 -1.180334
0.7926796875 0.7919134 -1.383089
0.793828125 0.2107602 -1.34077
0.7949765625 -0.2264048 -1.156929
0.796125 -0.5279099 -0.8961521
0.7972734375 -0.7063803 -0.6031106
0.798421875 -0.779171 -0.3116457
0.7995703125 -0.763576 -0.04485049
0.80071875 -0.6797919 0.1805073
0.8018671875 -0.5467965 0.3543873
0.803015625 -0.3835384 0.4716345
0.8041640625 -0.2072483 0.5319958
0.8053125 -0.03335417 0.5387238
0.8064609375 0.1254246 0.4976851
0.807609375 0.2587698 0.4172386
0.8087578125 0.3590504 0.3069668
0.80990625 0.4213045 0.1777331
0.8110546875 0.4425304 0.04005228
0.812203125 0.4237449 -0.09467805
0.8133515625 0.3676956 -0.2157699
0.8145 0.2795267 -0.3139221
0.8156484375 0.1671835 -0.3808881
0.816796875 0.04062586 -0.4111651
0.8179453125 -0.08923164 -0.4019865
0.81909375 -0.2106471 -0.3540089
0.8202421875 -0.3116434 -0.2709067
0.821390625 -0.3834125 -0.1600795
0.8225390625 -0.4179584 -0.03136981
0.8236875 -0.4116412 0.1032768
0.8248359375 -0.3636602 0.2313016
0.825984375 -0.2776543 0.3407994
0.8271328125 -0.159891 0.4212265
0.82828125 -0.019893 0.4635336
0.8294296875 0.1315096 0.4622563
0.830578125 0.2820312 0.414022
0.8317265625 0.4184178 0.3195177
0.832875 0.5276615 0.1809372
0.8340234375 0.5965787 0.003841444
0.835171875 0.6123495 -0.203033
0.8363203125 0.5616764 -0.4280287
0.83746875 0.4314381 -0.6547344
0.8386171875 0.2076738 -0.8600902
0.839765625 -0.1236674 -1.009766
0.8409140625 -0.5742971 -1.050751
0.8420625 -1.14164 -0.8891965
0.8432109375 -1.761783 -0.3575986
0.844359375 -2.125637 0.7737004
0.8455078125 -1.410353 2.32704
0.84665625 0.6123812 2.72283
0.8478046875 1.913059 1.437703
0.848953125 1.911898 0.13208
0.8501015625 1.414598 -0.6149883
0.85125 0.8576512 -0.9395371
0.8523984375 0.3728332 -1.009701
0.853546875 -0.009821781 -0.9302569
0.8546953125 -0.2882138 -0.7664164
0.85584375 -0.4699334 -0.5602552
0.8569921875 -0.5665794 -0.3416459
0.858140625 -0.5905738 -0.1313656
0.8592890625 -0.5560365 0.05564807
0.8604375 -0.4761805 0.2095686
0.8615859375 -0.3654464 0.3242732
0.862734375 -0.2359683 0.3968947
0.8638828125 -0.1001571 0.4281072
0.86503125 0.03164164 0.4199826
0.8661796875 0.1500879 0.3768312
0.867328125 0.2477642 0.304564
0.8684765625 0.3184044 0.2106155
0.869625 0.3581163 0.1034341
0.8707734375 0.3654275 -0.008105268
0.871921875 0.3403742 -0.1151877
0.8730703125 0.2861723 -0.2088707
0.87421875 0.2079162 -0.2819124
0.8753671875 0.1122191 -0.3279573
0.876515625 0.008416411 -0.3439247
0.8776640625 -0.09469809 -0.3284052
0.8788125 -0.1879446 -0.2833123
0.8799609375 -0.2631803 -0.213083
0.881109375 -0.3137766 -0.1245542
0.8822578125 -0.3363432 -0.02509271
0.88340625 -0.3289166 0.07576771
0.8845546875 -0.2925943 0.1701002
0.885703125 -0.2307877 0.2499649
0.8868515625 -0.1483139 0.3089614
0.888 -0.05226719 0.3422613
0.8891484375 0.0505127 0.347386
0.890296875 0.1520012 0.3230687
0.8914453125 0.2442828 0.2703578
0.89259375 0.3200452 0.192092
0.8937421875 0.3722883 0.09313715
0.894890625 0.3954504 -0.02017837
0.8960390625 0.3856918 -0.1400752
0.8971875 0.3404666 -0.2570769
0.8983359375 0.2603013 -0.3614529
0.899484375 0.1476587 -0.442573
0.9006328125 0.008741279 -0.4906334
0.90178125 -0.1467976 -0.4967042
0.9029296875 -0.3078977 -0.4544822
0.904078125 -0.45971 -0.360485
0.9052265625 -0.586143 -0.2154688
0.906375 -0.6704464 -0.02484785
0.9075234375 -0.6970158 0.2014015
0.908671875 -0.6503615 0.4480972
0.9098203125 -0.5187261 0.6953418
0.91096875 -0.2915544 0.9171912
0.9121171875 0.0373232 1.080147
0.913265625 0.4681445 1.139305
0.9144140625 0.9892071 1.029151
0.9155625 1.551866 0.6526039
0.9167109375 2.008226 -0.1154568
0.917859375 1.990967 -1.318415
0.9190078125 0.9842225 -2.498508
0.92015625 -0.7415166 -2.588941
0.9213046875 -1.874549 -1.510074
0.922453125 -2.011058 -0.2988117
0.9236015625 -1.621161 0.5211079
0.92475 -1.086328 0.9514885
0.9258984375 -0.5702273 1.108043
0.927046875 -0.1303872 1.086336
0.9281953125 0.2154474 0.9506723
0.92934375 0.463719 0.7470245
0.9304921875 0.6189358 0.5096715
0.931640625 0.6886516 0.264721
0.9327890625 0.682845 0.03343713
0.9339375 0.6147673 -0.1675627
0.9350859375 0.5002331 -0.326888
0.936234375 0.3545959 -0.43683
0.9373828125 0.194192 -0.4955305
0.93853125 0.03400213 -0.5043374
0.9396796875 -0.113121 -0.4682852
0.940828125 -0.2367996 -0.3955744
0.9419765625 -0.3297338 -0.2953645
0.943125 -0.3876612 -0.178215
0.9442734375 -0.4090603 -0.05452809
0.945421875 -0.3954112 0.06562576
0.9465703125 -0.349775 0.1737688
0.94771875 -0.2776149 0.2623859
0.9488671875 -0.1856495 0.3259556
0.950015625 -0.08124323 0.3602938
0.9511640625 0.02702875 0.3640037
0.9523125 0.1312868 0.337274
0.9534609375 0.2231412 0.2821677
0.954609375 0.2953214 0.2035265
0.9557578125 0.3421041 0.1072411
0.95690625 0.3589891 0.00125053
0.9580546875 0.3443911 -0.1058374
0.959203125 0.2986646 -0.20465
0.9603515625 0.2256458 -0.2865295
0.9615 0.1306134 -0.3437329
0.9626484375 0.02205136 -0.3708456
0.963796875 -0.09101289 -0.364858
0.9649453125 -0.198886 -0.3253703
0.96609375 -0.2917043 -0.2549047
0.9672421875 -0.3613357 -0.1591696
0.968390625 -0.4008573 -0.04503582
0.9695390625 -0.4063336 0.07852427
0.9706875 -0.3751066 0.2018937
0.9718359375 -0.3081586 0.3148546
0.972984375 -0.2079918 0.4080636
0.9741328125 -0.07981945 0.4719187
0.97528125 0.06884471 0.498231
0.9764296875 0.2287737 0.4807648
0.977578125 0.3880212 0.4140507
0.9787265625 0.5336044 0.2954616
0.979875 0.6495292 0.1246809
0.9810234375 0.7185661 -0.09548286
0.982171875 0.7197992 -0.3570159
0.9833203125 0.6305276 -0.6465021
0.98446875 0.4225568 -0.9406941
0.9856171875 0.06456716 -1.198136
0.986765625 -0.4796654 -1.343227
0.9879140625 -1.224652 -1.227287
0.9890625 -2.056305 -0.5750509
0.9902109375 -2.406152 0.8690338
0.991359375 -1.327813 2.383142
0.9925078125 0.4745286 2.41428
0.99365625 1.434457 1.4177
0.9948046875 1.562359 0.4548968
0.995953125 1.320194 -0.1964466
0.9971015625 0.9626089 -0.5747195
0.99825 0.5950135 -0.7559775
0.9993984375 0.2629663 -0.7993826
1.000546875 -0.01492654 -0.7474733
1.0016953125 -0.2311093 -0.6328954
1.00284375 -0.382985 -0.4797239
1.0039921875 -0.4737294 -0.308371
