# GHZ S RI R 50.0
0.3 0.0492063 1.690879
0.3011484375 0.5324463 1.414785
0.302296875 0.8576286 1.052902
0.3034453125 1.032386 0.6636834
0.30459375 1.078888 0.2898072
0.3057421875 1.024835 -0.04126441
0.306890625 0.8957747 -0.3152326
0.3080390625 0.7166607 -0.5238591
0.3091875 0.5069736 -0.6672368
0.3103359375 0.2821009 -0.7483492
0.311484375 0.05501362 -0.7694502
0.3126328125 -0.1638717 -0.7339315
0.31378125 -0.3630129 -0.6456285
0.3149296875 -0.5336322 -0.5078526
0.316078125 -0.6638124 -0.3274072
0.3172265625 -0.7417689 -0.111946
0.318375 -0.7567981 0.1264803
0.3195234375 -0.6975911 0.3722103
0.320671875 -0.5572335 0.6012383
0.3218203125 -0.3370515 0.7846432
0.32296875 -0.05008947 0.8911431
0.3241171875 0.2760092 0.8940098
0.325265625 0.6025242 0.7772467
0.3264140625 0.886383 0.5413759
0.3275625 1.085532 0.2023458
0.3287109375 1.166126 -0.2091455
0.329859375 1.107672 -0.6640204
0.3310078125 0.8911337 -1.127475
0.33215625 0.4910365 -1.572138
0.3333046875 -0.1459403 -1.960702
0.334453125 -1.138904 -2.210111
0.3356015625 -2.767132 -2.013227
0.33675 -5.232086 0.06103067
0.3378984375 -3.367598 6.268892
0.339046875 2.804908 4.3869
0.3401953125 3.176507 1.222492
0.34134375 2.462927 -0.2217061
0.3424921875 1.732556 -0.9018261
0.343640625 1.088802 -1.218799
0.3447890625 0.52807 -1.321634
0.3459375 0.04658706 -1.275331
0.3470859375 -0.3493825 -1.115221
0.348234375 -0.6530756 -0.8682323
0.3493828125 -0.8519139 -0.5622169
0.35053125 -0.9367923 -0.2313981
0.3516796875 -0.9112138 0.09086069
0.352828125 -0.7876211 0.3701894
0.3539765625 -0.5918047 0.5789496
0.355125 -0.354274 0.7044365
0.3562734375 -0.1054734 0.7444598
0.357421875 0.126038 0.7078678
0.3585703125 0.3235504 0.6102477
0.35971875 0.4742984 0.4678386
0.3608671875 0.5732825 0.2986138
0.362015625 0.6203369 0.116876
0.3631640625 0.6175767 -0.06343738
0.3643125 0.5697194 -0.2320734
0.3654609375 0.4809176 -0.3813212
0.366609375 0.3579355 -0.5032738
0.3677578125 0.2063809 -0.5904862
0.36890625 0.03394473 -0.6376133
0.3700546875 -0.1510687 -0.6386485
0.371203125 -0.3375353 -0.5885812
0.3723515625 -0.5118998 -0.4850619
0.3735 -0.658927 -0.328219
0.3746484375 -0.7609059 -0.1233168
0.375796875 -0.8001141 0.1171388
0.3769453125 -0.7619753 0.374026
0.37809375 -0.639107 0.6200737
0.3792421875 -0.4336292 0.8267871
0.380390625 -0.1615541 0.9628948
0.3815390625 0.1531374 1.009349
0.3826875 0.4794609 0.9541225
0.3838359375 0.7845154 0.797314
0.384984375 1.040588 0.5487781
0.3861328125 1.224806 0.2233132
0.38728125 1.319345 -0.1612498
0.3884296875 1.308497 -0.5875468
0.389578125 1.178019 -1.037273
0.3907265625 0.9084507 -1.493276
0.391875 0.4703412 -1.931595
0.3930234375 -0.1849296 -2.314042
0.394171875 -1.136127 -2.563452
0.3953203125 -2.509402 -2.48817
0.39646875 -4.421965 -1.564334
0.3976171875 -6.279038 1.548394
0.398765625 -3.968889 7.050682
0.3999140625 2.600181 6.796065
0.4010625 4.664916 2.825517
0.4022109375 4.1353 0.2174509
0.403359375 3.088951 -1.158324
0.4045078125 2.029844 -1.829958
0.40565625 1.082832 -2.061723
0.4068046875 0.2843853 -2.004581
0.407953125 -0.342864 -1.751684
0.4091015625 -0.7911849 -1.378433
0.41025 -1.063847 -0.9492654
0.4113984375 -1.180327 -0.5164347
0.412546875 -1.163865 -0.1220944
0.4136953125 -1.048939 0.2105354
0.41484375 -0.8659623 0.4673316
0.4159921875 -0.6430539 0.6452221
0.417140625 -0.4052492 0.7461295
0.4182890625 -0.1696349 0.7789919
0.4194375 0.04979347 0.7523037
0.4205859375 0.2425502 0.6757928
0.421734375 0.4014178 0.5600488
0.4228828125 0.5205868 0.4138511
0.42403125 0.5968201 0.2477973
0.4251796875 0.627722 0.07182999
0.426328125 0.6124034 -0.1040838
0.4274765625 0.5513729 -0.2685082
0.428625 0.4477506 -0.4108158
0.4297734375 0.3086296 -0.5184181
0.430921875 0.1431512 -0.5830141
0.4320703125 -0.0350828 -0.5964362
0.43321875 -0.2100793 -0.5556204
0.4343671875 -0.3645068 -0.4638227
0.435515625 -0.4829842 -0.3293788
0.4366640625 -0.5535731 -0.166887
0.4378125 -0.570598 0.00663771
0.4389609375 -0.5350246 0.1737876
0.440109375 -0.4531693 0.3190325
0.4412578125 -0.3354928 0.4311163
0.44240625 -0.1941425 0.5029945
0.4435546875 -0.0423123 0.5321059
0.444703125 0.1091031 0.5184482
0.4458515625 0.2492419 0.4654452
0.447 0.3695247 0.3783363
0.4481484375 0.462884 0.2623055
0.449296875 0.5235622 0.1250215
0.4504453125 0.5470158 -0.02572507
0.45159375 0.5296338 -0.1813231
0.4527421875 0.4698257 -0.3318311
0.453890625 0.3681721 -0.4665197
0.4550390625 0.2270116 -0.5731019
0.4561875 0.05267908 -0.639764
0.4573359375 -0.14429 -0.654692
0.458484375 -0.3486845 -0.6094103
0.4596328125 -0.5417066 -0.4986003
0.46078125 -0.7018003 -0.324772
0.4619296875 -0.8072588 -0.09722102
0.463078125 -0.8391658 0.1662764
0.4642265625 -0.7860758 0.4421749
0.465375 -0.6431586 0.7029537
0.4665234375 -0.415226 0.9207243
0.467671875 -0.1146798 1.070829
0.4688203125 0.24174 1.131289
0.46996875 0.6328233 1.084316
0.4711171875 1.03652 0.9126439
0.472265625 1.424895 0.5965643
0.4734140625 1.761862 0.1091492
0.4745625 1.986593 -0.5923739
0.4757109375 1.976821 -1.562536
0.476859375 1.438926 -2.845549
0.4780078125 -0.28335 -4.16567
0.47915625 -3.688379 -3.739221
0.4803046875 -5.282961 0.2419694
0.481453125 -3.044404 2.942842
0.4826015625 -0.8106973 3.134383
0.48375 0.4951565 2.504725
0.4848984375 1.167159 1.737799
0.486046875 1.451541 1.0147
0.4871953125 1.486304 0.3886603
0.48834375 1.35206 -0.121873
0.4894921875 1.105367 -0.5070369
0.490640625 0.7934191 -0.7637526
0.4917890625 0.4568757 -0.897109
0.4929375 0.1297976 -0.9172518
0.4940859375 -0.1595921 -0.8430426
0.495234375 -0.3913672 -0.6968992
0.4963828125 -0.5545456 -0.5036544
0.49753125 -0.6456612 -0.2870609
0.4986796875 -0.6665839 -0.06826248
0.499828125 -0.6254588 0.1347266
0.5009765625 -0.5323709 0.3079716
0.502125 -0.399485 0.4416938
0.5032734375 -0.2393302 0.5289526
0.504421875 -0.06513764 0.5664483
0.5055703125 0.1100181 0.5533072
0.50671875 0.2734987 0.4910673
0.5078671875 0.4129531 0.3841352
0.509015625 0.5169665 0.2393489
0.5101640625 0.5750993 0.0666827
0.5113125 0.5793762 -0.1206897
0.5124609375 0.5253102 -0.3072702
0.513609375 0.4122164 -0.4750042
0.5147578125 0.2455286 -0.6055454
0.51590625 0.03611369 -0.680755
0.5170546875 -0.1981224 -0.6862956
0.518203125 -0.4347688 -0.6138239
0.5193515625 -0.648774 -0.4612115
0.5205 -0.8154063 -0.2350587
0.5216484375 -0.9089993 0.05076491
0.522796875 -0.9119909 0.3776928
0.5239453125 -0.8054395 0.7226786
0.52509375 -0.5768768 1.058536
0.5262421875 -0.2095997 1.352476
0.527390625 0.3169747 1.560665
0.5285390625 1.034969 1.608915
0.5296875 1.983043 1.346223
0.5308359375 3.13667 0.4086127
0.531984375 3.870251 -1.991497
0.5331328125 1.378947 -5.288446
0.53428125 -2.970973 -3.88185
0.5354296875 -3.519738 -0.8503681
0.536578125 -2.630508 0.7176468
0.5377265625 -1.674948 1.369077
0.538875 -0.8730364 1.568111
0.5400234375 -0.2336985 1.52121
0.541171875 0.256421 1.329076
0.5423203125 0.6084632 1.049087
0.54346875 0.8328094 0.7231076
0.5446171875 0.9381855 0.3845212
0.545765625 0.9386944 0.0620761
0.5469140625 0.8505421 -0.2207686
0.5480625 0.6947447 -0.4467334
0.5492109375 0.4940572 -0.6044143
0.550359375 0.2708451 -0.6898683
0.5515078125 0.04645297 -0.7054541
0.55265625 -0.1606334 -0.658379
0.5538046875 -0.3364977 -0.5591851
0.554953125 -0.4707961 -0.4208207
0.5561015625 -0.5581627 -0.2571537
0.55725 -0.5950522 -0.08140857
0.5583984375 -0.5826713 0.09317396
0.559546875 -0.5237634 0.2545744
0.5606953125 -0.4243481 0.3921198
0.56184375 -0.2916172 0.4964265
0.5629921875 -0.1350282 0.5600345
0.564140625 0.0341318 0.5776623
0.5652890625 0.2034296 0.5467756
0.5664375 0.3590313 0.4678322
0.5675859375 0.4878092 0.3452064
0.568734375 0.5770075 0.1874402
0.5698828125 0.6166684 0.006546848
0.57103125 0.6007593 -0.1819636
0.5721796875 0.5276901 -0.3603699
0.573328125 0.4024664 -0.5119078
0.5744765625 0.234761 -0.6210329
0.575625 0.03870039 -0.6765712
0.5767734375 -0.1687558 -0.6721644
0.577921875 -0.3690749 -0.6062168
0.5790703125 -0.5463225 -0.4830748
0.58021875 -0.684795 -0.3108082
0.5813671875 -0.7720536 -0.1006518
0.582515625 -0.7995602 0.1342556
0.5836640625 -0.7597268 0.3778267
0.5848125 -0.65085 0.6141757
0.5859609375 -0.4714242 0.8258271
0.587109375 -0.2236038 0.9942707
0.5882578125 0.08680479 1.099117
0.58940625 0.4501115 1.11832
0.5905546875 0.8508259 1.026679
0.591703125 1.265198 0.7967061
0.5928515625 1.65661 0.3965647
0.594 1.965759 -0.2101947
0.5951484375 2.091049 -1.061535
0.596296875 1.847273 -2.176374
0.5974453125 0.8833935 -3.455487
0.59859375 -1.323595 -4.300319
0.5997421875 -4.443161 -2.968639
0.600890625 -5.235294 0.9121717
0.6020390625 -2.929124 3.336402
0.6031875 -0.6120661 3.454079
0.6043359375 0.7643577 2.694615
0.605484375 1.429792 1.794708
0.6066328125 1.659543 0.9824319
0.60778125 1.625339 0.316717
0.6089296875 1.434202 -0.1957098
0.610078125 1.155401 -0.5626416
0.6112265625 0.8350964 -0.7993382
0.612375 0.5057077 -0.9217644
0.6135234375 0.1937218 -0.9468576
0.614671875 -0.08654222 -0.8925005
0.6158203125 -0.320123 -0.7746167
0.61696875 -0.5009382 -0.6105748
0.6181171875 -0.6229641 -0.4155066
0.619265625 -0.6829792 -0.2061428
0.6204140625 -0.6843157 0.001551499
0.6215625 -0.629352 0.1933101
0.6227109375 -0.5262167 0.356919
0.623859375 -0.3853838 0.480623
0.6250078125 -0.2190085 0.5562112
0.62615625 -0.04335814 0.5796575
0.6273046875 0.1276889 0.5512317
0.628453125 0.2783328 0.4755678
0.6296015625 0.3969693 0.3619955
0.63075 0.4745698 0.2222682
0.6318984375 0.5070088 0.06999318
0.633046875 0.4937114 -0.08072107
0.6341953125 0.4387764 -0.2172885
0.63534375 0.3490869 -0.32926
0.6364921875 0.2344106 -0.4095365
0.637640625 0.1044953 -0.4528891
0.6387890625 -0.02988091 -0.4582968
0.6399375 -0.1587404 -0.4267482
0.6410859375 -0.273235 -0.3611715
0.642234375 -0.3644052 -0.2679562
0.6433828125 -0.4267966 -0.1526732
0.64453125 -0.4555927 -0.02383105
0.6456796875 -0.4474554 0.1093623
0.646828125 -0.4019213 0.2372206
0.6479765625 -0.3206871 0.3496967
0.649125 -0.2085816 0.4366425
0.6502734375 -0.07231967 0.4896453
0.651421875 0.07821836 0.5016143
0.6525703125 0.2308902 0.4682454
0.65371875 0.3719867 0.3890053
0.6548671875 0.4879551 0.2668886
0.656015625 0.5652811 0.1098461
0.6571640625 0.5941268 -0.07049579
0.6583125 0.5665112 -0.2593758
0.6594609375 0.4805039 -0.4399727
0.660609375 0.3377302 -0.5950615
0.6617578125 0.1447771 -0.7075402
0.66290625 -0.08732936 -0.7623246
0.6640546875 -0.3447587 -0.7467574
0.665203125 -0.6073968 -0.6487167
0.6663515625 -0.8557374 -0.4601325
0.6675 -1.063007 -0.174018
0.6686484375 -1.194383 0.2153334
0.669796875 -1.202291 0.7081891
0.6709453125 -1.009702 1.295371
0.67209375 -0.4929876 1.926759
0.6732421875 0.5440457 2.414868
0.674390625 2.21235 2.170614
0.6755390625 3.604382 0.2477932
0.6766875 2.682569 -2.247853
0.6778359375 0.5796667 -2.84225
0.678984375 -0.777274 -2.171155
0.6801328125 -1.343825 -1.289446
0.68128125 -1.450021 -0.5323938
0.6824296875 -1.312712 0.04383303
0.683578125 -1.050041 0.4442237
0.6847265625 -0.7325238 0.690578
0.685875 -0.4062205 0.8044134
0.6870234375 -0.10307 0.8096365
0.688171875 0.1558316 0.7305464
0.6893203125 0.355718 0.5907053
0.69046875 0.4913876 0.4136048
0.6916171875 0.5612109 0.2200719
0.692765625 0.5697398 0.02794957
0.6939140625 0.5233709 -0.1459221
0.6950625 0.4323736 -0.2905816
0.6962109375 0.3086047 -0.3973325
0.697359375 0.1642094 -0.4606665
0.6985078125 0.01154428 -0.4782988
0.69965625 -0.1358024 -0.4510643
0.7008046875 -0.2671821 -0.3825073
0.701953125 -0.3715565 -0.2786556
0.7031015625 -0.4405881 -0.1483758
0.70425 -0.4675197 -0.002713486
0.7053984375 -0.4493064 0.1460983
0.706546875 -0.3859104 0.2843553
0.7076953125 -0.281602 0.3990603
0.70884375 -0.143959 0.4780007
0.7099921875 0.01548156 0.5122073
0.711140625 0.1823212 0.4955362
0.7122890625 0.3411021 0.4261908
0.7134375 0.4760841 0.3076464
0.7145859375 0.5720425 0.1473546
0.715734375 0.6174805 -0.04303757
0.7168828125 0.6031471 -0.2473653
0.71803125 0.5246071 -0.4502223
0.7191796875 0.3806059 -0.632925
0.720328125 0.1742864 -0.7761973
0.7214765625 -0.0874557 -0.8613366
0.722625 -0.3934093 -0.8670714
0.7237734375 -0.7273477 -0.7735592
0.724921875 -1.066249 -0.5556162
0.7260703125 -1.375468 -0.1865843
0.72721875 -1.596018 0.3689024
0.7283671875 -1.623543 1.148462
0.729515625 -1.239079 2.158535
0.7306640625 -0.02464261 3.19502
0.7318125 2.390573 3.232406
0.7329609375 4.328308 0.6986791
0.734109375 3.224584 -2.137045
0.7352578125 1.156815 -2.861654
0.73640625 -0.2560015 -2.449997
0.7375546875 -1.009838 -1.750529
0.738703125 -1.341498 -1.052058
0.7398515625 -1.403729 -0.4439426
0.741 -1.295257 0.04853909
0.7421484375 -1.079764 0.4194492
0.743296875 -0.8046196 0.6719937
0.7444453125 -0.50655 0.8145882
0.74559375 -0.2126388 0.8595254
0.7467421875 0.05526828 0.822721
0.747890625 0.2820254 0.7202381
0.7490390625 0.439839 0.5473872
0.7501875 0.553917 0.3732179
0.7513359375 0.6115652 0.1847807
0.752484375 0.6145682 -0.002560799
0.7536328125 0.5677925 -0.1761952
0.75478125 0.477975 -0.3251062
0.7559296875 0.3534645 -0.4397301
0.757078125 0.2057485 -0.5133541
0.7582265625 0.04600403 -0.5423772
0.759375 -0.1135241 -0.5254574
0.7605234375 -0.2601754 -0.4643282
0.761671875 -0.3824594 -0.3646018
0.7628203125 -0.4705113 -0.2345211
0.76396875 -0.5173549 -0.08473837
0.7651171875 -0.5185667 0.07171132
0.766265625 -0.4739572 0.2218048
0.7674140625 -0.3878047 0.3525508
0.7685625 -0.2673738 0.4527284
0.7697109375 -0.1227708 0.5138478
0.770859375 0.03376694 0.5308048
0.7720078125 0.1893535 0.5021749
0.77315625 0.3315589 0.4298529
0.7743046875 0.4487509 0.3190691
0.775453125 0.5315559 0.1782869
0.7766015625 0.5725676 0.01695556
0.77775 0.5671679 -0.1535203
0.7788984375 0.5136082 -0.3203385
0.780046875 0.4124652 -0.4715143
0.7811953125 0.2681017 -0.594281
0.78234375 0.08650424 -0.6762841
0.7834921875 -0.1217302 -0.7063649
0.784640625 -0.344058 -0.6758607
0.7857890625 -0.5635099 -0.5770976
0.7869375 -0.7615785 -0.4076806
0.7880859375 -0.9163243 -0.1687261
0.789234375 -1.003764 0.1328581
0.7903828125 -0.9997103 0.4836104
0.79153125 -0.8781947 0.8618765
0.7926796875 -0.6136355 1.235259
0.793828125 -0.1808678 1.559235
0.7949765625 0.4437329 1.763954
0.796125 1.276516 1.7345
0.7972734375 2.283676 1.264477
0.798421875 3.215773 0.01204638
0.7995703125 3.178933 -2.207755
0.80071875 1.012453 -4.011345
0.8018671875 -1.641156 -3.326585
0.803015625 -2.603186 -1.495475
0.8041640625 -2.392861 -0.08923698
0.8053125 -1.811942 0.7228767
0.8064609375 -1.185592 1.117718
0.807609375 -0.623272 1.246018
0.8087578125 -0.1550965 1.205949
0.80990625 0.2116299 1.057389
0.8110546875 0.4784983 0.8438916
0.812203125 0.6513693 0.5963411
0.8133515625 0.7379484 0.3381016
0.8145 0.7467802 0.09036012
0.8156484375 0.6896898 -0.1309146
0.816796875 0.5797992 -0.3134996
0.8179453125 0.4318382 -0.4474273
0.81909375 0.2620254 -0.5277388
0.8202421875 0.08587051 -0.5536114
0.821390625 -0.08136625 -0.5282977
0.8225390625 -0.2265644 -0.4581398
0.8236875 -0.3393838 -0.3535001
0.8248359375 -0.4132228 -0.2263897
0.825984375 -0.4450617 -0.08898184
0.8271328125 -0.4358489 0.04606282
0.82828125 -0.3899547 0.1681335
0.8294296875 -0.3135292 0.2682923
0.830578125 -0.2146051 0.3397199
0.8317265625 -0.1026147 0.3790838
0.832875 0.01296148 0.3850819
0.8340234375 0.123498 0.358721
0.835171875 0.2208522 0.3030937
0.8363203125 0.2977722 0.2228889
0.83746875 0.3487543 0.1249233
0.8386171875 0.3699482 0.01644202
0.839765625 0.3594516 -0.09454461
0.8409140625 0.3171174 -0.198886
0.8420625 0.2455713 -0.2878564
0.8432109375 0.149232 -0.3533854
0.844359375 0.03544338 -0.38852
0.8455078125 -0.08654208 -0.3885722
0.84665625 -0.2064235 -0.3512393
0.8478046875 -0.3128814 -0.2770789
0.848953125 -0.3947468 -0.1709366
0.8501015625 -0.4423746 -0.04069381
0.85125 -0.4486606 0.1037868
0.8523984375 -0.4091097 0.2495676
0.853546875 -0.3235542 0.3826599
0.8546953125 -0.1949108 0.490013
0.85584375 -0.02995272 0.5579172
0.8569921875 0.1612972 0.5746954
0.858140625 0.3662242 0.5298556
0.8592890625 0.5683962 0.4147329
0.8604375 0.747313 0.220332
0.8615859375 0.8758199 -0.05915848
0.862734375 0.9139161 -0.4286608
0.8638828125 0.7968234 -0.8810074
0.86503125 0.4167528 -1.369027
0.8661796875 -0.3711777 -1.717005
0.867328125 -1.549201 -1.431093
0.8684765625 -2.27411 -0.07781575
0.869625 -1.62897 1.310432
0.8707734375 -0.4809735 1.661927
0.871921875 0.3184747 1.367882
0.8730703125 0.7243232 0.9055757
0.87421875 0.8640223 0.4615697
0.8753671875 0.8406322 0.09295389
0.876515625 0.7194611 -0.1874323
0.8776640625 0.5446498 -0.3800216
0.8788125 0.3463733 -0.4903188
0.8799609375 0.1487337 -0.5276651
0.881109375 -0.03086152 -0.5046375
0.8822578125 -0.1798307 -0.4342114
0.88340625 -0.2903693 -0.3306606
0.8845546875 -0.3588439 -0.2080301
0.885703125 -0.3854946 -0.07945992
0.8868515625 -0.3731653 0.04344507
0.888 -0.3273759 0.1512971
0.8891484375 -0.2552827 0.2367504
0.890296875 -0.1648606 0.2951053
0.8914453125 -0.06473172 0.3235686
0.89259375 0.03691974 0.3216176
0.8937421875 0.1315773 0.2908161
0.894890625 0.2122174 0.2344363
0.8960390625 0.2724677 0.1575717
0.8971875 0.3072918 0.06653518
0.8983359375 0.3138022 -0.03085371
0.899484375 0.2909724 -0.1264371
0.9006328125 0.2401595 -0.2119181
0.90178125 0.1651854 -0.2790053
0.9029296875 0.07204539 -0.321048
0.904078125 -0.03125856 -0.3331619
0.9052265625 -0.1354612 -0.3130467
0.906375 -0.2304503 -0.2611804
0.9075234375 -0.30696 -0.1812034
0.908671875 -0.3571236 -0.07946063
0.9098203125 -0.3744876 0.03545133
0.91096875 -0.3562339 0.1539
0.9121171875 -0.3019401 0.2649851
0.913265625 -0.2138772 0.3583107
0.9144140625 -0.09788142 0.4242538
0.9155625 0.03869024 0.4547809
0.9167109375 0.1859771 0.4438009
0.917859375 0.3325928 0.3869796
0.9190078125 0.4656201 0.2828599
0.92015625 0.5709173 0.133038
0.9213046875 0.6331486 -0.05824545
0.922453125 0.6360198 -0.2820908
0.9236015625 0.563005 -0.5243254
0.92475 0.397101 -0.7626677
0.9258984375 0.1225998 -0.9660264
0.927046875 -0.2709906 -1.083779
0.9281953125 -0.7768275 -1.041522
0.92934375 -1.341206 -0.7297788
0.9304921875 -1.796425 -0.02926749
0.931640625 -1.781166 1.043527
0.9327890625 -0.9394773 2.011828
0.9339375 0.391439 2.134749
0.9350859375 1.338447 1.417963
0.936234375 1.602741 0.5035526
0.9373828125 1.42026 -0.212179
0.93853125 1.048614 -0.6555198
0.9396796875 0.6370585 -0.8697566
0.940828125 0.2557972 -0.9174395
0.9419765625 -0.06218303 -0.8499082
0.943125 -0.3051935 -0.7081878
0.9442734375 -0.471465 -0.5238482
0.945421875 -0.5646595 -0.3222588
0.9465703125 -0.5924071 -0.1224582
0.94771875 -0.5635424 0.06065129
0.9488671875 -0.489542 0.2159577
0.950015625 -0.3812191 0.3358686
0.9511640625 -0.2511423 0.4150709
0.9523125 -0.1107597 0.4524941
0.9534609375 0.02868238 0.4482253
0.954609375 0.1561729 0.4056751
0.9557578125 0.2626625 0.3307813
0.95690625 0.3404438 0.2311764
0.9580546875 0.3853132 0.1160864
0.959203125 0.3940134 -0.004386882
0.9603515625 0.3676184 -0.1199736
0.9615 0.3094478 -0.2205468
0.9626484375 0.2259146 -0.2983578
0.963796875 0.1247905 -0.3474477
0.9649453125 0.01564624 -0.3642384
0.96609375 -0.09235317 -0.3489781
0.9672421875 -0.1898092 -0.3035081
0.968390625 -0.2691628 -0.2323976
0.9695390625 -0.3242286 -0.1425685
0.9706875 -0.3512819 -0.04121849
0.9718359375 -0.3484923 0.06352352
0.972984375 -0.3163837 0.1630702
0.9741328125 -0.2569444 0.2500934
0.97528125 -0.175051 0.3177046
0.9764296875 -0.07609291 0.3604435
0.977578125 0.0327245 0.3735172
0.9787265625 0.1437133 0.3554115
0.979875 0.247926 0.3054062
0.9810234375 0.3368344 0.2254086
0.982171875 0.4014803 0.119778
0.9833203125 0.4347979 -0.00534422
0.98446875 0.4303153 -0.1405782
0.9856171875 0.3847678 -0.2752421
0.986765625 0.2974956 -0.3973925
0.9879140625 0.1711567 -0.4941274
0.9890625 0.01205393 -0.5530998
0.9902109375 -0.1690359 -0.5634764
0.991359375 -0.3590831 -0.5166035
0.9925078125 -0.5412303 -0.406535
0.99365625 -0.6964664 -0.2323327
0.9948046875 -0.8039219 0.003927642
0.995953125 -0.8391405 0.2952276
0.9971015625 -0.775739 0.6276147
0.99825 -0.5798645 0.9789207
0.9993984375 -0.2090579 1.305884
1.000546875 0.3870477 1.519289
1.0016953125 1.232306 1.4367
1.00284375 2.162664 0.7209846
