# GHZ S RI R 50.0
0.3 -4.387264 -7.782575
0.3011484375 -10.2773 -2.332583
0.302296875 -7.274383 5.446125
0.3034453125 -1.796948 6.380397
0.30459375 1.02843 4.769125
0.3057421875 2.152796 3.079682
0.306890625 2.47367 1.729078
0.3080390625 2.407632 0.709633
0.3091875 2.144779 -0.03720827
0.3103359375 1.787431 -0.574901
0.311484375 1.386928 -0.9420407
0.3126328125 0.9727434 -1.173587
0.31378125 0.5651392 -1.288631
0.3149296875 0.1746483 -1.304362
0.316078125 -0.1836453 -1.232337
0.3172265625 -0.4991103 -1.081166
0.318375 -0.7577893 -0.8629684
0.3195234375 -0.9473603 -0.5879673
0.320671875 -1.050069 -0.2751513
0.3218203125 -1.057336 0.05222223
0.32296875 -0.9658405 0.3638193
0.3241171875 -0.7839679 0.6258488
0.325265625 -0.5337519 0.8117299
0.3264140625 -0.2472779 0.9038471
0.3275625 0.04039745 0.8993485
0.3287109375 0.2979075 0.810141
0.329859375 0.5036004 0.6556835
0.3310078125 0.6440377 0.4606462
0.33215625 0.7189158 0.2473068
0.3333046875 0.7322536 0.03481473
0.334453125 0.6912431 -0.1636574
0.3356015625 0.6048862 -0.3365256
0.33675 0.482725 -0.4776391
0.3378984375 0.3325997 -0.5825717
0.339046875 0.1642292 -0.6469245
0.3401953125 -0.01551081 -0.6685941
0.34134375 -0.1979139 -0.6455071
0.3424921875 -0.3720967 -0.5757575
0.343640625 -0.5282226 -0.4598227
0.3447890625 -0.6536002 -0.3000948
0.3459375 -0.7340955 -0.1024806
0.3470859375 -0.7562746 0.1219412
0.348234375 -0.7088019 0.354009
0.3493828125 -0.5863588 0.5719865
0.35053125 -0.3923813 0.7489778
0.3516796875 -0.1434956 0.8581198
0.352828125 0.136746 0.8824818
0.3539765625 0.4162284 0.8139672
0.355125 0.6634626 0.6581086
0.3562734375 0.8526179 0.4306104
0.357421875 0.9679334 0.1525143
0.3585703125 0.9980744 -0.1512809
0.35971875 0.9410701 -0.4602195
0.3608671875 0.7976945 -0.7519882
0.362015625 0.5702963 -1.010286
0.3631640625 0.2609591 -1.217184
0.3643125 -0.1267025 -1.349132
0.3654609375 -0.5939699 -1.382421
0.366609375 -1.13612 -1.272763
0.3677578125 -1.741849 -0.9542888
0.36890625 -2.361828 -0.3117145
0.3700546875 -2.838055 0.8302794
0.371203125 -2.670963 2.666488
0.3723515625 -0.7132654 4.69094
0.3735 3.016704 4.21086
0.3746484375 4.469985 0.8995822
0.375796875 3.314781 -1.451513
0.3769453125 1.749638 -2.271276
0.37809375 0.502189 -2.273814
0.3792421875 -0.3611284 -1.905621
0.380390625 -0.8885077 -1.386668
0.3815390625 -1.146322 -0.8392824
0.3826875 -1.193222 -0.3357334
0.3838359375 -1.090289 0.0824556
0.384984375 -0.8906746 0.3933282
0.3861328125 -0.6403705 0.5966766
0.38728125 -0.3756462 0.6992273
0.3884296875 -0.1231195 0.7164918
0.389578125 0.09988363 0.6649179
0.3907265625 0.2817832 0.5616148
0.391875 0.4176944 0.4216209
0.3930234375 0.5027881 0.2600763
0.394171875 0.5386637 0.08868818
0.3953203125 0.5257307 -0.08111746
0.39646875 0.4664849 -0.2370648
0.3976171875 0.365871 -0.3700889
0.398765625 0.2291984 -0.4690425
0.3999140625 0.06561001 -0.5240973
0.4010625 -0.1121494 -0.5265654
0.4022109375 -0.2888492 -0.4712196
0.403359375 -0.445715 -0.3566103
0.4045078125 -0.5609064 -0.1889742
0.40565625 -0.6159816 0.01736146
0.4068046875 -0.596167 0.2422529
0.407953125 -0.4958279 0.4558818
0.4091015625 -0.3197262 0.6315131
0.41025 -0.0829157 0.7425821
0.4113984375 0.192144 0.7695981
0.412546875 0.4790595 0.7015792
0.4136953125 0.7481074 0.533415
0.41484375 0.9725031 0.2652431
0.4159921875 1.120587 -0.1019191
0.417140625 1.152307 -0.5615829
0.4182890625 1.009364 -1.107142
0.4194375 0.5912269 -1.703403
0.4205859375 -0.2680356 -2.223484
0.421734375 -1.736612 -2.234631
0.4228828125 -3.32374 -0.8282259
0.42403125 -3.087644 1.727047
0.4251796875 -1.110595 2.862581
0.426328125 0.4754867 2.455087
0.4274765625 1.259425 1.624036
0.428625 1.524801 0.8313368
0.4297734375 1.49715 0.1756166
0.430921875 1.295479 -0.3274838
0.4320703125 0.9933144 -0.6814123
0.43321875 0.6412947 -0.8929567
0.4343671875 0.2812593 -0.9727795
0.435515625 -0.05217403 -0.936868
0.4366640625 -0.3310496 -0.8091056
0.4378125 -0.5367272 -0.6164069
0.4389609375 -0.6611792 -0.3886389
0.440109375 -0.7058254 -0.1531811
0.4412578125 -0.6793145 0.06706045
0.44240625 -0.5949646 0.2556767
0.4435546875 -0.4695835 0.4014873
0.444703125 -0.3175876 0.500016
0.4458515625 -0.1531301 0.5498537
0.447 0.01068145 0.553197
0.4481484375 0.1637173 0.5142424
0.449296875 0.2971222 0.4382896
0.4504453125 0.4035781 0.3318568
0.45159375 0.477873 0.2020207
0.4527421875 0.5140561 0.05798322
0.453890625 0.5102199 -0.0919316
0.4550390625 0.4647827 -0.2364968
0.4561875 0.3791687 -0.3654969
0.4573359375 0.2582469 -0.4655996
0.458484375 0.1095359 -0.5280917
0.4596328125 -0.0550819 -0.5438278
0.46078125 -0.2190329 -0.5081828
0.4619296875 -0.3673085 -0.4225112
0.463078125 -0.4833187 -0.2936502
0.4642265625 -0.5543373 -0.1338722
0.465375 -0.5724764 0.04054271
0.4665234375 -0.5369503 0.2120059
0.467671875 -0.4517105 0.3648491
0.4688203125 -0.3264939 0.4848672
0.46996875 -0.1723441 0.5635767
0.4711171875 -0.002141739 0.5961076
0.472265625 0.1710327 0.5805476
0.4734140625 0.3352395 0.5181026
0.4745625 0.4792258 0.4121969
0.4757109375 0.5933768 0.2688392
0.476859375 0.6689687 0.09367431
0.4780078125 0.6973011 -0.1022692
0.47915625 0.6719537 -0.3097628
0.4803046875 0.5878602 -0.5159565
0.481453125 0.4410878 -0.7051512
0.4826015625 0.2324082 -0.8595187
0.48375 -0.03351667 -0.9592404
0.4848984375 -0.3456183 -0.9820375
0.486046875 -0.6855208 -0.9066681
0.4871953125 -1.025286 -0.7153172
0.48834375 -1.327996 -0.3929197
0.4894921875 -1.547192 0.0615976
0.490640625 -1.62676 0.6426963
0.4917890625 -1.501337 1.327415
0.4929375 -1.084471 2.066643
0.4940859375 -0.2611599 2.764396
0.495234375 1.112001 3.195326
0.4963828125 3.114708 2.814369
0.49753125 5.05797 0.6162073
0.4986796875 4.510945 -3.10746
0.499828125 1.242622 -4.72256
0.5009765625 -1.269444 -3.719274
0.502125 -2.260359 -2.16976
0.5032734375 -2.396304 -0.894114
0.504421875 -2.147951 0.0228862
0.5055703125 -1.735146 0.6417611
0.50671875 -1.261685 1.027289
0.5078671875 -0.7836636 1.228837
0.509015625 -0.331489 1.282219
0.5101640625 0.07057879 1.215933
0.5113125 0.4071535 1.05626
0.5124609375 0.6643826 0.826378
0.513609375 0.8341815 0.5507286
0.5147578125 0.9127758 0.2548169
0.51590625 0.9003183 -0.034164
0.5170546875 0.8071803 -0.2939996
0.518203125 0.6485977 -0.5038491
0.5193515625 0.4439154 -0.6491303
0.5205 0.2158241 -0.7219954
0.5216484375 -0.01242587 -0.7235586
0.522796875 -0.2205446 -0.6601672
0.5239453125 -0.3928731 -0.5438545
0.52509375 -0.5186582 -0.3898893
0.5262421875 -0.5919723 -0.213626
0.527390625 -0.6116727 -0.03041849
0.5285390625 -0.5811251 0.145408
0.5296875 -0.5047274 0.3017186
0.5308359375 -0.3907593 0.4287172
0.531984375 -0.2482976 0.5188873
0.5331328125 -0.08731738 0.5664906
0.53428125 0.08133689 0.5685397
0.5354296875 0.2445845 0.5234001
0.536578125 0.391873 0.4334041
0.5377265625 0.5103594 0.3027531
0.538875 0.5886697 0.1393489
0.5400234375 0.6176583 -0.04561868
0.541171875 0.5901036 -0.2375201
0.5423203125 0.5033563 -0.4196286
0.54346875 0.3604321 -0.5738089
0.5446171875 0.168898 -0.6818128
0.545765625 -0.05654847 -0.728671
0.5469140625 -0.2969664 -0.7029916
0.5480625 -0.5306404 -0.5998938
0.5492109375 -0.7332839 -0.4198863
0.550359375 -0.8825943 -0.1707585
0.5515078125 -0.9544207 0.1352647
0.55265625 -0.9293082 0.4802604
0.5538046875 -0.7848634 0.8409505
0.554953125 -0.4991451 1.186393
0.5561015625 -0.04465216 1.469642
0.55725 0.60997 1.609642
0.5583984375 1.478413 1.450298
0.559546875 2.453457 0.6883098
0.5606953125 2.926492 -1.015477
0.56184375 1.671039 -2.964804
0.5629921875 -0.6883588 -3.057845
0.564140625 -1.93326 -1.698717
0.5652890625 -2.031163 -0.4096414
0.5664375 -1.645218 0.42528
0.5675859375 -1.125256 0.8842269
0.568734375 -0.6101818 1.071874
0.5698828125 -0.1551252 1.072948
0.57103125 0.2115901 0.9444886
0.5721796875 0.4786008 0.7335525
0.573328125 0.642194 0.4781318
0.5744765625 0.7075382 0.2125892
0.575625 0.6865053 -0.03612256
0.5767734375 0.5948245 -0.2463732
0.577921875 0.4526008 -0.4053035
0.5790703125 0.2806317 -0.5038855
0.58021875 0.09778849 -0.5428276
0.5813671875 -0.07829776 -0.5251699
0.582515625 -0.2336484 -0.458531
0.5836640625 -0.3573051 -0.3526755
0.5848125 -0.442057 -0.2191862
0.5859609375 -0.4831539 -0.06987846
0.587109375 -0.4790661 0.0831953
0.5882578125 -0.4308799 0.228305
0.58940625 -0.3423527 0.3534676
0.5905546875 -0.219508 0.4488996
0.591703125 -0.07099919 0.5052574
0.5928515625 0.09219206 0.515729
0.594 0.2566072 0.4761651
0.5951484375 0.4074628 0.3855799
0.596296875 0.5291585 0.2475036
0.5974453125 0.6066748 0.07078061
0.59859375 0.6276978 -0.1313692
0.5997421875 0.5829923 -0.3416595
0.600890625 0.4693908 -0.5395051
0.6020390625 0.2895409 -0.7030469
0.6031875 0.05260636 -0.8108932
0.6043359375 -0.2264965 -0.8442262
0.605484375 -0.5270112 -0.7868106
0.6066328125 -0.8248453 -0.6277531
0.60778125 -1.090763 -0.3571877
0.6089296875 -1.28822 0.03009083
0.610078125 -1.371058 0.53676
0.6112265625 -1.269417 1.157513
0.612375 -0.8713054 1.860532
0.6135234375 0.004261483 2.521009
0.614671875 1.557598 2.72047
0.6158203125 3.43454 1.535454
0.61696875 3.774086 -1.167867
0.6181171875 1.935857 -2.925715
0.619265625 0.04394816 -2.874194
0.6204140625 -1.037996 -2.103943
0.6215625 -1.497858 -1.256242
0.6227109375 -1.586091 -0.5225016
0.623859375 -1.455212 0.0577036
0.6250078125 -1.197386 0.4844069
0.62615625 -0.8730894 0.7654964
0.6273046875 -0.5261378 0.9155248
0.628453125 -0.1902177 0.9493195
0.6296015625 0.1089484 0.887265
0.63075 0.3525579 0.7517658
0.6318984375 0.529357 0.5664968
0.633046875 0.634922 0.3548256
0.6341953125 0.6711591 0.1384023
0.63534375 0.645481 -0.06459205
0.6364921875 0.5678453 -0.2401676
0.637640625 0.4508518 -0.3783182
0.6387890625 0.3080225 -0.4728931
0.6399375 0.1522585 -0.5217655
0.6410859375 -0.004224299 -0.5256163
0.642234375 -0.1505154 -0.4881621
0.6433828125 -0.2771185 -0.4143708
0.64453125 -0.3761315 -0.3111315
0.6456796875 -0.4422852 -0.1872312
0.646828125 -0.4711847 -0.05165866
0.6479765625 -0.4612784 0.08517724
0.649125 -0.4141538 0.2134368
0.6502734375 -0.3329168 0.3227449
0.651421875 -0.2237545 0.4047333
0.6525703125 -0.09570124 0.451995
0.65371875 0.04139955 0.4600229
0.6548671875 0.1751037 0.4280576
0.656015625 0.2939392 0.3578497
0.6571640625 0.38728 0.2557814
0.6583125 0.4469832 0.1305839
0.6594609375 0.4672803 -0.006892916
0.660609375 0.4465724 -0.1446218
0.6617578125 0.3868997 -0.2705586
0.66290625 0.2933336 -0.374573
0.6640546875 0.1733146 -0.4480903
0.665203125 0.03625106 -0.4850276
0.6663515625 -0.1072544 -0.4819734
0.6675 -0.2462825 -0.4382246
0.6686484375 -0.3701908 -0.3561863
0.669796875 -0.4690088 -0.239985
0.6709453125 -0.533857 -0.09696831
0.67209375 -0.5575069 0.06445064
0.6732421875 -0.533924 0.2327343
0.674390625 -0.4612291 0.3952641
0.6755390625 -0.3386324 0.5379369
0.6766875 -0.1720586 0.6458094
0.6778359375 0.03112992 0.7048006
0.678984375 0.2574793 0.702118
0.6801328125 0.4894625 0.627741
0.68128125 0.7049996 0.4777728
0.6824296875 0.8800789 0.2521598
0.683578125 0.9905548 -0.0412087
0.6847265625 1.008648 -0.3871768
0.685875 0.9113492 -0.7627875
0.6870234375 0.6750149 -1.135395
0.688171875 0.2783654 -1.461598
0.6893203125 -0.2965599 -1.676939
0.69046875 -1.057266 -1.681022
0.6916171875 -1.966357 -1.303441
0.692765625 -2.821877 -0.2903442
0.6939140625 -2.993405 1.505177
0.6950625 -1.581677 3.282215
0.6962109375 0.7612917 3.367264
0.697359375 2.153187 2.006765
0.6985078125 2.355646 0.5873711
0.69965625 1.977228 -0.3885497
0.7008046875 1.416905 -0.9476806
0.701953125 0.8454127 -1.203982
0.7031015625 0.3339129 -1.248736
0.70425 -0.09144665 -1.150087
0.7053984375 -0.418626 -0.9550776
0.706546875 -0.6439148 -0.7026019
0.7076953125 -0.7699088 -0.4236449
0.70884375 -0.8032231 -0.1458499
0.7099921875 -0.755487 0.1083372
0.711140625 -0.6420494 0.3204408
0.7122890625 -0.4806539 0.4778162
0.7134375 -0.2912366 0.5735729
0.7145859375 -0.09316444 0.6056072
0.715734375 0.09530266 0.578411
0.7168828125 0.2592499 0.5000376
0.71803125 0.3868153 0.3815722
0.7191796875 0.4704026 0.2363058
0.720328125 0.5064502 0.07816889
0.7214765625 0.4947248 -0.07932619
0.722625 0.4387826 -0.2233131
0.7237734375 0.3446921 -0.3429695
0.724921875 0.2211066 -0.4292069
0.7260703125 0.07768562 -0.4755584
0.72721875 -0.07351814 -0.4779621
0.7283671875 -0.2205533 -0.4352646
0.729515625 -0.3506629 -0.3493875
0.7306640625 -0.4516557 -0.2257011
0.7318125 -0.5126257 -0.07281276
0.7329609375 -0.5249379 0.09761279
0.734109375 -0.4825179 0.2714408
0.7352578125 -0.3845661 0.4305249
0.73640625 -0.2337089 0.5586291
0.7375546875 -0.03891421 0.638307
0.738703125 0.186187 0.6543244
0.7398515625 0.4231297 0.5943693
0.741 0.6490067 0.4509533
0.7421484375 0.837515 0.220799
0.743296875 0.9576786 -0.09400225
0.7444453125 0.9734811 -0.4854544
0.74559375 0.8367247 -0.9362707
0.7467421875 0.4780676 -1.406932
0.747890625 -0.2032496 -1.79844
0.7490390625 -1.262957 -1.767061
0.7501875 -2.547555 -0.8788754
0.7513359375 -2.764115 1.201313
0.752484375 -1.100677 2.556227
0.7536328125 0.5176262 2.213688
0.75478125 1.241866 1.339357
0.7559296875 1.394158 0.5554743
0.757078125 1.268672 -0.02733697
0.7582265625 1.015874 -0.4255406
0.759375 0.7108185 -0.6697468
0.7605234375 0.3962098 -0.7867087
0.761671875 0.1008738 -0.7999766
0.7628203125 -0.1562793 -0.7296378
0.76396875 -0.3603559 -0.5974636
0.7651171875 -0.5031656 -0.4229403
0.766265625 -0.5806384 -0.2269361
0.7674140625 -0.594269 -0.02929167
0.7685625 -0.5497456 0.1530583
0.7697109375 -0.4569951 0.3064401
0.770859375 -0.3284032 0.4193125
0.7720078125 -0.1776289 0.4862573
0.77315625 -0.01945024 0.5054828
0.7743046875 0.1325473 0.4778265
0.775453125 0.2667803 0.4091029
0.7766015625 0.373565 0.30666
0.77775 0.4454787 0.1794582
0.7788984375 0.4775198 0.03821515
0.780046875 0.4686074 -0.1059087
0.7811953125 0.4186519 -0.2421527
0.78234375 0.3314856 -0.3597932
0.7834921875 0.2126714 -0.4487891
0.784640625 0.07045684 -0.5013782
0.7857890625 -0.08447419 -0.5112134
0.7869375 -0.2403059 -0.475041
0.7880859375 -0.3837002 -0.3924218
0.789234375 -0.5009528 -0.2671829
0.7903828125 -0.5789475 -0.1062249
0.79153125 -0.607483 0.07801081
0.7926796875 -0.5788894 0.2713053
0.793828125 -0.4905071 0.4565102
0.7949765625 -0.3434128 0.6153288
0.796125 -0.1447859 0.7300934
0.7972734375 0.09341831 0.7844496
0.798421875 0.354905 0.7656369
0.7995703125 0.6195864 0.6633577
0.80071875 0.8648031 0.4725642
0.8018671875 1.063929 0.189372
0.803015625 1.185934 -0.1839574
0.8041640625 1.192873 -0.6407059
0.8053125 1.030991 -1.165502
0.8064609375 0.6217105 -1.716967
0.807609375 -0.1447496 -2.187624
0.8087578125 -1.378945 -2.298178
0.80990625 -2.901025 -1.44537
0.8110546875 -3.529657 0.7475004
0.812203125 -2.121848 2.705433
0.8133515625 -0.1466035 2.900516
0.8145 1.054288 2.121198
0.8156484375 1.527971 1.212559
0.816796875 1.578086 0.4478493
0.8179453125 1.402302 -0.1263993
0.81909375 1.113349 -0.5237375
0.8202421875 0.7777812 -0.7650884
0.821390625 0.4388112 -0.875295
0.8225390625 0.124973 -0.8788158
0.8236875 -0.1430801 -0.7986936
0.8248359375 -0.3522103 -0.6583272
0.825984375 -0.4972113 -0.4807753
0.8271328125 -0.5770264 -0.2865082
0.82828125 -0.5960266 -0.09386286
0.8294296875 -0.5618773 0.08258539
0.830578125 -0.48449 0.2318907
0.8317265625 -0.3754827 0.345758
0.832875 -0.2463494 0.4202698
0.8340234375 -0.1086055 0.4543642
0.835171875 0.02691939 0.4489231
0.8363203125 0.1509157 0.4080726
0.83746875 0.254914 0.3369555
0.8386171875 0.3331986 0.2421644
0.839765625 0.3807242 0.1321108
0.8409140625 0.395274 0.01524432
0.8420625 0.3762651 -0.09934679
0.8432109375 0.3264365 -0.2026827
0.844359375 0.2493786 -0.2867445
0.8455078125 0.1519675 -0.3445244
0.84665625 0.04259305 -0.3712767
0.8478046875 -0.06933392 -0.3647876
0.848953125 -0.1742136 -0.3260018
0.8501015625 -0.2625404 -0.2579013
0.85125 -0.3266125 -0.1673306
0.8523984375 -0.3608867 -0.06184697
0.853546875 -0.3626413 0.04856363
0.8546953125 -0.3322386 0.1544243
0.85584375 -0.2720678 0.247031
0.8569921875 -0.1877293 0.3182448
0.858140625 -0.08581191 0.3621998
0.8592890625 0.02518153 0.3756205
0.8604375 0.1370451 0.3568689
0.8615859375 0.2406694 0.3063955
0.862734375 0.3279244 0.2269387
0.8638828125 0.3910661 0.1230626
0.86503125 0.4234582 0.001364259
0.8661796875 0.4202546 -0.1299858
0.867328125 0.3777775 -0.2614424
0.8684765625 0.2949298 -0.3816419
0.869625 0.1735072 -0.4791831
0.8707734375 0.01797261 -0.541504
0.871921875 -0.1631371 -0.5568722
0.8730703125 -0.3577105 -0.51363
0.87421875 -0.5492522 -0.4032165
0.8753671875 -0.716148 -0.2192537
0.876515625 -0.8314272 0.03949303
0.8776640625 -0.8626024 0.3698602
0.8788125 -0.7648797 0.7551193
0.8799609375 -0.4793551 1.157999
0.881109375 0.06816185 1.488751
0.8822578125 0.9302012 1.531103
0.88340625 1.913794 0.8894613
0.8845546875 2.207062 -0.5465904
0.885703125 1.266432 -1.702053
0.8868515625 0.05654775 -1.782668
0.888 -0.6751639 -1.289386
0.8891484375 -0.9592036 -0.7176662
0.890296875 -0.9774709 -0.2390389
0.8914453125 -0.8556938 0.1171826
0.89259375 -0.6652805 0.3583345
0.8937421875 -0.4480187 0.5008374
0.894890625 -0.2304547 0.5607404
0.8960390625 -0.03084984 0.5529488
0.8971875 0.1392451 0.4921155
0.8983359375 0.2709233 0.3922429
0.899484375 0.3596905 0.2668335
0.9006328125 0.4031418 0.1295039
0.90178125 0.402981 -0.006676422
0.9029296875 0.3630987 -0.1298123
0.904078125 0.2905589 -0.2302531
0.9052265625 0.1941051 -0.3005399
0.906375 0.08482645 -0.3361787
0.9075234375 -0.02657859 -0.3361191
0.908671875 -0.129448 -0.3027263
0.9098203125 -0.2147251 -0.2404225
0.91096875 -0.2751229 -0.1569797
0.9121171875 -0.3066885 -0.06098047
0.913265625 -0.3071172 0.03862615
0.9144140625 -0.2779036 0.1326129
0.9155625 -0.2220009 0.2128539
0.9167109375 -0.1447171 0.2724966
0.917859375 -0.05268829 0.3065543
0.9190078125 0.04621944 0.3117871
0.92015625 0.1437412 0.2870443
0.9213046875 0.2314574 0.2331779
0.922453125 0.3012191 0.1532308
0.9236015625 0.3454476 0.05282816
0.92475 0.3581752 -0.06104755
0.9258984375 0.334995 -0.1789198
0.927046875 0.2739247 -0.2902007
0.9281953125 0.1759656 -0.3830395
0.92934375 0.04557677 -0.4452887
0.9304921875 -0.1085035 -0.4656937
0.931640625 -0.2743267 -0.4344876
0.9327890625 -0.4360065 -0.3446909
0.9339375 -0.573973 -0.1940742
0.9350859375 -0.6653893 0.01504847
0.936234375 -0.6857272 0.2734203
0.9373828125 -0.6075255 0.5624938
0.93853125 -0.4011166 0.8492344
0.9396796875 -0.03910837 1.077575
0.940828125 0.4872495 1.150318
0.9419765625 1.117489 0.9202296
0.943125 1.623533 0.2487135
0.9442734375 1.595653 -0.7421126
0.945421875 0.8826191 -1.491013
0.9465703125 -0.05113998 -1.581006
0.94771875 -0.7142984 -1.187365
0.9488671875 -1.009668 -0.6518376
0.950015625 -1.035066 -0.1654048
0.9511640625 -0.9010201 0.208756
0.9523125 -0.6851432 0.4625232
0.9534609375 -0.4375119 0.6069869
0.954609375 -0.1906254 0.6577573
0.9557578125 0.03384344 0.6318113
0.95690625 0.2205145 0.5466355
0.9580546875 0.3603384 0.4192417
0.959203125 0.4481175 0.267132
0.9603515625 0.4833146 0.1066472
0.9615 0.4692453 -0.04776283
0.9626484375 0.4125656 -0.1831141
0.963796875 0.3223482 -0.2897055
0.9649453125 0.2096974 -0.3609954
0.96609375 0.08644279 -0.3940194
0.9672421875 -0.03627526 -0.3894615
0.968390625 -0.147989 -0.3504113
0.9695390625 -0.2404791 -0.2827803
0.9706875 -0.3072111 -0.1938047
0.9718359375 -0.3446397 -0.09210962
0.972984375 -0.3514284 0.01386945
0.9741328125 -0.3281265 0.1157478
0.97528125 -0.2772985 0.2056765
0.9764296875 -0.2037602 0.2771834
0.977578125 -0.1133883 0.3246358
0.9787265625 -0.01282983 0.3447876
0.979875 0.09002417 0.3353689
0.9810234375 0.1868328 0.296773
0.982171875 0.2699052 0.2311038
0.9833203125 0.3315147 0.1428669
0.98446875 0.365519 0.03827915
0.9856171875 0.3678859 -0.07429288
0.986765625 0.3364354 -0.1855544
0.9879140625 0.2719536 -0.2853948
0.9890625 0.1780533 -0.3639469
0.9902109375 0.06150042 -0.4131433
0.991359375 -0.06885844 -0.4260559
0.9925078125 -0.2018325 -0.3990208
0.99365625 -0.3258688 -0.3312293
0.9948046875 -0.4290439 -0.2258643
0.995953125 -0.5000885 -0.08846753
0.9971015625 -0.5296521 0.07193059
0.99825 -0.5103666 0.2443136
0.9993984375 -0.4374228 0.4150879
1.000546875 -0.308276 0.5692604
