# GHZ S RI R 50.0
0.3 -3.035552 -7.426363
0.3011484375 -9.122724 -4.083568
0.302296875 -8.558645 4.22717
0.3034453125 -2.750073 6.64796
0.30459375 0.716883 5.214267
0.3057421875 2.113274 3.40503
0.306890625 2.533532 1.932579
0.3080390625 2.49086 0.8319128
0.3091875 2.23178 0.02766237
0.3103359375 1.866086 -0.5431738
0.311484375 1.453613 -0.9344262
0.3126328125 1.028181 -1.180505
0.31378125 0.6081299 -1.305693
0.3149296875 0.2082115 -1.328446
0.316078125 -0.1602146 -1.259775
0.3172265625 -0.4844799 -1.110438
0.318375 -0.7519375 -0.8917142
0.3195234375 -0.9486333 -0.6148978
0.320671875 -1.057864 -0.2991613
0.3218203125 -1.070755 0.03212847
0.32296875 -0.9828653 0.3482762
0.3241171875 -0.8036937 0.6166992
0.325265625 -0.5541475 0.8084375
0.3264140625 -0.265986 0.9068696
0.3275625 0.0233194 0.9066968
0.3287109375 0.2842893 0.8207646
0.329859375 0.4927973 0.668768
0.3310078125 0.6378363 0.475337
0.33215625 0.7169205 0.2622626
0.3333046875 0.7333109 0.04957226
0.334453125 0.6957563 -0.1495456
0.3356015625 0.6122452 -0.3244879
0.33675 0.4925449 -0.4679569
0.3378984375 0.3448605 -0.5752819
0.339046875 0.1779257 -0.6423607
0.3401953125 -0.001329157 -0.6673603
0.34134375 -0.1825237 -0.6476548
0.3424921875 -0.3576975 -0.5814832
0.343640625 -0.5150023 -0.4691425
0.3447890625 -0.6419052 -0.3134297
0.3459375 -0.7256044 -0.1194339
0.3470859375 -0.7522829 0.1012311
0.348234375 -0.7102697 0.3320104
0.3493828125 -0.5942119 0.5492538
0.35053125 -0.4076639 0.7272806
0.3516796875 -0.1648929 0.8407228
0.352828125 0.1086529 0.8702299
0.3539765625 0.3827726 0.8093843
0.355125 0.6277877 0.6629364
0.3562734375 0.8161471 0.4473425
0.357421875 0.933532 0.1811662
0.3585703125 0.9693974 -0.110543
0.35971875 0.9219631 -0.4059432
0.3608671875 0.7923499 -0.6861869
0.362015625 0.5848809 -0.9341825
0.3631640625 0.3025163 -1.133523
0.3643125 -0.04957982 -1.264915
0.3654609375 -0.4686464 -1.30628
0.366609375 -0.9469645 -1.228242
0.3677578125 -1.474457 -0.9831842
0.36890625 -2.016711 -0.4980241
0.3700546875 -2.485311 0.3387031
0.371203125 -2.638699 1.676797
0.3723515625 -1.858283 3.522815
0.3735 0.8302605 4.839352
0.3746484375 4.185483 3.04998
0.375796875 4.454878 -0.4319991
0.3769453125 2.748275 -2.264369
0.37809375 1.07572 -2.624579
0.3792421875 -0.1041959 -2.30859
0.380390625 -0.8300341 -1.736964
0.3815390625 -1.199266 -1.108372
0.3826875 -1.304886 -0.5234262
0.3838359375 -1.225562 -0.03707291
0.384984375 -1.02841 0.331828
0.3861328125 -0.7683718 0.5790966
0.38728125 -0.4869073 0.7160254
0.3884296875 -0.2144047 0.7571546
0.389578125 0.02922667 0.7216363
0.3907265625 0.2326717 0.6283951
0.391875 0.3882317 0.4938838
0.3930234375 0.4931819 0.3327906
0.394171875 0.5466254 0.1586677
0.3953203125 0.549961 -0.01701847
0.39646875 0.5053756 -0.1814782
0.3976171875 0.4171828 -0.3254894
0.398765625 0.2906694 -0.4382426
0.3999140625 0.1349831 -0.5097544
0.4010625 -0.03912298 -0.5306373
0.4022109375 -0.2167732 -0.4952831
0.403359375 -0.3786212 -0.4018779
0.4045078125 -0.505465 -0.2547601
0.40565625 -0.5785071 -0.06612397
0.4068046875 -0.5830474 0.1439157
0.407953125 -0.5125106 0.3504792
0.4091015625 -0.3697936 0.5260519
0.41025 -0.1691973 0.6473045
0.4113984375 0.06940101 0.6960741
0.412546875 0.3223642 0.6621979
0.4136953125 0.5625089 0.5432295
0.41484375 0.7675642 0.3421756
0.4159921875 0.9130148 0.06384466
0.417140625 0.9732912 -0.2821956
0.4182890625 0.9177573 -0.6844047
0.4194375 0.7016357 -1.123285
0.4205859375 0.2595906 -1.551658
0.421734375 -0.5071588 -1.856805
0.4228828125 -1.670206 -1.736438
0.42403125 -2.917367 -0.5917189
0.4251796875 -2.895967 1.634121
0.426328125 -1.033802 2.945947
0.4274765625 0.7243693 2.528345
0.428625 1.540365 1.53077
0.4297734375 1.722931 0.6072459
0.430921875 1.570116 -0.1012807
0.4320703125 1.249388 -0.5949546
0.43321875 0.8531721 -0.896428
0.4343671875 0.4413466 -1.029598
0.435515625 0.05833079 -1.022612
0.4366640625 -0.2645022 -0.9050868
0.4378125 -0.5071004 -0.7107713
0.4389609375 -0.6593872 -0.4730187
0.440109375 -0.7249154 -0.2238631
0.4412578125 -0.7121267 0.01214519
0.44240625 -0.6362357 0.2165932
0.4435546875 -0.513873 0.3778444
0.444703125 -0.3616849 0.4894111
0.4458515625 -0.1945874 0.5508214
0.447 -0.02616468 0.5637749
0.4481484375 0.1331071 0.5321864
0.449296875 0.2736843 0.4615408
0.4504453125 0.3874247 0.3588012
0.45159375 0.468713 0.2311135
0.4527421875 0.5127757 0.0869949
0.453890625 0.5158404 -0.06409104
0.4550390625 0.4770143 -0.2119891
0.4561875 0.3973402 -0.3444603
0.4573359375 0.2805988 -0.4504394
0.458484375 0.1349712 -0.5192863
0.4596328125 -0.02786144 -0.5419721
0.46078125 -0.1927707 -0.5137086
0.4619296875 -0.3432345 -0.4347872
0.463078125 -0.4634447 -0.3114236
0.4642265625 -0.539777 -0.1568238
0.465375 -0.564702 0.01444842
0.4665234375 -0.5364293 0.184586
0.467671875 -0.4587159 0.3375646
0.4688203125 -0.3403095 0.4603269
0.46996875 -0.1920264 0.5431704
0.4711171875 -0.02653608 0.581096
0.472265625 0.1421503 0.5717095
0.4734140625 0.3036456 0.516569
0.4745625 0.4472513 0.4188752
0.4757109375 0.5625377 0.2841066
0.476859375 0.6409981 0.1185386
0.4780078125 0.6744535 -0.06943222
0.47915625 0.6568159 -0.269236
0.4803046875 0.5828097 -0.468364
0.481453125 0.4486768 -0.6530604
0.4826015625 0.2567284 -0.8052291
0.48375 0.009623797 -0.90658
0.4848984375 -0.2815045 -0.9369884
0.486046875 -0.598578 -0.8772346
0.4871953125 -0.9164096 -0.7108995
0.48834375 -1.20105 -0.4277774
0.4894921875 -1.411468 -0.0247441
0.490640625 -1.500115 0.48347
0.4917890625 -1.415945 1.077599
0.4929375 -1.099571 1.714323
0.4940859375 -0.4808275 2.32284
0.495234375 0.5286425 2.773429
0.4963828125 2.016575 2.787117
0.49753125 3.858019 1.777937
0.4986796875 4.976027 -0.9784217
0.499828125 3.228071 -4.197395
0.5009765625 -0.1387985 -4.643204
0.502125 -2.099998 -3.101008
0.5032734375 -2.625548 -1.477657
0.504421875 -2.466461 -0.275407
0.5055703125 -2.032964 0.5255195
0.50671875 -1.50704 1.020171
0.5078671875 -0.9702302 1.284119
0.509015625 -0.4640173 1.37115
0.5101640625 -0.01442671 1.319449
0.5113125 0.3622701 1.161669
0.5124609375 0.652195 0.9257014
0.513609375 0.8479898 0.6387334
0.5147578125 0.945576 0.3282103
0.51590625 0.94775 0.02122696
0.5170546875 0.8630159 -0.2568752
0.518203125 0.7067292 -0.4850858
0.5193515625 0.5010225 -0.646126
0.5205 0.2683637 -0.7338537
0.5216484375 0.03251967 -0.7468498
0.522796875 -0.1850979 -0.6926684
0.5239453125 -0.368283 -0.5825379
0.52509375 -0.5048055 -0.431418
0.5262421875 -0.5893023 -0.2559476
0.527390625 -0.6195218 -0.071026
0.5285390625 -0.5981802 0.1083911
0.5296875 -0.5304241 0.2704634
0.5308359375 -0.4230753 0.4048393
0.531984375 -0.2855535 0.5035897
0.5331328125 -0.127488 0.5605806
0.53428125 0.03885063 0.5723126
0.5354296875 0.2036133 0.5379348
0.536578125 0.3540108 0.4584064
0.5377265625 0.4781695 0.3378646
0.538875 0.5653131 0.1839139
0.5400234375 0.6053226 0.00673811
0.541171875 0.5917253 -0.1799789
0.5423203125 0.5212981 -0.3597289
0.54346875 0.3964315 -0.5158958
0.5446171875 0.2240525 -0.6310641
0.545765625 0.01727578 -0.6906072
0.5469140625 -0.2061832 -0.6845073
0.5480625 -0.42607 -0.607296
0.5492109375 -0.6211351 -0.4611634
0.550359375 -0.7703397 -0.252858
0.5515078125 -0.8551661 0.00492203
0.55265625 -0.8598782 0.2954451
0.5538046875 -0.771952 0.5987522
0.554953125 -0.5801274 0.8900861
0.5561015625 -0.2739058 1.140549
0.55725 0.1525472 1.30748
0.5583984375 0.7051972 1.33355
0.559546875 1.368634 1.122589
0.5606953125 2.064132 0.5161687
0.56184375 2.503234 -0.6860956
0.5629921875 1.95657 -2.388375
0.564140625 -0.08082734 -3.295721
0.5652890625 -1.999459 -2.240239
0.5664375 -2.41983 -0.579594
0.5675859375 -1.948646 0.5550383
0.568734375 -1.251197 1.1143
0.5698828125 -0.5911734 1.28785
0.57103125 -0.04972358 1.221972
0.5721796875 0.3523111 1.014604
0.573328125 0.6156352 0.7325639
0.5744765625 0.7509152 0.4246109
0.575625 0.7752924 0.1278242
0.5767734375 0.7104656 -0.1311295
0.577921875 0.5798209 -0.3349132
0.5790703125 0.4077236 -0.4745595
0.58021875 0.2166235 -0.5477615
0.5813671875 0.02608286 -0.5583958
0.582515625 -0.1480596 -0.5135973
0.5836640625 -0.2924969 -0.42375
0.5848125 -0.39973 -0.3004705
0.5859609375 -0.4633482 -0.1558286
0.587109375 -0.4815563 -0.002418817
0.5882578125 -0.4545725 0.147174
0.58940625 -0.3853399 0.2814793
0.5905546875 -0.2794939 0.3899189
0.591703125 -0.1446745 0.4629759
0.5928515625 0.008460975 0.4934257
0.594 0.1672131 0.4762532
0.5951484375 0.3178109 0.4095679
0.596296875 0.4456851 0.2963743
0.5974453125 0.5352175 0.144362
0.59859375 0.5752417 -0.03572532
0.5997421875 0.5568205 -0.2276561
0.600890625 0.476009 -0.4127187
0.6020390625 0.3346891 -0.5716491
0.6031875 0.1411639 -0.6852089
0.6043359375 -0.09162614 -0.7372941
0.605484375 -0.3454482 -0.714363
0.6066328125 -0.5994008 -0.6086109
0.60778125 -0.8292904 -0.4154908
0.6089296875 -1.009236 -0.1350703
0.610078125 -1.109368 0.2276628
0.6112265625 -1.0926 0.6652719
0.612375 -0.9125406 1.154802
0.6135234375 -0.4996678 1.6572
0.614671875 0.2415331 2.071145
0.6158203125 1.405233 2.14557
0.61696875 2.854181 1.343763
0.6181171875 3.553403 -0.7902634
0.619265625 2.167894 -2.900291
0.6204140625 -0.004359492 -3.138008
0.6215625 -1.324177 -2.219265
0.6227109375 -1.792944 -1.163665
0.623859375 -1.778321 -0.3025627
0.6250078125 -1.520764 0.3221399
0.62615625 -1.15075 0.7326918
0.6273046875 -0.7438675 0.9612738
0.628453125 -0.3465985 1.038822
0.6296015625 0.007051907 0.9969509
0.63075 0.297053 0.8654138
0.6318984375 0.5114413 0.6731067
0.633046875 0.6457078 0.4476208
0.6341953125 0.7025922 0.2141466
0.63534375 0.6900735 -0.00760709
0.6364921875 0.6197106 -0.201394
0.637640625 0.5052128 -0.3567528
0.6387890625 0.361028 -0.4667268
0.6399375 0.2004627 -0.5287412
0.6410859375 0.03731022 -0.5432463
0.642234375 -0.1170377 -0.5136674
0.6433828125 -0.2526158 -0.4454466
0.64453125 -0.3611936 -0.34583
0.6456796875 -0.4365843 -0.2226056
0.646828125 -0.4745151 -0.08605402
0.6479765625 -0.4730738 0.05382911
0.649125 -0.4329587 0.1866938
0.6502734375 -0.3571482 0.3021785
0.651421875 -0.2519569 0.3910204
0.6525703125 -0.1258228 0.44625
0.65371875 0.01086937 0.4623961
0.6548671875 0.146411 0.437991
0.656015625 0.2687383 0.3750095
0.6571640625 0.3674691 0.2786278
0.6583125 0.4335791 0.1579195
0.6594609375 0.4613989 0.02335155
0.660609375 0.4486977 -0.1135472
0.6617578125 0.3970796 -0.2408434
0.66290625 0.3110663 -0.3479978
0.6640546875 0.1977655 -0.4265183
0.665203125 0.06647527 -0.4698499
0.6663515625 -0.07296083 -0.4747149
0.6675 -0.2101069 -0.4400212
0.6686484375 -0.334156 -0.3675434
0.669796875 -0.4350891 -0.2615179
0.6709453125 -0.5048832 -0.1280812
0.67209375 -0.536026 0.02434659
0.6732421875 -0.5226811 0.1848995
0.674390625 -0.4628951 0.3418531
0.6755390625 -0.3560851 0.4819792
0.6766875 -0.2064746 0.5912951
0.6778359375 -0.02208321 0.6566353
0.678984375 0.1853767 0.6663072
0.6801328125 0.3996828 0.6118168
0.68128125 0.6017919 0.4886651
0.6824296875 0.769845 0.2977074
0.683578125 0.8817002 0.04839233
0.6847265625 0.91715 -0.2471349
0.685875 0.8575697 -0.5676142
0.6870234375 0.6883682 -0.8862861
0.688171875 0.399543 -1.170001
0.6893203125 -0.01419788 -1.378559
0.69046875 -0.5516312 -1.457961
0.6916171875 -1.196233 -1.335423
0.692765625 -1.89596 -0.9016688
0.6939140625 -2.500133 -0.01004334
0.6950625 -2.614619 1.43716
0.6962109375 -1.572052 3.053555
0.697359375 0.6506105 3.507041
0.6985078125 2.392373 2.213496
0.69965625 2.708286 0.5139294
0.7008046875 2.195988 -0.658455
0.701953125 1.455532 -1.260319
0.7031015625 0.7471644 -1.468843
0.70425 0.1535034 -1.42794
0.7053984375 -0.3045948 -1.234393
0.706546875 -0.6268477 -0.9541391
0.7076953125 -0.8206798 -0.6324813
0.70884375 -0.8984732 -0.3063467
0.7099921875 -0.8769783 -0.003114519
0.711140625 -0.7743552 0.2556654
0.7122890625 -0.6118846 0.4547919
0.7134375 -0.4120383 0.5864243
0.7145859375 -0.1981515 0.647137
0.715734375 0.01154032 0.6421817
0.7168828125 0.1990563 0.5787476
0.71803125 0.3515855 0.4685462
0.7191796875 0.4591276 0.3256574
0.720328125 0.5180628 0.1642859
0.7214765625 0.5274045 -0.001053907
0.722625 0.4893818 -0.1571123
0.7237734375 0.4099028 -0.2919791
0.724921875 0.2970234 -0.3966294
0.7260703125 0.1601916 -0.4631566
0.72721875 0.01085458 -0.4869237
0.7283671875 -0.1389461 -0.4662565
0.729515625 -0.2770136 -0.4019356
0.7306640625 -0.3912342 -0.2983366
0.7318125 -0.4708646 -0.163135
0.7329609375 -0.5069563 -0.006684879
0.734109375 -0.4936025 0.1576246
0.7352578125 -0.4284185 0.3151472
0.73640625 -0.3137706 0.449642
0.7375546875 -0.1570412 0.5461724
0.738703125 0.03037672 0.5912706
0.7398515625 0.2330125 0.5749841
0.741 0.4318989 0.4915575
0.7421484375 0.6063842 0.340744
0.743296875 0.7351559 0.1265248
0.7444453125 0.796735 -0.1403387
0.74559375 0.7693694 -0.4454365
0.7467421875 0.6297481 -0.7665511
0.747890625 0.3521448 -1.07233
0.7490390625 -0.09121802 -1.258406
0.7501875 -0.7116657 -1.32795
0.7513359375 -1.514347 -1.054919
0.752484375 -2.2811 -0.1235743
0.7536328125 -2.198602 1.557229
0.75478125 -0.5692278 2.686827
0.7559296875 1.105073 2.118012
0.757078125 1.694761 0.9635741
0.7582265625 1.595389 0.05451439
0.759375 1.236401 -0.5134915
0.7605234375 0.8118254 -0.8153736
0.761671875 0.4029197 -0.9271961
0.7628203125 0.04512785 -0.902853
0.76396875 -0.243093 -0.7839325
0.7651171875 -0.4526339 -0.6029733
0.766265625 -0.5824341 -0.3883763
0.7674140625 -0.6346973 -0.1647278
0.7685625 -0.6167097 0.04692436
0.7697109375 -0.5404868 0.2300478
0.770859375 -0.4195524 0.3726884
0.7720078125 -0.2698261 0.4666441
0.77315625 -0.1067987 0.5095373
0.7743046875 0.05461732 0.5026695
0.775453125 0.2012597 0.4503217
0.7766015625 0.3230734 0.3603974
0.77775 0.4113907 0.2416007
0.7788984375 0.4607265 0.1050965
0.780046875 0.4688353 -0.03862119
0.7811953125 0.4354973 -0.1778176
0.78234375 0.3636259 -0.3019252
0.7834921875 0.2583744 -0.4007434
0.784640625 0.1276536 -0.4661776
0.7857890625 -0.01907327 -0.4912173
0.7869375 -0.1700089 -0.4719518
0.7880859375 -0.312442 -0.4079241
0.789234375 -0.4332216 -0.3019739
0.7903828125 -0.520248 -0.1601175
0.79153125 -0.5625154 0.006612899
0.7926796875 -0.5527997 0.1853947
0.793828125 -0.4878466 0.3598742
0.7949765625 -0.3689153 0.5135305
0.796125 -0.2019702 0.6302004
0.7972734375 0.002161235 0.695738
0.798421875 0.2291912 0.6983185
0.7995703125 0.4606951 0.6303
0.80071875 0.6778306 0.4878577
0.8018671875 0.8588986 0.2719038
0.803015625 0.9814877 -0.01425015
0.8041640625 1.019106 -0.3608989
0.8053125 0.9443562 -0.7529139
0.8064609375 0.7203328 -1.166006
0.807609375 0.3017166 -1.557
0.8087578125 -0.3670339 -1.837146
0.80990625 -1.331983 -1.826037
0.8110546875 -2.491989 -1.167913
0.812203125 -3.207717 0.519353
0.8133515625 -2.293224 2.568653
0.8145 -0.1879346 3.144367
0.8156484375 1.303898 2.291316
0.816796875 1.828427 1.164137
0.8179453125 1.785379 0.2536055
0.81909375 1.483774 -0.3731408
0.8202421875 1.083431 -0.7568743
0.821390625 0.6682249 -0.9485993
0.8225390625 0.2830262 -0.9927617
0.8236875 -0.04700112 -0.9280567
0.8248359375 -0.3068473 -0.7861525
0.825984375 -0.490734 -0.5967994
0.8271328125 -0.5999403 -0.3846151
0.82828125 -0.638714 -0.171211
0.8294296875 -0.6168985 0.02682051
0.830578125 -0.5452845 0.1963864
0.8317265625 -0.4371713 0.329197
0.832875 -0.3046292 0.420413
0.8340234375 -0.1607567 0.4682838
0.835171875 -0.01678121 0.4740826
0.8363203125 0.117204 0.4411106
0.83746875 0.2322004 0.3751228
0.8386171875 0.3213192 0.282947
0.839765625 0.3795967 0.1727486
0.8409140625 0.4042093 0.05333135
0.8420625 0.3943168 -0.06574671
0.8432109375 0.3518459 -0.1754869
0.844359375 0.2803639 -0.2672605
0.8455078125 0.1865809 -0.3338725
0.84665625 0.07844908 -0.3697326
0.8478046875 -0.03468081 -0.3727852
0.848953125 -0.1425993 -0.3422743
0.8501015625 -0.2362237 -0.2820702
0.85125 -0.3073234 -0.1976579
0.8523984375 -0.350123 -0.09656967
0.853546875 -0.3611892 0.01166113
0.8546953125 -0.3404292 0.1178093
0.85584375 -0.2898791 0.2128422
0.8569921875 -0.2144745 0.2890279
0.858140625 -0.1204068 0.3403045
0.8592890625 -0.01536057 0.3626708
0.8604375 0.0924371 0.3544515
0.8615859375 0.1945919 0.315905
0.862734375 0.2830116 0.249219
0.8638828125 0.3507635 0.1583734
0.86503125 0.3913041 0.04950526
0.8661796875 0.4000769 -0.07016056
0.867328125 0.3734012 -0.1919661
0.8684765625 0.31091 -0.3061298
0.869625 0.213514 -0.4021997
0.8707734375 0.08554413 -0.469794
0.871921875 -0.06566551 -0.4993034
0.8730703125 -0.2296862 -0.4817863
0.87421875 -0.3930371 -0.4112531
0.8753671875 -0.5400103 -0.2850424
0.876515625 -0.6514859 -0.1045974
0.8776640625 -0.7082093 0.123783
0.8788125 -0.6893986 0.3882564
0.8799609375 -0.573425 0.6681374
0.881109375 -0.3382604 0.9345275
0.8822578125 0.03827972 1.139993
0.88340625 0.5709367 1.203591
0.8845546875 1.235949 0.9855161
0.885703125 1.857139 0.2811126
0.8868515625 1.91904 -0.9541868
0.888 0.926973 -1.989497
0.8891484375 -0.4187957 -1.929594
0.890296875 -1.158843 -1.176233
0.8914453125 -1.29767 -0.4145395
0.89259375 -1.129961 0.1339135
0.8937421875 -0.8452314 0.4728464
0.894890625 -0.5364159 0.6481288
0.8960390625 -0.2455144 0.7010891
0.8971875 0.005717242 0.6660014
0.8983359375 0.2059422 0.5687048
0.899484375 0.350281 0.4308852
0.9006328125 0.436901 0.2715101
0.90178125 0.4678843 0.1072038
0.9029296875 0.448775 -0.04690578
0.904078125 0.3872361 -0.1788666
0.9052265625 0.2934871 -0.2792014
0.906375 0.1796483 -0.3425002
0.9075234375 0.05780211 -0.3662119
0.908671875 -0.05995856 -0.3518247
0.9098203125 -0.1632394 -0.3034714
0.91096875 -0.2436969 -0.2287457
0.9121171875 -0.2956084 -0.1360395
0.913265625 -0.3161917 -0.0349516
0.9144140625 -0.3054954 0.06510506
0.9155625 -0.2658444 0.1556625
0.9167109375 -0.2017473 0.2288485
0.917859375 -0.1194469 0.2791708
0.9190078125 -0.02627324 0.3028237
0.92015625 0.06993682 0.2973236
0.9213046875 0.1609782 0.2632487
0.922453125 0.238966 0.2027776
0.9236015625 0.296376 0.1198609
0.92475 0.3271446 0.02093236
0.9258984375 0.3267103 -0.08604889
0.927046875 0.2923234 -0.1919749
0.9281953125 0.2244986 -0.2862381
0.92934375 0.1261355 -0.3585294
0.9304921875 0.004018306 -0.3990208
0.931640625 -0.1326957 -0.3995629
0.9327890625 -0.2714173 -0.3545817
0.9339375 -0.3977206 -0.2616108
0.9350859375 -0.4956473 -0.1230285
0.936234375 -0.5488715 0.05425625
0.9373828125 -0.5421254 0.2585539
0.93853125 -0.4608672 0.4720016
0.9396796875 -0.293385 0.6702939
0.940828125 -0.03248793 0.82056
0.9419765625 0.3202139 0.8759024
0.943125 0.7419226 0.7724258
0.9442734375 1.160705 0.4311754
0.945421875 1.407756 -0.2007511
0.9465703125 1.216522 -1.010092
0.94771875 0.4695797 -1.580406
0.9488671875 -0.4653285 -1.5163
0.950015625 -1.069147 -0.9537001
0.9511640625 -1.222604 -0.2971037
0.9523125 -1.07626 0.2232329
0.9534609375 -0.7915577 0.5560259
0.954609375 -0.4682054 0.7223417
0.9557578125 -0.1612492 0.7584566
0.95690625 0.1012959 0.698458
0.9580546875 0.3042985 0.5726749
0.959203125 0.4418043 0.4073113
0.9603515625 0.5140597 0.224655
0.9615 0.524999 0.04418081
0.9626484375 0.4832417 -0.1186149
0.963796875 0.3995483 -0.251514
0.9649453125 0.2864896 -0.3470796
0.96609375 0.1574576 -0.4009408
0.9672421875 0.02523679 -0.4129159
0.968390625 -0.09863992 -0.3866687
0.9695390625 -0.2046581 -0.3276511
0.9706875 -0.285743 -0.2434976
0.9718359375 -0.3372027 -0.1427073
0.972984375 -0.3568714 -0.03489117
0.9741328125 -0.3450911 0.07161642
0.97528125 -0.3043483 0.1684489
0.9764296875 -0.2382873 0.2486876
0.977578125 -0.1530438 0.3062799
0.9787265625 -0.05582728 0.3369853
0.979875 0.04671207 0.3386956
0.9810234375 0.145687 0.3110518
0.982171875 0.2333347 0.2558001
0.9833203125 0.3019919 0.1763786
0.98446875 0.3452388 0.07911621
0.9856171875 0.3585783 -0.02830397
0.986765625 0.3393825 -0.13713
0.9879140625 0.2879381 -0.237476
0.9890625 0.2072691 -0.320367
0.9902109375 0.1031952 -0.3769929
0.991359375 -0.01615548 -0.4007427
0.9925078125 -0.1406379 -0.387842
0.99365625 -0.2594548 -0.3372693
0.9948046875 -0.3615367 -0.2513013
0.995953125 -0.4368981 -0.1348845
0.9971015625 -0.4764173 0.00422939
0.99825 -0.473947 0.1557145
0.9993984375 -0.4258021 0.3082155
1.000546875 -0.3296655 0.4483176
1.0016953125 -0.1872634 0.5629945
1.00284375 -0.003914044 0.6379439
