# GHZ S RI R 50.0
0.3 -3.072549 -7.265669
0.3011484375 -8.919388 -3.921732
0.302296875 -8.377541 4.071644
0.3034453125 -2.775715 6.515321
0.30459375 0.6481795 5.171028
0.3057421875 2.071073 3.399133
0.306890625 2.506497 1.942068
0.3080390625 2.475367 0.8455942
0.3091875 2.223496 0.03990828
0.3103359375 1.862591 -0.5324036
0.311484375 1.453439 -0.9257606
0.3126328125 1.029474 -1.173555
0.31378125 0.6098803 -1.301387
0.3149296875 0.2113353 -1.32412
0.316078125 -0.1563684 -1.257102
0.3172265625 -0.4807553 -1.109384
0.318375 -0.7489278 -0.8916844
0.3195234375 -0.9452443 -0.6158701
0.320671875 -1.055219 -0.2997752
0.3218203125 -1.068156 0.03019722
0.32296875 -0.9811778 0.3468089
0.3241171875 -0.8025391 0.614215
0.325265625 -0.5532938 0.806316
0.3264140625 -0.2668555 0.9038166
0.3275625 0.02295363 0.9050139
0.3287109375 0.2834972 0.8189355
0.329859375 0.4916535 0.6674221
0.3310078125 0.6364886 0.4741134
0.33215625 0.7146766 0.2622448
0.3333046875 0.7315338 0.04979469
0.334453125 0.6942146 -0.1489842
0.3356015625 0.610966 -0.323373
0.33675 0.4916264 -0.4664801
0.3378984375 0.3442763 -0.5736261
0.339046875 0.1772731 -0.6408385
0.3401953125 -0.00117609 -0.6657349
0.34134375 -0.1826207 -0.6461579
0.3424921875 -0.3568521 -0.5800743
0.343640625 -0.513729 -0.4680642
0.3447890625 -0.6407533 -0.3118016
0.3459375 -0.723781 -0.118209
0.3470859375 -0.7501527 0.1019406
0.348234375 -0.7078679 0.3318225
0.3493828125 -0.5914139 0.5493338
0.35053125 -0.4053882 0.7256027
0.3516796875 -0.1629021 0.838241
0.352828125 0.1099804 0.867455
0.3539765625 0.3833108 0.8063349
0.355125 0.6268343 0.6595041
0.3562734375 0.8139467 0.4431112
0.357421875 0.930504 0.1783344
0.3585703125 0.9651803 -0.1136057
0.35971875 0.9167947 -0.407616
0.3608671875 0.7856404 -0.6874469
0.362015625 0.5777097 -0.9328632
0.3631640625 0.2958487 -1.129079
0.3643125 -0.0565592 -1.257924
0.3654609375 -0.4744332 -1.29654
0.366609375 -0.9518868 -1.212044
0.3677578125 -1.472167 -0.9608361
0.36890625 -2.003007 -0.4698464
0.3700546875 -2.449904 0.3683794
0.371203125 -2.567628 1.686591
0.3723515625 -1.757654 3.461492
0.3735 0.8455969 4.656115
0.3746484375 4.007754 2.950183
0.375796875 4.324718 -0.3405802
0.3769453125 2.733246 -2.160539
0.37809375 1.107255 -2.562485
0.3792421875 -0.06511993 -2.28017
0.380390625 -0.7958003 -1.730059
0.3815390625 -1.17334 -1.113413
0.3826875 -1.287352 -0.5348749
0.3838359375 -1.214651 -0.04999357
0.384984375 -1.022911 0.3188593
0.3861328125 -0.7672619 0.5681947
0.38728125 -0.4892441 0.7057502
0.3884296875 -0.2187116 0.749292
0.389578125 0.02448511 0.716163
0.3907265625 0.2265825 0.6244276
0.391875 0.3818208 0.4918284
0.3930234375 0.486844 0.3325484
0.394171875 0.540933 0.16005
0.3953203125 0.5449222 -0.01396992
0.39646875 0.5014616 -0.1777806
0.3976171875 0.4141624 -0.3211949
0.398765625 0.2890712 -0.4330455
0.3999140625 0.1343298 -0.5044756
0.4010625 -0.03848412 -0.5251499
0.4022109375 -0.2138481 -0.4899692
0.403359375 -0.3743294 -0.3973801
0.4045078125 -0.499932 -0.2515707
0.40565625 -0.5718229 -0.0641259
0.4068046875 -0.5756158 0.1437446
0.407953125 -0.5048617 0.3476745
0.4091015625 -0.3630592 0.5212625
0.41025 -0.1632621 0.6398749
0.4113984375 0.07360826 0.6863084
0.412546875 0.3223629 0.6511325
0.4136953125 0.5599101 0.5306237
0.41484375 0.7600105 0.3283222
0.4159921875 0.8995923 0.05218321
0.417140625 0.9531276 -0.2903796
0.4182890625 0.8907759 -0.6856514
0.4194375 0.6684448 -1.111349
0.4205859375 0.2236797 -1.520033
0.421734375 -0.5308607 -1.790282
0.4228828125 -1.640365 -1.636558
0.42403125 -2.778731 -0.5269801
0.4251796875 -2.746957 1.530331
0.426328125 -1.047451 2.794526
0.4274765625 0.6367504 2.467064
0.428625 1.471148 1.534307
0.4297734375 1.682322 0.6332837
0.430921875 1.552133 -0.07420931
0.4320703125 1.245104 -0.5703659
0.43321875 0.8568463 -0.8779622
0.4343671875 0.4494 -1.016718
0.435515625 0.06748061 -1.014429
0.4366640625 -0.2551989 -0.9012931
0.4378125 -0.4987015 -0.7100499
0.4389609375 -0.652965 -0.4747288
0.440109375 -0.7198206 -0.2267838
0.4412578125 -0.7088102 0.008521756
0.44240625 -0.6341655 0.2131038
0.4435546875 -0.5127468 0.3739752
0.444703125 -0.3618516 0.4857636
0.4458515625 -0.1955315 0.5477378
0.447 -0.02741929 0.5611338
0.4481484375 0.1310507 0.5301073
0.449296875 0.2715241 0.4601476
0.4504453125 0.3850815 0.3582147
0.45159375 0.4663494 0.2311202
0.4527421875 0.5106076 0.08736617
0.453890625 0.5140645 -0.06321461
0.4550390625 0.475716 -0.2104404
0.4561875 0.3961886 -0.3427397
0.4573359375 0.2798855 -0.4486752
0.458484375 0.1343344 -0.5175198
0.4596328125 -0.02742313 -0.5400369
0.46078125 -0.192109 -0.5119535
0.4619296875 -0.3419352 -0.4333191
0.463078125 -0.4617842 -0.3108155
0.4642265625 -0.538205 -0.1562767
0.465375 -0.5630149 0.01448337
0.4665234375 -0.5347624 0.1840511
0.467671875 -0.4571183 0.3369923
0.4688203125 -0.3388475 0.4594415
0.46996875 -0.1911044 0.5419626
0.4711171875 -0.02650011 0.5793566
0.472265625 0.1422488 0.5698893
0.4734140625 0.304285 0.5146437
0.4745625 0.446538 0.4170224
0.4757109375 0.5612479 0.282461
0.476859375 0.6391828 0.1171109
0.4780078125 0.6724914 -0.0707833
0.47915625 0.6544473 -0.2698726
0.4803046875 0.5800784 -0.4686947
0.481453125 0.4463987 -0.652467
0.4826015625 0.2537625 -0.803696
0.48375 0.006764304 -0.9040066
0.4848984375 -0.2836825 -0.93324
0.486046875 -0.6001022 -0.8723206
0.4871953125 -0.9164844 -0.7050917
0.48834375 -1.198775 -0.4210781
0.4894921875 -1.406236 -0.0189675
0.490640625 -1.491494 0.489838
0.4917890625 -1.402576 1.081479
0.4929375 -1.081682 1.712972
0.4940859375 -0.4577128 2.312114
0.495234375 0.5503111 2.74497
0.4963828125 2.021137 2.736758
0.49753125 3.812943 1.711718
0.4986796875 4.865567 -0.9859291
0.499828125 3.16658 -4.089491
0.5009765625 -0.09091094 -4.559381
0.502125 -2.036955 -3.087077
0.5032734375 -2.587595 -1.492409
0.504421875 -2.447376 -0.2968605
0.5055703125 -2.026476 0.5060268
0.50671875 -1.507208 1.005284
0.5078671875 -0.9741629 1.273524
0.509015625 -0.4700011 1.364242
0.5101640625 -0.02065319 1.315726
0.5113125 0.355821 1.160357
0.5124609375 0.6468485 0.9258435
0.513609375 0.8439465 0.6394497
0.5147578125 0.9418062 0.3304778
0.51590625 0.9448922 0.02389116
0.5170546875 0.86132 -0.2539727
0.518203125 0.7060647 -0.482073
0.5193515625 0.5013093 -0.6432705
0.5205 0.2691831 -0.731229
0.5216484375 0.03395886 -0.7450284
0.522796875 -0.1835676 -0.691385
0.5239453125 -0.3664212 -0.581565
0.52509375 -0.5029513 -0.4312102
0.5262421875 -0.5870858 -0.2558641
0.527390625 -0.6177185 -0.07178216
0.5285390625 -0.5965582 0.1075604
0.5296875 -0.528882 0.2691852
0.5308359375 -0.4222715 0.4032108
0.531984375 -0.2851563 0.5016201
0.5331328125 -0.1278456 0.5584045
0.53428125 0.03857084 0.5705689
0.5354296875 0.2027913 0.5361817
0.536578125 0.3527479 0.456748
0.5377265625 0.4765445 0.3366382
0.538875 0.5635405 0.1827197
0.5400234375 0.6033359 0.006446387
0.541171875 0.5893191 -0.1801233
0.5423203125 0.5189294 -0.3588561
0.54346875 0.3940605 -0.5141186
0.5446171875 0.2219588 -0.6285758
0.545765625 0.01583923 -0.6875352
0.5469140625 -0.2071362 -0.6804729
0.5480625 -0.425454 -0.6032304
0.5492109375 -0.6189233 -0.4568443
0.550359375 -0.7666665 -0.2487024
0.5515078125 -0.8499542 0.008355384
0.55265625 -0.8529119 0.297474
0.5538046875 -0.7631792 0.5985389
0.554953125 -0.5697864 0.8865048
0.5561015625 -0.2634648 1.131087
0.55725 0.1622865 1.292562
0.5583984375 0.7091632 1.309711
0.559546875 1.359638 1.089238
0.5606953125 2.02747 0.4804538
0.56184375 2.42433 -0.6976708
0.5629921875 1.875286 -2.313909
0.564140625 -0.05282366 -3.167497
0.5652890625 -1.896136 -2.20474
0.5664375 -2.35116 -0.6182429
0.5675859375 -1.927517 0.5063794
0.568734375 -1.254849 1.078023
0.5698828125 -0.605293 1.264597
0.57103125 -0.06674802 1.209936
0.5721796875 0.3364774 1.009979
0.573328125 0.6024507 0.7334366
0.5744765625 0.7407375 0.4287354
0.575625 0.7682212 0.133852
0.5767734375 0.706153 -0.1243671
0.577921875 0.5779754 -0.3283787
0.5790703125 0.4078301 -0.468466
0.58021875 0.2182339 -0.5428167
0.5813671875 0.02877306 -0.5542047
0.582515625 -0.1441733 -0.5108745
0.5836640625 -0.2887742 -0.4220132
0.5848125 -0.3958601 -0.2997068
0.5859609375 -0.4597774 -0.1560652
0.587109375 -0.4781156 -0.00384337
0.5882578125 -0.4516206 0.1451577
0.58940625 -0.3830605 0.2789298
0.5905546875 -0.2777623 0.3869473
0.591703125 -0.1438858 0.4596931
0.5928515625 0.008283824 0.4899276
0.594 0.1662646 0.472869
0.5951484375 0.3158768 0.4065991
0.596296875 0.4425074 0.294214
0.5974453125 0.5316772 0.1425681
0.59859375 0.5711718 -0.0365422
0.5997421875 0.5525339 -0.2272717
0.600890625 0.4715076 -0.4111424
0.6020390625 0.3305846 -0.5688688
0.6031875 0.1375972 -0.6810195
0.6043359375 -0.09397735 -0.7313799
0.605484375 -0.3462014 -0.7076656
0.6066328125 -0.5980566 -0.6008211
0.60778125 -0.8251148 -0.4075348
0.6089296875 -1.001634 -0.1278695
0.610078125 -1.097558 0.2335226
0.6112265625 -1.077332 0.6662983
0.612375 -0.8922825 1.149327
0.6135234375 -0.4776431 1.640293
0.614671875 0.25868 2.0349
0.6158203125 1.397259 2.088579
0.61696875 2.787779 1.289626
0.6181171875 3.447912 -0.7602576
0.619265625 2.145301 -2.79676
0.6204140625 0.04331805 -3.078736
0.6215625 -1.273278 -2.212456
0.6227109375 -1.761848 -1.178512
0.623859375 -1.76364 -0.3211608
0.6250078125 -1.516262 0.305583
0.62615625 -1.15206 0.7198527
0.6273046875 -0.7478557 0.9520834
0.628453125 -0.3526412 1.033435
0.6296015625 0.001341614 0.9938337
0.63075 0.2921304 0.8641183
0.6318984375 0.5068768 0.6733099
0.633046875 0.6421108 0.4490662
0.6341953125 0.6998308 0.2160713
0.63534375 0.6882363 -0.005302069
0.6364921875 0.6187208 -0.1997792
0.637640625 0.5050076 -0.3545282
0.6387890625 0.3611661 -0.4646139
0.6399375 0.2011627 -0.5269707
0.6410859375 0.03848992 -0.5419763
0.642234375 -0.1158085 -0.512804
0.6433828125 -0.2514119 -0.4450183
0.64453125 -0.3598332 -0.3455025
0.6456796875 -0.4353602 -0.222872
0.646828125 -0.4734333 -0.08664277
0.6479765625 -0.4721312 0.0531525
0.649125 -0.4321236 0.185834
0.6502734375 -0.3564466 0.3017038
0.651421875 -0.2518122 0.3902376
0.6525703125 -0.1257219 0.4455243
0.65371875 0.01047278 0.4614964
0.6548671875 0.1458714 0.4370413
0.656015625 0.268185 0.3743045
0.6571640625 0.3665875 0.2782638
0.6583125 0.4326644 0.1576045
0.6594609375 0.4603884 0.02322024
0.660609375 0.4478155 -0.113327
0.6617578125 0.3962211 -0.2403298
0.66290625 0.3104952 -0.347333
0.6640546875 0.1973626 -0.4255483
0.665203125 0.06621072 -0.468909
0.6663515625 -0.07307781 -0.4735419
0.6675 -0.2097265 -0.4390957
0.6686484375 -0.3334622 -0.3666151
0.669796875 -0.4343959 -0.2604687
0.6709453125 -0.5038059 -0.1271826
0.67209375 -0.5347847 0.02482905
0.6732421875 -0.5212801 0.1849961
0.674390625 -0.4612551 0.3418564
0.6755390625 -0.3545884 0.4812918
0.6766875 -0.2052181 0.590263
0.6778359375 -0.02066868 0.6553267
0.678984375 0.1861665 0.6643981
0.6801328125 0.4000166 0.6096097
0.68128125 0.601146 0.4860698
0.6824296875 0.7683754 0.2957085
0.683578125 0.8792396 0.04576507
0.6847265625 0.9134766 -0.2489728
0.685875 0.8528038 -0.5685227
0.6870234375 0.6826583 -0.8855884
0.688171875 0.3930583 -1.167487
0.6893203125 -0.02072708 -1.372374
0.69046875 -0.5576358 -1.446785
0.6916171875 -1.196655 -1.319902
0.692765625 -1.886856 -0.882331
0.6939140625 -2.473478 0.009943471
0.6950625 -2.571486 1.433922
0.6962109375 -1.53597 3.00507
0.697359375 0.6278752 3.446833
0.6985078125 2.339632 2.197863
0.69965625 2.673746 0.5327679
0.7008046875 2.184104 -0.6329523
0.701953125 1.457823 -1.240826
0.7031015625 0.7548914 -1.456195
0.70425 0.162601 -1.420934
0.7053984375 -0.2960054 -1.232016
0.706546875 -0.6193738 -0.9542645
0.7076953125 -0.8148898 -0.6347411
0.70884375 -0.8942574 -0.3093787
0.7099921875 -0.8741471 -0.006917733
0.711140625 -0.7727329 0.2516869
0.7122890625 -0.6120036 0.4508874
0.7134375 -0.4129081 0.5828315
0.7145859375 -0.1996712 0.6442653
0.715734375 0.009393346 0.6399525
0.7168828125 0.1967274 0.5772089
0.71803125 0.3485433 0.4680976
0.7191796875 0.4567433 0.325833
0.720328125 0.516129 0.1646972
0.7214765625 0.5254086 0.0001733309
0.722625 0.4880856 -0.1555703
0.7237734375 0.4089864 -0.2901995
0.724921875 0.2966979 -0.3945204
0.7260703125 0.1603456 -0.4609891
0.72721875 0.01164352 -0.4850145
0.7283671875 -0.1377113 -0.4644397
0.729515625 -0.2753825 -0.4004578
0.7306640625 -0.3893464 -0.2974506
0.7318125 -0.4687779 -0.1627645
0.7329609375 -0.5048481 -0.006911499
0.734109375 -0.4912258 0.1568962
0.7352578125 -0.4262951 0.3135817
0.73640625 -0.3122591 0.4475444
0.7375546875 -0.1559262 0.5433885
0.738703125 0.03079713 0.5878441
0.7398515625 0.2323798 0.571236
0.741 0.4299355 0.4876199
0.7421484375 0.603079 0.3370291
0.743296875 0.7305803 0.1238785
0.7444453125 0.7904184 -0.1420798
0.74559375 0.7613256 -0.4449841
0.7467421875 0.6205387 -0.7631262
0.747890625 0.3415495 -1.06398
0.7490390625 -0.09860799 -1.243016
0.7501875 -0.7114667 -1.303337
0.7513359375 -1.495393 -1.024799
0.752484375 -2.228337 -0.1074005
0.7536328125 -2.13934 1.511938
0.75478125 -0.584445 2.613485
0.7559296875 1.052051 2.095401
0.757078125 1.659232 0.9770337
0.7582265625 1.580681 0.07446364
0.759375 1.232905 -0.4955967
0.7605234375 0.8148293 -0.8024466
0.761671875 0.4083324 -0.9185108
0.7628203125 0.0514938 -0.8983132
0.76396875 -0.236921 -0.7820004
0.7651171875 -0.4477654 -0.6030869
0.766265625 -0.5785188 -0.3897945
0.7674140625 -0.6310948 -0.1668884
0.7685625 -0.6145244 0.04445694
0.7697109375 -0.5390446 0.2275592
0.770859375 -0.4192069 0.3701575
0.7720078125 -0.2700929 0.4643261
0.77315625 -0.1077306 0.507538
0.7743046875 0.05335028 0.5012168
0.775453125 0.1999378 0.4492098
0.7766015625 0.3217085 0.3598253
0.77775 0.4098888 0.24152
0.7788984375 0.4590955 0.1050886
0.780046875 0.4670508 -0.03795435
0.7811953125 0.4342785 -0.1769573
0.78234375 0.3627963 -0.3007752
0.7834921875 0.2578631 -0.3994382
0.784640625 0.1273922 -0.4645773
0.7857890625 -0.01898661 -0.4896964
0.7869375 -0.169599 -0.470823
0.7880859375 -0.3119572 -0.4069124
0.789234375 -0.4322637 -0.3010339
0.7903828125 -0.5189063 -0.1596037
0.79153125 -0.5610196 0.007144716
0.7926796875 -0.5512609 0.1853229
0.793828125 -0.4861521 0.3592658
0.7949765625 -0.3673715 0.5125024
0.796125 -0.2007338 0.6289628
0.7972734375 0.003321077 0.6937732
0.798421875 0.2294745 0.6960229
0.7995703125 0.4606215 0.6275149
0.80071875 0.6766812 0.4850339
0.8018671875 0.8564376 0.2686259
0.803015625 0.9773749 -0.01680115
0.8041640625 1.014424 -0.3624032
0.8053125 0.9375105 -0.7527661
0.8064609375 0.7124553 -1.1631
0.807609375 0.294416 -1.549984
0.8087578125 -0.3728562 -1.823856
0.80990625 -1.328343 -1.804708
0.8110546875 -2.469422 -1.147549
0.812203125 -3.16565 0.5158564
0.8133515625 -2.272324 2.527462
0.8145 -0.2086808 3.110478
0.8156484375 1.277719 2.285436
0.816796875 1.811142 1.171361
0.8179453125 1.777096 0.2634475
0.81909375 1.48141 -0.364591
0.8202421875 1.084683 -0.7505249
0.821390625 0.6709759 -0.9445037
0.8225390625 0.2862559 -0.9908375
0.8236875 -0.04423742 -0.9267853
0.8248359375 -0.3040939 -0.7861009
0.825984375 -0.4888387 -0.5969857
0.8271328125 -0.5979498 -0.3854552
0.82828125 -0.6375186 -0.172335
0.8294296875 -0.6161764 0.0255672
0.830578125 -0.545158 0.1950676
0.8317265625 -0.4367633 0.327916
0.832875 -0.3049034 0.4191012
0.8340234375 -0.1610887 0.4673671
0.835171875 -0.01721643 0.4733333
0.8363203125 0.1164794 0.4407127
0.83746875 0.2314681 0.3750234
0.8386171875 0.3206409 0.2829502
0.839765625 0.3789127 0.1728242
0.8409140625 0.403497 0.0537394
0.8420625 0.3938299 -0.06533626
0.8432109375 0.351297 -0.1749951
0.844359375 0.2800444 -0.2664864
0.8455078125 0.1865424 -0.3330744
0.84665625 0.07854068 -0.3692593
0.8478046875 -0.03441352 -0.3722091
0.848953125 -0.1421612 -0.3419997
0.8501015625 -0.235789 -0.2818924
0.85125 -0.306869 -0.1974602
0.8523984375 -0.3496045 -0.09665754
0.853546875 -0.3607558 0.01154975
0.8546953125 -0.3398698 0.1174888
0.85584375 -0.2894506 0.2124208
0.8569921875 -0.2140141 0.2883692
0.858140625 -0.1201289 0.3396349
0.8592890625 -0.0152578 0.3620411
0.8604375 0.09232078 0.353878
0.8615859375 0.1942755 0.3152664
0.862734375 0.2827483 0.2486994
0.8638828125 0.3501575 0.157883
0.86503125 0.3905805 0.04918657
0.8661796875 0.399218 -0.0702569
0.867328125 0.3726114 -0.1918518
0.8684765625 0.3100674 -0.3057832
0.869625 0.2128229 -0.4017102
0.8707734375 0.08479857 -0.4692444
0.871921875 -0.06600995 -0.4982696
0.8730703125 -0.2298593 -0.4806645
0.87421875 -0.3928183 -0.4098321
0.8753671875 -0.5390889 -0.2836158
0.876515625 -0.6498955 -0.102969
0.8776640625 -0.7057507 0.1251632
0.8788125 -0.6860481 0.3883593
0.8799609375 -0.569245 0.6672934
0.881109375 -0.3334594 0.9313339
0.8822578125 0.04224377 1.133832
0.88340625 0.5723228 1.193774
0.8845546875 1.2303 0.9722514
0.885703125 1.839016 0.2706222
0.8868515625 1.89332 -0.9429916
0.888 0.9212998 -1.958999
0.8891484375 -0.3999522 -1.911888
0.890296875 -1.140707 -1.176425
0.8914453125 -1.286366 -0.4220265
0.89259375 -1.125459 0.1253676
0.8937421875 -0.84527 0.4659079
0.894890625 -0.5381902 0.6432772
0.8960390625 -0.2483507 0.6981488
0.8971875 0.002723373 0.664476
0.8983359375 0.2032607 0.5681601
0.899484375 0.3478808 0.431057
0.9006328125 0.4349623 0.2723102
0.90178125 0.4666817 0.1085472
0.9029296875 0.4478907 -0.04540703
0.904078125 0.3867018 -0.1774753
0.9052265625 0.2937529 -0.2779941
0.906375 0.179983 -0.3413522
0.9075234375 0.05851247 -0.365218
0.908671875 -0.05915031 -0.3509217
0.9098203125 -0.1623929 -0.3030936
0.91096875 -0.2427353 -0.2285469
0.9121171875 -0.2947496 -0.1361196
0.913265625 -0.3154602 -0.0351882
0.9144140625 -0.3047367 0.06468295
0.9155625 -0.2653107 0.1547527
0.9167109375 -0.2015893 0.2282888
0.917859375 -0.1194258 0.2784702
0.9190078125 -0.02650885 0.3019376
0.92015625 0.06959434 0.2965974
0.9213046875 0.1603606 0.2627268
0.922453125 0.2383856 0.2023721
0.9236015625 0.2956482 0.1197282
0.92475 0.3263152 0.02090032
0.9258984375 0.3258519 -0.08589073
0.927046875 0.2915693 -0.1914037
0.9281953125 0.2239391 -0.2854157
0.92934375 0.1258072 -0.3575388
0.9304921875 0.003843183 -0.3979334
0.931640625 -0.1325036 -0.3984379
0.9327890625 -0.2711345 -0.3532563
0.9339375 -0.3967632 -0.2606114
0.9350859375 -0.4942835 -0.1219574
0.936234375 -0.5470998 0.05481144
0.9373828125 -0.5395399 0.2583256
0.93853125 -0.4580411 0.4704928
0.9396796875 -0.2907546 0.6680455
0.940828125 -0.03088279 0.8164813
0.9419765625 0.3201094 0.870252
0.943125 0.7386781 0.7662047
0.9442734375 1.15229 0.4261722
0.945421875 1.395407 -0.1993159
0.9465703125 1.207356 -0.9995497
0.94771875 0.4708266 -1.564858
0.9488671875 -0.4535868 -1.507464
0.950015625 -1.057437 -0.9550234
0.9511640625 -1.216391 -0.3027786
0.9523125 -1.074767 0.2170281
0.9534609375 -0.7931101 0.5513627
0.954609375 -0.4706908 0.7196146
0.9557578125 -0.1635979 0.7566116
0.95690625 0.09883077 0.6977227
0.9580546875 0.3023605 0.5730577
0.959203125 0.4403535 0.4079896
0.9603515625 0.5128529 0.2259357
0.9615 0.5244613 0.04525615
0.9626484375 0.4829519 -0.1174955
0.963796875 0.3996314 -0.2507801
0.9649453125 0.286766 -0.3462129
0.96609375 0.1580016 -0.4003359
0.9672421875 0.02582575 -0.41256
0.968390625 -0.09802172 -0.3864352
0.9695390625 -0.2040297 -0.3275427
0.9706875 -0.2852691 -0.2436158
0.9718359375 -0.3366751 -0.1431721
0.972984375 -0.3567502 -0.03516086
0.9741328125 -0.3451277 0.07126994
0.97528125 -0.3042405 0.1681519
0.9764296875 -0.2384503 0.2483416
0.977578125 -0.1533702 0.3059253
0.9787265625 -0.05585606 0.3367808
0.979875 0.04643016 0.3386929
0.9810234375 0.1453208 0.3111211
0.982171875 0.232986 0.2557282
0.9833203125 0.3017228 0.176357
0.98446875 0.3450376 0.07930102
0.9856171875 0.3585665 -0.02821296
0.986765625 0.3392744 -0.1370381
0.9879140625 0.2878827 -0.2373323
0.9890625 0.207129 -0.3201379
0.9902109375 0.1031572 -0.3767329
0.991359375 -0.01605584 -0.4004965
0.9925078125 -0.1405476 -0.3875965
0.99365625 -0.2592377 -0.3371377
0.9948046875 -0.3613923 -0.2509406
0.995953125 -0.4364166 -0.1345849
0.9971015625 -0.4759837 0.004409257
0.99825 -0.4734941 0.1558729
0.9993984375 -0.4248897 0.3078588
1.000546875 -0.3287468 0.4479638
1.0016953125 -0.1867844 0.5624462
