# GHZ S RI R 50.0
0.3 -6.691215 -7.579453
0.3011484375 -10.57752 0.5736774
0.302296875 -5.417367 6.157132
0.3034453125 -0.8715475 5.848216
0.30459375 1.286335 4.229845
0.3057421875 2.153737 2.709214
0.306890625 2.385265 1.498092
0.3080390625 2.293688 0.5749709
0.3091875 2.03507 -0.1123569
0.3103359375 1.689391 -0.6058311
0.311484375 1.303894 -0.9471644
0.3126328125 0.9053286 -1.158954
0.31378125 0.5114362 -1.262753
0.3149296875 0.1360571 -1.270857
0.316078125 -0.2111349 -1.194776
0.3172265625 -0.5146225 -1.042402
0.318375 -0.7628652 -0.8247967
0.3195234375 -0.9419087 -0.552627
0.320671875 -1.036967 -0.2431281
0.3218203125 -1.037553 0.07734676
0.32296875 -0.9412647 0.3813363
0.3241171875 -0.7570187 0.6359848
0.325265625 -0.5060122 0.8148416
0.3264140625 -0.2216828 0.899571
0.3275625 0.06368683 0.8893873
0.3287109375 0.3159576 0.7945849
0.329859375 0.5155506 0.6371335
0.3310078125 0.6518183 0.4401074
0.33215625 0.7209024 0.2265183
0.3333046875 0.7293823 0.0147444
0.334453125 0.6839129 -0.1814195
0.3356015625 0.5941571 -0.352265
0.33675 0.467926 -0.4910353
0.3378984375 0.3159904 -0.5916303
0.339046875 0.1449485 -0.6524042
0.3401953125 -0.03596163 -0.6694837
0.34134375 -0.2184095 -0.6414698
0.3424921875 -0.3923456 -0.5665615
0.343640625 -0.5467809 -0.4453702
0.3447890625 -0.6689764 -0.2801626
0.3459375 -0.7449291 -0.07795224
0.3470859375 -0.7609625 0.1502753
0.348234375 -0.7057409 0.3855105
0.3493828125 -0.5739765 0.6044519
0.35053125 -0.3705023 0.778809
0.3516796875 -0.1105323 0.8833132
0.352828125 0.1791104 0.8991109
0.3539765625 0.466249 0.8188132
0.355125 0.7177215 0.6478719
0.3562734375 0.9081809 0.4030958
0.357421875 1.018611 0.1067044
0.3585703125 1.039894 -0.2171987
0.35971875 0.9661881 -0.546422
0.3608671875 0.7999305 -0.8576731
0.362015625 0.5385985 -1.132935
0.3631640625 0.1817408 -1.350704
0.3643125 -0.2722152 -1.484673
0.3654609375 -0.8305468 -1.494065
0.366609375 -1.494839 -1.310158
0.3677578125 -2.247005 -0.8109549
0.36890625 -2.965972 0.2338209
0.3700546875 -3.161352 2.131156
0.371203125 -1.475402 4.522928
0.3723515625 2.2966 4.461557
0.3735 3.995964 1.499936
0.3746484375 3.265727 -0.7605593
0.375796875 2.012236 -1.742989
0.3769453125 0.9037085 -1.97892
0.37809375 0.05348672 -1.825819
0.3792421875 -0.539973 -1.468209
0.380390625 -0.8983509 -1.020122
0.3815390625 -1.056307 -0.559018
0.3826875 -1.050798 -0.1399077
0.3838359375 -0.9265423 0.2026135
0.384984375 -0.7262537 0.4517027
0.3861328125 -0.4883917 0.6054685
0.38728125 -0.2433351 0.6708338
0.3884296875 -0.01485949 0.6604697
0.389578125 0.1822351 0.5903623
0.3907265625 0.3388226 0.4751671
0.391875 0.4491266 0.3296669
0.3930234375 0.5110291 0.1668468
0.394171875 0.5243019 -0.001288661
0.3953203125 0.4902783 -0.163177
0.39646875 0.4123402 -0.3086065
0.3976171875 0.2945148 -0.4264458
0.398765625 0.1441548 -0.5065132
0.3999140625 -0.02940183 -0.5394787
0.4010625 -0.2128163 -0.5167065
0.4022109375 -0.3888704 -0.4328641
0.403359375 -0.5373 -0.2882147
0.4045078125 -0.635634 -0.0914099
0.40565625 -0.6640537 0.1421863
0.4068046875 -0.6081648 0.3876381
0.407953125 -0.4618293 0.6139884
0.4091015625 -0.2325604 0.7890677
0.41025 0.06376997 0.883217
0.4113984375 0.4004931 0.8739498
0.412546875 0.7471365 0.7443696
0.4136953125 1.069068 0.4829325
0.41484375 1.3275 0.07930299
0.4159921875 1.467057 -0.4804208
0.417140625 1.392235 -1.205799
0.4182890625 0.9237547 -2.077096
0.4194375 -0.2818832 -2.868354
0.4205859375 -2.414886 -2.646313
0.421734375 -3.860328 -0.2595563
0.4228828125 -2.68395 2.090112
0.42403125 -0.8645436 2.591977
0.4251796875 0.3383217 2.179091
0.426328125 0.9850885 1.54837
0.4274765625 1.275409 0.9241273
0.428625 1.336889 0.3700545
0.4297734375 1.24296 -0.09451903
0.430921875 1.04042 -0.4587798
0.4320703125 0.7674882 -0.7153774
0.43321875 0.4572857 -0.8622677
0.4343671875 0.1428054 -0.9021775
0.435515625 -0.1464379 -0.8455633
0.4366640625 -0.3853416 -0.7110006
0.4378125 -0.5577176 -0.521813
0.4389609375 -0.6557598 -0.303838
0.440109375 -0.6805975 -0.08272156
0.4412578125 -0.6410952 0.1215826
0.44240625 -0.5494959 0.293308
0.4435546875 -0.4208152 0.4236898
0.444703125 -0.2689452 0.5085433
0.4458515625 -0.1082315 0.5460688
0.447 0.05017582 0.5397085
0.4481484375 0.1966385 0.4926845
0.449296875 0.3225142 0.410773
0.4504453125 0.4206247 0.300528
0.45159375 0.485924 0.1689657
0.4527421875 0.5141752 0.02429427
0.453890625 0.502124 -0.1237514
0.4550390625 0.4492939 -0.2645972
0.4561875 0.357516 -0.3880891
0.4573359375 0.2312173 -0.482399
0.458484375 0.07913559 -0.5373169
0.4596328125 -0.08642334 -0.544501
0.46078125 -0.2502386 -0.5005548
0.4619296875 -0.3955263 -0.4067353
0.463078125 -0.5061659 -0.2706981
0.4642265625 -0.5703151 -0.1052401
0.465375 -0.5805158 0.07263485
0.4665234375 -0.5364473 0.2456047
0.467671875 -0.4418786 0.3975635
0.4688203125 -0.3081958 0.5144046
0.46996875 -0.1459324 0.5888239
0.4711171875 0.02988111 0.6138148
0.472265625 0.2079113 0.5898975
0.4734140625 0.3750273 0.5178009
0.4745625 0.5202651 0.4013153
0.4757109375 0.6330783 0.2470268
0.476859375 0.7039393 0.06161226
0.4780078125 0.7254166 -0.1458124
0.47915625 0.6897166 -0.364344
0.4803046875 0.5913692 -0.5797607
0.481453125 0.4265606 -0.7756327
0.4826015625 0.1956307 -0.9329172
0.48375 -0.09819549 -1.029137
0.4848984375 -0.4400221 -1.040434
0.486046875 -0.8128562 -0.9418587
0.4871953125 -1.184986 -0.71094
0.48834375 -1.514143 -0.3292377
0.4894921875 -1.744021 0.2133755
0.490640625 -1.80135 0.9144854
0.4917890625 -1.58765 1.751741
0.4929375 -0.9570373 2.661021
0.4940859375 0.3093696 3.449739
0.495234375 2.435302 3.568769
0.4963828125 4.947724 1.771843
0.49753125 5.164556 -2.150703
0.4986796875 2.194317 -4.395225
0.499828125 -0.4692186 -3.887083
0.5009765625 -1.736108 -2.576777
0.502125 -2.12703 -1.369976
0.5032734375 -2.074178 -0.4356563
0.504421875 -1.805241 0.2455904
0.5055703125 -1.4325 0.7141064
0.50671875 -1.016266 1.007271
0.5078671875 -0.5965906 1.153087
0.509015625 -0.199814 1.176557
0.5101640625 0.1541437 1.097639
0.5113125 0.4484857 0.9360345
0.5124609375 0.6711174 0.713554
0.513609375 0.8125587 0.4517795
0.5147578125 0.8689051 0.1738816
0.51590625 0.8418333 -0.09569313
0.5170546875 0.7400547 -0.3345076
0.518203125 0.5779926 -0.5235694
0.5193515625 0.3749402 -0.649233
0.5205 0.1530548 -0.7051849
0.5216484375 -0.06574682 -0.6923182
0.522796875 -0.2626007 -0.6180798
0.5239453125 -0.421521 -0.4947773
0.52509375 -0.5331956 -0.3366179
0.5262421875 -0.5927993 -0.1592019
0.527390625 -0.5996883 0.02114606
0.5285390625 -0.5567226 0.1918335
0.5296875 -0.4698909 0.3409902
0.5308359375 -0.3473587 0.4587373
0.531984375 -0.1980637 0.5376753
0.5331328125 -0.03251368 0.5729487
0.53428125 0.1374082 0.5611137
0.5354296875 0.300184 0.5017372
0.536578125 0.4431675 0.3966532
0.5377265625 0.5528485 0.2514457
0.538875 0.6192992 0.07481616
0.5400234375 0.6317754 -0.1214079
0.541171875 0.5837339 -0.3215116
0.5423203125 0.4723758 -0.5071232
0.54346875 0.3015238 -0.6581452
0.5446171875 0.08033372 -0.7553034
0.545765625 -0.1751995 -0.7816783
0.5469140625 -0.445017 -0.7238991
0.5480625 -0.7024211 -0.5753157
0.5492109375 -0.9199261 -0.3342025
0.550359375 -1.066405 -0.006668619
0.5515078125 -1.110143 0.3967316
0.55265625 -1.011602 0.8573225
0.5538046875 -0.7196282 1.344089
0.554953125 -0.1599195 1.793329
0.5561015625 0.7701945 2.051886
0.55725 2.113442 1.722746
0.5583984375 3.308223 0.1031692
0.559546875 2.594393 -2.340858
0.5606953125 0.3163846 -3.028947
0.56184375 -1.158906 -2.13423
0.5629921875 -1.625533 -1.05891
0.564140625 -1.577357 -0.2277558
0.5652890625 -1.304727 0.3417841
0.5664375 -0.9428238 0.6924172
0.5675859375 -0.5605543 0.8713081
0.568734375 -0.1965378 0.9115505
0.5698828125 0.1193128 0.8430033
0.57103125 0.3694657 0.693162
0.5721796875 0.5424773 0.4901414
0.573328125 0.6340882 0.2611419
0.5744765625 0.6470688 0.0321542
0.575625 0.5895522 -0.1748868
0.5767734375 0.4768248 -0.3430425
0.577921875 0.325893 -0.4605791
0.5790703125 0.1543829 -0.5223042
0.58021875 -0.01973582 -0.5285147
0.5813671875 -0.1817875 -0.4835812
0.582515625 -0.3181242 -0.3953384
0.5836640625 -0.4204303 -0.2737558
0.5848125 -0.4817252 -0.1297479
0.5859609375 -0.4988042 0.02456938
0.587109375 -0.470831 0.1773675
0.5882578125 -0.3994726 0.3167659
0.58940625 -0.2891849 0.4320402
0.5905546875 -0.1470304 0.5124762
0.591703125 0.01747814 0.5495055
0.5928515625 0.1925834 0.5368763
0.594 0.3635521 0.4700627
0.5951484375 0.5146905 0.3499025
0.596296875 0.6289409 0.1809735
0.5974453125 0.6905302 -0.02684481
0.59859375 0.6866326 -0.257996
0.5997421875 0.6072172 -0.4925684
0.600890625 0.4488827 -0.7076423
0.6020390625 0.2146216 -0.877115
0.6031875 -0.08548865 -0.9762456
0.6043359375 -0.4342487 -0.9803247
0.605484375 -0.8086249 -0.8673351
0.6066328125 -1.177594 -0.6152842
0.60778125 -1.499606 -0.2014912
0.6089296875 -1.712744 0.3988156
0.610078125 -1.708762 1.20883
0.6112265625 -1.286348 2.213809
0.612375 -0.07965343 3.190902
0.6135234375 2.164294 3.239647
0.614671875 4.072105 1.076327
0.6158203125 3.416119 -1.651262
0.61696875 1.565994 -2.66697
0.6181171875 0.1214527 -2.494977
0.619265625 -0.7424898 -1.924176
0.6204140625 -1.187422 -1.283399
0.6215625 -1.353546 -0.6855433
0.6227109375 -1.330827 -0.1706324
0.623859375 -1.179044 0.2453036
0.6250078125 -0.943406 0.5544294
0.62615625 -0.6600507 0.7566135
0.6273046875 -0.3601137 0.8554966
0.628453125 -0.07096864 0.860173
0.6296015625 0.1847988 0.7854484
0.63075 0.3908866 0.6488735
0.6318984375 0.5368361 0.4708257
0.633046875 0.6183621 0.271797
0.6341953125 0.6374555 0.07102817
0.63534375 0.599954 -0.1150818
0.6364921875 0.5161164 -0.2736896
0.637640625 0.3972108 -0.3956213
0.6387890625 0.256155 -0.4755626
0.6399375 0.1048514 -0.5120973
0.6410859375 -0.04491917 -0.5058115
0.642234375 -0.1828277 -0.4602818
0.6433828125 -0.3007008 -0.3807057
0.64453125 -0.3899966 -0.2748889
0.6456796875 -0.4462325 -0.1498612
0.646828125 -0.4659337 -0.01574941
0.6479765625 -0.4476523 0.1178012
0.649125 -0.3929964 0.2408062
0.6502734375 -0.3058489 0.3438387
0.651421875 -0.1926314 0.4179664
0.6525703125 -0.06201104 0.4568172
0.65371875 0.07478835 0.4561119
0.6548671875 0.2064149 0.4152737
0.656015625 0.32133 0.337557
0.6571640625 0.4085637 0.2287998
0.6583125 0.4605778 0.09856987
0.6594609375 0.4723997 -0.04156117
0.660609375 0.4423127 -0.1799745
0.6617578125 0.3735753 -0.3045692
0.66290625 0.2710285 -0.4048455
0.6640546875 0.1431409 -0.4724589
0.665203125 -0.0004031549 -0.5012571
0.6663515625 -0.1486632 -0.4887459
0.6675 -0.2903385 -0.4343599
0.6686484375 -0.4139869 -0.3402262
0.669796875 -0.5103008 -0.2114527
0.6709453125 -0.5686179 -0.05629979
0.67209375 -0.5822762 0.1166287
0.6732421875 -0.5456091 0.2946739
0.674390625 -0.4556186 0.4643419
0.6755390625 -0.3127076 0.6100129
0.6766875 -0.1221191 0.7158409
0.6778359375 0.1075934 0.7657665
0.678984375 0.3604325 0.7449642
0.6801328125 0.6174499 0.6421551
0.68128125 0.8536878 0.4504408
0.6824296875 1.039888 0.1694663
0.683578125 1.143263 -0.1949088
0.6847265625 1.128629 -0.6265275
0.685875 0.9546802 -1.097899
0.6870234375 0.5756047 -1.56294
0.688171875 -0.06312041 -1.941064
0.6893203125 -1.011176 -2.076491
0.69046875 -2.238024 -1.663586
0.6916171875 -3.320269 -0.2488457
0.692765625 -3.069298 2.036472
0.6939140625 -1.028615 3.374449
0.6950625 0.9475423 2.848646
0.6962109375 1.82512 1.638615
0.697359375 1.936705 0.5696492
0.6985078125 1.683907 -0.1888974
0.69965625 1.288129 -0.6731415
0.7008046875 0.8548487 -0.9409156
0.701953125 0.4369645 -1.042185
0.7031015625 0.0649289 -1.017337
0.70425 -0.2431038 -0.8978221
0.7053984375 -0.4769919 -0.7121625
0.706546875 -0.6306832 -0.4866209
0.7076953125 -0.703923 -0.2448839
0.70884375 -0.701761 -0.009220327
0.7099921875 -0.632773 0.2014983
0.711140625 -0.5108944 0.3715948
0.7122890625 -0.3512341 0.4903299
0.7134375 -0.171829 0.5520883
0.7145859375 0.009773897 0.5564245
0.715734375 0.1772122 0.5075538
0.7168828125 0.3174997 0.4137831
0.71803125 0.4193728 0.2869273
0.7191796875 0.4771414 0.1390776
0.720328125 0.4883157 -0.01566191
0.7214765625 0.4536813 -0.16458
0.722625 0.3776764 -0.2952484
0.7237734375 0.266874 -0.397586
0.724921875 0.1302645 -0.4628719
0.7260703125 -0.02091411 -0.4854845
0.72721875 -0.1749332 -0.4619154
0.7283671875 -0.3188913 -0.391986
0.729515625 -0.4389955 -0.2786776
0.7306640625 -0.523234 -0.1284434
0.7318125 -0.5599369 0.04854724
0.7329609375 -0.5397347 0.2393243
0.734109375 -0.457082 0.4249665
0.7352578125 -0.3107103 0.5884224
0.73640625 -0.1043889 0.7071728
0.7375546875 0.1514207 0.7605155
0.738703125 0.4408561 0.727424
0.7398515625 0.7390427 0.5883716
0.741 1.01431 0.3267714
0.7421484375 1.22274 -0.07545102
0.743296875 1.29588 -0.6316692
0.7444453125 1.11682 -1.341285
0.74559375 0.4727907 -2.124723
0.7467421875 -0.9512062 -2.585091
0.747890625 -2.872919 -1.603592
0.7490390625 -3.022671 0.8693584
0.7501875 -1.464952 2.172619
0.7513359375 -0.07483256 2.076411
0.752484375 0.6947864 1.524642
0.7536328125 1.035777 0.9332351
0.75478125 1.119684 0.4163212
0.7559296875 1.04822 -0.002253375
0.757078125 0.8814676 -0.3200465
0.7582265625 0.6602616 -0.5405216
0.759375 0.4131871 -0.6692874
0.7605234375 0.1632007 -0.7146339
0.761671875 -0.06927963 -0.6860543
0.7628203125 -0.2686236 -0.5957696
0.76396875 -0.4225039 -0.4581359
0.7651171875 -0.5229266 -0.2901366
0.766265625 -0.5659629 -0.1080429
0.7674140625 -0.5529732 0.07079859
0.7685625 -0.4894699 0.2315693
0.7697109375 -0.3845014 0.3614658
0.770859375 -0.250027 0.4517478
0.7720078125 -0.09902231 0.4971217
0.77315625 0.05497751 0.496296
0.7743046875 0.1990949 0.4515123
0.775453125 0.3223555 0.3685227
0.7766015625 0.4159642 0.2550908
0.77775 0.4728554 0.1204581
0.7788984375 0.4896486 -0.02469951
0.780046875 0.4645181 -0.1694202
0.7811953125 0.3990406 -0.3027617
0.78234375 0.2969117 -0.4140014
0.7834921875 0.1650296 -0.4938088
0.784640625 0.01152506 -0.5338774
0.7857890625 -0.1517576 -0.5284099
0.7869375 -0.3127238 -0.4740593
0.7880859375 -0.456771 -0.3720855
0.789234375 -0.5701836 -0.2261794
0.7903828125 -0.638988 -0.04492871
0.79153125 -0.6521613 0.1584873
0.7926796875 -0.602578 0.368562
0.793828125 -0.4863458 0.5658854
0.7949765625 -0.306029 0.7305793
0.796125 -0.06948308 0.8424391
0.7972734375 0.2116262 0.8828159
0.798421875 0.5173733 0.8355321
0.7995703125 0.8259178 0.6867152
0.80071875 1.108842 0.4243861
0.8018671875 1.330406 0.03941051
0.803015625 1.441493 -0.4746193
0.8041640625 1.368237 -1.116801
0.8053125 0.9880252 -1.8582
0.8064609375 0.1030193 -2.561376
0.807609375 -1.482685 -2.768236
0.8087578125 -3.308829 -1.54244
0.80990625 -3.541811 0.9953865
0.8110546875 -1.906671 2.553414
0.812203125 -0.2509837 2.582573
0.8133515625 0.7469498 1.977962
0.8145 1.21892 1.269295
0.8156484375 1.358914 0.6287277
0.816796875 1.296253 0.1061115
0.8179453125 1.109911 -0.2920019
0.81909375 0.8546476 -0.5695782
0.8202421875 0.5686112 -0.7344094
0.821390625 0.2822824 -0.799325
0.8225390625 0.01814123 -0.7796935
0.8236875 -0.2058718 -0.6913873
0.8248359375 -0.3784616 -0.5542182
0.825984375 -0.494159 -0.3871154
0.8271328125 -0.5521602 -0.2072641
0.82828125 -0.5554441 -0.03160224
0.8294296875 -0.5117414 0.1273025
0.830578125 -0.4296191 0.2590806
0.8317265625 -0.3203551 0.3570906
0.832875 -0.193984 0.4173151
0.8340234375 -0.06212698 0.4391415
0.835171875 0.06579528 0.4241681
0.8363203125 0.1805182 0.3760861
0.83746875 0.2747242 0.2998142
0.8386171875 0.3426041 0.2028503
0.839765625 0.3799831 0.09287924
0.8409140625 0.3848511 -0.02171026
0.8420625 0.3573818 -0.1318738
0.8432109375 0.3000046 -0.2290242
0.844359375 0.2175325 -0.3052273
0.8455078125 0.1165294 -0.3541695
0.84665625 0.005916695 -0.3714396
0.8478046875 -0.1052212 -0.3554664
0.848953125 -0.2064634 -0.3073423
0.8501015625 -0.2894447 -0.2313001
0.85125 -0.345927 -0.1338787
0.8523984375 -0.3709772 -0.02397721
0.853546875 -0.3626571 0.08890129
0.8546953125 -0.3213325 0.1947008
0.85584375 -0.250552 0.2841774
0.8569921875 -0.1559281 0.349947
0.858140625 -0.04519108 0.3859849
0.8592890625 0.0730964 0.3890122
0.8604375 0.1898885 0.3572127
0.8615859375 0.2955469 0.2920649
0.862734375 0.381337 0.1964437
0.8638828125 0.4386909 0.07587877
0.86503125 0.460683 -0.06262793
0.8661796875 0.4413251 -0.209686
0.867328125 0.3765347 -0.3541675
0.8684765625 0.2646076 -0.4832606
0.869625 0.1071559 -0.5823464
0.8707734375 -0.09134676 -0.6357709
0.871921875 -0.3214557 -0.626262
0.8730703125 -0.5673373 -0.5356714
0.87421875 -0.8060507 -0.3459493
0.8753671875 -1.00079 -0.03894754
0.876515625 -1.094484 0.3999634
0.8776640625 -0.9907278 0.9667109
0.8788125 -0.5269794 1.5871
0.8799609375 0.4776606 1.955694
0.881109375 1.787244 1.412151
0.8822578125 2.239495 -0.09895319
0.88340625 1.474763 -1.237468
0.8845546875 0.4943356 -1.485785
0.885703125 -0.1893023 -1.260536
0.8868515625 -0.5690708 -0.8924286
0.888 -0.7323474 -0.5200973
0.8891484375 -0.75329 -0.1942381
0.890296875 -0.6827636 0.06792309
0.8914453125 -0.5554613 0.2623196
0.89259375 -0.397687 0.3908226
0.8937421875 -0.2287075 0.4583945
0.894890625 -0.06372071 0.4708748
0.8960390625 0.08507775 0.4369969
0.8971875 0.2080593 0.3652233
0.8983359375 0.2982898 0.2660607
0.899484375 0.3518727 0.1500565
0.9006328125 0.3671353 0.02890636
0.90178125 0.3455186 -0.08713341
0.9029296875 0.2910069 -0.1875188
0.904078125 0.2103908 -0.2642568
0.9052265625 0.1124514 -0.311056
0.906375 0.006916799 -0.3248719
0.9075234375 -0.09586782 -0.3056079
0.908671875 -0.1860162 -0.2560622
0.9098203125 -0.2556689 -0.1822657
0.91096875 -0.298587 -0.09119597
0.9121171875 -0.3118653 0.007750429
0.913265625 -0.2941717 0.1057584
0.9144140625 -0.2478402 0.19388
0.9155625 -0.1765294 0.2644992
0.9167109375 -0.08663155 0.3110461
0.917859375 0.01484846 0.3291061
0.9190078125 0.1192741 0.3159261
0.92015625 0.2181105 0.271301
0.9213046875 0.3022522 0.196494
0.922453125 0.3629855 0.09612142
0.9236015625 0.3927547 -0.02346221
0.92475 0.3848579 -0.1537637
0.9258984375 0.3350563 -0.2837772
0.927046875 0.2420145 -0.4010029
0.9281953125 0.1071258 -0.4911129
0.92934375 -0.06338136 -0.5389715
0.9304921875 -0.2588151 -0.5308782
0.931640625 -0.4627251 -0.4532169
0.9327890625 -0.6528234 -0.2960251
0.9339375 -0.7994234 -0.05339754
0.9350859375 -0.8635845 0.2715195
0.936234375 -0.7957226 0.6623991
0.9373828125 -0.5323924 1.073392
0.93853125 -0.01042378 1.395055
0.9396796875 0.7693474 1.419461
0.940828125 1.573337 0.8822271
0.9419765625 1.865694 -0.1761235
0.943125 1.36907 -1.134371
0.9442734375 0.5134118 -1.494535
0.945421875 -0.2127037 -1.350167
0.9465703125 -0.6591642 -0.979416
0.94771875 -0.861788 -0.5625749
0.9488671875 -0.8906564 -0.18421
0.950015625 -0.8051274 0.1240665
0.9511640625 -0.649299 0.3525247
0.9523125 -0.4554568 0.5012117
0.9534609375 -0.248918 0.5753417
0.954609375 -0.04880018 0.5832765
0.9557578125 0.1296681 0.5346763
0.95690625 0.2752703 0.4419732
0.9580546875 0.3798893 0.3177857
0.959203125 0.4391135 0.1759254
0.9603515625 0.4529887 0.03031019
0.9615 0.423776 -0.1063387
0.9626484375 0.3579673 -0.2233095
0.963796875 0.2641502 -0.3116935
0.9649453125 0.1523315 -0.3662978
0.96609375 0.03352743 -0.384613
0.9672421875 -0.0817223 -0.3678764
0.968390625 -0.1840008 -0.3195388
0.9695390625 -0.265948 -0.2455506
0.9706875 -0.3215225 -0.1531485
0.9718359375 -0.3480765 -0.05065927
0.972984375 -0.3442838 0.05372258
0.9741328125 -0.3115797 0.1516109
0.97528125 -0.252865 0.2358484
0.9764296875 -0.1727341 0.2997753
0.977578125 -0.07771743 0.3388315
0.9787265625 0.02531142 0.349508
0.979875 0.1283464 0.3302462
0.9810234375 0.223108 0.2818522
0.982171875 0.3017556 0.2069175
0.9833203125 0.3566599 0.1104693
0.98446875 0.3821576 -0.000716008
0.9856171875 0.3742009 -0.1179556
0.986765625 0.3308598 -0.2313183
0.9879140625 0.2536693 -0.3306092
0.9890625 0.1469086 -0.4051399
0.9902109375 0.01769925 -0.4467352
0.991359375 -0.1235728 -0.4483466
0.9925078125 -0.2653406 -0.406498
0.99365625 -0.3949261 -0.3207441
0.9948046875 -0.498993 -0.1940515
0.995953125 -0.5652527 -0.03313651
0.9971015625 -0.5831792 0.1520407
0.99825 -0.5434328 0.3489837
0.9993984375 -0.439601 0.5421958
1.000546875 -0.2670244 0.7134815
1.0016953125 -0.02455176 0.8405093
