# GHZ S RI R 50.0
0.3 -10.42503 -4.706812
0.3011484375 -8.517808 4.23217
0.302296875 -3.048042 6.083651
0.3034453125 0.06896747 4.979676
0.30459375 1.521697 3.51292
0.3057421875 2.1135 2.225497
0.306890625 2.246453 1.19133
0.3080390625 2.129071 0.3918023
0.3091875 1.874588 -0.2106412
0.3103359375 1.545813 -0.6483986
0.311484375 1.181208 -0.950055
0.3126328125 0.8040745 -1.136203
0.31378125 0.4314417 -1.222803
0.3149296875 0.07555471 -1.220357
0.316078125 -0.2514441 -1.137439
0.3172265625 -0.5381189 -0.9826601
0.318375 -0.7704496 -0.765202
0.3195234375 -0.9355597 -0.4959522
0.320671875 -1.017749 -0.1936377
0.3218203125 -1.007511 0.1180597
0.32296875 -0.9033813 0.4113242
0.3241171875 -0.7144855 0.6538402
0.325265625 -0.4627001 0.8197367
0.3264140625 -0.1797133 0.8929886
0.3275625 0.0997921 0.8722831
0.3287109375 0.3461882 0.7700439
0.329859375 0.5381094 0.6063364
0.3310078125 0.6645615 0.406724
0.33215625 0.7253883 0.1920472
0.3333046875 0.7253873 -0.01935416
0.334453125 0.6721431 -0.2131174
0.3356015625 0.5752458 -0.3800515
0.33675 0.443452 -0.5140035
0.3378984375 0.2861282 -0.6087222
0.339046875 0.1115116 -0.6624831
0.3401953125 -0.07232258 -0.6718705
0.34134375 -0.2561092 -0.6350821
0.3424921875 -0.4296713 -0.5508399
0.343640625 -0.5812108 -0.4195645
0.3447890625 -0.6982308 -0.2436715
0.3459375 -0.7660884 -0.03218319
0.3470859375 -0.7707551 0.2043072
0.348234375 -0.7002016 0.4455679
0.3493828125 -0.5504352 0.6666285
0.35053125 -0.3265283 0.8382107
0.3516796875 -0.04545876 0.933373
0.352828125 0.2640776 0.9322437
0.3539765625 0.5681223 0.8279356
0.355125 0.830108 0.6261886
0.3562734375 1.023413 0.3443711
0.357421875 1.127602 0.005266612
0.3585703125 1.129169 -0.3659768
0.35971875 1.020237 -0.7449234
0.3608671875 0.7938437 -1.108201
0.362015625 0.4418453 -1.431405
0.3631640625 -0.05140356 -1.682151
0.3643125 -0.7140584 -1.80809
0.3654609375 -1.583187 -1.70096
0.366609375 -2.6663 -1.121052
0.3677578125 -3.703036 0.4419938
0.36890625 -3.284822 3.361374
0.3700546875 0.2265413 4.906036
0.371203125 2.888182 2.849162
0.3723515625 3.061072 0.6160314
0.3735 2.367483 -0.6631126
0.3746484375 1.546792 -1.28356
0.375796875 0.7945523 -1.49712
0.3769453125 0.1615201 -1.4547
0.37809375 -0.3296735 -1.242953
0.3792421875 -0.6692989 -0.9275092
0.380390625 -0.85673 -0.5662769
0.3815390625 -0.9051761 -0.2080043
0.3826875 -0.8386099 0.1082143
0.3838359375 -0.6873066 0.3564947
0.384984375 -0.4857889 0.5229934
0.3861328125 -0.2632423 0.6086695
0.38728125 -0.0458841 0.6196179
0.3884296875 0.1491627 0.5680916
0.389578125 0.309383 0.4680288
0.3907265625 0.427071 0.3326446
0.391875 0.4975201 0.1760113
0.3930234375 0.5204363 0.009790286
0.394171875 0.4956928 -0.1543913
0.3953203125 0.4251745 -0.3057977
0.39646875 0.3128207 -0.4329094
0.3976171875 0.1634867 -0.5256209
0.398765625 -0.01449463 -0.5728486
0.3999140625 -0.2097168 -0.5647065
0.4010625 -0.4062733 -0.4926271
0.4022109375 -0.5840922 -0.3520738
0.403359375 -0.7189217 -0.1453173
0.4045078125 -0.7850944 0.1170253
0.40565625 -0.7578944 0.4135664
0.4068046875 -0.6205885 0.7125404
0.407953125 -0.3650282 0.9739357
0.4091015625 0.002334043 1.154272
0.41025 0.462689 1.209146
0.4113984375 0.987465 1.094619
0.412546875 1.536345 0.7581114
0.4136953125 2.040061 0.1262931
0.41484375 2.353444 -0.914427
0.4159921875 2.072811 -2.477334
0.417140625 0.2465987 -4.126312
0.4182890625 -3.096197 -3.428956
0.4194375 -4.022345 -0.2213561
0.4205859375 -2.651668 1.647554
0.421734375 -1.246939 2.097548
0.4228828125 -0.2590973 1.964544
0.42403125 0.389321 1.624029
0.4251796875 0.7927213 1.21397
0.426328125 1.018385 0.7917605
0.4274765625 1.10442 0.3860906
0.428625 1.076709 0.0164217
0.4297734375 0.9575396 -0.2995041
0.430921875 0.7659026 -0.5499505
0.4320703125 0.5249542 -0.7212648
0.43321875 0.2579244 -0.807003
0.4343671875 -0.008506694 -0.807031
0.435515625 -0.2492561 -0.7287381
0.4366640625 -0.4437234 -0.5868654
0.4378125 -0.5767015 -0.4016511
0.4389609375 -0.6427431 -0.1965737
0.440109375 -0.643512 0.007182874
0.4412578125 -0.587043 0.1909357
0.44240625 -0.4856186 0.3421755
0.4435546875 -0.3525804 0.4520395
0.444703125 -0.2013333 0.5178559
0.4458515625 -0.04479624 0.5391063
0.447 0.1066279 0.5184286
0.4481484375 0.2437128 0.4603727
0.449296875 0.3585756 0.3696554
0.4504453125 0.4451175 0.2535402
0.45159375 0.4979349 0.1186431
0.4527421875 0.5135857 -0.02618657
0.453890625 0.489069 -0.1717495
0.4550390625 0.4246733 -0.3081943
0.4561875 0.3222242 -0.4241739
0.4573359375 0.188039 -0.5082763
0.458484375 0.03018395 -0.5513055
0.4596328125 -0.138022 -0.5452327
0.46078125 -0.3008643 -0.487301
0.4619296875 -0.4413526 -0.380044
0.463078125 -0.5440263 -0.2317897
0.4642265625 -0.5968205 -0.05693749
0.465375 -0.593852 0.1273966
0.4665234375 -0.5344195 0.3030857
0.467671875 -0.4249181 0.4534974
0.4688203125 -0.2761379 0.5658497
0.46996875 -0.1005963 0.6311644
0.4711171875 0.08733751 0.6449755
0.472265625 0.2749727 0.6060207
0.4734140625 0.447349 0.5169998
0.4745625 0.5945532 0.3816811
0.4757109375 0.7055311 0.2063248
0.476859375 0.7692747 -0.001116333
0.4780078125 0.7779931 -0.2312656
0.47915625 0.7224878 -0.4713001
0.4803046875 0.595858 -0.706152
0.481453125 0.3939379 -0.9169991
0.4826015625 0.1151412 -1.081371
0.48375 -0.236561 -1.171869
0.4848984375 -0.6488828 -1.157601
0.486046875 -1.101412 -1.004086
0.4871953125 -1.552055 -0.6754595
0.48834375 -1.947606 -0.13308
0.4894921875 -2.195384 0.6578224
0.490640625 -2.146681 1.721792
0.4917890625 -1.530757 3.023854
0.4929375 0.1227747 4.272696
0.4940859375 3.204934 4.253393
0.495234375 5.796648 1.023126
0.4963828125 4.412839 -2.864201
0.49753125 1.548729 -3.864994
0.4986796875 -0.3539087 -3.240117
0.499828125 -1.310575 -2.269457
0.5009765625 -1.694162 -1.357403
0.502125 -1.748516 -0.5985047
0.5032734375 -1.609295 -0.001064668
0.504421875 -1.355907 0.4465214
0.5055703125 -1.039596 0.7582276
0.50671875 -0.6956841 0.9480568
0.5078671875 -0.350128 1.029347
0.509015625 -0.02397738 1.014999
0.5101640625 0.2650542 0.9185557
0.5113125 0.5016357 0.7553777
0.5124609375 0.6735699 0.542309
0.513609375 0.7727166 0.2992564
0.5147578125 0.7955993 0.04738142
0.51590625 0.7443769 -0.1916991
0.5170546875 0.6275398 -0.397537
0.518203125 0.45903 -0.5529716
0.5193515625 0.2580637 -0.6465255
0.5205 0.04532568 -0.6736146
0.5216484375 -0.1583745 -0.6358142
0.522796875 -0.3353755 -0.5422296
0.5239453125 -0.4712232 -0.405004
0.52509375 -0.5585247 -0.23899
0.5262421875 -0.5931728 -0.05928424
0.527390625 -0.5752221 0.1178345
0.5285390625 -0.508994 0.2801299
0.5296875 -0.4011631 0.4161141
0.5308359375 -0.2602484 0.5164167
0.531984375 -0.09604248 0.5737911
0.5331328125 0.07981063 0.5836087
0.53428125 0.2552216 0.5428423
0.5354296875 0.4169525 0.4518646
0.536578125 0.551314 0.3136355
0.5377265625 0.6447841 0.1344893
0.538875 0.6841457 -0.07556348
0.5400234375 0.6582449 -0.3015603
0.541171875 0.5591937 -0.5257021
0.5423203125 0.384112 -0.7232173
0.54346875 0.1353636 -0.870392
0.5446171875 -0.1773619 -0.9407345
0.545765625 -0.5325106 -0.9056529
0.5469140625 -0.905372 -0.7405197
0.5480625 -1.256616 -0.4178278
0.5492109375 -1.529892 0.08970912
0.550359375 -1.631514 0.8149057
0.5515078125 -1.376925 1.775325
0.55265625 -0.3747511 2.833552
0.5538046875 1.847538 3.094422
0.554953125 3.814055 0.8195357
0.5561015625 2.783294 -1.798273
0.55725 0.9423408 -2.36713
0.5583984375 -0.2305847 -1.970574
0.559546875 -0.8282939 -1.373671
0.5606953125 -1.078819 -0.8010377
0.56184375 -1.11767 -0.3093739
0.5629921875 -1.021191 0.08746037
0.564140625 -0.838535 0.3879962
0.5652890625 -0.6037164 0.5930426
0.5664375 -0.3449472 0.7060066
0.5675859375 -0.08575587 0.7319797
0.568734375 0.1526728 0.6807625
0.5698828125 0.3515076 0.5652637
0.57103125 0.4968612 0.4009835
0.5721796875 0.5790347 0.2083366
0.573328125 0.5960371 0.007762557
0.5744765625 0.5504408 -0.1813769
0.575625 0.4514529 -0.3400508
0.5767734375 0.3123561 -0.4565585
0.577921875 0.1489208 -0.5228129
0.5790703125 -0.02239511 -0.5357357
0.58021875 -0.1858312 -0.4974017
0.5813671875 -0.3284425 -0.4137877
0.582515625 -0.4393194 -0.2937664
0.5836640625 -0.5104024 -0.1474054
0.5848125 -0.5368626 0.0133552
0.5859609375 -0.5165313 0.1766278
0.587109375 -0.449558 0.330471
0.5882578125 -0.3396561 0.4624385
0.58940625 -0.192103 0.5615925
0.5905546875 -0.01530461 0.617301
0.591703125 0.179262 0.6208262
0.5928515625 0.3774977 0.5657382
0.594 0.5629705 0.4483601
0.5951484375 0.7164983 0.2702312
0.596296875 0.8184645 0.03776372
0.5974453125 0.8497623 -0.2361413
0.59859375 0.7932712 -0.5321961
0.5997421875 0.6353763 -0.8250244
0.600890625 0.3691775 -1.084233
0.6020390625 -0.003979876 -1.270804
0.6031875 -0.4782994 -1.345506
0.6043359375 -1.036495 -1.257886
0.605484375 -1.645654 -0.9418306
0.6066328125 -2.239929 -0.3022563
0.60778125 -2.652595 0.798016
0.6089296875 -2.4434 2.469961
0.610078125 -0.695897 4.23408
0.6112265625 2.557184 3.918432
0.612375 4.028903 1.086448
0.6135234375 3.155678 -1.092828
0.614671875 1.822086 -1.930762
0.6158203125 0.7325723 -2.039408
0.61696875 -0.04902212 -1.820887
0.6181171875 -0.5751083 -1.460935
0.619265625 -0.9001429 -1.049237
0.6204140625 -1.06405 -0.6332623
0.6215625 -1.09702 -0.2424004
0.6227109375 -1.02627 0.1010897
0.623859375 -0.8753645 0.3821213
0.6250078125 -0.6675904 0.5899681
0.62615625 -0.4264615 0.7191423
0.6273046875 -0.1767363 0.7674797
0.628453125 0.06104625 0.7421654
0.6296015625 0.2690402 0.6534178
0.63075 0.4303273 0.5158972
0.6318984375 0.5389656 0.3463629
0.633046875 0.5904317 0.1628539
0.6341953125 0.5864476 -0.01817106
0.63534375 0.5337049 -0.1818545
0.6364921875 0.4411064 -0.317643
0.637640625 0.3193513 -0.4172595
0.6387890625 0.1803913 -0.4769438
0.6399375 0.03528093 -0.4952773
0.6410859375 -0.1050152 -0.4735546
0.642234375 -0.2310477 -0.4162546
0.6433828125 -0.3347104 -0.3283705
0.64453125 -0.4095569 -0.216979
0.6456796875 -0.4509074 -0.0905491
0.646828125 -0.4555629 0.04200486
0.6479765625 -0.4238375 0.1707418
0.649125 -0.3568569 0.2857081
0.6502734375 -0.2595736 0.3780055
0.651421875 -0.1389717 0.4393217
0.6525703125 -0.004448 0.4638185
0.65371875 0.1328662 0.4479531
0.6548671875 0.2613031 0.3921349
0.656015625 0.3690849 0.3002814
0.6571640625 0.4460281 0.1796209
0.6583125 0.4844932 0.03984351
0.6594609375 0.4802529 -0.1064378
0.660609375 0.4332003 -0.2467442
0.6617578125 0.3465821 -0.3690888
0.66290625 0.2265961 -0.4624639
0.6640546875 0.08251013 -0.5188292
0.665203125 -0.07467895 -0.5322832
0.6663515625 -0.2331379 -0.5004575
0.6675 -0.3807262 -0.4230727
0.6686484375 -0.5053194 -0.3035817
0.669796875 -0.5954818 -0.1477886
0.6709453125 -0.640991 0.03581017
0.67209375 -0.6330582 0.2355454
0.6732421875 -0.5652187 0.4380803
0.674390625 -0.43376 0.6262693
0.6755390625 -0.2386977 0.7815256
0.6766875 0.0152976 0.8828084
0.6778359375 0.3172762 0.9080084
0.678984375 0.6488535 0.8345178
0.6801328125 0.983929 0.6418599
0.68128125 1.284613 0.3089031
0.6824296875 1.497184 -0.1788199
0.683578125 1.544191 -0.8288166
0.6847265625 1.300079 -1.623723
0.685875 0.5668405 -2.45652
0.6870234375 -0.9044521 -2.951551
0.688171875 -2.921388 -2.180372
0.6893203125 -3.777781 0.2981003
0.69046875 -2.403207 2.325037
0.6916171875 -0.5975471 2.645747
0.692765625 0.5624513 2.10952
0.6939140625 1.129054 1.390715
0.6950625 1.318194 0.7286287
0.6962109375 1.282177 0.1863142
0.697359375 1.113411 -0.2275743
0.6985078125 0.8702754 -0.5187134
0.69965625 0.5919492 -0.698341
0.7008046875 0.3084976 -0.778596
0.701953125 0.04161422 -0.7733343
0.7031015625 -0.1924106 -0.6965255
0.70425 -0.3781008 -0.5644983
0.7053984375 -0.5087484 -0.3938396
0.706546875 -0.5784218 -0.2024553
0.7076953125 -0.5867624 -0.008092239
0.70884375 -0.5379179 0.1720392
0.7099921875 -0.4398801 0.3232064
0.711140625 -0.3045654 0.4334053
0.7122890625 -0.1460482 0.4951044
0.7134375 0.01854127 0.5043031
0.7145859375 0.1750272 0.4633471
0.715734375 0.3088617 0.3779919
0.7168828125 0.4088271 0.2576103
0.71803125 0.4668046 0.1139361
0.7191796875 0.4786831 -0.03964905
0.720328125 0.4438971 -0.1899771
0.7214765625 0.364757 -0.3244001
0.722625 0.24816 -0.4303989
0.7237734375 0.1016734 -0.4986251
0.724921875 -0.06337213 -0.5213909
0.7260703125 -0.2347228 -0.4929281
0.72721875 -0.3977309 -0.4108372
0.7283671875 -0.5372429 -0.2764989
0.729515625 -0.6367043 -0.09386881
0.7306640625 -0.6805966 0.1274378
0.7318125 -0.6524709 0.3737154
0.7329609375 -0.5390227 0.6265075
0.734109375 -0.3290893 0.8576292
0.7352578125 -0.01444919 1.036938
0.73640625 0.4063561 1.119632
0.7375546875 0.9267008 1.045373
0.738703125 1.518885 0.7235779
0.7398515625 2.089542 0.008060192
0.741 2.3356 -1.303854
0.7421484375 1.399778 -3.107902
0.743296875 -1.367278 -3.591576
0.7444453125 -3.141153 -1.400273
0.74559375 -2.650511 0.5850957
0.7467421875 -1.598783 1.411096
0.747890625 -0.6993482 1.580048
0.7490390625 -0.04139722 1.388716
0.7501875 0.3897482 1.13079
0.7513359375 0.6600587 0.8206446
0.752484375 0.8010858 0.5010899
0.7536328125 0.8380798 0.1979678
0.75478125 0.7914128 -0.07115626
0.7559296875 0.681201 -0.2939292
0.757078125 0.5240146 -0.4622658
0.7582265625 0.3379582 -0.5710684
0.759375 0.1397206 -0.6192907
0.7605234375 -0.0545669 -0.6082367
0.761671875 -0.2302806 -0.5439491
0.7628203125 -0.3744655 -0.4346702
0.76396875 -0.4770542 -0.2920658
0.7651171875 -0.5315787 -0.1299502
0.766265625 -0.5352314 0.03698843
0.7674140625 -0.4903997 0.1942502
0.7685625 -0.4028398 0.328567
0.7697109375 -0.2818594 0.4295162
0.770859375 -0.138815 0.4897964
0.7720078125 0.01353267 0.5052758
0.77315625 0.162431 0.4765752
0.7743046875 0.2959746 0.4069889
0.775453125 0.4035465 0.3027072
0.7766015625 0.4775743 0.1719237
0.77775 0.5120106 0.02509121
0.7788984375 0.5038028 -0.1275023
0.780046875 0.4531067 -0.2740636
0.7811953125 0.3610563 -0.4031673
0.78234375 0.2334568 -0.5044686
0.7834921875 0.07751994 -0.5683014
0.784640625 -0.09645627 -0.586084
0.7857890625 -0.2763658 -0.5526861
0.7869375 -0.4477123 -0.465402
0.7880859375 -0.5940809 -0.3254032
0.789234375 -0.7004136 -0.1384149
0.7903828125 -0.7509992 0.0853905
0.79153125 -0.7332428 0.3308096
0.7926796875 -0.6372493 0.5780205
0.793828125 -0.4583797 0.804533
0.7949765625 -0.1980399 0.983732
0.796125 0.1361225 1.089213
0.7972734375 0.5305797 1.090674
0.798421875 0.9631647 0.9576519
0.7995703125 1.401168 0.6514172
0.80071875 1.788938 0.1275332
0.8018671875 2.020679 -0.672241
0.803015625 1.877228 -1.786352
0.8041640625 0.9167477 -3.056525
0.8053125 -1.265731 -3.562496
0.8064609375 -3.407782 -1.897881
0.807609375 -3.353929 0.578719
0.8087578125 -2.04378 1.8369
0.80990625 -0.8070719 2.063767
0.8110546875 0.06108561 1.826036
0.812203125 0.6077974 1.41957
0.8133515625 0.913582 0.9715319
0.8145 1.041059 0.5419269
0.8156484375 1.036111 0.1586737
0.816796875 0.9339004 -0.1605389
0.8179453125 0.7642035 -0.4058267
0.81909375 0.5528644 -0.5733455
0.8202421875 0.3240015 -0.6632858
0.821390625 0.09789887 -0.6809902
0.8225390625 -0.1069757 -0.6356155
0.8236875 -0.2768559 -0.5391948
0.8248359375 -0.4025465 -0.4064898
0.825984375 -0.4793487 -0.2527837
0.8271328125 -0.5067474 -0.09345821
0.82828125 -0.4882573 0.05836388
0.8294296875 -0.4300897 0.1912841
0.830578125 -0.3410051 0.2971509
0.8317265625 -0.2306455 0.3702898
0.832875 -0.1090093 0.4079285
0.8340234375 0.01401644 0.4099608
0.835171875 0.1295439 0.3785828
0.8363203125 0.2293025 0.3177652
0.83746875 0.3063337 0.2333712
0.8386171875 0.3562009 0.1319215
0.839765625 0.3753524 0.02165518
0.8409140625 0.3626112 -0.08885229
0.8420625 0.3187397 -0.1911805
0.8432109375 0.2476031 -0.2765518
0.844359375 0.1540003 -0.3381313
0.8455078125 0.04560829 -0.3698272
0.84665625 -0.0680079 -0.3682414
0.8478046875 -0.1773007 -0.3325644
0.848953125 -0.2720285 -0.2652768
0.8501015625 -0.3432182 -0.1717583
0.85125 -0.3838431 -0.05969417
0.8523984375 -0.3889922 0.06089067
0.853546875 -0.3576377 0.1796812
0.8546953125 -0.2911378 0.285643
0.85584375 -0.1944519 0.368947
0.8569921875 -0.07463801 0.4215832
0.858140625 0.05963207 0.4377309
0.8592890625 0.1976961 0.4133387
0.8604375 0.3286688 0.3469869
0.8615859375 0.4412 0.240475
0.862734375 0.5233306 0.09689417
0.8638828125 0.5635943 -0.07697701
0.86503125 0.5504297 -0.2718353
0.8661796875 0.4728441 -0.4753034
0.867328125 0.319894 -0.6692997
0.8684765625 0.08152172 -0.8304712
0.869625 -0.250329 -0.9214166
0.8707734375 -0.6770099 -0.8879165
0.871921875 -1.173334 -0.6375962
0.8730703125 -1.630607 -0.03245676
0.87421875 -1.701224 1.036401
0.8753671875 -0.7711074 2.14727
0.876515625 0.8507565 2.076005
0.8776640625 1.664086 0.9436939
0.8788125 1.546366 -0.06358258
0.8799609375 1.09305 -0.6201961
0.881109375 0.6152759 -0.8412023
0.8822578125 0.2105044 -0.8582968
0.88340625 -0.09931242 -0.7586476
0.8845546875 -0.3150559 -0.595564
0.885703125 -0.4456799 -0.4048315
0.8868515625 -0.5024779 -0.2113212
0.888 -0.4982206 -0.03199623
0.8891484375 -0.4459268 0.1212042
0.890296875 -0.3581953 0.2408707
0.8914453125 -0.2476509 0.3226152
0.89259375 -0.1260231 0.3650739
0.8937421875 -0.004306008 0.3695635
0.894890625 0.1082776 0.3392082
0.8960390625 0.2030675 0.2791722
0.8971875 0.2734276 0.195944
0.8983359375 0.3148766 0.09810168
0.899484375 0.3246368 -0.006225381
0.9006328125 0.3026558 -0.1070489
0.90178125 0.2514707 -0.1957868
0.9029296875 0.1758106 -0.2642784
0.904078125 0.08315052 -0.3059104
0.9052265625 -0.01812266 -0.3171491
0.906375 -0.1179711 -0.2964081
0.9075234375 -0.2070665 -0.2457353
0.908671875 -0.2765818 -0.1695311
0.9098203125 -0.3197835 -0.07479019
0.91096875 -0.3322985 0.02976894
0.9121171875 -0.3122976 0.1345204
0.913265625 -0.2606484 0.2302916
0.9144140625 -0.180896 0.3079475
0.9155625 -0.07905853 0.3597023
0.9167109375 0.03759183 0.3799813
0.917859375 0.1594954 0.3640903
0.9190078125 0.276818 0.3109922
0.92015625 0.3789152 0.2209368
0.9213046875 0.4548419 0.09729823
0.922453125 0.4937797 -0.05383087
0.9236015625 0.4851065 -0.2225017
0.92475 0.4210509 -0.3967355
0.9258984375 0.2944918 -0.559462
0.927046875 0.1028563 -0.6898063
0.9281953125 -0.1522921 -0.7618862
0.92934375 -0.4602272 -0.74494
0.9304921875 -0.7968904 -0.6010736
0.931640625 -1.116107 -0.2896251
0.9327890625 -1.327983 0.2276162
0.9339375 -1.272259 0.9407101
0.9350859375 -0.7292053 1.682293
0.936234375 0.3588056 1.992246
0.9373828125 1.464199 1.430361
0.93853125 1.855757 0.3362815
0.9396796875 1.541121 -0.5713671
0.940828125 0.9532804 -1.034708
0.9419765625 0.3812608 -1.14735
0.943125 -0.07272017 -1.048969
0.9442734375 -0.3913725 -0.8405409
0.945421875 -0.5858704 -0.5858437
0.9465703125 -0.675928 -0.3240567
0.94771875 -0.68095 -0.08029371
0.9488671875 -0.6202329 0.1292699
0.950015625 -0.5111668 0.2954453
0.9511640625 -0.3707769 0.4126019
0.9523125 -0.2134196 0.4791531
0.9534609375 -0.05367083 0.4962784
0.954609375 0.09577253 0.4679199
0.9557578125 0.2244145 0.4002205
0.95690625 0.3236281 0.3020039
0.9580546875 0.3872731 0.1836172
0.959203125 0.4124835 0.05593988
0.9603515625 0.3991843 -0.06976104
0.9615 0.3508672 -0.1827191
0.9626484375 0.2731435 -0.2738344
0.963796875 0.1745138 -0.3364886
0.9649453125 0.06439582 -0.3665861
0.96609375 -0.04755928 -0.363084
0.9672421875 -0.1515589 -0.3278906
0.968390625 -0.2391405 -0.2648313
0.9695390625 -0.3040266 -0.1807148
0.9706875 -0.3414604 -0.08249981
0.9718359375 -0.349347 0.02137987
0.972984375 -0.3275687 0.1227961
0.9741328125 -0.2780782 0.2139243
0.97528125 -0.2047888 0.287582
0.9764296875 -0.1128091 0.3381931
0.977578125 -0.009046408 0.3612333
0.9787265625 0.09883989 0.3538626
0.979875 0.2025907 0.3155306
0.9810234375 0.293572 0.2478283
0.982171875 0.3636182 0.1539631
0.9833203125 0.4052058 0.0400269
0.98446875 0.4124503 -0.08565173
0.9856171875 0.3819061 -0.2135993
0.986765625 0.3120318 -0.3321719
0.9879140625 0.2054962 -0.4297884
0.9890625 0.06775947 -0.4951533
0.9902109375 -0.09204293 -0.5184913
0.991359375 -0.2616773 -0.4917575
0.9925078125 -0.4267589 -0.4109487
0.99365625 -0.5712139 -0.2751252
0.9948046875 -0.6774923 -0.08755635
0.995953125 -0.7284615 0.1439663
0.9971015625 -0.7061796 0.4083133
0.99825 -0.5911841 0.6870806
0.9993984375 -0.3637409 0.9556227
1.000546875 -0.001405355 1.173695
1.0016953125 0.5167871 1.272985
