# GHz S RI R 50
0.001	-0.999974649101298	0.000235575763628201
0.003	-0.999955911868353	0.000674606679050219
0.005	-0.999942762901899	0.00110785334611609
0.007	-0.999931818765665	0.00153870373237635
0.009	-0.999922095550743	0.00196814397370236
0.011	-0.999913142958541	0.00239662575206595
0.013	-0.999904710156701	0.00282440085750438
0.015	-0.999896640433504	0.00325162670835363
0.017	-0.999888828130439	0.00367840950680402
0.019	-0.999881198016621	0.0041048249145263
0.021	-0.999873694279439	0.00453092909284294
0.023	-0.999866274161184	0.00495676508629567
0.025	-0.99985890404897	0.00538236674657478
0.027	-0.999851556952432	0.00580776126467844
0.029	-0.999844210810891	0.00623297087098566
0.031	-0.999836847319172	0.0066580140149037
0.033	-0.999829451090141	0.00708290620651695
0.035	-0.999822009042994	0.00750766063158233
0.037	-0.99981450994712	0.00793228861029841
0.039	-0.999806944075728	0.00835679994578493
0.041	-0.999799302938605	0.00878120319305049
0.043	-0.999791579072984	0.00920550586956245
0.045	-0.999783765877772	0.00962971462220907
0.047	-0.999775857480642	0.0100538353612111
0.049	-0.999767848630366	0.0104778733686457
0.051	-0.999759734608759	0.01090183338723
0.053	-0.999751511158048	0.0113257196935843
0.055	-0.999743174420478	0.0117495361591687
0.057	-0.999734720887734	0.0121732863013374
0.059	-0.999726147358289	0.012596973326402
0.061	-0.999717450901231	0.013020600166183
0.063	-0.999708628825365	0.013444169509212
0.065	-0.999699678652739	0.0138676838275149
0.067	-0.999690598095779	0.0142911453997147
0.069	-0.999681385037504	0.0147145563310572
0.071	-0.999672037514296	0.0151379185708433
0.073	-0.99966255370084	0.0155612339276698
0.075	-0.999652931896928	0.0159845040828046
0.077	-0.999643170515816	0.0164077306019687
0.079	-0.999633268073949	0.0168309149457516
0.081	-0.999623223181861	0.0172540584788486
0.083	-0.999613034536054	0.0176771624782784
0.085	-0.999602700911783	0.0181002281407169
0.087	-0.999592221156579	0.0185232565890587
0.089	-0.999581594184466	0.0189462488783057
0.091	-0.999570818970723	0.0193692060008634
0.093	-0.999559894547207	0.0197921288913173
0.095	-0.999548819998084	0.0202150184307498
0.097	-0.999537594455996	0.0206378754506513
0.099	-0.999526217098567	0.0210607007364704
0.101	-0.999514687145224	0.0214834950308437
0.103	-0.999503003854311	0.0219062590365394
0.105	-0.999491166520445	0.0223289934191455
0.107	-0.999479174472106	0.0227516988095294
0.109	-0.999467027069418	0.0231743758060908
0.111	-0.999454723702124	0.0235970249768313
0.113	-0.999442263787722	0.0240196468612556
0.115	-0.999429646769744	0.0244422419721239
0.117	-0.999416872116174	0.0248648107970665
0.119	-0.999403939317991	0.0252873538000758
0.121	-0.99939084788781	0.0257098714228861
0.123	-0.999377597358637	0.0261323640862512
0.125	-0.999364187282708	0.026554832191129
0.127	-0.999350617230413	0.0269772761197815
0.129	-0.999336886789297	0.0273996962367973
0.131	-0.999322995563126	0.0278220928900434
0.133	-0.999308943171026	0.0282444664115513
0.135	-0.999294729246672	0.0286668171183445
0.137	-0.999280353437534	0.02908914531321
0.139	-0.999265815404174	0.0295114512854207
0.141	-0.999251114819587	0.0299337353114103
0.143	-0.99923625136858	0.0303559976554056
0.145	-0.999221224747202	0.0307782385700198
0.147	-0.999206034662192	0.0312004582968084
0.149	-0.999190680830479	0.0316226570667917
0.151	-0.9991751629787	0.0320448351009459
0.153	-0.999159480842744	0.0324669926106652
0.155	-0.999143634167342	0.0328891297981962
0.157	-0.999127622705657	0.0333112468570487
0.159	-0.999111446218911	0.0337333439723811
0.161	-0.999095104476034	0.0341554213213659
0.163	-0.999078597253326	0.0345774790735338
0.165	-0.999061924334139	0.0349995173910994
0.167	-0.999045085508582	0.0354215364292691
0.169	-0.999028080573237	0.0358435363365325
0.171	-0.999010909330887	0.0362655172549381
0.173	-0.998993571590268	0.0366874793203555
0.175	-0.998976067165831	0.0371094226627229
0.177	-0.998958395877497	0.0375313474062823
0.179	-0.998940557550462	0.0379532536698034
0.181	-0.998922552014983	0.0383751415667959
0.183	-0.998904379106173	0.0387970112057105
0.185	-0.998886038663829	0.039218862690132
0.187	-0.998867530532248	0.0396406961189607
0.189	-0.998848854560066	0.0400625115865875
0.191	-0.998830010600084	0.0404843091830587
0.193	-0.99881099850913	0.040906088994234
0.195	-0.998791818147905	0.0413278511019377
0.197	-0.998772469380846	0.0417495955841017
0.199	-0.998752952075997	0.042171322514903
0.201	-0.998733266104873	0.0425930319648943
0.203	-0.998713411342354	0.0430147240011301
0.205	-0.998693387666556	0.0434363986872853
0.207	-0.998673194958728	0.0438580560837699
0.209	-0.998652833103145	0.0442796962478391
0.211	-0.998632301987006	0.0447013192336972
0.213	-0.998611601500336	0.0451229250925986
0.215	-0.998590731535899	0.0455445138729437
0.217	-0.998569691989107	0.045966085620371
0.219	-0.998548482757924	0.0463876403778454
0.221	-0.998527103742806	0.0468091781857433
0.223	-0.998505554846603	0.0472306990819332
0.225	-0.998483835974498	0.0476522031018547
0.227	-0.998461947033927	0.0480736902785928
0.229	-0.998439887934507	0.0484951606429495
0.231	-0.998417658587983	0.048916614223514
0.233	-0.998395258908147	0.0493380510467287
0.235	-0.998372688810794	0.0497594711369529
0.237	-0.998349948213647	0.0501808745165246
0.239	-0.998327037036312	0.0506022612058197
0.241	-0.998303955200218	0.0510236312233089
0.243	-0.998280702628566	0.0514449845856128
0.245	-0.998257279246277	0.0518663213075541
0.247	-0.998233684979941	0.0522876414022091
0.249	-0.998209919757783	0.0527089448809571
0.251	-0.998185983509593	0.0531302317535264
0.253	-0.998161876166713	0.0535515020280414
0.255	-0.998137597661969	0.0539727557110657
0.257	-0.998113147929645	0.054393992807645
0.259	-0.998088526905434	0.0548152133213477
0.261	-0.998063734526414	0.055236417254305
0.263	-0.998038770730998	0.0556576046072486
0.265	-0.998013635458906	0.0560787753795482
0.267	-0.997988328651128	0.0564999295692464
0.269	-0.99796285024989	0.0569210671730938
0.271	-0.997937200198629	0.0573421881865825
0.273	-0.997911378441953	0.0577632926039773
0.275	-0.997885384925622	0.0581843804183485
0.277	-0.997859219596504	0.0586054516216002
0.279	-0.997832882402564	0.059026506204501
0.281	-0.997806373292832	0.0594475441567118
0.283	-0.997779692217364	0.0598685654668129
0.285	-0.997752839127234	0.0602895701223303
0.287	-0.997725813974508	0.0607105581097626
0.289	-0.997698616712201	0.0611315294146039
0.291	-0.997671247294282	0.0615524840213701
0.293	-0.997643705675632	0.0619734219136205
0.295	-0.997615991812032	0.0623943430739812
0.297	-0.997588105660137	0.0628152474841673
0.299	-0.997560047177455	0.0632361351250034
0.301	-0.997531816322334	0.0636570059764449
0.303	-0.997503413053941	0.0640778600175982
0.305	-0.997474837332238	0.0644986972267394
0.307	-0.997446089117967	0.0649195175813339
0.309	-0.997417168372638	0.0653403210580543
0.311	-0.997388075058504	0.0657611076327986
0.313	-0.997358809138549	0.066181877280707
0.315	-0.997329370576476	0.0666026299761795
0.317	-0.997299759336677	0.0670233656928907
0.319	-0.997269975384239	0.067444084403808
0.321	-0.997240018684912	0.0678647860812047
0.323	-0.997209889205103	0.0682854706966763
0.325	-0.99717958691186	0.0687061382211549
0.327	-0.997149111772861	0.0691267886249232
0.329	-0.997118463756395	0.0695474218776281
0.331	-0.997087642831361	0.0699680379482949
0.333	-0.997056648967241	0.0703886368053392
0.335	-0.997025482134099	0.0708092184165807
0.337	-0.996994142302565	0.071229782749255
0.339	-0.996962629443823	0.0716503297700254
0.341	-0.996930943529602	0.0720708594449953
0.343	-0.996899084532166	0.0724913717397192
0.345	-0.996867052424303	0.0729118666192142
0.347	-0.996834847179307	0.0733323440479696
0.349	-0.996802468770984	0.0737528039899592
0.351	-0.996769917173626	0.0741732464086506
0.353	-0.996737192362018	0.0745936712670154
0.355	-0.996704294311409	0.0750140785275385
0.357	-0.996671222997519	0.0754344681522285
0.359	-0.996637978396529	0.0758548401026268
0.361	-0.996604560485062	0.0762751943398156
0.363	-0.996570969240185	0.0766955308244281
0.365	-0.996537204639397	0.0771158495166566
0.367	-0.996503266660622	0.0775361503762606
0.369	-0.996469155282197	0.0779564333625752
0.371	-0.996434870482876	0.0783766984345195
0.373	-0.996400412241805	0.0787969455506033
0.375	-0.996365780538535	0.0792171746689365
0.377	-0.996330975352997	0.0796373857472347
0.379	-0.996295996665509	0.0800575787428278
0.381	-0.996260844456758	0.0804777536126659
0.383	-0.996225518707806	0.0808979103133278
0.385	-0.996190019400069	0.081318048801026
0.387	-0.996154346515328	0.0817381690316148
0.389	-0.996118500035702	0.0821582709605956
0.391	-0.996082479943664	0.082578354543124
0.393	-0.996046286222019	0.0829984197340158
0.395	-0.996009918853908	0.0834184664877528
0.397	-0.995973377822796	0.0838384947584887
0.399	-0.995936663112475	0.0842585045000552
0.401	-0.99589977470704	0.0846784956659667
0.403	-0.995862712590917	0.0850984682094278
0.405	-0.99582547674882	0.085518422083336
0.407	-0.995788067165774	0.0859383572402892
0.409	-0.995750483827101	0.0863582736325896
0.411	-0.995712726718412	0.0867781712122494
0.413	-0.995674795825601	0.0871980499309948
0.415	-0.995636691134855	0.0876179097402724
0.417	-0.995598412632634	0.0880377505912525
0.419	-0.995559960305667	0.0884575724348338
0.421	-0.995521334140964	0.0888773752216491
0.423	-0.995482534125792	0.0892971589020682
0.425	-0.995443560247686	0.0897169234262037
0.427	-0.995404412494432	0.0901366687439137
0.429	-0.995365090854076	0.0905563948048072
0.431	-0.995325595314913	0.0909761015582478
0.433	-0.995285925865484	0.0913957889533573
0.435	-0.995246082494575	0.0918154569390201
0.437	-0.995206065191208	0.0922351054638866
0.439	-0.995165873944646	0.0926547344763775
0.441	-0.99512550874438	0.0930743439246866
0.443	-0.995084969580131	0.0934939337567853
0.445	-0.99504425644185	0.0939135039204255
0.447	-0.995003369319711	0.0943330543631437
0.449	-0.9949623082041	0.0947525850322631
0.451	-0.994921073085631	0.0951720958748986
0.453	-0.994879663955124	0.0955915868379588
0.455	-0.994838080803611	0.0960110578681495
0.457	-0.994796323622334	0.0964305089119769
0.459	-0.994754392402744	0.0968499399157514
0.461	-0.994712287136487	0.0972693508255889
0.463	-0.994670007815412	0.0976887415874151
0.465	-0.994627554431566	0.0981081121469677
0.467	-0.994584926977189	0.0985274624498001
0.469	-0.994542125444718	0.0989467924412836
0.471	-0.99449914982677	0.0993661020666094
0.473	-0.994456000116159	0.0997853912707928
0.475	-0.994412676305876	0.100204659998674
0.477	-0.994369178389101	0.100623908194923
0.479	-0.994325506359186	0.10104313580404
0.481	-0.994281660209672	0.101462342770359
0.483	-0.994237639934262	0.10188152903805
0.485	-0.994193445526845	0.102300694551121
0.487	-0.994149076981471	0.10271983925342
0.489	-0.994104534292368	0.10313896308864
0.491	-0.994059817453922	0.103558066000317
0.493	-0.994014926460692	0.103977147931836
0.495	-0.993969861307397	0.104396208826431
0.497	-0.993924621988914	0.104815248627188
0.499	-0.993879208500283	0.105234267277047
0.501	-0.993833620836701	0.105653264718803
0.503	-0.993787858993521	0.10607224089511
0.505	-0.993741922966244	0.106491195748482
0.507	-0.993695812750528	0.106910129221294
0.509	-0.993649528342185	0.107329041255785
0.511	-0.993603069737164	0.10774793179406
0.513	-0.993556436931572	0.108166800778093
0.515	-0.993509629921656	0.108585648149725
0.517	-0.993462648703803	0.109004473850669
0.519	-0.993415493274549	0.109423277822512
0.521	-0.993368163630564	0.109842060006714
0.523	-0.993320659768662	0.110260820344613
0.525	-0.99327298168579	0.110679558777425
0.527	-0.993225129379033	0.111098275246243
0.529	-0.993177102845608	0.111516969692045
0.531	-0.993128902082869	0.11193564205569
0.533	-0.993080527088296	0.112354292277922
0.535	-0.993031977859502	0.112772920299371
0.537	-0.99298325439423	0.113191526060554
0.539	-0.992934356690345	0.113610109501876
0.541	-0.992885284745845	0.114028670563637
0.543	-0.992836038558848	0.114447209186023
0.545	-0.992786618127594	0.114865725309118
0.547	-0.99273702345045	0.115284218872898
0.549	-0.992687254525901	0.115702689817236
0.551	-0.992637311352552	0.116121138081903
0.553	-0.992587193929126	0.116539563606568
0.555	-0.992536902254464	0.1169579663308
0.557	-0.992486436327524	0.11737634619407
0.559	-0.992435796147376	0.117794703135751
0.561	-0.992384981713207	0.118213037095121
0.563	-0.992333993024314	0.118631348011361
0.565	-0.992282830080111	0.119049635823561
0.567	-0.992231492880116	0.119467900470717
0.569	-0.992179981423959	0.119886141891733
0.571	-0.992128295711382	0.120304360025424
0.573	-0.992076435742228	0.120722554810515
0.575	-0.992024401516452	0.121140726185644
0.577	-0.991972193034114	0.121558874089362
0.579	-0.991919810295376	0.121976998460134
0.581	-0.991867253300504	0.12239509923634
0.583	-0.99181452204987	0.122813176356277
0.585	-0.991761616543945	0.123231229758159
0.587	-0.9917085367833	0.123649259380118
0.589	-0.991655282768608	0.124067265160206
0.591	-0.991601854500639	0.124485247036395
0.593	-0.991548251980265	0.124903204946579
0.595	-0.991494475208452	0.125321138828574
0.597	-0.991440524186266	0.125739048620118
0.599	-0.99138639891486	0.126156934258876
0.601	-0.991332099395493	0.126574795682434
0.603	-0.991277625629515	0.126992632828309
0.605	-0.991222977618364	0.127410445633941
0.607	-0.991168155363574	0.1278282340367
0.609	-0.991113158866775	0.128245997973882
0.611	-0.991057988129679	0.128663737382715
0.613	-0.991002643154097	0.129081452200357
0.615	-0.990947123941923	0.129499142363896
0.617	-0.990891430495145	0.129916807810352
0.619	-0.990835562815834	0.13033444847668
0.621	-0.990779520906155	0.130752064299766
0.623	-0.990723304768349	0.131169655216431
0.625	-0.99066691440476	0.131587221163432
0.627	-0.990610349817798	0.13200476207746
0.629	-0.990553611009971	0.132422277895145
0.631	-0.990496697983865	0.132839768553053
0.633	-0.990439610742153	0.133257233987687
0.635	-0.990382349287586	0.133674674135491
0.637	-0.990324913623006	0.134092088932848
0.639	-0.990267303751329	0.134509478316079
0.641	-0.990209519675549	0.134926842221449
0.643	-0.99015156139875	0.135344180585162
0.645	-0.99009342892409	0.135761493343366
0.647	-0.990035122254804	0.136178780432151
0.649	-0.989976641394212	0.136596041787552
0.651	-0.989917986345707	0.137013277345544
0.653	-0.989859157112763	0.137430487042053
0.655	-0.989800153698924	0.137847670812944
0.657	-0.989740976107823	0.138264828594034
0.659	-0.989681624343153	0.138681960321082
0.661	-0.989622098408696	0.139099065929796
0.663	-0.989562398308303	0.139516145355834
0.665	-0.989502524045899	0.139933198534799
0.667	-0.989442475625481	0.140350225402244
0.669	-0.989382253051123	0.140767225893672
0.671	-0.989321856326974	0.141184199944537
0.673	-0.989261285457247	0.141601147490243
0.675	-0.989200540446237	0.142018068466144
0.677	-0.989139621298299	0.142434962807548
0.679	-0.98907852801787	0.142851830449713
0.681	-0.989017260609449	0.143268671327851
0.683	-0.98895581907761	0.143685485377129
0.685	-0.988894203426994	0.144102272532665
0.687	-0.988832413662313	0.144519032729532
0.689	-0.988770449788349	0.14493576590276
0.691	-0.988708311809944	0.145352471987332
0.693	-0.988645999732022	0.145769150918188
0.695	-0.988583513559558	0.146185802630224
0.697	-0.988520853297608	0.146602427058293
0.699	-0.988458018951284	0.147019024137205
0.701	-0.988395010525773	0.147435593801727
0.703	-0.988331828026323	0.147852135986587
0.705	-0.988268471458248	0.148268650626469
0.707	-0.988204940826927	0.148685137656017
0.709	-0.988141236137803	0.149101597009834
0.711	-0.988077357396386	0.149518028622484
0.713	-0.988013304608245	0.14993443242849
0.715	-0.98794907777902	0.150350808362338
0.717	-0.987884676914403	0.150767156358473
0.719	-0.987820102020162	0.151183476351302
0.721	-0.987755353102118	0.151599768275196
0.723	-0.987690430166156	0.152016032064486
0.725	-0.987625333218226	0.152432267653467
0.727	-0.987560062264338	0.152848474976399
0.729	-0.987494617310557	0.153264653967502
0.731	-0.987428998363019	0.153680804560963
0.733	-0.987363205427913	0.154096926690932
0.735	-0.987297238511491	0.154513020291525
0.737	-0.987231097620067	0.154929085296822
0.739	-0.987164782760008	0.155345121640869
0.741	-0.987098293937745	0.155761129257677
0.743	-0.987031631159768	0.156177108081226
0.745	-0.986964794432622	0.156593058045459
0.747	-0.986897783762913	0.157008979084289
0.749	-0.986830599157308	0.157424871131594
0.751	-0.986763240622525	0.157840734121222
0.753	-0.986695708165343	0.158256567986988
0.755	-0.986628001792597	0.158672372662673
0.757	-0.986560121511181	0.15908814808203
0.759	-0.986492067328042	0.15950389417878
0.761	-0.986423839250188	0.159919610886614
0.763	-0.986355437284677	0.160335298139189
0.765	-0.986286861438629	0.160750955870137
0.767	-0.986218111719212	0.161166584013057
0.769	-0.986149188133659	0.16158218250152
0.771	-0.98608009068925	0.161997751269067
0.773	-0.986010819393319	0.16241329024921
0.775	-0.985941374253262	0.162828799375435
0.777	-0.985871755276523	0.163244278581196
0.779	-0.985801962470601	0.163659727799921
0.781	-0.985731995843051	0.164075146965012
0.783	-0.985661855401478	0.16449053600984
0.785	-0.985591541153543	0.164905894867751
0.787	-0.985521053106958	0.165321223472066
0.789	-0.985450391269488	0.165736521756075
0.791	-0.985379555648954	0.166151789653046
0.793	-0.985308546253223	0.166567027096219
0.795	-0.985237363090218	0.166982234018808
0.797	-0.985166006167916	0.167397410354003
0.799	-0.985094475494339	0.167812556034967
0.801	-0.985022771077567	0.168227670994841
0.803	-0.984950892925727	0.168642755166737
0.805	-0.984878841047	0.169057808483746
0.807	-0.984806615449612	0.169472830878934
0.809	-0.984734216141847	0.169887822285344
0.811	-0.984661643132036	0.170302782635992
0.813	-0.984588896428558	0.170717711863874
0.815	-0.984515976039847	0.171132609901963
0.817	-0.984442881974382	0.171547476683206
0.819	-0.984369614240692	0.171962312140529
0.821	-0.98429617284736	0.172377116206836
0.823	-0.98422255780301	0.172791888815009
0.825	-0.984148769116323	0.173206629897906
0.827	-0.984074806796027	0.173621339388365
0.829	-0.984000670850893	0.174036017219202
0.831	-0.983926361289747	0.174450663323213
0.833	-0.983851878121461	0.174865277633169
0.835	-0.983777221354953	0.175279860081823
0.837	-0.983702390999191	0.175694410601908
0.839	-0.983627387063192	0.176108929126135
0.841	-0.983552209556017	0.176523415587195
0.843	-0.983476858486778	0.176937869917759
0.845	-0.983401333864629	0.177352292050477
0.847	-0.983325635698778	0.177766681917983
0.849	-0.983249763998475	0.178181039452887
0.851	-0.983173718773017	0.178595364587782
0.853	-0.983097500031748	0.179009657255242
0.855	-0.983021107784062	0.179423917387823
0.857	-0.982944542039392	0.179838144918059
0.859	-0.982867802807222	0.18025233977847
0.861	-0.982790890097082	0.180666501901553
0.863	-0.982713803918548	0.181080631219792
0.865	-0.982636544281236	0.181494727665649
0.867	-0.982559111194816	0.18190879117157
0.869	-0.982481504668994	0.182322821669982
0.871	-0.98240372471353	0.182736819093297
0.873	-0.982325771338222	0.183150783373908
0.875	-0.982247644552918	0.183564714444193
0.877	-0.982169344367508	0.18397861223651
0.879	-0.982090870791927	0.184392476683204
0.881	-0.982012223836155	0.1848063077166
0.883	-0.981933403510212	0.185220105269008
0.885	-0.98185440982417	0.185633869272723
0.887	-0.981775242788141	0.186047599660024
0.889	-0.981695902412279	0.186461296363172
0.891	-0.981616388706784	0.186874959314415
0.893	-0.981536701681898	0.187288588445983
0.895	-0.981456841347909	0.187702183690093
0.897	-0.981376807715145	0.188115744978945
0.899	-0.98129660079398	0.188529272244725
0.901	-0.981216220594832	0.188942765419604
0.903	-0.981135667128157	0.189356224435738
0.905	-0.981054940404459	0.189769649225269
0.907	-0.980974040434281	0.190183039720323
0.909	-0.980892967228211	0.190596395853016
0.911	-0.98081172079688	0.191009717555444
0.913	-0.980730301150958	0.191423004759694
0.915	-0.980648708301162	0.191836257397836
0.917	-0.980566942258245	0.192249475401928
0.919	-0.980485003033006	0.192662658704014
