# GHz S RI R 50
0.001	-0.999922244162094	0.000531530407758586
0.003	-0.999864452167197	0.00149609821073613
0.005	-0.99982347256014	0.00244290224887214
0.007	-0.999788943190665	0.00338233439938647
0.009	-0.9997578524646	0.00431742073518793
0.011	-0.999728822823404	0.00524954771173603
0.013	-0.999701087321776	0.00617948835473347
0.015	-0.999674167049977	0.0071077259934729
0.017	-0.99964773928744	0.00803458669039799
0.019	-0.999621574373737	0.00896030270123753
0.021	-0.999595502019555	0.00988504636806364
0.023	-0.999569391838737	0.0108089497208244
0.025	-0.999543141388504	0.0117321165287759
0.027	-0.999516668456153	0.012654630079036
0.029	-0.999489905883436	0.0135765584001273
0.031	-0.999462797977378	0.0144979578872396
0.033	-0.999435297950976	0.0154188758892932
0.035	-0.999407366054197	0.0163393525997019
0.037	-0.999378968180561	0.0172594224671145
0.039	-0.99935007480933	0.0181791152672283
0.041	-0.999320660189512	0.0190984569302164
0.043	-0.999290701701419	0.0200174701886359
0.045	-0.999260179350737	0.0209361750912626
0.047	-0.999229075362961	0.0218545894152929
0.049	-0.99919737385494	0.0227727290004657
0.051	-0.999165060566297	0.0236906080224624
0.053	-0.999132122637949	0.0246082392185592
0.055	-0.999098548427976	0.0255256340753491
0.057	-0.999064327357472	0.0264428029860537
0.059	-0.999029449780568	0.0273597553832377
0.061	-0.99899390687419	0.0282764998514757
0.063	-0.998957690544007	0.0291930442235541
0.065	-0.998920793343733	0.0301093956630582
0.067	-0.998883208405578	0.0310255607356311
0.069	-0.998844929379978	0.0319415454707477
0.071	-0.998805950383176	0.0328573554155048
0.073	-0.99876626595141	0.0337729956816537
0.075	-0.998725871000738	0.0346884709868859
0.077	-0.998684760791665	0.0356037856912087
0.079	-0.998642930897893	0.036518943829106
0.081	-0.998600377178624	0.037433949138067
0.083	-0.998557095753934	0.0383488050839733
0.085	-0.998513082982805	0.0392635148837562
0.087	-0.998468335443481	0.0401780815256754
0.089	-0.998422849915862	0.0410925077875186
0.091	-0.998376623365662	0.0420067962529757
0.093	-0.998329652930131	0.0429209493264073
0.095	-0.998281935905184	0.0438349692461969
0.097	-0.998233469733702	0.0447488580968476
0.099	-0.998184251994963	0.0456626178199666
0.101	-0.998134280395001	0.0465762502242597
0.103	-0.998083552757847	0.0474897569946422
0.105	-0.998032067017515	0.0484031397005603
0.107	-0.997979821210689	0.049316399803606
0.109	-0.997926813470021	0.0502295386644958
0.111	-0.997873042017981	0.0511425575494793
0.113	-0.997818505161206	0.0520554576362312
0.115	-0.997763201285303	0.0529682400192789
0.117	-0.997707128850055	0.0538809057150084
0.119	-0.997650286384993	0.054793455666289
0.121	-0.99759267248532	0.0557058907467503
0.123	-0.997534285808116	0.0566182117647449
0.125	-0.997475125068829	0.0575304194670222
0.127	-0.997415189038034	0.0584425145421416
0.129	-0.997354476538399	0.0593544976236441
0.131	-0.997292986441878	0.060266369293006
0.133	-0.997230717667093	0.061178130082391
0.135	-0.99716766917689	0.0620897804772169
0.137	-0.997103839976068	0.0630013209185541
0.139	-0.997039229109249	0.0639127518053661
0.141	-0.996973835658884	0.0648240734966085
0.143	-0.996907658743396	0.0657352863131923
0.145	-0.996840697515438	0.066646390539828
0.147	-0.996772951160249	0.0675573864267533
0.149	-0.996704418894126	0.0684682741913579
0.151	-0.996635099962985	0.0693790540197105
0.153	-0.99656499364099	0.0702897260679948
0.155	-0.99649409922929	0.0712002904638628
0.157	-0.996422416054818	0.0721107473077108
0.159	-0.996349943469148	0.0730210966738803
0.161	-0.996276680847441	0.073931338611795
0.163	-0.996202627587424	0.0748414731470321
0.165	-0.996127783108444	0.0757515002823362
0.167	-0.996052146850571	0.0766614199985785
0.169	-0.99597571827374	0.0775712322556647
0.171	-0.995898496856948	0.0784809369933939
0.173	-0.995820482097496	0.0793905341322749
0.175	-0.995741673510253	0.0803000235742983
0.177	-0.995662070626986	0.0812094052036706
0.179	-0.995581672995699	0.0821186788875112
0.181	-0.995500480180016	0.0830278444765135
0.183	-0.995418491758598	0.0839369018055756
0.185	-0.99533570732458	0.084845850694398
0.187	-0.995252126485048	0.0857546909480545
0.189	-0.995167748860521	0.086663422357534
0.191	-0.995082574084491	0.0875720447002593
0.193	-0.994996601802941	0.0884805577405782
0.195	-0.994909831673927	0.0893889612302357
0.197	-0.99482226336715	0.0902972549088214
0.199	-0.994733896563567	0.0912054385041994
0.201	-0.994644730955007	0.0921135117329168
0.203	-0.994554766243815	0.0930214743005955
0.205	-0.994464002142497	0.0939293259023056
0.207	-0.994372438373396	0.0948370662229243
0.209	-0.994280074668378	0.0957446949374776
0.211	-0.994186910768525	0.0966522117114687
0.213	-0.994092946423842	0.0975596162011916
0.215	-0.993998181392996	0.0984669080540327
0.217	-0.993902615443031	0.0993740869087586
0.219	-0.993806248349125	0.100281152395793
0.221	-0.993709079894347	0.101188104137483
0.223	-0.993611109869415	0.102094941748351
0.225	-0.993512338072486	0.103001664835345
0.227	-0.993412764308924	0.103908272998067
0.229	-0.993312388391107	0.104814765829004
0.231	-0.993211210138218	0.105721142913739
0.233	-0.993109229376065	0.106627403831166
0.235	-0.99300644593689	0.107533548153689
0.237	-0.992902859659196	0.108439575447412
0.239	-0.992798470387581	0.109345485272328
0.241	-0.992693277972564	0.110251277182496
0.243	-0.992587282270446	0.111156950726214
0.245	-0.99248048314314	0.112062505446186
0.247	-0.992372880458037	0.112967940879682
0.249	-0.992264474087867	0.11387325655869
0.251	-0.992155263910558	0.114778452010067
0.253	-0.99204524980911	0.115683526755682
0.255	-0.99193443167147	0.116588480312554
0.257	-0.991822809390405	0.117493312192986
0.259	-0.9917103828634	0.118398021904695
0.261	-0.991597151992523	0.119302608950933
0.263	-0.991483116684343	0.120207072830614
0.265	-0.991368276849799	0.121111413038424
0.267	-0.991252632404125	0.122015629064936
0.269	-0.991136183266725	0.122919720396719
0.271	-0.991018929361103	0.123823686516442
0.273	-0.990900870614756	0.124727526902979
0.275	-0.99078200695909	0.125631241031503
0.277	-0.99066233832934	0.126534828373581
0.279	-0.99054186466448	0.127438288397273
0.281	-0.990420585907145	0.128341620567213
0.283	-0.990298502003561	0.129244824344701
0.285	-0.990175612903458	0.130147899187783
0.287	-0.990051918560004	0.131050844551335
0.289	-0.989927418929741	0.131953659887141
0.291	-0.989802113972507	0.132856344643969
0.293	-0.989676003651373	0.133758898267643
0.295	-0.98954908793258	0.134661320201119
0.297	-0.989421366785488	0.135563609884551
0.299	-0.989292840182492	0.136465766755358
0.301	-0.989163508098988	0.137367790248294
0.303	-0.989033370513302	0.138269679795507
0.305	-0.988902427406642	0.139171434826601
0.307	-0.988770678763046	0.140073054768701
0.309	-0.988638124569322	0.140974539046504
0.311	-0.988504764815009	0.141875887082342
0.313	-0.988370599492322	0.142777098296231
0.315	-0.98823562859611	0.14367817210593
0.317	-0.988099852123802	0.14457910792699
0.319	-0.987963270075371	0.145479905172803
0.321	-0.987825882453288	0.146380563254655
0.323	-0.98768768926248	0.147281081581771
0.325	-0.987548690510288	0.148181459561363
0.327	-0.987408886206433	0.149081696598672
0.329	-0.987268276362967	0.149981792097017
0.331	-0.987126860994247	0.150881745457833
0.333	-0.986984640116895	0.151781556080717
0.335	-0.986841613749756	0.152681223363462
0.337	-0.986697781913878	0.153580746702107
0.339	-0.986553144632459	0.154480125490963
0.341	-0.986407701930835	0.155379359122662
0.343	-0.986261453836433	0.156278446988185
0.345	-0.98611440037875	0.157177388476901
0.347	-0.985966541589315	0.158076182976604
0.349	-0.985817877501666	0.15897482987354
0.351	-0.985668408151316	0.159873328552449
0.353	-0.985518133575734	0.160771678396589
0.355	-0.98536705381431	0.161669878787772
0.357	-0.985215168908331	0.162567929106394
0.359	-0.985062478900956	0.163465828731463
0.361	-0.984908983837188	0.164363577040629
0.363	-0.984754683763859	0.165261173410213
0.365	-0.984599578729592	0.166158617215235
0.367	-0.98444366878479	0.167055907829439
0.369	-0.984286953981609	0.167953044625321
0.371	-0.984129434373932	0.168850026974156
0.373	-0.98397111001736	0.16974685424602
0.375	-0.983811980969172	0.170643525809817
0.377	-0.983652047288321	0.171540041033303
0.379	-0.983491309035409	0.172436399283107
0.381	-0.983329766272664	0.173332599924756
0.383	-0.983167419063924	0.174228642322699
0.385	-0.983004267474619	0.175124525840324
0.387	-0.982840311571753	0.176020249839986
0.389	-0.982675551423886	0.176915813683021
0.391	-0.982509987101111	0.177811216729772
0.393	-0.982343618675048	0.178706458339605
0.395	-0.98217644621882	0.179601537870932
0.397	-0.982008469807038	0.180496454681227
0.399	-0.981839689515788	0.181391208127047
0.401	-0.981670105422611	0.182285797564049
0.403	-0.981499717606494	0.18318022234701
0.405	-0.981328526147852	0.184074481829841
0.407	-0.981156531128507	0.184968575365606
0.409	-0.980983732631689	0.185862502306541
0.411	-0.980810130742011	0.186756262004066
0.413	-0.980635725545456	0.187649853808806
0.415	-0.980460517129372	0.188543277070602
0.417	-0.98028450558245	0.189436531138529
0.419	-0.980107690994715	0.190329615360913
0.421	-0.979930073457515	0.191222529085341
0.423	-0.979751653063508	0.192115271658679
0.425	-0.979572429906651	0.193007842427085
0.427	-0.979392404082183	0.193900240736025
0.429	-0.979211575686626	0.194792465930283
0.431	-0.979029944817762	0.195684517353977
0.433	-0.978847511574625	0.196576394350572
0.435	-0.978664276057496	0.197468096262891
0.437	-0.978480238367886	0.198359622433131
0.439	-0.97829539860853	0.19925097220287
0.441	-0.978109756883379	0.200142144913087
0.443	-0.977923313297579	0.201033139904165
0.445	-0.977736067957478	0.201923956515909
0.447	-0.977548020970603	0.202814594087555
0.449	-0.977359172445659	0.203705051957782
0.451	-0.977169522492515	0.204595329464722
0.453	-0.976979071222202	0.205485425945973
0.455	-0.976787818746894	0.206375340738605
0.457	-0.976595765179909	0.207265073179177
0.459	-0.976402910635697	0.20815462260374
0.461	-0.976209255229831	0.209043988347854
0.463	-0.976014799079004	0.209933169746594
0.465	-0.975819542301014	0.210822166134557
0.467	-0.97562348501476	0.211710976845879
0.469	-0.975426627340236	0.212599601214237
0.471	-0.975228969398523	0.213488038572864
0.473	-0.975030511311779	0.214376288254551
0.475	-0.974831253203236	0.215264349591665
0.477	-0.974631195197188	0.216152221916147
0.479	-0.974430337418991	0.217039904559533
0.481	-0.974228679995052	0.217927396852949
0.483	-0.974026223052823	0.21881469812713
0.485	-0.973822966720791	0.219701807712423
0.487	-0.973618911128482	0.220588724938794
0.489	-0.973414056406441	0.22147544913584
0.491	-0.973208402686243	0.222361979632795
0.493	-0.97300195010047	0.223248315758533
0.495	-0.972794698782713	0.224134456841583
0.497	-0.972586648867571	0.225020402210132
0.499	-0.972377800490633	0.225906151192031
0.501	-0.972168153788486	0.226791703114807
0.503	-0.971957708898698	0.227677057305662
0.505	-0.971746465959823	0.228562213091491
0.507	-0.97153442511139	0.229447169798877
0.509	-0.971321586493896	0.230331926754106
0.511	-0.971107950248805	0.23121648328317
0.513	-0.970893516518543	0.232100838711774
0.515	-0.970678285446488	0.23298499236534
0.517	-0.970462257176975	0.233868943569019
0.519	-0.970245431855279	0.234752691647692
0.521	-0.970027809627623	0.235636235925977
0.523	-0.969809390641163	0.236519575728236
0.525	-0.969590175043987	0.23740271037858
0.527	-0.969370162985117	0.238285639200877
0.529	-0.969149354614492	0.239168361518753
0.531	-0.968927750082976	0.240050876655601
0.533	-0.968705349542348	0.240933183934587
0.535	-0.968482153145296	0.241815282678653
0.537	-0.968258161045418	0.242697172210523
0.539	-0.968033373397217	0.243578851852711
0.541	-0.967807790356091	0.244460320927522
0.543	-0.967581412078337	0.245341578757059
0.545	-0.967354238721146	0.246222624663228
0.547	-0.967126270442594	0.247103457967743
0.549	-0.966897507401643	0.247984077992132
0.551	-0.966667949758139	0.248864484057739
0.553	-0.966437597672802	0.249744675485731
0.555	-0.966206451307226	0.2506246515971
0.557	-0.965974510823881	0.251504411712674
0.559	-0.965741776386098	0.252383955153112
0.561	-0.96550824815808	0.253263281238917
0.563	-0.965273926304881	0.254142389290436
0.565	-0.965038810992424	0.255021278627864
0.567	-0.964802902387475	0.25589994857125
0.569	-0.964566200657662	0.256778398440504
0.571	-0.964328705971455	0.257656627555392
0.573	-0.964090418498172	0.258534635235552
0.575	-0.963851338407974	0.259412420800487
0.577	-0.96361146587186	0.260289983569578
0.579	-0.963370801061666	0.261167322862081
0.581	-0.963129344150064	0.262044437997137
0.583	-0.962887095310554	0.262921328293769
0.585	-0.962644054717469	0.263797993070894
0.587	-0.962400222545963	0.264674431647319
0.589	-0.962155598972013	0.265550643341747
0.591	-0.961910184172422	0.266426627472786
0.593	-0.961663978324806	0.267302383358945
0.595	-0.961416981607601	0.268177910318641
0.597	-0.961169194200047	0.269053207670203
0.599	-0.960920616282204	0.269928274731874
0.601	-0.960671248034935	0.270803110821816
0.603	-0.96042108963991	0.271677715258113
0.605	-0.960170141279602	0.27255208735877
0.607	-0.959918403137287	0.273426226441727
0.609	-0.959665875397034	0.274300131824848
0.611	-0.959412558243712	0.275173802825937
0.613	-0.959158451862985	0.276047238762733
0.615	-0.95890355644131	0.276920438952917
0.617	-0.95864787216593	0.277793402714115
0.619	-0.958391399224876	0.278666129363896
0.621	-0.95813413780697	0.279538618219784
0.623	-0.957876088101808	0.280410868599253
0.625	-0.957617250299778	0.281282879819735
0.627	-0.957357624592037	0.282154651198618
0.629	-0.957097211170531	0.283026182053256
0.631	-0.95683601022797	0.283897471700963
0.633	-0.956574021957845	0.284768519459025
0.635	-0.956311246554416	0.285639324644694
0.637	-0.956047684212712	0.286509886575199
0.639	-0.955783335128531	0.287380204567741
0.641	-0.955518199498441	0.288250277939504
0.643	-0.955252277519766	0.289120106007647
0.645	-0.954985569390598	0.289989688089319
0.647	-0.954718075309788	0.290859023501651
0.649	-0.954449795476945	0.291728111561763
0.651	-0.95418073009244	0.292596951586771
0.653	-0.953910879357394	0.293465542893779
0.655	-0.953640243473682	0.29433388479989
0.657	-0.953368822643937	0.295201976622208
0.659	-0.953096617071539	0.296069817677836
0.661	-0.952823626960615	0.296937407283881
0.663	-0.952549852516039	0.297804744757455
0.665	-0.952275293943436	0.298671829415681
0.667	-0.951999951449176	0.299538660575692
0.669	-0.95172382524036	0.300405237554633
0.671	-0.951446915524846	0.301271559669666
0.673	-0.951169222511219	0.30213762623797
0.675	-0.95089074640881	0.303003436576743
0.677	-0.950611487427683	0.303868990003207
0.679	-0.950331445778641	0.304734285834608
0.681	-0.950050621673218	0.305599323388217
0.683	-0.94976901532368	0.306464101981336
0.685	-0.949486626943027	0.307328620931295
0.687	-0.949203456744985	0.308192879555458
0.689	-0.948919504944016	0.309056877171228
0.691	-0.9486347717553	0.309920613096039
0.693	-0.948349257394748	0.310784086647367
0.695	-0.948062962078995	0.31164729714273
0.697	-0.947775886025398	0.312510243899688
0.699	-0.947488029452036	0.313372926235845
0.701	-0.947199392577714	0.314235343468856
0.703	-0.946909975621946	0.31509749491642
0.705	-0.946619778804975	0.315959379896292
0.707	-0.946328802347754	0.316820997726277
0.709	-0.946037046471954	0.317682347724235
0.711	-0.945744511399961	0.318543429208085
0.713	-0.945451197354875	0.319404241495801
0.715	-0.945157104560507	0.32026478390542
0.717	-0.944862233241379	0.321125055755042
0.719	-0.944566583622724	0.321985056362828
0.721	-0.944270155930486	0.322844785047008
0.723	-0.943972950391313	0.32370424112588
0.725	-0.943674967232559	0.324563423917807
0.727	-0.94337620668229	0.325422332741228
0.729	-0.943076668969269	0.326280966914654
0.731	-0.942776354322969	0.327139325756669
0.733	-0.942475262973559	0.327997408585934
0.735	-0.942173395151914	0.328855214721188
0.737	-0.94187075108961	0.329712743481253
0.739	-0.941567331018918	0.330569994185027
0.741	-0.94126313517281	0.331426966151495
0.743	-0.940958163784958	0.332283658699726
0.745	-0.940652417089722	0.333140071148874
0.747	-0.940345895322166	0.333996202818182
0.749	-0.940038598718048	0.334852053026983
0.751	-0.939730527513812	0.335707621094701
0.753	-0.939421681946603	0.336562906340853
0.755	-0.939112062254249	0.337417908085047
0.757	-0.938801668675279	0.338272625646992
0.759	-0.938490501448904	0.339127058346493
0.761	-0.938178560815026	0.339981205503451
0.763	-0.937865847014232	0.340835066437869
0.765	-0.937552360287804	0.341688640469853
0.767	-0.937238100877703	0.342541926919613
0.769	-0.936923069026576	0.34339492510746
0.771	-0.936607264977758	0.344247634353817
0.773	-0.936290688975264	0.345100053979209
0.775	-0.935973341263794	0.345952183304276
0.777	-0.935655222088729	0.346804021649764
0.779	-0.93533633169613	0.347655568336532
0.781	-0.935016670332739	0.348506822685556
0.783	-0.934696238245979	0.349357784017922
0.785	-0.934375035683949	0.350208451654836
0.787	-0.934053062895426	0.351058824917621
0.789	-0.933730320129867	0.351908903127717
0.791	-0.933406807637401	0.352758685606688
0.793	-0.933082525668836	0.353608171676217
0.795	-0.932757474475655	0.354457360658111
0.797	-0.932431654310008	0.3553062518743
0.799	-0.932105065424727	0.356154844646844
0.801	-0.931777708073311	0.357003138297927
0.803	-0.931449582509933	0.35785113214986
0.805	-0.931120688989434	0.358698825525088
0.807	-0.930791027767329	0.359546217746183
0.809	-0.930460599099801	0.360393308135853
0.811	-0.930129403243698	0.361240096016935
0.813	-0.929797440456543	0.362086580712406
0.815	-0.929464710996518	0.362932761545375
0.817	-0.929131215122481	0.363778637839091
0.819	-0.928796953093949	0.364624208916941
0.821	-0.928461925171104	0.365469474102451
0.823	-0.928126131614796	0.366314432719288
0.825	-0.927789572686538	0.367159084091263
0.827	-0.927452248648504	0.368003427542327
0.829	-0.927114159763533	0.368847462396581
0.831	-0.926775306295125	0.369691187978267
0.833	-0.92643568850744	0.370534603611776
0.835	-0.926095306665298	0.371377708621649
0.837	-0.925754161034183	0.372220502332573
0.839	-0.925412251880234	0.373062984069387
0.841	-0.92506957947025	0.373905153157084
0.843	-0.924726144071691	0.374747008920807
0.845	-0.924381945952665	0.375588550685853
0.847	-0.924036985381947	0.376429777777676
0.849	-0.923691262628966	0.377270689521888
0.851	-0.923344777963798	0.378111285244252
0.853	-0.922997531657184	0.378951564270695
0.855	-0.922649523980516	0.379791525927302
0.857	-0.922300755205838	0.380631169540321
0.859	-0.921951225605849	0.381470494436159
0.861	-0.921600935453899	0.382309499941386
0.863	-0.92124988502399	0.383148185382737
0.865	-0.920898074590777	0.383986550087113
0.867	-0.920545504429564	0.384824593381581
0.869	-0.920192174816304	0.385662314593374
0.871	-0.919838086027603	0.386499713049893
0.873	-0.919483238340712	0.387336788078711
0.875	-0.919127632033534	0.388173539007569
0.877	-0.918771267384618	0.389009965164382
0.879	-0.918414144673162	0.389846065877235
0.881	-0.918056264179008	0.390681840474389
0.883	-0.917697626182645	0.391517288284276
0.885	-0.91733823096521	0.392352408635508
0.887	-0.916978078808481	0.39318720085687
0.889	-0.916617169994885	0.394021664277328
0.891	-0.916255504807491	0.394855798226025
0.893	-0.91589308353001	0.395689602032283
0.895	-0.915529906446798	0.396523075025606
0.897	-0.915165973842855	0.397356216535679
0.899	-0.914801286003818	0.39818902589237
0.901	-0.91443584321597	0.399021502425732
0.903	-0.914069645766233	0.399853645465999
0.905	-0.913702693942169	0.400685454343595
0.907	-0.913334988031983	0.401516928389127
0.909	-0.912966528324513	0.402348066933393
0.911	-0.912597315109244	0.403178869307377
0.913	-0.912227348676293	0.404009334842253
0.915	-0.911856629316418	0.404839462869385
0.917	-0.911485157321013	0.405669252720331
0.919	-0.91111293298211	0.406498703726839
0.921	-0.910739956592376	0.407327815220849
0.923	-0.910366228445114	0.408156586534499
0.925	-0.909991748834266	0.40898501700012
0.927	-0.909616518054405	0.409813105950238
