# GHz S RI R 50
0.001	-0.999947709869594	0.000504597759400555
0.003	-0.999908605227226	0.0014475994761356
0.005	-0.999880534862502	0.00237866254888269
0.007	-0.999856534687606	0.00330477074193193
0.009	-0.999834580694476	0.00422795752590155
0.011	-0.999813747062084	0.00514915444555239
0.013	-0.999793518345464	0.00606888078313381
0.015	-0.999773572680759	0.00698746112745671
0.017	-0.999753693175032	0.00790511437472729
0.019	-0.999733725478994	0.00882199637761538
0.021	-0.999713555145497	0.00973822272342065
0.023	-0.999693094545638	0.0106538819074604
0.025	-0.999672274830887	0.0115690434323336
0.027	-0.999651040749151	0.0124837630355549
0.029	-0.999629347166369	0.0133980862000716
0.031	-0.999607156654301	0.0143120505906413
0.033	-0.999584437770478	0.015225687792481
0.035	-0.999561163802075	0.0161390245819614
0.037	-0.999537311829434	0.0170520838747015
0.039	-0.999512862015122	0.0179648854458824
0.041	-0.999487797055516	0.0188774464863219
0.043	-0.999462101751721	0.0197897820379019
0.045	-0.999435762669532	0.0207019053388904
0.047	-0.999408767866872	0.0216138281009625
0.049	-0.999381106673033	0.022525560733746
0.051	-0.999352769508177	0.0234371125285596
0.053	-0.999323747734464	0.0243484918100618
0.055	-0.999294033532323	0.025259706062409
0.057	-0.999263619796831	0.0261707620349762
0.059	-0.999232500050363	0.0270816658315471
0.061	-0.999200668368511	0.0279924229860314
0.063	-0.999168119316845	0.0289030385271167
0.065	-0.999134847896705	0.0298135170337707
0.067	-0.999100849498441	0.0307238626831301
0.069	-0.999066119860912	0.0316340792920156
0.071	-0.999030655036253	0.0325441703530811
0.073	-0.998994451359081	0.0334541390664213
0.075	-0.998957505419506	0.0343639883673181
0.077	-0.998919814039344	0.0352737209506855
0.079	-0.998881374251116	0.036183339292684
0.081	-0.998842183279446	0.0370928456698928
0.083	-0.998802238524485	0.0380022421763703
0.085	-0.998761537547171	0.0389115307388817
0.087	-0.998720078056013	0.0398207131305264
0.089	-0.99867785789526	0.0407297909829696
0.091	-0.998634875034248	0.0416387657974455
0.093	-0.998591127557828	0.0425476389546836
0.095	-0.998546613657676	0.0434564117238807
0.097	-0.998501331624462	0.0443650852708309
0.099	-0.998455279840735	0.0452736606653083
0.101	-0.998408456774444	0.0461821388877826
0.103	-0.998360860973043	0.0470905208355428
0.105	-0.998312491058125	0.0479988073282895
0.107	-0.998263345720487	0.0489069991132522
0.109	-0.998213423715631	0.0498150968698797
0.111	-0.998162723859635	0.0507231012141463
0.113	-0.998111245025354	0.0516310127025126
0.115	-0.99805898613892	0.052538831835572
0.117	-0.99800594617653	0.0534465590614161
0.119	-0.997952124161463	0.0543541947787415
0.121	-0.997897519161341	0.0552617393397255
0.123	-0.997842130285576	0.0561691930526878
0.125	-0.997785956683026	0.0570765561845613
0.127	-0.997728997539795	0.0579838289631842
0.129	-0.997671252077209	0.0588910115794331
0.131	-0.997612719549924	0.059798104189207
0.133	-0.997553399244166	0.0607051069152773
0.135	-0.997493290476094	0.0616120198490131
0.137	-0.997432392590262	0.0625188430519925
0.139	-0.997370704958198	0.0634255765575095
0.141	-0.997308226977064	0.0643322203719834
0.143	-0.997244958068394	0.0652387744762793
0.145	-0.997180897676945	0.0661452388269474
0.147	-0.99711604526957	0.0670516133573837
0.149	-0.99705040033421	0.0679578979789226
0.151	-0.996983962378909	0.0688640925818628
0.153	-0.996916730930907	0.0697701970364328
0.155	-0.996848705535785	0.0706762111937004
0.157	-0.996779885756657	0.0715821348864301
0.159	-0.996710271173404	0.0724879679298907
0.161	-0.996639861381961	0.0733937101226192
0.163	-0.996568655993642	0.0742993612471411
0.165	-0.996496654634487	0.0752049210706517
0.167	-0.996423856944675	0.0761103893456611
0.169	-0.996350262577938	0.077015765810604
0.171	-0.996275871201025	0.077921050190418
0.173	-0.99620068249319	0.0788262421970912
0.175	-0.996124696145704	0.0797313415301821
0.177	-0.996047911861391	0.0806363478773123
0.179	-0.995970329354198	0.0815412609146356
0.181	-0.995891948348774	0.0824460803072827
0.183	-0.995812768580076	0.0833508057097844
0.185	-0.995732789792997	0.0842554367664736
0.187	-0.995652011742006	0.0851599731118696
0.189	-0.995570434190811	0.0860644143710426
0.191	-0.995488056912033	0.0869687601599606
0.193	-0.995404879686901	0.0878730100858221
0.195	-0.995320902304958	0.088777163747372
0.197	-0.995236124563782	0.089681220735203
0.199	-0.995150546268715	0.0905851806320443
0.201	-0.995064167232612	0.0914890430130363
0.203	-0.994976987275598	0.0923928074459947
0.205	-0.994889006224834	0.093296473491661
0.207	-0.994800223914294	0.0942000407039433
0.209	-0.99471064018456	0.095103508630148
0.211	-0.994620254882602	0.0960068768111979
0.213	-0.994529067861605	0.0969101447818457
0.215	-0.994437078980766	0.0978133120708751
0.217	-0.994344288105126	0.0987163782012954
0.219	-0.994250695105387	0.0996193426905267
0.221	-0.994156299857768	0.10052220505058
0.223	-0.994061102243824	0.101424964788228
0.225	-0.993965102150318	0.102327621405167
0.227	-0.993868299469061	0.103230174398181
0.229	-0.993770694096774	0.104132623259287
0.231	-0.993672285934967	0.105034967475883
0.233	-0.993573074889795	0.105937206530893
0.235	-0.993473060871949	0.106839339902895
0.237	-0.993372243796527	0.107741367066254
0.239	-0.993270623582923	0.10864328749125
0.241	-0.993168200154724	0.109545100644191
0.243	-0.993064973439596	0.110446805987539
0.245	-0.992960943369187	0.111348402980012
0.247	-0.992856109879026	0.112249891076697
0.249	-0.992750472908438	0.113151269729154
0.251	-0.992644032400438	0.114052538385512
0.253	-0.992536788301658	0.114953696490574
0.255	-0.992428740562257	0.115854743485899
0.257	-0.992319889135837	0.116755678809901
0.259	-0.99221023397937	0.117656501897931
0.261	-0.99209977505312	0.118557212182364
0.263	-0.991988512320567	0.119457809092678
0.265	-0.991876445748346	0.120358292055533
0.267	-0.991763575306166	0.121258660494847
0.269	-0.991649900966752	0.122158913831868
0.271	-0.991535422705783	0.123059051485247
0.273	-0.991420140501826	0.123959072871104
0.275	-0.991304054336282	0.124858977403097
0.277	-0.991187164193318	0.125758764492483
0.279	-0.991069470059826	0.126658433548183
0.281	-0.990950971925362	0.127557983976842
0.283	-0.99083166978209	0.128457415182883
0.285	-0.990711563624737	0.129356726568571
0.287	-0.990590653450546	0.130255917534059
0.289	-0.990468939259221	0.131154987477448
0.291	-0.990346421052897	0.132053935794837
0.293	-0.990223098836072	0.132952761880367
0.295	-0.99009897261559	0.13385146512628
0.297	-0.989974042400581	0.134750044922956
0.299	-0.989848308202424	0.135648500658962
0.301	-0.989721770034717	0.1365468317211
0.303	-0.989594427913229	0.137445037494444
0.305	-0.98946628185587	0.138343117362383
0.307	-0.989337331882653	0.139241070706667
0.309	-0.989207578015655	0.140138896907437
0.311	-0.989077020278991	0.141036595343271
0.313	-0.98894565869878	0.141934165391218
0.315	-0.988813493303108	0.142831606426833
0.317	-0.988680524122003	0.143728917824213
0.319	-0.988546751187402	0.144626098956034
0.321	-0.988412174533125	0.145523149193579
0.323	-0.98827679419484	0.146420067906772
0.325	-0.988140610210049	0.147316854464213
0.327	-0.988003622618044	0.148213508233203
0.329	-0.987865831459898	0.149110028579778
0.331	-0.987727236778429	0.150006414868737
0.333	-0.987587838618178	0.150902666463666
0.335	-0.987447637025386	0.151798782726971
0.337	-0.987306632047974	0.152694763019904
0.339	-0.987164823735515	0.153590606702585
0.341	-0.987022212139213	0.154486313134032
0.343	-0.986878797311886	0.15538188167218
0.345	-0.986734579307943	0.156277311673914
0.347	-0.986589558183361	0.157172602495082
0.349	-0.986443733995668	0.158067753490527
0.351	-0.986297106803924	0.158962764014102
0.353	-0.986149676668706	0.159857633418698
0.355	-0.986001443652077	0.160752361056259
0.357	-0.985852407817584	0.16164694627781
0.359	-0.985702569230233	0.16254138843347
0.361	-0.98555192795647	0.163435686872477
0.363	-0.985400484064173	0.164329840943202
0.365	-0.985248237622624	0.165223849993175
0.367	-0.985095188702507	0.166117713369097
0.369	-0.984941337375878	0.16701143041686
0.371	-0.984786683716164	0.167905000481564
0.373	-0.984631227798142	0.168798422907538
0.375	-0.984474969697925	0.169691697038349
0.377	-0.984317909492946	0.170584822216827
0.379	-0.984160047261953	0.171477797785074
0.381	-0.984001383084985	0.172370623084481
0.383	-0.983841917043366	0.173263297455749
0.385	-0.983681649219695	0.174155820238894
0.387	-0.983520579697826	0.175048190773272
0.389	-0.983358708562857	0.175940408397583
0.391	-0.983196035901128	0.176832472449893
0.393	-0.983032561800198	0.177724382267646
0.395	-0.982868286348843	0.178616137187671
0.397	-0.982703209637036	0.179507736546205
0.399	-0.98253733175595	0.180399179678898
0.401	-0.982370652797923	0.181290465920827
0.403	-0.982203172856485	0.182181594606514
0.405	-0.98203489202631	0.183072565069929
0.407	-0.981865810403232	0.183963376644506
0.409	-0.981695928084226	0.184854028663157
0.411	-0.981525245167398	0.18574452045828
0.413	-0.981353761751977	0.186634851361769
0.415	-0.981181477938313	0.187525020705027
0.417	-0.981008393827855	0.188415027818978
0.419	-0.98083450952315	0.189304872034073
0.421	-0.980659825127843	0.190194552680302
0.423	-0.980484340746651	0.191084069087207
0.425	-0.980308056485371	0.191973420583886
0.427	-0.980130972450862	0.192862606499008
0.429	-0.979953088751042	0.193751626160819
0.431	-0.979774405494881	0.19464047889715
0.433	-0.979594922792391	0.195529164035432
0.435	-0.979414640754625	0.196417680902698
0.437	-0.979233559493659	0.197306028825595
0.439	-0.979051679122596	0.198194207130392
0.441	-0.978868999755555	0.19908221514299
0.443	-0.978685521507658	0.199970052188924
0.445	-0.978501244495041	0.200857717593381
0.447	-0.97831616883483	0.201745210681199
0.449	-0.978130294645142	0.202632530776877
0.451	-0.977943622045077	0.203519677204586
0.453	-0.97775615115472	0.204406649288173
0.455	-0.977567882095125	0.205293446351169
0.457	-0.977378814988308	0.206180067716796
0.459	-0.97718894995726	0.207066512707976
0.461	-0.976998287125914	0.207952780647335
0.463	-0.976806826619164	0.208838870857212
0.465	-0.976614568562841	0.209724782659662
0.467	-0.976421513083726	0.21061051537647
0.469	-0.97622766030953	0.21149606832915
0.471	-0.976033010368895	0.212381440838952
0.473	-0.975837563391388	0.213266632226876
0.475	-0.9756413195075	0.214151641813666
0.477	-0.975444278848634	0.215036468919826
0.479	-0.975246441547107	0.215921112865622
0.481	-0.975047807736149	0.216805572971089
0.483	-0.974848377549879	0.217689848556031
0.485	-0.974648151123328	0.218573938940037
0.487	-0.974447128592412	0.219457843442477
0.489	-0.974245310093946	0.220341561382514
0.491	-0.97404269576562	0.221225092079105
0.493	-0.973839285746016	0.222108434851008
0.495	-0.973635080174589	0.222991589016787
0.497	-0.973430079191669	0.223874553894817
0.499	-0.973224282938456	0.22475732880329
0.501	-0.973017691557016	0.225639913060217
0.503	-0.972810305190283	0.226522305983437
0.505	-0.972602123982041	0.227404506890618
0.507	-0.972393148076938	0.228286515099263
0.509	-0.972183377620472	0.229168329926718
0.511	-0.971972812758987	0.230049950690168
0.513	-0.971761453639681	0.230931376706653
0.515	-0.971549300410582	0.23181260729306
0.517	-0.971336353220565	0.232693641766138
0.519	-0.971122612219343	0.233574479442498
0.521	-0.970908077557453	0.234455119638613
0.523	-0.970692749386271	0.23533556167083
0.525	-0.970476627857992	0.236215804855369
0.527	-0.970259713125641	0.237095848508329
0.529	-0.970042005343057	0.237975691945689
0.531	-0.969823504664905	0.238855334483317
0.533	-0.969604211246661	0.23973477543697
0.535	-0.969384125244608	0.240614014122298
0.537	-0.969163246815847	0.241493049854848
0.539	-0.968941576118283	0.242371881950072
0.541	-0.968719113310622	0.243250509723321
0.543	-0.968495858552379	0.24412893248986
0.545	-0.968271812003859	0.245007149564863
0.547	-0.96804697382617	0.245885160263419
0.549	-0.96782134418121	0.246762963900537
0.551	-0.967594923231674	0.24764055979115
0.553	-0.967367711141041	0.248517947250112
0.555	-0.96713970807358	0.24939512559221
0.557	-0.96691091419434	0.250272094132162
0.559	-0.96668132966916	0.25114885218462
0.561	-0.966450954664652	0.252025399064175
0.563	-0.966219789348208	0.252901734085362
0.565	-0.965987833887999	0.253777856562658
0.567	-0.965755088452966	0.254653765810488
0.569	-0.965521553212818	0.255529461143228
0.571	-0.965287228338043	0.25640494187521
0.573	-0.965052113999887	0.257280207320719
0.575	-0.964816210370364	0.258155256794001
0.577	-0.964579517622257	0.259030089609266
0.579	-0.964342035929099	0.259904705080685
0.581	-0.964103765465193	0.260779102522403
0.583	-0.963864706405593	0.261653281248529
0.585	-0.963624858926113	0.262527240573151
0.587	-0.963384223203316	0.26340097981033
0.589	-0.963142799414522	0.264274498274107
0.591	-0.962900587737794	0.265147795278503
0.593	-0.962657588351952	0.266020870137523
0.595	-0.962413801436558	0.266893722165162
0.597	-0.96216922717192	0.267766350675399
0.599	-0.961923865739084	0.268638754982206
0.601	-0.961677717319848	0.269510934399552
0.603	-0.961430782096741	0.270382888241399
0.605	-0.961183060253035	0.271254615821707
0.607	-0.960934551972735	0.272126116454441
0.609	-0.960685257440586	0.272997389453567
0.611	-0.960435176842061	0.273868434133056
0.613	-0.96018431036337	0.274739249806889
0.615	-0.959932658191451	0.275609835789057
0.617	-0.959680220513973	0.276480191393562
0.619	-0.959426997519327	0.277350315934422
0.621	-0.959172989396638	0.278220208725674
0.623	-0.95891819633575	0.279089869081371
0.625	-0.958662618527235	0.279959296315588
0.627	-0.958406256162381	0.280828489742425
0.629	-0.958149109433201	0.281697448676006
0.631	-0.957891178532426	0.282566172430484
0.633	-0.957632463653505	0.28343466032004
0.635	-0.957372964990599	0.284302911658888
0.637	-0.957112682738597	0.285170925761276
0.639	-0.956851617093088	0.286038701941486
0.641	-0.956589768250377	0.28690623951384
0.643	-0.95632713640749	0.287773537792698
0.645	-0.95606372176215	0.288640596092463
0.647	-0.955799524512795	0.289507413727579
0.649	-0.955534544858571	0.290373990012538
0.651	-0.955268782999332	0.291240324261878
0.653	-0.955002239135635	0.292106415790187
0.655	-0.954734913468738	0.292972263912102
0.657	-0.954466806200613	0.293837867942315
0.659	-0.954197917533919	0.294703227195572
0.661	-0.95392824767203	0.295568340986675
0.663	-0.95365779681901	0.296433208630484
0.665	-0.953386565179626	0.297297829441919
0.667	-0.953114552959342	0.298162202735962
0.669	-0.952841760364315	0.299026327827657
0.671	-0.952568187601408	0.299890204032116
0.673	-0.952293834878165	0.300753830664514
0.675	-0.952018702402831	0.301617207040097
0.677	-0.951742790384343	0.30248033247418
0.679	-0.951466099032327	0.30334320628215
0.681	-0.951188628557102	0.304205827779467
0.683	-0.950910379169674	0.305068196281667
0.685	-0.950631351081739	0.30593031110436
0.687	-0.95035154450568	0.306792171563237
0.689	-0.950070959654568	0.307653776974067
0.691	-0.949789596742155	0.3085151266527
0.693	-0.949507455982887	0.309376219915072
0.695	-0.94922453759188	0.310237056077196
0.697	-0.948940841784946	0.31109763445518
0.699	-0.948656368778573	0.311957954365212
0.701	-0.948371118789928	0.312818015123571
0.703	-0.948085092036863	0.31367781604663
0.705	-0.947798288737909	0.314537356450848
0.707	-0.94751070911227	0.31539663565278
0.709	-0.947222353379835	0.316255652969077
0.711	-0.946933221761163	0.317114407716482
0.713	-0.946643314477495	0.317972899211839
0.715	-0.946352631750744	0.318831126772091
0.717	-0.946061173803494	0.319689089714277
0.719	-0.94576894085901	0.320546787355543
0.721	-0.945475933141228	0.321404219013136
0.723	-0.945182150874748	0.322261384004405
0.725	-0.944887594284853	0.323118281646809
0.727	-0.944592263597489	0.323974911257912
0.729	-0.94429615903927	0.324831272155384
0.731	-0.943999280837486	0.325687363657009
0.733	-0.94370162922009	0.326543185080679
0.735	-0.943403204415704	0.327398735744401
0.737	-0.943104006653618	0.328254014966294
0.739	-0.942804036163784	0.32910902206459
0.741	-0.942503293176823	0.329963756357642
0.743	-0.94220177792402	0.330818217163917
0.745	-0.94189949063732	0.331672403801999
0.747	-0.941596431549337	0.332526315590598
0.749	-0.941292600893346	0.33337995184854
0.751	-0.940987998903277	0.334233311894775
0.753	-0.940682625813733	0.335086395048377
0.755	-0.940376481859966	0.335939200628545
0.757	-0.940069567277894	0.336791727954603
0.759	-0.939761882304095	0.337643976346004
0.761	-0.939453427175799	0.338495945122327
0.763	-0.939144202130901	0.339347633603283
0.765	-0.93883420740795	0.340199041108713
0.767	-0.938523443246148	0.341050166958589
0.769	-0.93821190988536	0.341901010473018
0.771	-0.937899607566104	0.342751570972239
0.773	-0.937586536529548	0.34360184777663
0.775	-0.937272697017516	0.344451840206701
0.777	-0.936958089272491	0.345301547583102
0.779	-0.936642713537601	0.346150969226622
0.781	-0.936326570056632	0.347000104458191
0.783	-0.936009659074018	0.347848952598877
0.785	-0.935691980834847	0.348697512969892
0.787	-0.935373535584853	0.349545784892591
0.789	-0.935054323570426	0.350393767688475
0.791	-0.934734345038599	0.351241460679185
0.793	-0.934413600237057	0.352088863186516
0.795	-0.934092089414133	0.352935974532403
0.797	-0.93376981281881	0.353782794038936
0.799	-0.933446770700711	0.35462932102835
0.801	-0.933122963310113	0.355475554823034
0.803	-0.932798390897936	0.356321494745526
0.805	-0.932473053715743	0.357167140118518
0.807	-0.932146952015744	0.358012490264856
0.809	-0.931820086050795	0.358857544507541
0.811	-0.931492456074396	0.359702302169729
0.813	-0.931164062340684	0.360546762574732
0.815	-0.930834905104446	0.361390925046023
0.817	-0.930504984621108	0.362234788907231
0.819	-0.930174301146737	0.363078353482145
0.821	-0.929842854938045	0.363921618094717
0.823	-0.929510646252379	0.364764582069058
0.825	-0.929177675347731	0.365607244729445
0.827	-0.928843942482731	0.366449605400315
0.829	-0.928509447916648	0.367291663406273
0.831	-0.928174191909388	0.368133418072087
0.833	-0.927838174721502	0.368974868722696
0.835	-0.927501396614167	0.369816014683201
0.837	-0.927163857849207	0.370656855278874
0.839	-0.926825558689082	0.37149738983516
0.841	-0.926486499396883	0.372337617677668
0.843	-0.926146680236342	0.373177538132184
0.845	-0.925806101471821	0.374017150524662
0.847	-0.925464763368325	0.374856454181233
0.849	-0.925122666191487	0.375695448428201
0.851	-0.924779810207573	0.376534132592041
0.853	-0.924436195683485	0.377372505999412
0.855	-0.924091822886762	0.378210567977143
0.857	-0.923746692085568	0.379048317852245
0.859	-0.923400803548705	0.379885754951904
0.861	-0.923054157545603	0.38072287860349
0.863	-0.922706754346325	0.38155968813455
0.865	-0.922358594221566	0.382396182872814
0.867	-0.922009677442649	0.383232362146194
0.869	-0.921660004281527	0.384068225282786
0.871	-0.921309575010785	0.384903771610868
0.873	-0.920958389903634	0.385739000458904
0.875	-0.920606449233916	0.386573911155545
0.877	-0.9202537532761	0.387408503029628
0.879	-0.919900302305285	0.388242775410177
0.881	-0.919546096597193	0.389076727626403
0.883	-0.919191136428176	0.38991035900771
0.885	-0.918835422075214	0.390743668883688
0.887	-0.918478953815909	0.391576656584122
0.889	-0.918121731928494	0.392409321438986
0.891	-0.91776375669182	0.393241662778446
0.893	-0.917405028385371	0.394073679932865
0.895	-0.917045547289249	0.394905372232796
0.897	-0.916685313684184	0.39573673900899
0.899	-0.916324327851527	0.396567779592393
0.901	-0.91596259007326	0.39739849331415
0.903	-0.915600100631974	0.398228879505599
0.905	-0.915236859810893	0.399058937498281
0.907	-0.914872867893862	0.399888666623932
0.909	-0.914508125165342	0.400718066214492
0.911	-0.914142631910424	0.401547135602101
0.913	-0.913776388414813	0.402375874119098
0.915	-0.913409394964838	0.403204281098026
0.917	-0.913041651847447	0.404032355871635
0.919	-0.912673159350207	0.404860097772872
0.921	-0.912303917761308	0.405687506134895
0.923	-0.911933927369552	0.406514580291064
0.925	-0.911563188464368	0.407341319574947
0.927	-0.911191701335799	0.408167723320319
