# GHz S RI R 50
0.001	-0.999914142621325	0.000838792032191428
0.003	-0.999849005512015	0.00240781122145228
0.005	-0.999800982815603	0.00395721043513622
0.007	-0.999758670042345	0.00549844647815614
0.009	-0.999718755052342	0.00703485593205977
0.011	-0.999679723840367	0.00856796704292703
0.013	-0.999640734068287	0.0100986312446341
0.015	-0.999601260112402	0.0116273802243599
0.017	-0.999560948025338	0.0131545720268649
0.019	-0.999519546109886	0.0146804610859754
0.021	-0.999476867879631	0.0162052356369752
0.023	-0.99943277066074	0.0177290393590204
0.025	-0.999387142449937	0.0192519846847162
0.027	-0.999339893441025	0.020774161392892
0.029	-0.999290950340739	0.0222956423803599
0.031	-0.999240252427979	0.0238164876686434
0.033	-0.999187748744572	0.0253367472639693
0.035	-0.999133396044305	0.0268564632480135
0.037	-0.999077157264277	0.0283756713382358
0.039	-0.999019000364721	0.0298944020736357
0.041	-0.99895889743432	0.0314126817303633
0.043	-0.998896823990365	0.0329305330388526
0.045	-0.998832758424329	0.0344479757526924
0.047	-0.998766681557563	0.0359650271050894
0.049	-0.998698576281551	0.037481702178955
0.051	-0.998628427263837	0.0389980142098069
0.053	-0.99855622070558	0.0405139748358299
0.055	-0.998481944140065	0.0420295943059542
0.057	-0.998405586264049	0.0435448816542654
0.059	-0.998327136795615	0.0450598448471811
0.061	-0.998246586353635	0.0465744909084229
0.063	-0.998163926354944	0.0480888260257513
0.065	-0.998079148926193	0.0496028556426177
0.067	-0.997992246827822	0.0511165845372617
0.069	-0.997903213388274	0.0526300168912988
0.071	-0.997812042446746	0.0541431563494559
0.073	-0.997718728303182	0.0556560060718159
0.075	-0.997623265674442	0.0571685687796895
0.077	-0.997525649655706	0.0586808467960408
0.079	-0.997425875686399	0.0601928420812373
0.081	-0.997323939519998	0.0617045562647719
0.083	-0.997219837197173	0.0632159906734949
0.085	-0.997113565021866	0.0647271463568205
0.087	-0.997005119539897	0.0662380241092903
0.089	-0.996894497519774	0.0677486244908288
0.091	-0.996781695935455	0.0692589478449721
0.093	-0.996666711950819	0.0707689943153138
0.095	-0.996549542905637	0.0722787638603754
0.097	-0.996430186302875	0.0737882562670848
0.099	-0.99630863979718	0.0752974711630168
0.101	-0.996184901184409	0.0768064080275333
0.103	-0.996058968392107	0.078315066201942
0.105	-0.995930839470807	0.0798234448987779
0.107	-0.99580051258608	0.081331543210297
0.109	-0.995667986011259	0.0828393601162647
0.111	-0.995533258120763	0.0843468944911079
0.113	-0.995396327383976	0.0858541451104951
0.115	-0.995257192359588	0.0873611106573963
0.117	-0.995115851690413	0.0888677897276771
0.119	-0.994972304098589	0.0903741808352651
0.121	-0.994826548381143	0.0918802824169322
0.123	-0.994678583405894	0.0933860928367241
0.125	-0.994528408107659	0.0948916103900711
0.127	-0.994376021484716	0.0963968333076052
0.129	-0.994221422595548	0.0979017597587117
0.131	-0.994064610555788	0.0994063878548347
0.133	-0.993905584535391	0.10091071565256
0.135	-0.993744343755997	0.102414741156489
0.137	-0.993580887488463	0.103918462321932
0.139	-0.99341521505057	0.105421877057413
0.141	-0.993247325804865	0.106924983227027
0.143	-0.993077219156657	0.108427778652647
0.145	-0.992904894552128	0.109930261115986
0.147	-0.992730351476571	0.111432428360542
0.149	-0.992553589452729	0.112934278093421
0.151	-0.992374608039244	0.114435807987056
0.153	-0.992193406829182	0.115937015680817
0.155	-0.992009985448672	0.117437898782537
0.157	-0.991824343555606	0.118938454869943
0.159	-0.991636480838411	0.120438681492013
0.161	-0.991446397014903	0.121938576170255
0.163	-0.991254091831206	0.123438136399911
0.165	-0.99105956506072	0.124937359651104
0.167	-0.990862816503151	0.126436243369918
0.169	-0.990663845983601	0.127934784979421
0.171	-0.990462653351697	0.129432981880638
0.173	-0.990259238480767	0.13093083145347
0.175	-0.990053601267072	0.13242833105757
0.177	-0.989845741629056	0.133925478033169
0.179	-0.989635659506653	0.135422269701869
0.181	-0.989423354860627	0.136918703367388
0.183	-0.989208827671934	0.138414776316275
0.185	-0.988992077941123	0.139910485818592
0.187	-0.988773105687771	0.141405829128553
0.189	-0.988551910949941	0.142900803485149
0.191	-0.988328493783658	0.14439540611273
0.193	-0.988102854262425	0.145889634221564
0.195	-0.987874992476756	0.147383485008378
0.197	-0.987644908533718	0.148876955656865
0.199	-0.98741260255652	0.150370043338171
0.201	-0.987178074684096	0.151862745211365
0.203	-0.986941325070721	0.153355058423885
0.205	-0.986702353885644	0.154846980111963
0.207	-0.986461161312723	0.156338507401035
0.209	-0.986217747550103	0.157829637406135
0.211	-0.985972112809872	0.159320367232264
0.213	-0.985724257317766	0.160810693974759
0.215	-0.985474181312872	0.162300614719631
0.217	-0.985221885047338	0.163790126543898
0.219	-0.984967368786096	0.165279226515906
0.221	-0.984710632806618	0.166767911695628
0.223	-0.984451677398647	0.168256179134965
0.225	-0.984190502863974	0.169744025878021
0.227	-0.983927109516199	0.17123144896138
0.229	-0.983661497680502	0.172718445414361
0.231	-0.983393667693449	0.174205012259274
0.233	-0.983123619902775	0.175691146511659
0.235	-0.982851354667194	0.177176845180517
0.237	-0.982576872356208	0.178662105268539
0.239	-0.982300173349922	0.180146923772317
0.241	-0.98202125803888	0.181631297682554
0.243	-0.981740126823894	0.183115223984267
0.245	-0.981456780115874	0.184598699656976
0.247	-0.981171218335678	0.186081721674895
0.249	-0.980883441913975	0.187564287007112
0.251	-0.980593451291075	0.18904639261776
0.253	-0.980301246916814	0.190528035466189
0.255	-0.980006829250407	0.192009212507128
0.257	-0.979710198760321	0.19348992069084
0.259	-0.979411355924154	0.194970156963277
0.261	-0.97911030122851	0.196449918266227
0.263	-0.978807035168888	0.197929201537453
0.265	-0.978501558249564	0.199408003710834
0.267	-0.978193870983487	0.200886321716498
0.269	-0.977883973892171	0.20236415248095
0.271	-0.977571867505602	0.203841492927199
0.273	-0.977257552362125	0.205318339974876
0.275	-0.976941029008369	0.206794690540357
0.277	-0.976622297999136	0.208270541536871
0.279	-0.976301359897327	0.209745889874614
0.281	-0.975978215273859	0.211220732460859
0.283	-0.975652864707558	0.212695066200051
0.285	-0.975325308785106	0.214168887993917
0.287	-0.974995548100957	0.215642194741563
0.289	-0.974663583257246	0.217114983339565
0.291	-0.974329414863739	0.218587250682064
0.293	-0.973993043537745	0.220058993660858
0.295	-0.973654469904058	0.221530209165485
0.297	-0.973313694594886	0.223000894083314
0.299	-0.972970718249784	0.22447104529962
0.301	-0.972625541515597	0.225940659697673
0.303	-0.972278165046403	0.22740973415881
0.305	-0.971928589503439	0.228878265562514
0.307	-0.971576815555062	0.230346250786489
0.309	-0.97122284387668	0.231813686706729
0.311	-0.970866675150707	0.23328057019759
0.313	-0.970508310066506	0.234746898131862
0.315	-0.970147749320339	0.23621266738083
0.317	-0.96978499361532	0.237677874814343
0.319	-0.969420043661366	0.239142517300877
0.321	-0.969052900175148	0.240606591707595
0.323	-0.968683563880049	0.24207009490041
0.325	-0.968312035506116	0.243533023744044
0.327	-0.967938315790023	0.244995375102082
0.329	-0.967562405475023	0.246457145837032
0.331	-0.967184305310916	0.247918332810378
0.333	-0.966804016053994	0.249378932882634
0.335	-0.966421538467024	0.250838942913397
0.337	-0.966036873319193	0.252298359761397
0.339	-0.965650021386075	0.253757180284546
0.341	-0.965260983449603	0.255215401339991
0.343	-0.964869760298024	0.256673019784155
0.345	-0.964476352725883	0.258130032472794
0.347	-0.964080761533959	0.259586436261028
0.349	-0.963682987529267	0.2610422280034
0.351	-0.963283031525003	0.262497404553911
0.353	-0.96288089434053	0.263951962766068
0.355	-0.962476576801331	0.265405899492919
0.357	-0.962070079738994	0.266859211587102
0.359	-0.961661403991179	0.26831189590088
0.361	-0.961250550401589	0.269763949286181
0.363	-0.960837519819947	0.271215368594639
0.365	-0.960422313101963	0.272666150677629
0.367	-0.960004931109315	0.274116292386304
0.369	-0.959585374709617	0.275565790571634
0.371	-0.959163644776404	0.277014642084441
0.373	-0.958739742189097	0.278462843775428
0.375	-0.958313667832991	0.279910392495222
0.377	-0.95788542259922	0.281357285094403
0.379	-0.957455007384747	0.282803518423536
0.381	-0.957022423092328	0.284249089333207
0.383	-0.956587670630503	0.28569399467405
0.385	-0.956150750913572	0.287138231296782
0.387	-0.95571166486157	0.288581796052233
0.389	-0.955270413400249	0.290024685791373
0.391	-0.95482699746106	0.291466897365346
0.393	-0.954381417981135	0.292908427625497
0.395	-0.953933675903262	0.294349273423398
0.397	-0.953483772175871	0.29578943161088
0.399	-0.953031707753023	0.297228899040059
0.401	-0.95257748359437	0.298667672563363
0.403	-0.952121100665171	0.300105749033558
0.405	-0.951662559936237	0.301543125303775
0.407	-0.951201862383948	0.302979798227536
0.409	-0.950739008990218	0.304415764658778
0.411	-0.950274000742481	0.30585102145188
0.413	-0.949806838633678	0.307285565461686
0.415	-0.949337523662246	0.308719393543529
0.417	-0.948866056832096	0.310152502553257
0.419	-0.948392439152594	0.311584889347253
0.421	-0.947916671638563	0.313016550782462
0.423	-0.947438755310249	0.31444748371641
0.425	-0.946958691193327	0.315877685007229
0.427	-0.946476480318864	0.317307151513676
0.429	-0.945992123723329	0.318735880095162
0.431	-0.945505622448562	0.320163867611763
0.433	-0.945016977541772	0.321591110924251
0.435	-0.944526190055519	0.323017606894106
0.437	-0.944033261047699	0.324443352383545
0.439	-0.943538191581543	0.325868344255538
0.441	-0.943040982725587	0.327292579373825
0.443	-0.942541635553676	0.328716054602942
0.445	-0.942040151144945	0.330138766808236
0.447	-0.941536530583808	0.331560712855887
0.449	-0.941030774959948	0.332981889612925
0.451	-0.940522885368302	0.33440229394725
0.453	-0.940012862909058	0.33582192272765
0.455	-0.939500708687636	0.337240772823818
0.457	-0.938986423814678	0.338658841106373
0.459	-0.938470009406046	0.340076124446876
0.461	-0.937951466582799	0.341492619717846
0.463	-0.937430796471195	0.342908323792781
0.465	-0.93690800020267	0.344323233546173
0.467	-0.936383078913835	0.345737345853524
0.469	-0.93585603374647	0.347150657591367
0.471	-0.9353268658475	0.348563165637276
0.473	-0.934795576369003	0.34997486686989
0.475	-0.934262166468183	0.351385758168921
0.477	-0.933726637307378	0.35279583641518
0.479	-0.933188990054038	0.354205098490581
0.481	-0.932649225880726	0.355613541278169
0.483	-0.932107345965098	0.357021161662126
0.485	-0.931563351489903	0.358427956527791
0.487	-0.931017243642973	0.359833922761672
0.489	-0.930469023617211	0.361239057251469
0.491	-0.929918692610586	0.362643356886076
0.493	-0.929366251826125	0.364046818555609
0.495	-0.928811702471899	0.365449439151411
0.497	-0.928255045761025	0.36685121556607
0.499	-0.927696282911646	0.368252144693434
0.501	-0.927135415146936	0.369652223428626
0.503	-0.92657244369508	0.371051448668055
0.505	-0.926007369789275	0.372449817309431
0.507	-0.925440194667719	0.37384732625178
0.509	-0.924870919573604	0.375243972395458
0.511	-0.924299545755108	0.376639752642162
0.513	-0.923726074465388	0.378034663894945
0.515	-0.923150506962573	0.379428703058231
0.517	-0.922572844509755	0.380821867037823
0.519	-0.921993088374986	0.382214152740923
0.521	-0.921411239831268	0.383605557076141
0.523	-0.920827300156545	0.384996076953506
0.525	-0.920241270633699	0.386385709284482
0.527	-0.91965315255054	0.387774450981982
0.529	-0.919062947199802	0.389162298960375
0.531	-0.918470655879137	0.390549250135505
0.533	-0.917876279891106	0.391935301424697
0.535	-0.917279820543169	0.393320449746774
0.537	-0.916681279147688	0.394704692022066
0.539	-0.916080657021912	0.396088025172426
0.541	-0.915477955487977	0.397470446121238
0.543	-0.914873175872892	0.398851951793429
0.545	-0.914266319508541	0.400232539115485
0.547	-0.913657387731671	0.401612205015458
0.549	-0.913046381883887	0.402990946422979
0.551	-0.912433303311653	0.404368760269273
0.553	-0.911818153366268	0.405745643487162
0.555	-0.911200933403884	0.407121593011089
0.557	-0.910581644785481	0.408496605777117
0.559	-0.909960288876867	0.409870678722945
0.561	-0.909336867048675	0.411243808787923
0.563	-0.908711380676357	0.412615992913057
0.565	-0.908083831140174	0.413987228041024
0.567	-0.907454219825192	0.415357511116181
0.569	-0.906822548121277	0.416726839084575
0.571	-0.906188817423093	0.418095208893958
0.573	-0.905553029130086	0.419462617493791
0.575	-0.904915184646492	0.420829061835263
0.577	-0.904275285381319	0.422194538871294
0.579	-0.903633332748352	0.423559045556551
0.581	-0.902989328166137	0.424922578847452
0.583	-0.902343273057984	0.426285135702185
0.585	-0.901695168851962	0.427646713080713
0.587	-0.901045016980883	0.429007307944781
0.589	-0.900392818882312	0.430366917257938
0.591	-0.899738575998547	0.431725537985531
0.593	-0.899082289776624	0.433083167094729
0.595	-0.898423961668308	0.434439801554527
0.597	-0.897763593130089	0.435795438335757
0.599	-0.897101185623169	0.437150074411094
0.601	-0.896436740613475	0.438503706755075
0.603	-0.895770259571635	0.4398563323441
0.605	-0.895101743972983	0.441207948156445
0.607	-0.894431195297549	0.442558551172274
0.609	-0.89375861503006	0.443908138373644
0.611	-0.893084004659925	0.445256706744518
0.613	-0.892407365681247	0.446604253270777
0.615	-0.891728699592796	0.447950774940223
0.617	-0.891048007898024	0.44929626874259
0.619	-0.890365292105046	0.450640731669561
0.621	-0.889680553726643	0.451984160714768
0.623	-0.888993794280254	0.453326552873805
0.625	-0.888305015287975	0.454667905144241
0.627	-0.887614218276545	0.456008214525619
0.629	-0.886921404777351	0.457347478019479
0.631	-0.886226576326419	0.458685692629356
0.633	-0.88552973446441	0.460022855360794
0.635	-0.884830880736612	0.461358963221356
0.637	-0.884130016692943	0.46269401322063
0.639	-0.883427143887937	0.464028002370241
0.641	-0.882722263880744	0.465360927683855
0.643	-0.882015378235129	0.466692786177197
0.645	-0.881306488519458	0.46802357486805
0.647	-0.880595596306701	0.46935329077627
0.649	-0.879882703174423	0.470681930923792
0.651	-0.879167810704786	0.472009492334642
0.653	-0.878450920484535	0.473335972034944
0.655	-0.877732034104998	0.474661367052925
0.657	-0.877011153162086	0.475985674418933
0.659	-0.876288279256278	0.477308891165433
0.661	-0.875563413992624	0.478631014327027
0.663	-0.874836558980742	0.479952040940459
0.665	-0.874107715834806	0.48127196804462
0.667	-0.873376886173546	0.48259079268056
0.669	-0.872644071620245	0.483908511891497
0.671	-0.871909273802734	0.485225122722824
0.673	-0.871172494353381	0.486540622222117
0.675	-0.870433734909094	0.487855007439146
0.677	-0.869692997111314	0.489168275425879
0.679	-0.868950282606011	0.490480423236494
0.681	-0.868205593043678	0.491791447927389
0.683	-0.867458930079329	0.493101346557184
0.685	-0.86671029537249	0.494410116186734
0.687	-0.865959690587203	0.495717753879139
0.689	-0.865207117392012	0.497024256699746
0.691	-0.864452577459961	0.49832962171616
0.693	-0.8636960724686	0.499633845998259
0.695	-0.862937604099959	0.500936926618187
0.697	-0.862177174040567	0.50223886065038
0.699	-0.861414783981435	0.503539645171559
0.701	-0.86065043561805	0.504839277260746
0.703	-0.859884130650379	0.506137753999273
0.705	-0.859115870782858	0.507435072470784
0.707	-0.858345657724387	0.508731229761249
0.709	-0.857573493188332	0.510026222958967
0.711	-0.856799378892513	0.511320049154577
0.713	-0.85602331655921	0.512612705441067
0.715	-0.855245307915144	0.513904188913779
0.717	-0.854465354691483	0.515194496670416
0.719	-0.853683458623839	0.516483625811057
0.721	-0.85289962145226	0.517771573438157
0.723	-0.85211384492122	0.519058336656555
0.725	-0.851326130779626	0.520343912573489
0.727	-0.850536480780805	0.521628298298598
0.729	-0.849744896682502	0.522911490943928
0.731	-0.848951380246879	0.524193487623946
0.733	-0.848155933240505	0.525474285455543
0.735	-0.847358557434358	0.526753881558044
0.737	-0.846559254603816	0.528032273053215
0.739	-0.845758026528651	0.529309457065268
0.741	-0.844954874993033	0.530585430720876
0.743	-0.844149801785515	0.53186019114917
0.745	-0.843342808699037	0.533133735481756
0.747	-0.84253389753092	0.534406060852718
0.749	-0.841723070082856	0.535677164398626
0.751	-0.840910328160914	0.536947043258546
0.753	-0.840095673575524	0.538215694574043
0.755	-0.839279108141482	0.539483115489192
0.757	-0.838460633677939	0.540749303150583
0.759	-0.837640252008404	0.542014254707335
0.761	-0.836817964960734	0.543277967311095
0.763	-0.835993774367127	0.544540438116046
0.765	-0.83516768206413	0.545801664278923
0.767	-0.834339689892618	0.547061642959011
0.769	-0.833509799697805	0.548320371318158
0.771	-0.83267801332923	0.54957784652078
0.773	-0.831844332640755	0.550834065733868
0.775	-0.831008759490561	0.552089026126995
0.777	-0.830171295741149	0.553342724872331
0.779	-0.829331943259325	0.554595159144634
0.781	-0.828490703916201	0.555846326121276
0.783	-0.827647579587195	0.557096222982234
0.785	-0.826802572152026	0.558344846910113
0.787	-0.825955683494694	0.559592195090136
0.789	-0.825106915503501	0.560838264710165
0.791	-0.824256270071026	0.562083052960703
0.793	-0.823403749094133	0.563326557034902
0.795	-0.822549354473958	0.564568774128565
0.797	-0.821693088115914	0.565809701440165
0.799	-0.820834951929676	0.56704933617084
0.801	-0.819974947829186	0.568287675524407
0.803	-0.819113077732644	0.569524716707366
0.805	-0.818249343562505	0.570760456928911
0.807	-0.817383747245469	0.571994893400929
0.809	-0.81651629071249	0.573228023338019
0.811	-0.815646975898762	0.57445984395749
0.813	-0.814775804743709	0.575690352479368
0.815	-0.813902779190995	0.57691954612641
0.817	-0.81302790118851	0.578147422124105
0.819	-0.812151172688368	0.57937397770068
0.821	-0.811272595646905	0.580599210087116
0.823	-0.810392172024667	0.58182311651714
0.825	-0.809509903786418	0.583045694227251
0.827	-0.808625792901124	0.584266940456707
0.829	-0.807739841341954	0.585486852447548
0.831	-0.806852051086277	0.586705427444593
0.833	-0.805962424115653	0.587922662695454
0.835	-0.805070962415832	0.589138555450533
0.837	-0.80417766797675	0.590353102963044
0.839	-0.803282542792525	0.591566302489005
0.841	-0.802385588861444	0.592778151287249
0.843	-0.801486808185975	0.593988646619442
0.845	-0.800586202772745	0.59519778575007
0.847	-0.79968377463255	0.596405565946465
0.849	-0.798779525780343	0.597611984478799
0.851	-0.797873458235227	0.598817038620094
0.853	-0.796965574020461	0.600020725646235
0.855	-0.796055875163443	0.601223042835967
0.857	-0.795144363695717	0.602423987470908
0.859	-0.794231041652961	0.603623556835556
0.861	-0.793315911074986	0.604821748217292
0.863	-0.79239897400573	0.60601855890639
0.865	-0.791480232493252	0.607213986196021
0.867	-0.790559688589735	0.608408027382262
0.869	-0.789637344351469	0.609600679764102
0.871	-0.788713201838863	0.610791940643452
0.873	-0.78778726311642	0.611981807325139
0.875	-0.786859530252755	0.613170277116933
0.877	-0.785930005320572	0.614357347329536
0.879	-0.78499869039667	0.615543015276596
0.881	-0.784065587561937	0.616727278274717
0.883	-0.783130698901338	0.617910133643455
0.885	-0.782194026503923	0.619091578705337
0.887	-0.781255572462812	0.620271610785858
0.889	-0.780315338875198	0.621450227213495
0.891	-0.779373327842336	0.622627425319706
0.893	-0.778429541469541	0.623803202438943
0.895	-0.777483981866188	0.624977555908656
0.897	-0.7765366511457	0.626150483069299
0.899	-0.775587551425547	0.627321981264336
0.901	-0.774636684827247	0.628492047840255
0.903	-0.773684053476346	0.629660680146559
0.905	-0.772729659502432	0.630827875535788
0.907	-0.771773505039119	0.631993631363518
0.909	-0.770815592224044	0.633157944988368
0.911	-0.769855923198866	0.634320813772009
0.913	-0.768894500109257	0.635482235079167
0.915	-0.767931325104903	0.636642206277632
0.917	-0.766966400339492	0.637800724738264
0.919	-0.765999727970717	0.638957787834999
0.921	-0.765031310160265	0.640113392944855
0.923	-0.764061149073817	0.641267537447938
0.925	-0.763089246881042	0.642420218727453
0.927	-0.762115605755591	0.643571434169704
0.929	-0.761140227875096	0.644721181164105
