# GHz S RI R 50
0.001	-0.999855897227789	0.00141603506692503
0.003	-0.999743887516045	0.00406623854712552
0.005	-0.999657706384505	0.00668345418184754
0.007	-0.999578299911215	0.00928687709792576
0.009	-0.999500141534864	0.0118820962581418
0.011	-0.999420708163474	0.014471668336035
0.013	-0.99933859783426	0.0170570143548061
0.015	-0.999252936889357	0.0196390184871328
0.017	-0.999163137860273	0.0222182731860295
0.019	-0.999068783629555	0.0247951967351368
0.021	-0.998969565660013	0.027370096074415
0.023	-0.99886524832602	0.0299432031594987
0.025	-0.998755647017598	0.0325146973314471
0.027	-0.998640614029595	0.0350847197649844
0.029	-0.998520029100484	0.0376533831774607
0.031	-0.998393792856199	0.0402207785715913
0.033	-0.998261822138741	0.0427869800504097
0.035	-0.998124046597359	0.0453520483386087
0.037	-0.997980406149106	0.0479160334116231
0.039	-0.99783084905246	0.0504789764943847
0.041	-0.997675330422504	0.0530409116053462
0.043	-0.99751381107006	0.0556018667663018
0.045	-0.997346256582483	0.058161864962478
0.047	-0.997172636587399	0.060720924913229
0.049	-0.996992924156864	0.0632790616971518
0.051	-0.996807095320555	0.0658362872639277
0.053	-0.996615128664614	0.0683926108570514
0.055	-0.996417004998439	0.0709480393657335
0.057	-0.996212707075917	0.0735025776199887
0.059	-0.996002219360579	0.0760562286397514
0.061	-0.995785527826575	0.0786089938464999
0.063	-0.995562619788981	0.081160873244075
0.065	-0.995333483758373	0.0837118655740164
0.067	-0.995098109315524	0.0862619684496818
0.069	-0.994856487002965	0.0888111784725946
0.071	-0.99460860823071	0.0913594913338281
0.073	-0.994354465193952	0.093906901902713
0.075	-0.99409405080093	0.0964534043047648
0.077	-0.993827358609477	0.0989989919903923
0.079	-0.993554382771002	0.10154365779569
0.081	-0.993275117980903	0.104087393996409
0.083	-0.992989559434462	0.106630192356018
0.085	-0.992697702787601	0.109172044168631
0.087	-0.992399544121767	0.111712940297466
0.089	-0.992095079912501	0.114252871209381
0.091	-0.991784307001177	0.116791827005975
0.093	-0.991467222569578	0.11932979745167
0.095	-0.991143824116917	0.121866771999111
0.097	-0.990814109439084	0.124402739812214
0.099	-0.990478076609807	0.126937689787098
0.101	-0.990135723963536	0.129471610571165
0.103	-0.989787050079895	0.1320044905805
0.105	-0.989432053769461	0.134536318015784
0.107	-0.989070734060804	0.137067080876872
0.109	-0.988703090188607	0.139596766976168
0.111	-0.988329121582786	0.142125363950916
0.113	-0.987948827858499	0.144652859274524
0.115	-0.98756220880695	0.147179240267001
0.117	-0.987169264386927	0.149704494104596
0.119	-0.986769994716997	0.152228607828716
0.121	-0.986364400068292	0.154751568354184
0.123	-0.985952480857842	0.157273362476906
0.125	-0.985534237642398	0.159793976880977
0.127	-0.985109671112696	0.16231339814531
0.129	-0.984678782088157	0.164831612749791
0.131	-0.984241571511928	0.167348607081027
0.133	-0.983798040446289	0.169864367437711
0.135	-0.98334819006837	0.172378880035635
0.137	-0.982892021666148	0.174892131012375
0.139	-0.982429536634722	0.177404106431692
0.141	-0.98196073647282	0.17991479228764
0.143	-0.981485622779536	0.182424174508443
0.145	-0.981004197251283	0.184932238960123
0.147	-0.980516461678917	0.187438971449911
0.149	-0.98002241794506	0.189944357729475
0.151	-0.979522068021574	0.192448383497942
0.153	-0.979015413967183	0.194951034404758
0.155	-0.978502457925249	0.197452296052391
0.157	-0.977983202121678	0.19995215399888
0.159	-0.977457648862922	0.202450593760243
0.161	-0.976925800534131	0.204947600812764
0.163	-0.976387659597383	0.207443160595156
0.165	-0.975843228590023	0.209937258510611
0.167	-0.97529251012309	0.212429879928741
0.169	-0.97473550687983	0.214921010187434
0.171	-0.974172221614289	0.217410634594605
0.173	-0.973602657149978	0.219898738429865
0.175	-0.973026816378617	0.222385306946115
0.177	-0.972444702258921	0.224870325371057
0.179	-0.971856317815476	0.227353778908639
0.181	-0.971261666137653	0.229835652740428
0.183	-0.970660750378583	0.23231593202693
0.185	-0.970053573754174	0.23479460190884
0.187	-0.969440139542189	0.237271647508245
0.189	-0.968820451081362	0.239747053929771
0.191	-0.968194511770546	0.242220806261681
0.193	-0.967562325067913	0.244692889576924
0.195	-0.966923894490194	0.24716328893415
0.197	-0.966279223611938	0.249631989378673
0.199	-0.965628316064817	0.252098975943395
0.201	-0.964971175536956	0.254564233649703
0.203	-0.964307805772296	0.257027747508324
0.205	-0.96363821056999	0.259489502520144
0.207	-0.962962393783799	0.261949483677001
0.209	-0.962280359321557	0.264407675962448
0.211	-0.961592111144613	0.266864064352486
0.213	-0.960897653267327	0.269318633816269
0.215	-0.96019698975658	0.271771369316788
0.217	-0.959490124731291	0.274222255811527
0.219	-0.958777062361965	0.276671278253096
0.221	-0.958057806870262	0.279118421589845
0.223	-0.957332362528571	0.281563670766459
0.225	-0.956600733659609	0.284007010724523
0.227	-0.955862924636034	0.286448426403083
0.229	-0.955118939880059	0.288887902739178
0.231	-0.954368783863112	0.291325424668356
0.233	-0.953612461105472	0.293760977125183
0.235	-0.952849976175945	0.296194545043727
0.237	-0.952081333691532	0.298626113358026
0.239	-0.95130653831712	0.301055667002553
0.241	-0.950525594765193	0.303483190912656
0.243	-0.949738507795521	0.305908670024994
0.245	-0.948945282214895	0.308332089277949
0.247	-0.948145922876846	0.310753433612045
0.249	-0.947340434681394	0.313172687970335
0.251	-0.946528822574776	0.315589837298789
0.253	-0.945711091549217	0.318004866546677
0.255	-0.944887246642683	0.320417760666923
0.257	-0.944057292938648	0.322828504616469
0.259	-0.943221235565877	0.325237083356622
0.261	-0.942379079698201	0.32764348185339
0.263	-0.941530830554311	0.330047685077814
0.265	-0.940676493397553	0.332449678006289
0.267	-0.939816073535724	0.334849445620884
0.269	-0.938949576320884	0.337246972909638
0.271	-0.938077007149164	0.339642244866876
0.273	-0.937198371460585	0.342035246493487
0.275	-0.93631367473888	0.344425962797225
0.277	-0.935422922511316	0.346814378792977
0.279	-0.934526120348534	0.34920047950305
0.281	-0.933623273864381	0.351584249957434
0.283	-0.932714388715735	0.353965675194061
0.285	-0.93179947060237	0.356344740259073
0.287	-0.930878525266796	0.358721430207071
0.289	-0.929951558494097	0.361095730101359
0.291	-0.929018576111805	0.363467625014193
0.293	-0.928079583989743	0.365837100027018
0.295	-0.927134588039894	0.368204140230703
0.297	-0.926183594216258	0.370568730725768
0.299	-0.925226608514721	0.372930856622612
0.301	-0.924263636972931	0.375290503041738
0.303	-0.923294685670161	0.377647655113966
0.305	-0.922319760727185	0.380002297980651
0.307	-0.92133886830616	0.382354416793891
0.309	-0.920352014610504	0.384703996716737
0.311	-0.919359205884774	0.387051022923397
0.313	-0.918360448414556	0.389395480599435
0.315	-0.917355748526348	0.39173735494197
0.317	-0.916345112587446	0.394076631159871
0.319	-0.915328547005838	0.396413294473948
0.321	-0.914306058230095	0.398747330117142
0.323	-0.913277652749265	0.40107872333471
0.325	-0.912243337092766	0.40340745938441
0.327	-0.911203117830288	0.405733523536683
0.329	-0.910157001571684	0.408056901074828
0.331	-0.909104994966882	0.410377577295181
0.333	-0.908047104705777	0.412695537507291
0.335	-0.906983337518136	0.415010767034088
0.337	-0.905913700173507	0.417323251212052
0.339	-0.904838199481118	0.419632975391384
0.341	-0.903756842289791	0.421939924936171
0.343	-0.902669635487845	0.424244085224546
0.345	-0.901576586003013	0.426545441648855
0.347	-0.900477700802337	0.428843979615807
0.349	-0.8993729868921	0.431139684546644
0.351	-0.898262451317723	0.43343254187729
0.353	-0.897146101163687	0.435722537058505
0.355	-0.896023943553442	0.438009655556039
0.357	-0.894895985649328	0.440293882850786
0.359	-0.893762234652489	0.442575204438931
0.361	-0.892622697802787	0.444853605832092
0.363	-0.891477382378725	0.447129072557481
0.365	-0.890326295697364	0.449401590158033
0.367	-0.889169445114243	0.451671144192562
0.369	-0.888006838023296	0.453937720235897
0.371	-0.88683848185678	0.456201303879025
0.373	-0.885664384085183	0.458461880729227
0.375	-0.884484552217169	0.460719436410226
0.377	-0.883298993799473	0.46297395656231
0.379	-0.882107716416851	0.465225426842484
0.381	-0.880910727691983	0.467473832924592
0.383	-0.87970803528541	0.469719160499456
0.385	-0.878499646895453	0.471961395275009
0.387	-0.877285570258147	0.474200522976427
0.389	-0.876065813147147	0.476436529346255
0.391	-0.874840383373682	0.478669400144544
0.393	-0.873609288786459	0.480899121148972
0.395	-0.872372537271605	0.483125678154977
0.397	-0.871130136752582	0.48534905697588
0.399	-0.869882095190131	0.487569243443015
0.401	-0.868628420582179	0.489786223405845
0.403	-0.867369120963792	0.491999982732101
0.405	-0.866104204407081	0.494210507307884
0.407	-0.86483367902115	0.49641778303781
0.409	-0.863557552952014	0.498621795845114
0.411	-0.862275834382538	0.50082253167178
0.413	-0.860988531532349	0.503019976478652
0.415	-0.859695652657796	0.505214116245568
0.417	-0.858397206051855	0.507404936971461
0.419	-0.857093200044067	0.509592424674486
0.421	-0.855783643000476	0.511776565392137
0.423	-0.854468543323554	0.513957345181358
0.425	-0.853147909452136	0.516134750118667
0.427	-0.851821749861346	0.518308766300258
0.429	-0.850490073062532	0.520479379842127
0.431	-0.849152887603206	0.522646576880179
0.433	-0.847810202066959	0.524810343570342
0.435	-0.846462025073411	0.52697066608868
0.437	-0.845108365278134	0.529127530631504
0.439	-0.843749231372585	0.531280923415482
0.441	-0.842384632084042	0.533430830677751
0.443	-0.84101457617553	0.535577238676025
0.445	-0.839639072445766	0.537720133688704
0.447	-0.838258129729082	0.539859502014987
0.449	-0.836871756895359	0.541995329974973
0.451	-0.835479962849965	0.544127603909773
0.453	-0.834082756533687	0.546256310181619
0.455	-0.832680146922658	0.548381435173962
0.457	-0.831272143028298	0.550502965291589
0.459	-0.829858753897248	0.552620886960722
0.461	-0.828439988611294	0.55473518662912
0.463	-0.827015856287313	0.556845850766192
0.465	-0.825586366077193	0.558952865863094
0.467	-0.824151527167781	0.561056218432835
0.469	-0.822711348780807	0.563155895010386
0.471	-0.82126584017282	0.565251882152767
0.473	-0.819815010635121	0.567344166439165
0.475	-0.818358869493698	0.569432734471029
0.477	-0.816897426109157	0.571517572872171
0.479	-0.815430689876662	0.573598668288869
0.481	-0.813958670225863	0.575676007389968
0.483	-0.812481376620827	0.577749576866971
0.485	-0.81099881855998	0.579819363434157
0.487	-0.809511005576033	0.58188535382866
0.489	-0.808017947235922	0.583947534810583
0.491	-0.806519653140732	0.586005893163089
0.493	-0.805016132925644	0.5880604156925
0.495	-0.803507396259854	0.590111089228396
0.497	-0.801993452846519	0.592157900623711
0.499	-0.800474312422679	0.594200836754832
0.501	-0.798949984759201	0.596239884521694
0.503	-0.797420479660704	0.598275030847876
0.505	-0.795885806965496	0.600306262680699
0.507	-0.794345976545506	0.602333566991315
0.509	-0.792800998306221	0.604356930774816
0.511	-0.791250882186608	0.606376341050311
0.513	-0.789695638159062	0.608391784861035
0.515	-0.788135276229326	0.610403249274435
0.517	-0.786569806436431	0.612410721382267
0.519	-0.784999238852627	0.61441418830069
0.521	-0.783423583583314	0.616413637170357
0.523	-0.781842850766978	0.618409055156507
0.525	-0.780257050575116	0.620400429449065
0.527	-0.778666193212181	0.622387747262723
0.529	-0.7770702889155	0.624370995837041
0.531	-0.775469347955217	0.626350162436533
0.533	-0.77386338063422	0.628325234350762
0.535	-0.772252397288073	0.630296198894428
0.537	-0.770636408284949	0.632263043407461
0.539	-0.769015424025564	0.634225755255111
0.541	-0.767389454943102	0.636184321828037
0.543	-0.76575851150316	0.638138730542399
0.545	-0.764122604203657	0.640088968839941
0.547	-0.762481743574788	0.642035024188092
0.549	-0.760835940178946	0.643976884080043
0.551	-0.759185204610649	0.645914536034842
0.553	-0.757529547496477	0.647847967597483
0.555	-0.755868979495002	0.649777166338991
0.557	-0.754203511296717	0.651702119856511
0.559	-0.752533153623968	0.653622815773395
0.561	-0.750857917230882	0.65553924173929
0.563	-0.749177812903303	0.657451385430228
0.565	-0.747492851458717	0.659359234548706
0.567	-0.745803043746183	0.661262776823777
0.569	-0.744108400646266	0.663162000011136
0.571	-0.742408933070966	0.665056891893208
0.573	-0.740704651963642	0.666947440279224
0.575	-0.738995568298953	0.668833633005321
0.577	-0.737281693082778	0.670715457934616
0.579	-0.735563037352148	0.672592902957297
0.581	-0.733839612175174	0.6744659559907
0.583	-0.732111428650984	0.676334604979406
0.585	-0.730378497909641	0.678198837895314
0.587	-0.728640831112079	0.680058642737725
0.589	-0.726898439450029	0.681914007533439
0.591	-0.725151334145948	0.683764920336821
0.593	-0.72339952645295	0.685611369229894
0.595	-0.721643027654728	0.687453342322422
0.597	-0.719881849065494	0.68929082775199
0.599	-0.718116002029887	0.691123813684084
0.601	-0.716345497922928	0.692952288312182
0.603	-0.714570348149922	0.694776239857829
0.605	-0.712790564146404	0.696595656570715
0.607	-0.711006157378053	0.698410526728765
0.609	-0.70921713934063	0.700220838638219
0.611	-0.707423521559902	0.702026580633709
0.613	-0.705625315591563	0.703827741078341
0.615	-0.70382253302117	0.705624308363776
0.617	-0.702015185464064	0.707416270910312
0.619	-0.700203284565299	0.709203617166963
0.621	-0.698386841999569	0.710986335611536
0.623	-0.696565869471129	0.712764414750714
0.625	-0.694740378713733	0.714537843120139
0.627	-0.692910381490542	0.716306609284478
0.629	-0.69107588959407	0.718070701837517
0.631	-0.689236914846092	0.719830109402231
0.633	-0.687393469097585	0.721584820630867
0.635	-0.685545564228639	0.723334824205015
0.637	-0.683693212148399	0.725080108835698
0.639	-0.681836424794969	0.726820663263438
0.641	-0.679975214135355	0.728556476258337
0.643	-0.678109592165383	0.730287536620163
0.645	-0.676239570909624	0.732013833178413
0.647	-0.674365162421316	0.733735354792397
0.649	-0.672486378782294	0.735452090351319
0.651	-0.67060323210291	0.737164028774347
0.653	-0.668715734521958	0.73887115901069
0.655	-0.666823898206597	0.740573470039674
0.657	-0.66492773535228	0.742270950870824
0.659	-0.663027258182667	0.743963590543928
0.661	-0.661122478949563	0.745651378129126
0.663	-0.659213409932824	0.747334302726972
0.665	-0.657300063440298	0.749012353468518
0.667	-0.655382451807735	0.750685519515385
0.669	-0.653460587398713	0.752353790059837
0.671	-0.651534482604567	0.754017154324859
0.673	-0.649604149844301	0.755675601564225
0.675	-0.64766960156452	0.757329121062581
0.677	-0.645730850239344	0.758977702135504
0.679	-0.643787908370337	0.760621334129592
0.681	-0.641840788486426	0.762260006422527
0.683	-0.639889503143821	0.763893708423148
0.685	-0.637934064925938	0.765522429571529
0.687	-0.635974486443325	0.767146159339049
0.689	-0.634010780333573	0.768764887228459
0.691	-0.632042959261245	0.770378602773965
0.693	-0.6300710359178	0.771987295541292
0.695	-0.628095023021501	0.773590955127753
0.697	-0.626114933317348	0.775189571162332
0.699	-0.624130779576995	0.776783133305743
0.701	-0.622142574598666	0.778371631250508
0.703	-0.620150331207079	0.779955054721026
0.705	-0.618154062253369	0.781533393473645
0.707	-0.616153780615	0.783106637296726
0.709	-0.61414949919569	0.784674776010724
0.711	-0.612141230925332	0.786237799468247
0.713	-0.61012898875991	0.787795697554132
0.715	-0.608112785681416	0.789348460185516
0.717	-0.606092634697774	0.790896077311897
0.719	-0.604068548842761	0.792438538915214
0.721	-0.602040541175917	0.79397583500991
0.723	-0.60000862478247	0.795507955642991
0.725	-0.597972812773254	0.797034890894119
0.727	-0.595933118284626	0.798556630875658
0.729	-0.593889554478382	0.800073165732746
0.731	-0.59184213454168	0.801584485643374
0.733	-0.589790871686955	0.80309058081844
0.735	-0.587735779151836	0.804591441501826
0.737	-0.585676870199062	0.806087057970459
0.739	-0.583614158116407	0.807577420534382
0.741	-0.581547656216586	0.809062519536816
0.743	-0.579477377837185	0.810542345354232
0.745	-0.577403336340561	0.812016888396414
0.747	-0.575325545113778	0.813486139106527
0.749	-0.573244017568509	0.814950087961178
0.751	-0.571158767140957	0.816408725470487
0.753	-0.569069807291776	0.817862042178153
0.755	-0.566977151505976	0.819310028661511
0.757	-0.564880813292852	0.820752675531609
0.759	-0.562780806185892	0.822189973433265
0.761	-0.560677143742691	0.823621913045127
0.763	-0.558569839544873	0.825048485079751
0.765	-0.556458907198002	0.826469680283655
0.767	-0.554344360331497	0.827885489437379
0.769	-0.552226212598552	0.829295903355567
0.771	-0.550104477676041	0.830700912887007
0.773	-0.547979169264443	0.832100508914713
0.775	-0.545850301087751	0.833494682355976
0.777	-0.543717886893389	0.834883424162435
0.779	-0.541581940452124	0.836266725320132
0.781	-0.539442475557978	0.837644576849583
0.783	-0.53729950602815	0.839016969805831
0.785	-0.535153045702924	0.840383895278516
0.787	-0.53300310844558	0.84174534439193
0.789	-0.530849708142313	0.843101308305085
0.791	-0.528692858702145	0.844451778211766
0.793	-0.526532574056837	0.845796745340603
0.795	-0.524368868160797	0.847136200955118
0.797	-0.522201754991013	0.848470136353803
0.799	-0.520031248546932	0.84979854287016
0.801	-0.517857362850406	0.851121411872782
0.803	-0.515680111945585	0.852438734765396
0.805	-0.513499509898834	0.853750502986931
0.807	-0.511315570798646	0.855056708011577
0.809	-0.509128308755552	0.856357341348842
0.811	-0.50693773790204	0.857652394543616
0.813	-0.504743872392453	0.85894185917622
0.815	-0.502546726402914	0.860225726862476
0.817	-0.500346314131231	0.86150398925376
0.819	-0.498142649796808	0.862776638037055
0.821	-0.495935747640559	0.864043664935021
0.823	-0.493725621924814	0.865305061706041
0.825	-0.491512286933237	0.866560820144288
0.827	-0.489295756970731	0.867810932079775
0.829	-0.487076046363349	0.869055389378414
0.831	-0.484853169458208	0.870294183942077
0.833	-0.482627140623394	0.871527307708647
0.835	-0.480397974247877	0.872754752652075
0.837	-0.478165684741418	0.873976510782442
0.839	-0.475930286534481	0.875192574146012
0.841	-0.473691794078138	0.876402934825277
0.843	-0.471450221843985	0.877607584939033
0.845	-0.469205584324046	0.878806516642418
0.847	-0.466957896030685	0.879999722126977
0.849	-0.464707171496516	0.88118719362071
0.851	-0.462453425274305	0.882368923388129
0.853	-0.46019667193689	0.883544903730316
0.855	-0.457936926077082	0.884715126984975
0.857	-0.455674202307572	0.885879585526479
0.859	-0.453408515260846	0.887038271765937
0.861	-0.451139879589089	0.888191178151237
0.863	-0.448868309964093	0.8893382971671
0.865	-0.446593821077167	0.89047962133514
0.867	-0.444316427639042	0.891615143213908
0.869	-0.442036144379782	0.892744855398952
0.871	-0.439752986048687	0.893868750522864
0.873	-0.437466967414206	0.894986821255332
0.875	-0.435178103263842	0.896099060303199
0.877	-0.432886408404053	0.897205460410506
0.879	-0.43059189766017	0.898306014358548
0.881	-0.428294585876296	0.899400714965923
0.883	-0.425994487915215	0.900489555088583
0.885	-0.4236916186583	0.90157252761989
0.887	-0.421385993005414	0.902649625490656
0.889	-0.419077625874828	0.903720841669204
0.891	-0.416766532203109	0.904786169161411
0.893	-0.414452726945044	0.905845601010762
0.895	-0.412136225073534	0.906899130298393
0.897	-0.409817041579508	0.907946750143149
0.899	-0.407495191471821	0.908988453701624
0.901	-0.405170689777166	0.910024234168226
0.903	-0.402843551539975	0.9110540847752
0.905	-0.400513791822324	0.912077998792698
0.907	-0.398181425703843	0.913095969528819
0.909	-0.395846468281614	0.914107990329657
0.911	-0.393508934670086	0.915114054579351
0.913	-0.391168840000965	0.916114155700126
0.915	-0.388826199423133	0.917108287152348
0.917	-0.386481028102543	0.918096442434571
0.919	-0.38413334122213	0.919078615083571
0.921	-0.381783153981705	0.920054798674413
0.923	-0.379430481597873	0.921024986820476
0.925	-0.377075339303927	0.921989173173515
0.927	-0.374717742349753	0.922947351423702
0.929	-0.372357706001737	0.923899515299665
0.931	-0.369995245542668	0.924845658568541
