# GHz S RI R 50
0.001	0.999999974722707	-0.000224842826455834
0.003	0.999999772503421	-0.000674528434050112
0.005	0.999999368063282	-0.00112421390395312
0.007	0.99999876140127	-0.0015738991430047
0.009	0.999997952516621	-0.00202358405782527
0.011	0.999996941408743	-0.00247326855491046
0.013	0.999995728077175	-0.00292295254067212
0.015	0.999994312521557	-0.00337263592146056
0.017	0.999992694741627	-0.00382231860357844
0.019	0.999990874737204	-0.00427200049329004
0.021	0.999988852508184	-0.00472168149682789
0.023	0.999986628054538	-0.0051713615203976
0.025	0.999984201376303	-0.00562104047018173
0.027	0.999981572473583	-0.00607071825234266
0.029	0.999978741346546	-0.00652039477302503
0.031	0.999975707995422	-0.00697006993835768
0.033	0.999972472420498	-0.00741974365445528
0.035	0.999969034622124	-0.00786941582741967
0.037	0.999965394600706	-0.00831908636334111
0.039	0.999961552356708	-0.00876875516829922
0.041	0.999957507890645	-0.0092184221483639
0.043	0.999953261203095	-0.00966808720959608
0.045	0.999948812294687	-0.0101177502580484
0.047	0.9999441611661	-0.0105674111997659
0.049	0.999939307818073	-0.0110170699407865
0.051	0.999934252251396	-0.0114667263871413
0.053	0.99992899446691	-0.0119163804448555
0.055	0.99992353446551	-0.0123660320199484
0.057	0.999917872248142	-0.0128156810184337
0.059	0.999912007815806	-0.0132653273463203
0.061	0.999905941169552	-0.0137149709096123
0.063	0.999899672310479	-0.0141646116143091
0.065	0.999893201239741	-0.0146142493664061
0.067	0.99988652795854	-0.0150638840718948
0.069	0.99987965246813	-0.0155135156367626
0.071	0.999872574769815	-0.0159631439669939
0.073	0.99986529486495	-0.0164127689685694
0.075	0.999857812754939	-0.0168623905474668
0.077	0.999850128441237	-0.0173120086096608
0.079	0.999842241925345	-0.0177616230611235
0.081	0.999834153208821	-0.0182112338078242
0.083	0.999825862293266	-0.0186608407557299
0.085	0.999817369180336	-0.019110443810805
0.087	0.99980867387173	-0.0195600428790121
0.089	0.999799776369202	-0.0200096378663115
0.091	0.999790676674552	-0.0204592286786617
0.093	0.99978137478963	-0.0209088152220192
0.095	0.999771870716337	-0.021358397402339
0.097	0.999762164456618	-0.0218079751255745
0.099	0.999752256012473	-0.0222575482976776
0.101	0.999742145385946	-0.0227071168245988
0.103	0.999731832579132	-0.0231566806122873
0.105	0.999721317594174	-0.0236062395666912
0.107	0.999710600433264	-0.0240557935937574
0.109	0.999699681098643	-0.0245053425994319
0.111	0.999688559592599	-0.0249548864896599
0.113	0.999677235917472	-0.0254044251703854
0.115	0.999665710075644	-0.0258539585475519
0.117	0.999653982069552	-0.0263034865271023
0.119	0.999642051901677	-0.0267530090149786
0.121	0.999629919574552	-0.0272025259171226
0.123	0.999617585090754	-0.0276520371394756
0.125	0.999605048452911	-0.0281015425879781
0.127	0.9995923096637	-0.0285510421685709
0.129	0.999579368725843	-0.0290005357871941
0.131	0.999566225642112	-0.0294500233497877
0.133	0.999552880415327	-0.0298995047622918
0.135	0.999539333048356	-0.0303489799306462
0.137	0.999525583544114	-0.0307984487607907
0.139	0.999511631905568	-0.0312479111586653
0.141	0.999497478135726	-0.0316973670302101
0.143	0.99948312223765	-0.0321468162813653
0.145	0.999468564214447	-0.0325962588180713
0.147	0.999453804069271	-0.0330456945462688
0.149	0.999438841805328	-0.0334951233718989
0.151	0.999423677425868	-0.0339445452009032
0.153	0.999408310934189	-0.0343939599392235
0.155	0.999392742333638	-0.0348433674928021
0.157	0.999376971627611	-0.0352927677675823
0.159	0.999360998819549	-0.0357421606695073
0.161	0.999344823912942	-0.0361915461045214
0.163	0.999328446911328	-0.0366409239785697
0.165	0.999311867818292	-0.0370902941975976
0.167	0.999295086637466	-0.0375396566675516
0.169	0.999278103372531	-0.0379890112943789
0.171	0.999260918027217	-0.0384383579840277
0.173	0.999243530605297	-0.0388876966424471
0.175	0.999225941110595	-0.0393370271755871
0.177	0.999208149546985	-0.0397863494893988
0.179	0.999190155918381	-0.0402356634898342
0.181	0.99917196022875	-0.0406849690828466
0.183	0.999153562482109	-0.0411342661743904
0.185	0.999134962682515	-0.0415835546704211
0.187	0.999116160834077	-0.0420328344768955
0.189	0.999097156940953	-0.0424821054997717
0.191	0.999077951007344	-0.0429313676450089
0.193	0.999058543037503	-0.043380620818568
0.195	0.999038933035727	-0.043829864926411
0.197	0.999019121006362	-0.0442790998745015
0.199	0.998999106953801	-0.0447283255688044
0.201	0.998978890882484	-0.0451775419152865
0.203	0.998958472796901	-0.0456267488199157
0.205	0.998937852701585	-0.0460759461886616
0.207	0.998917030601119	-0.0465251339274956
0.209	0.998896006500132	-0.0469743119423907
0.211	0.998874780403305	-0.0474234801393215
0.213	0.998853352315358	-0.0478726384242645
0.215	0.998831722241067	-0.0483217867031978
0.217	0.998809890185248	-0.0487709248821015
0.219	0.998787856152769	-0.0492200528669574
0.221	0.998765620148544	-0.0496691705637492
0.223	0.998743182177535	-0.0501182778784628
0.225	0.998720542244749	-0.0505673747170857
0.227	0.998697700355241	-0.0510164609856075
0.229	0.998674656514115	-0.0514655365900199
0.231	0.998651410726521	-0.0519146014363168
0.233	0.998627962997656	-0.0523636554304938
0.235	0.998604313332766	-0.052812698478549
0.237	0.998580461737139	-0.0532617304864826
0.239	0.998556408216119	-0.0537107513602971
0.241	0.998532152775089	-0.0541597610059969
0.243	0.998507695419482	-0.0546087593295888
0.245	0.998483036154782	-0.0550577462370824
0.247	0.998458174986513	-0.055506721634489
0.249	0.998433111920251	-0.0559556854278226
0.251	0.998407846961618	-0.0564046375230994
0.253	0.998382380116284	-0.0568535778263384
0.255	0.998356711389965	-0.0573025062435608
0.257	0.998330840788424	-0.0577514226807904
0.259	0.99830476831747	-0.0582003270440536
0.261	0.998278493982966	-0.0586492192393793
0.263	0.99825201779081	-0.0590980991727989
0.265	0.998225339746959	-0.0595469667503468
0.267	0.998198459857409	-0.0599958218780597
0.269	0.998171378128208	-0.0604446644619773
0.271	0.998144094565449	-0.0608934944081418
0.273	0.99811660917527	-0.0613423116225983
0.275	0.998088921963861	-0.0617911160113948
0.277	0.998061032937455	-0.062239907480582
0.279	0.998032942102334	-0.0626886859362135
0.281	0.998004649464826	-0.063137451284346
0.283	0.997976155031307	-0.0635862034310387
0.285	0.997947458808199	-0.064034942282354
0.287	0.997918560801973	-0.0644836677443576
0.289	0.997889461019143	-0.0649323797231178
0.291	0.997860159466274	-0.0653810781247061
0.293	0.997830656149978	-0.0658297628551972
0.295	0.99780095107691	-0.0662784338206688
0.297	0.997771044253778	-0.0667270909272017
0.299	0.997740935687329	-0.0671757340808801
0.301	0.997710625384367	-0.0676243631877913
0.303	0.997680113351734	-0.0680729781540258
0.305	0.997649399596323	-0.0685215788856775
0.307	0.997618484125073	-0.0689701652888434
0.309	0.997587366944974	-0.0694187372696242
0.311	0.997556048063055	-0.0698672947341235
0.313	0.997524527486399	-0.0703158375884488
0.315	0.997492805222132	-0.0707643657387106
0.317	0.99746088127743	-0.0712128790910233
0.319	0.997428755659514	-0.0716613775515041
0.321	0.99739642837565	-0.0721098610262747
0.323	0.997363899433155	-0.0725583294214594
0.325	0.99733116883939	-0.0730067826431868
0.327	0.997298236601765	-0.0734552205975887
0.329	0.997265102727736	-0.0739036431908006
0.331	0.997231767224804	-0.0743520503289619
0.333	0.997198230100519	-0.0748004419182154
0.335	0.997164491362479	-0.0752488178647078
0.337	0.997130551018328	-0.0756971780745897
0.339	0.997096409075753	-0.0761455224540152
0.341	0.997062065542493	-0.0765938509091424
0.343	0.997027520426333	-0.0770421633461331
0.345	0.996992773735103	-0.0774904596711533
0.347	0.99695782547668	-0.0779387397903726
0.349	0.996922675658989	-0.0783870036099646
0.351	0.996887324290003	-0.078835251036107
0.353	0.996851771377738	-0.0792834819749813
0.355	0.99681601693026	-0.0797316963327733
0.357	0.996780060955682	-0.0801798940156726
0.359	0.996743903462163	-0.0806280749298732
0.361	0.996707544457906	-0.0810762389815726
0.363	0.996670983951165	-0.0815243860769733
0.365	0.996634221950241	-0.0819725161222812
0.367	0.996597258463477	-0.0824206290237069
0.369	0.996560093499268	-0.0828687246874651
0.371	0.996522727066052	-0.0833168030197745
0.373	0.996485159172318	-0.0837648639268586
0.375	0.996447389826597	-0.0842129073149449
0.377	0.996409419037469	-0.0846609330902652
0.379	0.996371246813564	-0.0851089411590558
0.381	0.996332873163551	-0.0855569314275573
0.383	0.996294298096154	-0.086004903802015
0.385	0.996255521620137	-0.0864528581886782
0.387	0.996216543744317	-0.0869007944938013
0.389	0.996177364477554	-0.0873487126236427
0.391	0.996137983828753	-0.0877966124844654
0.393	0.996098401806869	-0.0882444939825373
0.395	0.996058618420906	-0.0886923570241309
0.397	0.996018633679908	-0.0891402015155228
0.399	0.995978447592973	-0.0895880273629948
0.401	0.995938060169237	-0.0900358344728331
0.403	0.995897471417891	-0.0904836227513289
0.405	0.99585668134817	-0.090931392104778
0.407	0.995815689969353	-0.0913791424394807
0.409	0.99577449729077	-0.0918268736617427
0.411	0.995733103321796	-0.092274585677874
0.413	0.995691508071849	-0.0927222783941896
0.415	0.9956497115504	-0.0931699517170097
0.417	0.995607713766963	-0.0936176055526589
0.419	0.995565514731099	-0.0940652398074672
0.421	0.995523114452416	-0.0945128543877694
0.423	0.99548051294057	-0.0949604491999052
0.425	0.995437710205261	-0.0954080241502195
0.427	0.995394706256238	-0.0958555791450622
0.429	0.995351501103295	-0.0963031140907881
0.431	0.995308094756273	-0.0967506288937575
0.433	0.995264487225061	-0.0971981234603356
0.435	0.995220678519593	-0.0976455976968927
0.437	0.995176668649851	-0.0980930515098044
0.439	0.995132457625862	-0.0985404848054518
0.441	0.995088045457703	-0.0989878974902207
0.443	0.995043432155491	-0.0994352894705024
0.445	0.994998617729397	-0.0998826606526939
0.447	0.994953602189635	-0.100330010943197
0.449	0.994908385546465	-0.100777340248419
0.451	0.994862967810196	-0.101224648474773
0.453	0.99481734899118	-0.101671935528677
0.455	0.994771529099821	-0.102119201316554
0.457	0.994725508146564	-0.102566445744835
0.459	0.994679286141904	-0.103013668719952
0.461	0.994632863096381	-0.103460870148348
0.463	0.994586239020582	-0.103908049936466
0.465	0.994539413925142	-0.10435520799076
0.467	0.994492387820741	-0.104802344217684
0.469	0.994445160718104	-0.105249458523703
0.471	0.994397732628006	-0.105696550815284
0.473	0.994350103561269	-0.106143620998902
0.475	0.994302273528756	-0.106590668981035
0.477	0.99425424254138	-0.10703769466817
0.479	0.994206010610103	-0.107484697966797
0.481	0.994157577745931	-0.107931678783414
0.483	0.994108943959915	-0.108378637024523
0.485	0.994060109263154	-0.108825572596633
0.487	0.994011073666797	-0.109272485406259
0.489	0.993961837182031	-0.109719375359921
0.491	0.993912399820099	-0.110166242364145
0.493	0.993862761592285	-0.110613086325465
0.495	0.993812922509919	-0.111059907150418
0.497	0.993762882584383	-0.111506704745549
0.499	0.993712641827098	-0.111953479017409
0.501	0.993662200249536	-0.112400229872554
0.503	0.993611557863217	-0.112846957217546
0.505	0.993560714679701	-0.113293660958955
0.507	0.993509670710602	-0.113740341003356
0.509	0.993458425967577	-0.114186997257329
0.511	0.993406980462327	-0.114633629627462
0.513	0.993355334206605	-0.11508023802035
0.515	0.993303487212204	-0.11552682234259
0.517	0.99325143949097	-0.115973382500791
0.519	0.993199191054791	-0.116419918401565
0.521	0.993146741915602	-0.11686642995153
0.523	0.993094092085386	-0.117312917057311
0.525	0.993041241576171	-0.117759379625541
0.527	0.992988190400034	-0.118205817562857
0.529	0.992934938569093	-0.118652230775905
0.531	0.992881486095518	-0.119098619171334
0.533	0.992827832991525	-0.119544982655804
0.535	0.99277397926937	-0.119991321135977
0.537	0.992719924941364	-0.120437634518525
0.539	0.992665670019858	-0.120883922710125
0.541	0.992611214517252	-0.12133018561746
0.543	0.992556558445993	-0.121776423147222
0.545	0.992501701818575	-0.122222635206108
0.547	0.992446644647534	-0.122668821700821
0.549	0.992391386945455	-0.123114982538072
0.551	0.992335928724973	-0.12356111762458
0.553	0.992280269998764	-0.124007226867067
0.555	0.992224410779551	-0.124453310172265
0.557	0.992168351080107	-0.124899367446912
0.559	0.992112090913246	-0.125345398597753
0.561	0.992055630291835	-0.12579140353154
0.563	0.99199896922878	-0.12623738215503
0.565	0.99194210773704	-0.126683334374989
0.567	0.991885045829616	-0.127129260098191
0.569	0.991827783519554	-0.127575159231413
0.571	0.991770320819955	-0.128021031681444
0.573	0.991712657743954	-0.128466877355076
0.575	0.991654794304742	-0.12891269615911
0.577	0.991596730515552	-0.129358488000355
0.579	0.991538466389662	-0.129804252785623
0.581	0.991480001940402	-0.130249990421739
0.583	0.991421337181141	-0.130695700815531
0.585	0.991362472125301	-0.131141383873835
0.587	0.991303406786344	-0.131587039503496
0.589	0.991244141177783	-0.132032667611363
0.591	0.991184675313176	-0.132478268104296
0.593	0.991125009206125	-0.13292384088916
0.595	0.991065142870284	-0.133369385872828
0.597	0.991005076319345	-0.13381490296218
0.599	0.990944809567052	-0.134260392064104
0.601	0.990884342627194	-0.134705853085495
0.603	0.990823675513607	-0.135151285933256
0.605	0.99076280824017	-0.135596690514297
0.607	0.990701740820813	-0.136042066735535
0.609	0.990640473269507	-0.136487414503895
0.611	0.990579005600273	-0.13693273372631
0.613	0.990517337827176	-0.13737802430972
0.615	0.990455469964331	-0.137823286161074
0.617	0.990393402025893	-0.138268519187326
0.619	0.990331134026069	-0.13871372329544
0.621	0.990268665979107	-0.139158898392387
0.623	0.990205997899306	-0.139604044385144
0.625	0.990143129801009	-0.1400491611807
0.627	0.990080061698604	-0.140494248686047
0.629	0.990016793606528	-0.140939306808188
0.631	0.989953325539261	-0.141384335454132
0.633	0.98988965751133	-0.141829334530898
0.635	0.98982578953731	-0.142274303945509
0.637	0.989761721631821	-0.142719243605
0.639	0.989697453809528	-0.143164153416412
0.641	0.989632986085141	-0.143609033286795
0.643	0.989568318473423	-0.144053883123205
0.645	0.989503450989176	-0.144498702832708
0.647	0.989438383647249	-0.144943492322376
0.649	0.98937311646254	-0.145388251499292
0.651	0.98930764944999	-0.145832980270545
0.653	0.989241982624589	-0.146277678543232
0.655	0.989176116001373	-0.14672234622446
0.657	0.989110049595418	-0.147166983221341
0.659	0.989043783421856	-0.147611589440998
0.661	0.988977317495855	-0.148056164790561
0.663	0.988910651832639	-0.14850070917717
0.665	0.988843786447468	-0.148945222507969
0.667	0.988776721355656	-0.149389704690115
0.669	0.988709456572561	-0.149834155630772
0.671	0.988641992113582	-0.15027857523711
0.673	0.988574327994172	-0.15072296341631
0.675	0.988506464229821	-0.151167320075561
0.677	0.988438400836075	-0.151611645122059
0.679	0.98837013782852	-0.15205593846301
0.681	0.988301675222787	-0.152500200005628
0.683	0.988233013034557	-0.152944429657135
0.685	0.988164151279555	-0.153388627324763
0.687	0.988095089973549	-0.15383279291575
0.689	0.98802582913236	-0.154276926337346
0.691	0.987956368771848	-0.154721027496806
0.693	0.987886708907923	-0.155165096301396
0.695	0.987816849556539	-0.15560913265839
0.697	0.987746790733699	-0.156053136475072
0.699	0.987676532455447	-0.156497107658731
0.701	0.987606074737876	-0.156941046116669
0.703	0.987535417597127	-0.157384951756194
0.705	0.987464561049382	-0.157828824484625
0.707	0.987393505110871	-0.158272664209288
0.709	0.987322249797872	-0.158716470837517
0.711	0.987250795126706	-0.159160244276659
0.713	0.987179141113742	-0.159603984434065
0.715	0.987107287775392	-0.160047691217098
0.717	0.98703523512812	-0.160491364533129
0.719	0.986962983188427	-0.160935004289539
0.721	0.986890531972867	-0.161378610393715
0.723	0.986817881498038	-0.161822182753057
0.725	0.986745031780582	-0.162265721274972
0.727	0.986671982837188	-0.162709225866875
0.729	0.986598734684592	-0.163152696436193
0.731	0.986525287339575	-0.163596132890359
0.733	0.986451640818962	-0.164039535136817
0.735	0.986377795139627	-0.164482903083021
0.737	0.986303750318487	-0.164926236636431
0.739	0.986229506372509	-0.165369535704521
0.741	0.986155063318699	-0.165812800194769
0.743	0.986080421174117	-0.166256030014667
0.745	0.98600557995586	-0.166699225071712
0.747	0.985930539681078	-0.167142385273414
0.749	0.985855300366964	-0.167585510527291
0.751	0.985779862030757	-0.16802860074087
0.753	0.985704224689741	-0.168471655821687
0.755	0.985628388361246	-0.168914675677289
0.757	0.985552353062648	-0.169357660215231
0.759	0.985476118811371	-0.169800609343079
0.761	0.98539968562488	-0.170243522968407
0.763	0.985323053520692	-0.1706864009988
0.765	0.985246222516361	-0.17112924334185
0.767	0.985169192629496	-0.171572049905162
0.769	0.985091963877746	-0.172014820596348
0.771	0.985014536278807	-0.172457555323032
0.773	0.984936909850421	-0.172900253992845
0.775	0.984859084610377	-0.173342916513429
0.777	0.984781060576507	-0.173785542792437
0.779	0.984702837766691	-0.17422813273753
0.781	0.984624416198852	-0.174670686256379
0.783	0.984545795890961	-0.175113203256665
0.785	0.984466976861035	-0.17555568364608
0.787	0.984387959127135	-0.175998127332323
0.789	0.984308742707369	-0.176440534223107
0.791	0.984229327619888	-0.17688290422615
0.793	0.984149713882893	-0.177325237249185
0.795	0.984069901514626	-0.177767533199951
0.797	0.983989890533379	-0.1782097919862
0.799	0.983909680957487	-0.17865201351569
0.801	0.98382927280533	-0.179094197696194
0.803	0.983748666095335	-0.179536344435491
0.805	0.983667860845975	-0.179978453641373
0.807	0.983586857075767	-0.18042052522164
0.809	0.983505654803275	-0.180862559084103
0.811	0.983424254047107	-0.181304555136584
0.813	0.983342654825919	-0.181746513286913
0.815	0.983260857158409	-0.182188433442933
0.817	0.983178861063326	-0.182630315512494
0.819	0.983096666559458	-0.18307215940346
0.821	0.983014273665645	-0.183513965023702
0.823	0.982931682400765	-0.183955732281103
0.825	0.982848892783749	-0.184397461083557
0.827	0.982765904833569	-0.184839151338966
0.829	0.982682718569245	-0.185280802955245
0.831	0.98259933400984	-0.185722415840317
0.833	0.982515751174465	-0.186163989902118
0.835	0.982431970082275	-0.186605525048592
0.837	0.982347990752471	-0.187047021187696
0.839	0.982263813204297	-0.187488478227395
0.841	0.982179437457047	-0.187929896075666
0.843	0.982094863530059	-0.188371274640496
0.845	0.982010091442714	-0.188812613829884
0.847	0.98192512121444	-0.189253913551837
0.849	0.981839952864711	-0.189695173714376
0.851	0.981754586413046	-0.19013639422553
0.853	0.981669021879009	-0.19057757499334
0.855	0.981583259282211	-0.191018715925856
0.857	0.981497298642306	-0.191459816931142
0.859	0.981411139978996	-0.191900877917269
0.861	0.981324783312025	-0.192341898792322
0.863	0.981238228661186	-0.192782879464395
0.865	0.981151476046313	-0.193223819841594
0.867	0.981064525487293	-0.193664719832034
0.869	0.980977377004048	-0.194105579343843
0.871	0.980890030616555	-0.194546398285159
0.873	0.980802486344831	-0.19498717656413
0.875	0.98071474420894	-0.195427914088918
0.877	0.980626804228989	-0.195868610767693
0.879	0.980538666425134	-0.196309266508637
0.881	0.980450330817573	-0.196749881219943
0.883	0.980361797426552	-0.197190454809815
0.885	0.980273066272363	-0.19763098718647
0.887	0.980184137375338	-0.198071478258132
0.889	0.980095010755859	-0.198511927933041
0.891	0.980005686434352	-0.198952336119444
0.893	0.979916164431289	-0.199392702725602
0.895	0.979826444767185	-0.199833027659786
0.897	0.979736527462604	-0.200273310830279
0.899	0.979646412538151	-0.200713552145374
0.901	0.979556100014479	-0.201153751513377
0.903	0.979465589912287	-0.201593908842604
0.905	0.979374882252315	-0.202034024041382
0.907	0.979283977055354	-0.202474097018052
0.909	0.979192874342234	-0.202914127680964
0.911	0.979101574133837	-0.20335411593848
0.913	0.979010076451084	-0.203794061698973
0.915	0.978918381314944	-0.204233964870829
0.917	0.978826488746431	-0.204673825362444
0.919	0.978734398766607	-0.205113643082226
0.921	0.978642111396571	-0.205553417938595
