# GHz S RI R 50
0.001	0.999999974885127	-0.000224119506153596
0.003	0.999999773965515	-0.000672358472988217
0.005	0.999999372125262	-0.00112059730224416
0.007	0.999998769363713	-0.00156883590129049
0.009	0.999997965680406	-0.00201707417734978
0.011	0.999996961075006	-0.00246531203756138
0.013	0.999995755547278	-0.00291354938900873
0.015	0.999994349097075	-0.00336178613873422
0.017	0.999992741724324	-0.00381002219374852
0.019	0.999990933429027	-0.00425825746103674
0.021	0.999988924211249	-0.00470649184756283
0.023	0.999986714071118	-0.0051547252602729
0.025	0.999984303008827	-0.00560295760609773
0.027	0.999981691024625	-0.00605118879195476
0.029	0.999978878118817	-0.00649941872474964
0.031	0.999975864291769	-0.00694764731137765
0.033	0.999972649543897	-0.00739587445872467
0.035	0.999969233875675	-0.00784410007366821
0.037	0.999965617287628	-0.00829232406307813
0.039	0.999961799780337	-0.00874054633381738
0.041	0.999957781354432	-0.00918876679274255
0.043	0.999953562010596	-0.00963698534670441
0.045	0.999949141749565	-0.0100852019025484
0.047	0.999944520572124	-0.010533416367115
0.049	0.999939698479111	-0.0109816286472402
0.051	0.999934675471412	-0.0114298386497556
0.053	0.999929451549965	-0.0118780462814891
0.055	0.999924026715756	-0.0123262514492646
0.057	0.999918400969825	-0.0127744540599031
0.059	0.999912574313255	-0.0132226540202221
0.061	0.999906546747185	-0.0136708512370362
0.063	0.9999003182728	-0.0141190456171574
0.065	0.999893888891334	-0.0145672370673949
0.067	0.999887258604068	-0.0150154254945557
0.069	0.999880427412337	-0.0154636108054446
0.071	0.999873395317519	-0.0159117929068643
0.073	0.999866162321046	-0.0163599717056155
0.075	0.999858728424393	-0.0168081471084973
0.077	0.999851093629089	-0.0172563190223068
0.079	0.999843257936706	-0.0177044873538399
0.081	0.999835221348868	-0.018152652009891
0.083	0.999826983867245	-0.0186008128972531
0.085	0.999818545493555	-0.019048969922718
0.087	0.999809906229566	-0.0194971229930764
0.089	0.999801066077091	-0.0199452720151182
0.091	0.999792025037994	-0.0203934168956319
0.093	0.999782783114184	-0.0208415575414058
0.095	0.999773340307621	-0.0212896938592268
0.097	0.999763696620308	-0.0217378257558816
0.099	0.9997538520543	-0.0221859531381562
0.101	0.999743806611697	-0.022634075912836
0.103	0.999733560294647	-0.023082193986706
0.105	0.999723113105348	-0.0235303072665508
0.107	0.999712465046041	-0.0239784156591549
0.109	0.999701616119018	-0.0244265190713023
0.111	0.999690566326616	-0.0248746174097769
0.113	0.999679315671223	-0.0253227105813627
0.115	0.999667864155269	-0.0257707984928435
0.117	0.999656211781237	-0.026218881051003
0.119	0.999644358551652	-0.0266669581626253
0.121	0.999632304469089	-0.0271150297344942
0.123	0.999620049536171	-0.0275630956733942
0.125	0.999607593755566	-0.0280111558861097
0.127	0.999594937129991	-0.0284592102794255
0.129	0.999582079662209	-0.0289072587601267
0.131	0.999569021355031	-0.0293553012349989
0.133	0.999555762211313	-0.0298033376108281
0.135	0.99954230223396	-0.0302513677944008
0.137	0.999528641425925	-0.0306993916925041
0.139	0.999514779790205	-0.0311474092119257
0.141	0.999500717329847	-0.0315954202594539
0.143	0.999486454047941	-0.0320434247418778
0.145	0.999471989947631	-0.032491422565987
0.147	0.999457325032099	-0.0329394136385722
0.149	0.99944245930458	-0.0333873978664247
0.151	0.999427392768356	-0.0338353751563369
0.153	0.999412125426753	-0.0342833454151019
0.155	0.999396657283144	-0.0347313085495137
0.157	0.999380988340952	-0.0351792644663678
0.159	0.999365118603642	-0.03562721307246
0.161	0.999349048074731	-0.0360751542745878
0.163	0.999332776757782	-0.0365230879795497
0.165	0.9993163046564	-0.036971014094145
0.167	0.999299631774241	-0.0374189325251748
0.169	0.999282758115007	-0.0378668431794408
0.171	0.999265683682448	-0.0383147459637466
0.173	0.999248408480357	-0.0387626407848968
0.175	0.999230932512578	-0.0392105275496972
0.177	0.999213255782998	-0.0396584061649554
0.179	0.999195378295556	-0.0401062765374803
0.181	0.999177300054231	-0.040554138574082
0.183	0.999159021063053	-0.0410019921815724
0.185	0.999140541326098	-0.041449837266765
0.187	0.999121860847488	-0.0418976737364747
0.189	0.999102979631393	-0.042345501497518
0.191	0.999083897682027	-0.0427933204567133
0.193	0.999064615003654	-0.0432411305208804
0.195	0.999045131600583	-0.043688931596841
0.197	0.999025447477169	-0.0441367235914186
0.199	0.999005562637813	-0.0445845064114383
0.201	0.998985477086967	-0.0450322799637273
0.203	0.998965190829123	-0.0454800441551143
0.205	0.998944703868826	-0.0459277988924304
0.207	0.998924016210663	-0.0463755440825082
0.209	0.99890312785927	-0.0468232796321824
0.211	0.998882038819329	-0.0472710054482898
0.213	0.998860749095567	-0.0477187214376692
0.215	0.99883925869276	-0.0481664275071613
0.217	0.998817567615731	-0.0486141235636091
0.219	0.998795675869345	-0.0490618095138577
0.221	0.998773583458518	-0.0495094852647543
0.223	0.998751290388213	-0.0499571507231484
0.225	0.998728796663434	-0.0504048057958915
0.227	0.99870610228924	-0.0508524503898378
0.229	0.998683207270726	-0.0513000844118433
0.231	0.998660111613043	-0.0517477077687666
0.233	0.998636815321383	-0.0521953203674686
0.235	0.99861331840099	-0.0526429221148128
0.237	0.998589620857144	-0.0530905129176647
0.239	0.998565722695183	-0.0535380926828926
0.241	0.998541623920486	-0.0539856613173672
0.243	0.998517324538477	-0.0544332187279617
0.245	0.998492824554632	-0.0548807648215517
0.247	0.998468123974466	-0.0553282995050157
0.249	0.998443222803547	-0.0557758226852345
0.251	0.998418121047486	-0.0562233342690917
0.253	0.998392818711942	-0.0566708341634737
0.255	0.998367315802619	-0.0571183222752693
0.257	0.998341612325269	-0.0575657985113702
0.259	0.998315708285688	-0.0580132627786709
0.261	0.99828960368972	-0.0584607149840686
0.263	0.998263298543258	-0.0589081550344634
0.265	0.998236792852237	-0.0593555828367583
0.267	0.99821008662264	-0.059802998297859
0.269	0.998183179860498	-0.0602504013246743
0.271	0.998156072571884	-0.0606977918241158
0.273	0.998128764762923	-0.0611451697030982
0.275	0.998101256439784	-0.0615925348685391
0.277	0.998073547608679	-0.0620398872273593
0.279	0.998045638275873	-0.0624872266864825
0.281	0.998017528447671	-0.0629345531528354
0.283	0.997989218130429	-0.0633818665333482
0.285	0.997960707330548	-0.063829166734954
0.287	0.997931996054473	-0.064276453664589
0.289	0.997903084308698	-0.0647237272291926
0.291	0.997873972099763	-0.0651709873357079
0.293	0.997844659434251	-0.0656182338910805
0.295	0.997815146318798	-0.0660654668022601
0.297	0.997785432760083	-0.0665126859761993
0.299	0.997755518764827	-0.0669598913198539
0.301	0.997725404339803	-0.0674070827401834
0.303	0.997695089491828	-0.0678542601441507
0.305	0.997664574227768	-0.0683014234387221
0.307	0.997633858554529	-0.0687485725308671
0.309	0.99760294247907	-0.0691957073275592
0.311	0.997571826008394	-0.069642827735775
0.313	0.997540509149548	-0.0700899336624948
0.315	0.997508991909629	-0.0705370250147027
0.317	0.997477274295778	-0.070984101699386
0.319	0.997445356315181	-0.071431163623536
0.321	0.997413237975073	-0.0718782106941475
0.323	0.997380919282735	-0.072325242818219
0.325	0.997348400245492	-0.0727722599027529
0.327	0.997315680870719	-0.0732192618547553
0.329	0.997282761165833	-0.0736662485812357
0.331	0.997249641138299	-0.0741132199892081
0.333	0.99721632079563	-0.0745601759856897
0.335	0.997182800145383	-0.0750071164777021
0.337	0.997149079195161	-0.0754540413722704
0.339	0.997115157952615	-0.0759009505764238
0.341	0.997081036425441	-0.0763478439971954
0.343	0.997046714621382	-0.0767947215416224
0.345	0.997012192548228	-0.077241583116746
0.347	0.996977470213811	-0.0776884286296113
0.349	0.996942547626013	-0.0781352579872674
0.351	0.996907424792763	-0.0785820710967678
0.353	0.996872101722034	-0.0790288678651699
0.355	0.996836578421845	-0.0794756481995354
0.357	0.996800854900261	-0.0799224120069299
0.359	0.996764931165396	-0.0803691591944236
0.361	0.996728807225408	-0.0808158896690907
0.363	0.9966924830885	-0.0812626033380096
0.365	0.996655958762923	-0.081709300108263
0.367	0.996619234256976	-0.0821559798869384
0.369	0.996582309579	-0.0826026425811269
0.371	0.996545184737384	-0.0830492880979243
0.373	0.996507859740564	-0.0834959163444312
0.375	0.996470334597021	-0.0839425272277518
0.377	0.996432609315282	-0.0843891206549954
0.379	0.996394683903921	-0.0848356965332757
0.381	0.996356558371558	-0.0852822547697107
0.383	0.996318232726858	-0.0857287952714229
0.385	0.996279706978536	-0.0861753179455398
0.387	0.996240981135346	-0.086621822699193
0.389	0.996202055206095	-0.087068309439519
0.391	0.996162929199632	-0.0875147780736589
0.393	0.996123603124853	-0.0879612285087582
0.395	0.996084076990704	-0.0884076606519678
0.397	0.996044350806169	-0.0888540744104424
0.399	0.996004424580285	-0.0893004696913423
0.401	0.995964298322134	-0.089746846401832
0.403	0.995923972040841	-0.090193204449081
0.405	0.99588344574558	-0.0906395437402639
0.407	0.995842719445569	-0.0910858641825597
0.409	0.995801793150074	-0.0915321656831528
0.411	0.995760666868406	-0.0919784481492319
0.413	0.995719340609923	-0.0924247114879913
0.415	0.995677814384027	-0.0928709556066298
0.417	0.995636088200169	-0.0933171804123514
0.419	0.995594162067843	-0.0937633858123652
0.421	0.99555203599659	-0.094209571713885
0.423	0.995509709995999	-0.0946557380241303
0.425	0.995467184075704	-0.0951018846503251
0.427	0.995424458245381	-0.0955480114996987
0.429	0.99538153251476	-0.095994118479486
0.431	0.995338406893611	-0.0964402054969264
0.433	0.99529508139175	-0.0968862724592651
0.435	0.995251556019042	-0.0973323192737521
0.437	0.995207830785397	-0.0977783458476429
0.439	0.995163905700771	-0.0982243520881985
0.441	0.995119780775165	-0.0986703379026847
0.443	0.995075456018626	-0.0991163031983732
0.445	0.995030931441249	-0.0995622478825406
0.447	0.994986207053171	-0.100008171862469
0.449	0.994941282864582	-0.100454075045447
0.451	0.994896158885709	-0.100899957338766
0.453	0.994850835126832	-0.101345818649726
0.455	0.994805311598274	-0.101791658885631
0.457	0.994759588310405	-0.102237477953791
0.459	0.994713665273641	-0.10268327576152
0.461	0.994667542498441	-0.103129052216139
0.463	0.994621219995316	-0.103574807224975
0.465	0.994574697774815	-0.104020540695361
0.467	0.994527975847541	-0.104466252534633
0.469	0.994481054224136	-0.104911942650135
0.471	0.994433932915293	-0.105357610949216
0.473	0.994386611931749	-0.105803257339232
0.475	0.994339091284287	-0.106248881727543
0.477	0.994291370983737	-0.106694484021515
0.479	0.994243451040968	-0.107140064128521
0.481	0.994195331466909	-0.107585621955939
0.483	0.994147012272522	-0.108031157411154
0.485	0.994098493468819	-0.108476670401554
0.487	0.99404977506686	-0.108922160834537
0.489	0.994000857077749	-0.109367628617504
0.491	0.993951739512636	-0.109813073657863
0.493	0.993902422382717	-0.110258495863027
0.495	0.993852905699234	-0.110703895140418
0.497	0.993803189473476	-0.11114927139746
0.499	0.993753273716775	-0.111594624541586
0.501	0.99370315844051	-0.112039954480235
0.503	0.993652843656109	-0.11248526112085
0.505	0.993602329375041	-0.112930544370882
0.507	0.993551615608823	-0.113375804137788
0.509	0.99350070236902	-0.113821040329032
0.511	0.993449589667239	-0.114266252852082
0.513	0.993398277515136	-0.114711441614413
0.515	0.993346765924411	-0.115156606523508
0.517	0.993295054906808	-0.115601747486855
0.519	0.993243144474122	-0.116046864411949
0.521	0.99319103463819	-0.11649195720629
0.523	0.993138725410896	-0.116937025777386
0.525	0.99308621680417	-0.11738207003275
0.527	0.993033508829984	-0.117827089879903
0.529	0.992980601500362	-0.118272085226372
0.531	0.992927494827373	-0.118717055979689
0.533	0.992874188823126	-0.119162002047395
0.535	0.99282068349978	-0.119606923337037
0.537	0.992766978869541	-0.120051819756166
0.539	0.992713074944658	-0.120496691212343
0.541	0.992658971737426	-0.120941537613133
0.543	0.992604669260188	-0.121386358866111
0.545	0.99255016752533	-0.121831154878855
0.547	0.992495466545287	-0.122275925558952
0.549	0.992440566332536	-0.122720670813995
0.551	0.992385466899603	-0.123165390551584
0.553	0.992330168259056	-0.123610084679325
0.555	0.992274670423513	-0.124054753104832
0.557	0.992218973405636	-0.124499395735726
0.559	0.992163077218132	-0.124944012479634
0.561	0.992106981873754	-0.125388603244189
0.563	0.992050687385299	-0.125833167937034
0.565	0.991994193765614	-0.126277706465816
0.567	0.991937501027591	-0.12672221873819
0.569	0.991880609184161	-0.127166704661819
0.571	0.991823518248311	-0.127611164144371
0.573	0.991766228233065	-0.128055597093523
0.575	0.991708739151497	-0.128500003416958
0.577	0.991651051016726	-0.128944383022366
0.579	0.991593163841915	-0.129388735817446
0.581	0.991535077640276	-0.129833061709901
0.583	0.991476792425063	-0.130277360607444
0.585	0.99141830820958	-0.130721632417794
0.587	0.991359625007173	-0.131165877048677
0.589	0.991300742831233	-0.131610094407827
0.591	0.9912416616952	-0.132054284402985
0.593	0.991182381612556	-0.132498446941899
0.595	0.991122902596834	-0.132942581932326
0.597	0.991063224661607	-0.133386689282027
0.599	0.991003347820497	-0.133830768898774
0.601	0.990943272087168	-0.134274820690344
0.603	0.990882997475335	-0.134718844564523
0.605	0.990822523998754	-0.135162840429103
0.607	0.990761851671229	-0.135606808191885
0.609	0.990700980506608	-0.136050747760677
0.611	0.990639910518786	-0.136494659043294
0.613	0.990578641721705	-0.13693854194756
0.615	0.990517174129346	-0.137382396381303
0.617	0.990455507755745	-0.137826222252365
0.619	0.990393642614976	-0.138270019468588
0.621	0.990331578721161	-0.138713787937829
0.623	0.99026931608847	-0.139157527567948
0.625	0.990206854731115	-0.139601238266813
0.627	0.990144194663354	-0.140044919942302
0.629	0.990081335899495	-0.1404885725023
0.631	0.990018278453885	-0.140932195854699
0.633	0.98995502234092	-0.141375789907399
0.635	0.989891567575041	-0.141819354568309
0.637	0.989827914170735	-0.142262889745344
0.639	0.989764062142534	-0.142706395346428
0.641	0.989700011505017	-0.143149871279494
0.643	0.989635762272805	-0.143593317452481
0.645	0.989571314460567	-0.144036733773338
0.647	0.989506668083018	-0.14448012015002
0.649	0.989441823154918	-0.14492347649049
0.651	0.98937677969107	-0.145366802702723
0.653	0.989311537706326	-0.145810098694696
0.655	0.989246097215582	-0.146253364374399
0.657	0.989180458233779	-0.146696599649828
0.659	0.989114620775904	-0.147139804428989
0.661	0.98904858485699	-0.147582978619892
0.663	0.988982350492113	-0.14802612213056
0.665	0.988915917696398	-0.148469234869023
0.667	0.988849286485014	-0.148912316743316
0.669	0.988782456873173	-0.149355367661488
0.671	0.988715428876137	-0.14979838753159
0.673	0.988648202509209	-0.150241376261688
0.675	0.98858077778774	-0.15068433375985
0.677	0.988513154727126	-0.151127259934157
0.679	0.988445333342808	-0.151570154692697
0.681	0.988377313650271	-0.152013017943565
0.683	0.98830909566505	-0.152455849594867
0.685	0.98824067940272	-0.152898649554716
0.687	0.988172064878905	-0.153341417731234
0.689	0.988103252109271	-0.15378415403255
0.691	0.988034241109535	-0.154226858366805
0.693	0.987965031895452	-0.154669530642145
0.695	0.987895624482828	-0.155112170766727
0.697	0.987826018887511	-0.155554778648715
0.699	0.987756215125398	-0.155997354196284
0.701	0.987686213212428	-0.156439897317616
0.703	0.987616013164585	-0.156882407920901
0.705	0.987545614997902	-0.15732488591434
0.707	0.987475018728456	-0.15776733120614
0.709	0.987404224372364	-0.158209743704521
0.711	0.987333231945796	-0.158652123317707
0.713	0.987262041464964	-0.159094469953934
0.715	0.987190652946125	-0.159536783521445
0.717	0.98711906640558	-0.159979063928495
0.719	0.987047281859678	-0.160421311083345
0.721	0.986975299324812	-0.160863524894265
0.723	0.98690311881742	-0.161305705269535
0.725	0.986830740353987	-0.161747852117445
0.727	0.98675816395104	-0.162189965346293
0.729	0.986685389625154	-0.162632044864385
0.731	0.986612417392949	-0.163074090580037
0.733	0.986539247271089	-0.163516102401575
0.735	0.986465879276283	-0.163958080237332
0.737	0.986392313425286	-0.164400023995654
0.739	0.986318549734902	-0.164841933584892
0.741	0.986244588221971	-0.165283808913408
0.743	0.986170428903387	-0.165725649889573
0.745	0.986096071796085	-0.166167456421769
0.747	0.986021516917047	-0.166609228418385
0.749	0.985946764283297	-0.167050965787819
0.751	0.985871813911909	-0.167492668438482
0.753	0.985796665819996	-0.167934336278789
0.755	0.985721320024724	-0.168375969217169
0.757	0.985645776543296	-0.168817567162058
0.759	0.985570035392969	-0.169259130021903
0.761	0.985494096591037	-0.169700657705159
0.763	0.98541796015484	-0.170142150120291
0.765	0.98534162610177	-0.170583607175774
0.767	0.985265094449257	-0.171025028780092
0.769	0.985188365214781	-0.171466414841739
0.771	0.98511143841586	-0.171907765269218
0.773	0.985034314070067	-0.172349079971042
0.775	0.984956992195013	-0.172790358855734
0.777	0.984879472808357	-0.173231601831827
0.779	0.984801755927801	-0.173672808807862
0.781	0.984723841571093	-0.174113979692391
0.783	0.984645729756026	-0.174555114393976
0.785	0.984567420500443	-0.174996212821188
0.787	0.984488913822221	-0.175437274882608
0.789	0.984410209739295	-0.175878300486827
0.791	0.984331308269632	-0.176319289542447
0.793	0.984252209431255	-0.176760241958076
0.795	0.984172913242226	-0.177201157642338
0.797	0.984093419720655	-0.177642036503861
0.799	0.984013728884694	-0.178082878451287
0.801	0.983933840752543	-0.178523683393265
0.803	0.983853755342446	-0.178964451238457
0.805	0.98377347267269	-0.179405181895533
0.807	0.983692992761611	-0.179845875273173
0.809	0.983612315627584	-0.180286531280069
0.811	0.983531441289037	-0.180727149824921
0.813	0.983450369764437	-0.181167730816439
0.815	0.983369101072297	-0.181608274163346
0.817	0.983287635231177	-0.182048779774371
0.819	0.983205972259677	-0.182489247558258
0.821	0.98312411217645	-0.182929677423757
0.823	0.983042055000186	-0.18337006927963
0.825	0.982959800749626	-0.18381042303465
0.827	0.98287734944355	-0.184250738597599
0.829	0.982794701100791	-0.18469101587727
0.831	0.982711855740217	-0.185131254782466
0.833	0.982628813380749	-0.185571455222002
0.835	0.982545574041349	-0.1860116171047
0.837	0.982462137741025	-0.186451740339396
0.839	0.982378504498829	-0.186891824834935
0.841	0.98229467433386	-0.187331870500171
0.843	0.982210647265258	-0.187771877243971
0.845	0.982126423312213	-0.188211844975211
0.847	0.982042002493955	-0.188651773602778
0.849	0.981957384829762	-0.189091663035571
0.851	0.981872570338957	-0.189531513182496
0.853	0.981787559040904	-0.189971323952474
0.855	0.981702350955015	-0.190411095254433
0.857	0.981616946100748	-0.190850826997314
0.859	0.981531344497602	-0.191290519090067
0.861	0.981445546165124	-0.191730171441654
0.863	0.981359551122906	-0.192169783961048
0.865	0.98127335939058	-0.192609356557232
0.867	0.98118697098783	-0.193048889139199
0.869	0.981100385934378	-0.193488381615956
0.871	0.981013604249996	-0.193927833896516
0.873	0.980926625954498	-0.194367245889908
0.875	0.980839451067742	-0.194806617505168
0.877	0.980752079609633	-0.195245948651344
0.879	0.980664511600119	-0.195685239237497
0.881	0.980576747059195	-0.196124489172696
0.883	0.980488786006899	-0.196563698366023
0.885	0.980400628463314	-0.197002866726571
0.887	0.980312274448566	-0.197441994163441
0.889	0.980223723982827	-0.197881080585751
0.891	0.980134977086318	-0.198320125902624
0.893	0.980046033779297	-0.198759130023198
0.895	0.979956894082072	-0.19919809285662
0.897	0.979867558014995	-0.19963701431205
0.899	0.979778025598458	-0.200075894298658
0.901	0.979688296852905	-0.200514732725626
0.903	0.979598371798821	-0.200953529502146
0.905	0.979508250456733	-0.201392284537423
0.907	0.979417932847218	-0.201830997740671
0.909	0.979327418990893	-0.202269669021118
0.911	0.979236708908423	-0.202708298288002
0.913	0.979145802620515	-0.203146885450572
0.915	0.979054700147923	-0.203585430418089
0.917	0.978963401511444	-0.204023933099825
0.919	0.978871906731919	-0.204462393405064
0.921	0.978780215830237	-0.204900811243102
